#-----------------------------------------------------------
# xsim v2025.2 (64-bit)
# SW Build 6299465 on Fri Nov 14 12:34:56 MST 2025
# IP Build 6300035 on Fri Nov 14 10:48:45 MST 2025
# SharedData Build 6298862 on Thu Nov 13 04:50:51 MST 2025
# Start of session at: Tue Sep  8 15:48:43 2026
# Process ID         : 3947388
# Current directory  : /home/nashita/Desktop/practice/axi_xbar/sim
# Command line       : xsim -log regress_results/BT_run55.log -mode tcl -source {xsim.dir/tb_top_snap/xsim_script.tcl}
# Log file           : /home/nashita/Desktop/practice/axi_xbar/sim/regress_results/BT_run55.log
# Journal file       : /home/nashita/Desktop/practice/axi_xbar/sim/xsim.jou
# Running On         : vlsi-vivado
# Platform           : Ubuntu
# Operating System   : Ubuntu 24.04.4 LTS
# Processor Detail   : Intel(R) Core(TM) i5-10400 CPU @ 2.90GHz
# CPU Frequency      : 4000.022 MHz
# CPU Physical cores : 6
# CPU Logical cores  : 12
# Host memory        : 41875 MB
# Swap memory        : 27648 MB
# Total Virtual      : 69524 MB
# Available Virtual  : 60467 MB
#-----------------------------------------------------------
source xsim.dir/tb_top_snap/xsim_script.tcl
# xsim {tb_top_snap} -testplusarg BT -autoloadwcfg -runall -sv_seed 56
Time resolution is 1 ps
run -all
[0] RUNNING BASE TEST
[0] INSIDE THE BASE TEST CONSTRUCTOR
[0] ENV: before agent
[0] SLAVE CONSTRUCTED
[0] MASTER MONITOR CONSTRUCTED
[0] MASTER MONITOR CONSTRUCTED
[0] SLAVE MONITOR CONSTRUCTED
[0] SLAVE MONITOR CONSTRUCTED
[0] ARB MONITOR CONSTRUCTED
GENERATOR CONSTRUCTED
[0] ENV: after agent
[0] ENV: before scoreboard
[0] ENV: after scoreboard
[15000] [SEQUENCER] mst_id=1 s_id=0 awaddr=2f14438 awid=1010 awlen=1 awsize=3 awburst=1 wdata=[] wstrb=[] bresp=0 bid=0
[15000] [SEQUENCER] mst_id=1 s_id=0 awaddr=10218bd0 awid=110 awlen=1 awsize=3 awburst=1 wdata=[] wstrb=[] bresp=0 bid=0
[15000] [SEQUENCER] mst_id=0 s_id=0 awaddr=745ba40 awid=111 awlen=1 awsize=3 awburst=1 wdata=[] wstrb=[] bresp=0 bid=0
[15000] [SEQUENCER] READ mst_id=1 s_id=0 araddr=97edea8 arid=2 arlen=1 arsize=3 arburst=1 rid=[] rresp=[] rdata=[]
[15000] [SEQUENCER] READ mst_id=0 s_id=0 araddr=1dc56350 arid=1 arlen=1 arsize=3 arburst=1 rid=[] rresp=[] rdata=[]
[15000] [SEQUENCER] mst_id=1 s_id=0 awaddr=c94fa88 awid=101 awlen=1 awsize=3 awburst=1 wdata=[] wstrb=[] bresp=0 bid=0
[15000] [SEQUENCER] mst_id=0 s_id=0 awaddr=14e40fb0 awid=1101 awlen=1 awsize=3 awburst=1 wdata=[] wstrb=[] bresp=0 bid=0
[15000] [SEQUENCER] READ mst_id=0 s_id=0 araddr=119cf518 arid=3 arlen=1 arsize=3 arburst=1 rid=[] rresp=[] rdata=[]
[15000] [SEQUENCER] READ mst_id=1 s_id=0 araddr=1443ca90 arid=4 arlen=1 arsize=3 arburst=1 rid=[] rresp=[] rdata=[]
[15000] [SEQUENCER] mst_id=1 s_id=0 awaddr=1116cfe8 awid=1110 awlen=1 awsize=3 awburst=1 wdata=[] wstrb=[] bresp=0 bid=0
[15000] MASTER_DRIVER1 received transaction, op=AXI_WRITE
[15000] MASTER_DRIVER0 received transaction, op=AXI_WRITE
[35000] MASTER 1 AW_VALID_RDY Handshake
[35000] MASTER 0 AW_VALID_RDY Handshake
[45000] ARB MONITOR: slave=0 m0_req=1 m1_req=1 winner=0
[45000] AXI S0_AWVALID_RDY HANDSHAKE
[45000] SCOREBOARD MATCH: arbitration winner (slave 0) expected = 0, actual =0
[55000] MASTER 1 W_VALID_RDY Handshake beat=0 wlast=0
[55000] MASTER 0 W_VALID_RDY Handshake beat=0 wlast=0
[65000] MASTER_DRIVER0 received transaction, op=AXI_READ
[65000] MASTER_DRIVER1 received transaction, op=AXI_WRITE
[65000] MASTER 0 W_VALID_RDY Handshake beat=1 wlast=1
[65000] MASTER 1 W_VALID_RDY Handshake beat=1 wlast=1
[65000] AXI S0_WVALID_RDY HANDSHAKE
[65000] AXI S0_WVALID_RDY HANDSHAKE
[65000] S0 MEMORY WRITE beat=0 addr=0745ba40 data=0000000000000000 id=07
[75000] AXI S0_WVALID_RDY HANDSHAKE
[75000] S0 MEMORY WRITE beat=1 addr=0745ba48 data=0000000000000000 id=07
[75000] AXI S0_WVALID_RDY HANDSHAKE
[85000] MASTER_DRIVER0 received transaction, op=AXI_WRITE
[85000] MASTER 1 AW_VALID_RDY Handshake
[85000] AXI S0_BVALID_RDY HANDSHAKE
[85000] [SLAVE MONITOR] mst_id=0 s_id=0 awaddr=745ba40 awid=111 awlen=1 awsize=3 awburst=1 wdata=[0 0 ] wstrb=[0 0 ] bresp=0 bid=111
[85000] SLAVE0 sent B resp, id=7
[95000] AXI S0_AWVALID_RDY HANDSHAKE
[95000] AXI S0_ARVALID_RDY HANDSHAKE
[95000] MEMORY READ MISS beat=0 addr=1dc56350 -> default data id=1
[95000] ARB MONITOR: slave=0 m0_req=0 m1_req=0 winner=1
[95000] ARB MONITOR: slave=1 m0_req=1 m1_req=0 winner=0
[105000] MASTER 0 RECEIVED BRESP. BRESP=0
[105000] [MASTER DRIVER] mst_id=0 s_id=0 awaddr=745ba40 awid=111 awlen=1 awsize=3 awburst=1 wdata=[] wstrb=[] bresp=0 bid=111
[105000] MASTER 0 AW_VALID_RDY Handshake
[105000] MASTER 0 B_VALID_RDY Handshake
[105000] [MASTER MONITOR] mst_id=0 s_id=0 awaddr=745ba40 awid=111 awlen=1 awsize=3 awburst=1 wdata=[0 0 ] wstrb=[0 0 ] bresp=0 bid=111
[105000] MASTER 1 W_VALID_RDY Handshake beat=0 wlast=0
[105000] ARB MONITOR: slave=1 m0_req=1 m1_req=0 winner=1
[105000] SLAVE 1 R_VALID_RDY Handshake beat=0 rlast=0
[105000] AXI S0_WVALID_RDY HANDSHAKE
[105000] MEMORY READ MISS beat=1 addr=1dc56358 -> default data id=1
[105000] AXI S1_AWVALID_RDY HANDSHAKE
[105000] AXI S0_WVALID_RDY HANDSHAKE
[105000] S0 MEMORY WRITE beat=0 addr=02f14438 data=0000000000000000 id=1a
[105000] SCOREBOARD MATCH: decode_err expected = 0, actual =0
[105000] SCOREBOARD MATCH: slave_id expected = 0, actual =0
[105000] SCOREBOARD MATCH: awaddr passthrough expected = 745ba40, actual =745ba40
[105000] SCOREBOARD MATCH: awlen passthrough expected = 1, actual =1
[105000] SCOREBOARD MATCH: awsize passthrough expected = 3, actual =3
[105000] SCOREBOARD MATCH: awburst passthrough expected = 1, actual =1
[105000] SCOREBOARD MATCH: wdata size check expected = 2, actual =2
[105000] SCOREBOARD MATCH: wdata passthrough beat=0 expected = 0, actual =0
[105000] SCOREBOARD MATCH: wdata passthrough beat=1 expected = 0, actual =0
[105000] SCOREBOARD MATCH: wstrb size check expected = 2, actual =2
[105000] SCOREBOARD MATCH: wstrb passthrough beat=0 expected = 0, actual =0
[105000] SCOREBOARD MATCH: wstrb passthrough beat=1 expected = 0, actual =0
[105000] SCOREBOARD MATCH: bresp passthrough expected = 0, actual =0
[105000] SCOREBOARD MATCH: response routed to correct master (write) expected = 0, actual =0
[105000] [SCOREBOARD-M] mst_id=0 s_id=0 awaddr=745ba40 awid=111 awlen=1 awsize=3 awburst=1 wdata=[0 0 ] wstrb=[0 0 ] bresp=0 bid=111
[105000] [SCOREBOARD-S] mst_id=0 s_id=0 awaddr=745ba40 awid=111 awlen=1 awsize=3 awburst=1 wdata=[0 0 ] wstrb=[0 0 ] bresp=0 bid=111
[105000] SCOREBOARD: Transaction 1 received. pass=15 fail=0
[105000] ALL PASS. Total transactions: 1
[115000] AXI S0_WVALID_RDY HANDSHAKE
[115000] S0 MEMORY WRITE beat=1 addr=02f14440 data=0000000000000000 id=1a
[115000] S1 MEMORY WRITE beat=0 addr=10218bd0 data=0000000000000000 id=16
[115000] AXI S0_WVALID_RDY HANDSHAKE
[115000] AXI S1_WVALID_RDY HANDSHAKE
[115000] SLAVE 1 R_VALID_RDY Handshake beat=1 rlast=1
[115000] [SLAVE MONITOR AR] READ mst_id=0 s_id=1 araddr=1dc56350 arid=1 arlen=1 arsize=3 arburst=1 rid=[11] rresp=[00] rdata=[baadf00d12345678baadf00d12345678]
[115000] MASTER 1 W_VALID_RDY Handshake beat=1 wlast=1
[115000] MASTER_DRIVER1 received transaction, op=AXI_READ
[125000] MASTER 0 W_VALID_RDY Handshake beat=0 wlast=0
[125000] MASTER 0 R_VALID_RDY Handshake beat=0 rlast=0
[125000] AXI S1_BVALID_RDY HANDSHAKE
[125000] [SLAVE MONITOR] mst_id=1 s_id=1 awaddr=10218bd0 awid=110 awlen=1 awsize=3 awburst=1 wdata=[0 ] wstrb=[0 ] bresp=0 bid=10110
[125000] AXI S0_BVALID_RDY HANDSHAKE
[125000] [SLAVE MONITOR] mst_id=1 s_id=0 awaddr=2f14438 awid=1010 awlen=1 awsize=3 awburst=1 wdata=[0 0 ] wstrb=[0 0 ] bresp=0 bid=11010
[125000] SLAVE1 sent B resp, id=6
[125000] SLAVE0 sent B resp, id=10
[135000] AXI S1_AWVALID_RDY HANDSHAKE
[135000] ARB MONITOR: slave=1 m0_req=1 m1_req=0 winner=0
[135000] MASTER 0 R_VALID_RDY Handshake beat=1 rlast=1
[135000] [MASTER MONITOR] READ mst_id=0 s_id=1 araddr=1dc56350 arid=1 arlen=1 arsize=3 arburst=1 rid=[11] rresp=[00] rdata=[baadf00d12345678baadf00d12345678]
[135000] MASTER 0 W_VALID_RDY Handshake beat=1 wlast=1
[135000] MASTER_DRIVER1 received transaction, op=AXI_WRITE
[135000] [MASTER DRIVER] READ mst_id=0 s_id=0 araddr=1dc56350 arid=1 arlen=1 arsize=3 arburst=1 rid=[11] rresp=[00] rdata=[baadf00d12345678baadf00d12345678]
[135000] MASTER_DRIVER0 received transaction, op=AXI_READ
[135000] SCOREBOARD MATCH: decode_err expected = 0, actual =0
[135000] SCOREBOARD MATCH: slave_id expected = 1, actual =1
[135000] SCOREBOARD MATCH: araddr passthrough expected = 1dc56350, actual =1dc56350
[135000] SCOREBOARD MATCH: arlen passthrough expected = 1, actual =1
[135000] SCOREBOARD MATCH: arsize passthrough expected = 3, actual =3
[135000] SCOREBOARD MATCH: arburst passthrough expected = 1, actual =1
[135000] SCOREBOARD MATCH: rdata size check expected = 2, actual =2
[135000] SCOREBOARD MATCH: rdata passthrough beat=0 expected = baadf00d12345678, actual =baadf00d12345678
[135000] SCOREBOARD MATCH: rdata passthrough beat=1 expected = baadf00d12345678, actual =baadf00d12345678
[135000] SCOREBOARD MATCH: rresp size check expected = 2, actual =2
[135000] SCOREBOARD MATCH: rresp passthrough beat=0 expected = 0, actual =0
[135000] SCOREBOARD MATCH: rresp passthrough beat=1 expected = 0, actual =0
[135000] SCOREBOARD MATCH: response routed to correct master (read beat 0) expected = 0, actual =0
[135000] SCOREBOARD MATCH: response routed to correct master (read beat 1) expected = 0, actual =0
[135000] [SCOREBOARD-M] READ mst_id=0 s_id=1 araddr=1dc56350 arid=1 arlen=1 arsize=3 arburst=1 rid=[11] rresp=[00] rdata=[baadf00d12345678baadf00d12345678]
[135000] [SCOREBOARD-S] READ mst_id=0 s_id=1 araddr=1dc56350 arid=1 arlen=1 arsize=3 arburst=1 rid=[11] rresp=[00] rdata=[baadf00d12345678baadf00d12345678]
[135000] SCOREBOARD: Transaction 2 received. pass=29 fail=0
[135000] ALL PASS. Total transactions: 2
[145000] MASTER 1 RECEIVED BRESP. BRESP=0
[145000] [MASTER DRIVER] mst_id=1 s_id=0 awaddr=2f14438 awid=1010 awlen=1 awsize=3 awburst=1 wdata=[] wstrb=[] bresp=0 bid=1010
[145000] MASTER 1 B_VALID_RDY Handshake
[145000] [MASTER MONITOR] mst_id=1 s_id=0 awaddr=2f14438 awid=1010 awlen=1 awsize=3 awburst=1 wdata=[0 0 ] wstrb=[0 0 ] bresp=0 bid=1010
[145000] ARB MONITOR: slave=0 m0_req=0 m1_req=1 winner=1
[145000] AXI S1_WVALID_RDY HANDSHAKE
[145000] AXI S0_ARVALID_RDY HANDSHAKE
[145000] MEMORY READ MISS beat=0 addr=97edea8 -> default data id=18
[145000] S1 MEMORY WRITE beat=0 addr=14e40fb0 data=0000000000000000 id=0d
[145000] SCOREBOARD MATCH: decode_err expected = 0, actual =0
[145000] SCOREBOARD MATCH: slave_id expected = 0, actual =0
[145000] SCOREBOARD MATCH: awaddr passthrough expected = 2f14438, actual =2f14438
[145000] SCOREBOARD MATCH: awlen passthrough expected = 1, actual =1
[145000] SCOREBOARD MATCH: awsize passthrough expected = 3, actual =3
[145000] SCOREBOARD MATCH: awburst passthrough expected = 1, actual =1
[145000] SCOREBOARD MATCH: wdata size check expected = 2, actual =2
[145000] SCOREBOARD MATCH: wdata passthrough beat=0 expected = 0, actual =0
[145000] SCOREBOARD MATCH: wdata passthrough beat=1 expected = 0, actual =0
[145000] SCOREBOARD MATCH: wstrb size check expected = 2, actual =2
[145000] SCOREBOARD MATCH: wstrb passthrough beat=0 expected = 0, actual =0
[145000] SCOREBOARD MATCH: wstrb passthrough beat=1 expected = 0, actual =0
[145000] SCOREBOARD MATCH: bresp passthrough expected = 0, actual =0
[145000] SCOREBOARD MATCH: response routed to correct master (write) expected = 1, actual =1
[145000] [SCOREBOARD-M] mst_id=1 s_id=0 awaddr=2f14438 awid=1010 awlen=1 awsize=3 awburst=1 wdata=[0 0 ] wstrb=[0 0 ] bresp=0 bid=1010
[145000] [SCOREBOARD-S] mst_id=1 s_id=0 awaddr=2f14438 awid=1010 awlen=1 awsize=3 awburst=1 wdata=[0 0 ] wstrb=[0 0 ] bresp=0 bid=11010
[145000] SCOREBOARD: Transaction 3 received. pass=43 fail=0
[145000] ALL PASS. Total transactions: 3
[155000] S1 MEMORY WRITE beat=1 addr=14e40fb8 data=0000000000000000 id=0d
[155000] MEMORY READ MISS beat=1 addr=97edeb0 -> default data id=18
[155000] SLAVE 0 R_VALID_RDY Handshake beat=0 rlast=0
[155000] AXI S1_WVALID_RDY HANDSHAKE
[155000] MASTER 1 AW_VALID_RDY Handshake
[165000] MASTER 1 RECEIVED BRESP. BRESP=0
[165000] [MASTER DRIVER] mst_id=1 s_id=0 awaddr=10218bd0 awid=110 awlen=1 awsize=3 awburst=1 wdata=[] wstrb=[] bresp=0 bid=110
[165000] MASTER 1 B_VALID_RDY Handshake
[165000] [MASTER MONITOR] mst_id=1 s_id=1 awaddr=10218bd0 awid=110 awlen=1 awsize=3 awburst=1 wdata=[0 0 ] wstrb=[0 0 ] bresp=0 bid=110
[165000] ARB MONITOR: slave=0 m0_req=0 m1_req=1 winner=1
[165000] ARB MONITOR: slave=1 m0_req=1 m1_req=0 winner=0
[165000] AXI S1_BVALID_RDY HANDSHAKE
[165000] [SLAVE MONITOR] mst_id=0 s_id=1 awaddr=14e40fb0 awid=1101 awlen=1 awsize=3 awburst=1 wdata=[0 0 ] wstrb=[0 0 ] bresp=0 bid=1101
[165000] SLAVE 0 R_VALID_RDY Handshake beat=1 rlast=1
[165000] [SLAVE MONITOR AR] READ mst_id=1 s_id=0 araddr=97edea8 arid=2 arlen=1 arsize=3 arburst=1 rid=[1212] rresp=[00] rdata=[baadf00d12345678baadf00d12345678]
[165000] AXI S0_ARVALID_RDY HANDSHAKE
[165000] MEMORY READ MISS beat=0 addr=119cf518 -> default data id=3
[165000] SLAVE1 sent B resp, id=13
[165000] AXI S0_AWVALID_RDY HANDSHAKE
[165000] SCOREBOARD MATCH: decode_err expected = 0, actual =0
[165000] SCOREBOARD MATCH: slave_id expected = 1, actual =1
[165000] SCOREBOARD MATCH: awaddr passthrough expected = 10218bd0, actual =10218bd0
[165000] SCOREBOARD MATCH: awlen passthrough expected = 1, actual =1
[165000] SCOREBOARD MATCH: awsize passthrough expected = 3, actual =3
[165000] SCOREBOARD MATCH: awburst passthrough expected = 1, actual =1
[165000] SCOREBOARD MISMATCH: wdata size check  expected=2 actual=1
[165000] SCOREBOARD MISMATCH: wstrb size check  expected=2 actual=1
[165000] SCOREBOARD MATCH: bresp passthrough expected = 0, actual =0
[165000] SCOREBOARD MATCH: response routed to correct master (write) expected = 1, actual =1
[165000] [SCOREBOARD-M] mst_id=1 s_id=1 awaddr=10218bd0 awid=110 awlen=1 awsize=3 awburst=1 wdata=[0 0 ] wstrb=[0 0 ] bresp=0 bid=110
[165000] [SCOREBOARD-S] mst_id=1 s_id=1 awaddr=10218bd0 awid=110 awlen=1 awsize=3 awburst=1 wdata=[0 ] wstrb=[0 ] bresp=0 bid=10110
[165000] SCOREBOARD: Transaction 4 received. pass=51 fail=2
[165000] ERROR FOUND. FAIL COUNT=2 PASS COUNT=51 TOTAL TESTS=53
[175000] AXI S0_WVALID_RDY HANDSHAKE
[175000] S0 MEMORY WRITE beat=0 addr=0c94fa88 data=0000000000000000 id=15
[175000] MEMORY READ MISS beat=1 addr=119cf520 -> default data id=3
[175000] AXI S0_WVALID_RDY HANDSHAKE
[175000] SLAVE 1 R_VALID_RDY Handshake beat=0 rlast=0
[175000] MASTER 1 R_VALID_RDY Handshake beat=0 rlast=0
[175000] MASTER 1 W_VALID_RDY Handshake beat=0 wlast=0
[185000] MASTER 0 RECEIVED BRESP. BRESP=0
[185000] [MASTER DRIVER] mst_id=0 s_id=0 awaddr=14e40fb0 awid=1101 awlen=1 awsize=3 awburst=1 wdata=[] wstrb=[] bresp=0 bid=1101
[185000] [MASTER DRIVER] READ mst_id=1 s_id=0 araddr=97edea8 arid=2 arlen=1 arsize=3 arburst=1 rid=[22] rresp=[00] rdata=[baadf00d12345678baadf00d12345678]
[185000] MASTER_DRIVER1 received transaction, op=AXI_READ
[185000] MASTER 0 B_VALID_RDY Handshake
[185000] [MASTER MONITOR] mst_id=0 s_id=1 awaddr=14e40fb0 awid=1101 awlen=1 awsize=3 awburst=1 wdata=[0 0 ] wstrb=[0 0 ] bresp=0 bid=1101
[185000] MASTER 1 W_VALID_RDY Handshake beat=1 wlast=1
[185000] MASTER 1 R_VALID_RDY Handshake beat=1 rlast=1
[185000] [MASTER MONITOR] READ mst_id=1 s_id=0 araddr=97edea8 arid=2 arlen=1 arsize=3 arburst=1 rid=[22] rresp=[00] rdata=[baadf00d12345678baadf00d12345678]
[185000] SLAVE 1 R_VALID_RDY Handshake beat=1 rlast=1
[185000] [SLAVE MONITOR AR] READ mst_id=0 s_id=1 araddr=119cf518 arid=3 arlen=1 arsize=3 arburst=1 rid=[33] rresp=[00] rdata=[baadf00d12345678baadf00d12345678]
[185000] AXI S0_WVALID_RDY HANDSHAKE
[185000] AXI S0_WVALID_RDY HANDSHAKE
[185000] S0 MEMORY WRITE beat=1 addr=0c94fa90 data=0000000000000000 id=15
[185000] SCOREBOARD MATCH: decode_err expected = 0, actual =0
[185000] SCOREBOARD MATCH: slave_id expected = 1, actual =1
[185000] SCOREBOARD MATCH: awaddr passthrough expected = 14e40fb0, actual =14e40fb0
[185000] SCOREBOARD MATCH: awlen passthrough expected = 1, actual =1
[185000] SCOREBOARD MATCH: awsize passthrough expected = 3, actual =3
[185000] SCOREBOARD MATCH: awburst passthrough expected = 1, actual =1
[185000] SCOREBOARD MATCH: wdata size check expected = 2, actual =2
[185000] SCOREBOARD MATCH: wdata passthrough beat=0 expected = 0, actual =0
[185000] SCOREBOARD MATCH: wdata passthrough beat=1 expected = 0, actual =0
[185000] SCOREBOARD MATCH: wstrb size check expected = 2, actual =2
[185000] SCOREBOARD MATCH: wstrb passthrough beat=0 expected = 0, actual =0
[185000] SCOREBOARD MATCH: wstrb passthrough beat=1 expected = 0, actual =0
[185000] SCOREBOARD MATCH: bresp passthrough expected = 0, actual =0
[185000] SCOREBOARD MATCH: response routed to correct master (write) expected = 0, actual =0
[185000] [SCOREBOARD-M] mst_id=0 s_id=1 awaddr=14e40fb0 awid=1101 awlen=1 awsize=3 awburst=1 wdata=[0 0 ] wstrb=[0 0 ] bresp=0 bid=1101
[185000] [SCOREBOARD-S] mst_id=0 s_id=1 awaddr=14e40fb0 awid=1101 awlen=1 awsize=3 awburst=1 wdata=[0 0 ] wstrb=[0 0 ] bresp=0 bid=1101
[185000] SCOREBOARD: Transaction 5 received. pass=65 fail=2
[185000] ERROR FOUND. FAIL COUNT=2 PASS COUNT=65 TOTAL TESTS=67
[185000] SCOREBOARD MATCH: decode_err expected = 0, actual =0
[185000] SCOREBOARD MATCH: slave_id expected = 0, actual =0
[185000] SCOREBOARD MATCH: araddr passthrough expected = 97edea8, actual =97edea8
[185000] SCOREBOARD MATCH: arlen passthrough expected = 1, actual =1
[185000] SCOREBOARD MATCH: arsize passthrough expected = 3, actual =3
[185000] SCOREBOARD MATCH: arburst passthrough expected = 1, actual =1
[185000] SCOREBOARD MATCH: rdata size check expected = 2, actual =2
[185000] SCOREBOARD MATCH: rdata passthrough beat=0 expected = baadf00d12345678, actual =baadf00d12345678
[185000] SCOREBOARD MATCH: rdata passthrough beat=1 expected = baadf00d12345678, actual =baadf00d12345678
[185000] SCOREBOARD MATCH: rresp size check expected = 2, actual =2
[185000] SCOREBOARD MATCH: rresp passthrough beat=0 expected = 0, actual =0
[185000] SCOREBOARD MATCH: rresp passthrough beat=1 expected = 0, actual =0
[185000] SCOREBOARD MATCH: response routed to correct master (read beat 0) expected = 1, actual =1
[185000] SCOREBOARD MATCH: response routed to correct master (read beat 1) expected = 1, actual =1
[185000] [SCOREBOARD-M] READ mst_id=1 s_id=0 araddr=97edea8 arid=2 arlen=1 arsize=3 arburst=1 rid=[22] rresp=[00] rdata=[baadf00d12345678baadf00d12345678]
[185000] [SCOREBOARD-S] READ mst_id=1 s_id=0 araddr=97edea8 arid=2 arlen=1 arsize=3 arburst=1 rid=[1212] rresp=[00] rdata=[baadf00d12345678baadf00d12345678]
[185000] SCOREBOARD: Transaction 6 received. pass=79 fail=2
[185000] ERROR FOUND. FAIL COUNT=2 PASS COUNT=79 TOTAL TESTS=81
[195000] SLAVE0 sent B resp, id=5
[195000] AXI S0_BVALID_RDY HANDSHAKE
[195000] [SLAVE MONITOR] mst_id=1 s_id=0 awaddr=c94fa88 awid=101 awlen=1 awsize=3 awburst=1 wdata=[0 0 ] wstrb=[0 0 ] bresp=0 bid=10101
[195000] MASTER 0 R_VALID_RDY Handshake beat=0 rlast=0
[205000] [MASTER DRIVER] READ mst_id=0 s_id=0 araddr=119cf518 arid=3 arlen=1 arsize=3 arburst=1 rid=[33] rresp=[00] rdata=[baadf00d12345678baadf00d12345678]
[205000] MASTER_DRIVER1 received transaction, op=AXI_WRITE
[205000] MASTER 0 R_VALID_RDY Handshake beat=1 rlast=1
[205000] [MASTER MONITOR] READ mst_id=0 s_id=1 araddr=119cf518 arid=3 arlen=1 arsize=3 arburst=1 rid=[33] rresp=[00] rdata=[baadf00d12345678baadf00d12345678]
[205000] SCOREBOARD MATCH: decode_err expected = 0, actual =0
[205000] SCOREBOARD MATCH: slave_id expected = 1, actual =1
[205000] SCOREBOARD MATCH: araddr passthrough expected = 119cf518, actual =119cf518
[205000] SCOREBOARD MATCH: arlen passthrough expected = 1, actual =1
[205000] SCOREBOARD MATCH: arsize passthrough expected = 3, actual =3
[205000] SCOREBOARD MATCH: arburst passthrough expected = 1, actual =1
[205000] SCOREBOARD MATCH: rdata size check expected = 2, actual =2
[205000] SCOREBOARD MATCH: rdata passthrough beat=0 expected = baadf00d12345678, actual =baadf00d12345678
[205000] SCOREBOARD MATCH: rdata passthrough beat=1 expected = baadf00d12345678, actual =baadf00d12345678
[205000] SCOREBOARD MATCH: rresp size check expected = 2, actual =2
[205000] SCOREBOARD MATCH: rresp passthrough beat=0 expected = 0, actual =0
[205000] SCOREBOARD MATCH: rresp passthrough beat=1 expected = 0, actual =0
[205000] SCOREBOARD MATCH: response routed to correct master (read beat 0) expected = 0, actual =0
[205000] SCOREBOARD MATCH: response routed to correct master (read beat 1) expected = 0, actual =0
[205000] [SCOREBOARD-M] READ mst_id=0 s_id=1 araddr=119cf518 arid=3 arlen=1 arsize=3 arburst=1 rid=[33] rresp=[00] rdata=[baadf00d12345678baadf00d12345678]
[205000] [SCOREBOARD-S] READ mst_id=0 s_id=1 araddr=119cf518 arid=3 arlen=1 arsize=3 arburst=1 rid=[33] rresp=[00] rdata=[baadf00d12345678baadf00d12345678]
[205000] SCOREBOARD: Transaction 7 received. pass=93 fail=2
[205000] ERROR FOUND. FAIL COUNT=2 PASS COUNT=93 TOTAL TESTS=95
[215000] AXI S0_ARVALID_RDY HANDSHAKE
[215000] MEMORY READ MISS beat=0 addr=1443ca90 -> default data id=20
[215000] ARB MONITOR: slave=1 m0_req=0 m1_req=1 winner=1
[215000] MASTER 1 B_VALID_RDY Handshake
[215000] [MASTER MONITOR] mst_id=1 s_id=0 awaddr=c94fa88 awid=101 awlen=1 awsize=3 awburst=1 wdata=[0 0 ] wstrb=[0 0 ] bresp=0 bid=101
[215000] MASTER 1 RECEIVED BRESP. BRESP=0
[215000] [MASTER DRIVER] mst_id=1 s_id=0 awaddr=c94fa88 awid=101 awlen=1 awsize=3 awburst=1 wdata=[] wstrb=[] bresp=0 bid=101
[215000] SCOREBOARD MATCH: decode_err expected = 0, actual =0
[215000] SCOREBOARD MATCH: slave_id expected = 0, actual =0
[215000] SCOREBOARD MATCH: awaddr passthrough expected = c94fa88, actual =c94fa88
[215000] SCOREBOARD MATCH: awlen passthrough expected = 1, actual =1
[215000] SCOREBOARD MATCH: awsize passthrough expected = 3, actual =3
[215000] SCOREBOARD MATCH: awburst passthrough expected = 1, actual =1
[215000] SCOREBOARD MATCH: wdata size check expected = 2, actual =2
[215000] SCOREBOARD MATCH: wdata passthrough beat=0 expected = 0, actual =0
[215000] SCOREBOARD MATCH: wdata passthrough beat=1 expected = 0, actual =0
[215000] SCOREBOARD MATCH: wstrb size check expected = 2, actual =2
[215000] SCOREBOARD MATCH: wstrb passthrough beat=0 expected = 0, actual =0
[215000] SCOREBOARD MATCH: wstrb passthrough beat=1 expected = 0, actual =0
[215000] SCOREBOARD MATCH: bresp passthrough expected = 0, actual =0
[215000] SCOREBOARD MATCH: response routed to correct master (write) expected = 1, actual =1
[215000] [SCOREBOARD-M] mst_id=1 s_id=0 awaddr=c94fa88 awid=101 awlen=1 awsize=3 awburst=1 wdata=[0 0 ] wstrb=[0 0 ] bresp=0 bid=101
[215000] [SCOREBOARD-S] mst_id=1 s_id=0 awaddr=c94fa88 awid=101 awlen=1 awsize=3 awburst=1 wdata=[0 0 ] wstrb=[0 0 ] bresp=0 bid=10101
[215000] SCOREBOARD: Transaction 8 received. pass=107 fail=2
[215000] ERROR FOUND. FAIL COUNT=2 PASS COUNT=107 TOTAL TESTS=109
[225000] MASTER 1 AW_VALID_RDY Handshake
[225000] SLAVE 1 R_VALID_RDY Handshake beat=0 rlast=0
[225000] MEMORY READ MISS beat=1 addr=1443ca98 -> default data id=20
[235000] AXI S1_AWVALID_RDY HANDSHAKE
[235000] SLAVE 1 R_VALID_RDY Handshake beat=1 rlast=1
[235000] [SLAVE MONITOR AR] READ mst_id=1 s_id=1 araddr=1443ca90 arid=4 arlen=1 arsize=3 arburst=1 rid=[1414] rresp=[00] rdata=[baadf00d12345678baadf00d12345678]
[235000] ARB MONITOR: slave=1 m0_req=0 m1_req=1 winner=1
[245000] MASTER 1 W_VALID_RDY Handshake beat=0 wlast=0
[245000] MASTER 1 R_VALID_RDY Handshake beat=0 rlast=0
[245000] AXI S1_WVALID_RDY HANDSHAKE
[245000] S1 MEMORY WRITE beat=0 addr=1116cfe8 data=0000000000000000 id=1e
[255000] S1 MEMORY WRITE beat=1 addr=1116cff0 data=0000000000000000 id=1e
[255000] AXI S1_WVALID_RDY HANDSHAKE
[255000] MASTER 1 R_VALID_RDY Handshake beat=1 rlast=1
[255000] [MASTER MONITOR] READ mst_id=1 s_id=1 araddr=1443ca90 arid=4 arlen=1 arsize=3 arburst=1 rid=[44] rresp=[00] rdata=[baadf00d12345678baadf00d12345678]
[255000] MASTER 1 W_VALID_RDY Handshake beat=1 wlast=1
[255000] [MASTER DRIVER] READ mst_id=1 s_id=0 araddr=1443ca90 arid=4 arlen=1 arsize=3 arburst=1 rid=[44] rresp=[00] rdata=[baadf00d12345678baadf00d12345678]
[255000] SCOREBOARD MATCH: decode_err expected = 0, actual =0
[255000] SCOREBOARD MATCH: slave_id expected = 1, actual =1
[255000] SCOREBOARD MATCH: araddr passthrough expected = 1443ca90, actual =1443ca90
[255000] SCOREBOARD MATCH: arlen passthrough expected = 1, actual =1
[255000] SCOREBOARD MATCH: arsize passthrough expected = 3, actual =3
[255000] SCOREBOARD MATCH: arburst passthrough expected = 1, actual =1
[255000] SCOREBOARD MATCH: rdata size check expected = 2, actual =2
[255000] SCOREBOARD MATCH: rdata passthrough beat=0 expected = baadf00d12345678, actual =baadf00d12345678
[255000] SCOREBOARD MATCH: rdata passthrough beat=1 expected = baadf00d12345678, actual =baadf00d12345678
[255000] SCOREBOARD MATCH: rresp size check expected = 2, actual =2
[255000] SCOREBOARD MATCH: rresp passthrough beat=0 expected = 0, actual =0
[255000] SCOREBOARD MATCH: rresp passthrough beat=1 expected = 0, actual =0
[255000] SCOREBOARD MATCH: response routed to correct master (read beat 0) expected = 1, actual =1
[255000] SCOREBOARD MATCH: response routed to correct master (read beat 1) expected = 1, actual =1
[255000] [SCOREBOARD-M] READ mst_id=1 s_id=1 araddr=1443ca90 arid=4 arlen=1 arsize=3 arburst=1 rid=[44] rresp=[00] rdata=[baadf00d12345678baadf00d12345678]
[255000] [SCOREBOARD-S] READ mst_id=1 s_id=1 araddr=1443ca90 arid=4 arlen=1 arsize=3 arburst=1 rid=[1414] rresp=[00] rdata=[baadf00d12345678baadf00d12345678]
[255000] SCOREBOARD: Transaction 9 received. pass=121 fail=2
[255000] ERROR FOUND. FAIL COUNT=2 PASS COUNT=121 TOTAL TESTS=123
[265000] AXI S1_BVALID_RDY HANDSHAKE
[265000] [SLAVE MONITOR] mst_id=1 s_id=1 awaddr=1116cfe8 awid=1110 awlen=1 awsize=3 awburst=1 wdata=[0 0 ] wstrb=[0 0 ] bresp=0 bid=11110
[265000] SLAVE1 sent B resp, id=14
[285000] MASTER 1 RECEIVED BRESP. BRESP=0
[285000] [MASTER DRIVER] mst_id=1 s_id=0 awaddr=1116cfe8 awid=1110 awlen=1 awsize=3 awburst=1 wdata=[] wstrb=[] bresp=0 bid=1110
[285000] MASTER 1 B_VALID_RDY Handshake
[285000] [MASTER MONITOR] mst_id=1 s_id=1 awaddr=1116cfe8 awid=1110 awlen=1 awsize=3 awburst=1 wdata=[0 0 ] wstrb=[0 0 ] bresp=0 bid=1110
[285000] SCOREBOARD MATCH: decode_err expected = 0, actual =0
[285000] SCOREBOARD MATCH: slave_id expected = 1, actual =1
[285000] SCOREBOARD MATCH: awaddr passthrough expected = 1116cfe8, actual =1116cfe8
[285000] SCOREBOARD MATCH: awlen passthrough expected = 1, actual =1
[285000] SCOREBOARD MATCH: awsize passthrough expected = 3, actual =3
[285000] SCOREBOARD MATCH: awburst passthrough expected = 1, actual =1
[285000] SCOREBOARD MATCH: wdata size check expected = 2, actual =2
[285000] SCOREBOARD MATCH: wdata passthrough beat=0 expected = 0, actual =0
[285000] SCOREBOARD MATCH: wdata passthrough beat=1 expected = 0, actual =0
[285000] SCOREBOARD MATCH: wstrb size check expected = 2, actual =2
[285000] SCOREBOARD MATCH: wstrb passthrough beat=0 expected = 0, actual =0
[285000] SCOREBOARD MATCH: wstrb passthrough beat=1 expected = 0, actual =0
[285000] SCOREBOARD MATCH: bresp passthrough expected = 0, actual =0
[285000] SCOREBOARD MATCH: response routed to correct master (write) expected = 1, actual =1
[285000] [SCOREBOARD-M] mst_id=1 s_id=1 awaddr=1116cfe8 awid=1110 awlen=1 awsize=3 awburst=1 wdata=[0 0 ] wstrb=[0 0 ] bresp=0 bid=1110
[285000] [SCOREBOARD-S] mst_id=1 s_id=1 awaddr=1116cfe8 awid=1110 awlen=1 awsize=3 awburst=1 wdata=[0 0 ] wstrb=[0 0 ] bresp=0 bid=11110
[285000] SCOREBOARD: Transaction 10 received. pass=135 fail=2
[285000] SCOREBOARD: Expected 10 transactions completed, PASS=135 FAIL=2
[285000] ERROR FOUND. FAIL COUNT=2 PASS COUNT=135 TOTAL TESTS=137
[285000] ALL TRANSACTIONS MONITORED
$finish called at time : 305 ns : File "/home/nashita/Desktop/practice/axi_xbar/tb/top/axi_tb_top.sv" Line 206
exit
INFO: xsimkernel Simulation Memory Usage: 289416 KB (Peak: 337820 KB), Simulation CPU Usage: 1170 ms
INFO: [Common 17-206] Exiting xsim at Tue Sep  8 15:48:46 2026...
