#-----------------------------------------------------------
# xsim v2025.2 (64-bit)
# SW Build 6299465 on Fri Nov 14 12:34:56 MST 2025
# IP Build 6300035 on Fri Nov 14 10:48:45 MST 2025
# SharedData Build 6298862 on Thu Nov 13 04:50:51 MST 2025
# Start of session at: Thu Sep 10 17:54:01 2026
# Process ID         : 3544015
# Current directory  : /home/nashita/Desktop/practice/axi_xbar/sim
# Command line       : xsim -log regress_results/BT_run70.log -mode tcl -source {xsim.dir/tb_top_snap/xsim_script.tcl}
# Log file           : /home/nashita/Desktop/practice/axi_xbar/sim/regress_results/BT_run70.log
# Journal file       : /home/nashita/Desktop/practice/axi_xbar/sim/xsim.jou
# Running On         : vlsi-vivado
# Platform           : Ubuntu
# Operating System   : Ubuntu 24.04.4 LTS
# Processor Detail   : Intel(R) Core(TM) i5-10400 CPU @ 2.90GHz
# CPU Frequency      : 3999.870 MHz
# CPU Physical cores : 6
# CPU Logical cores  : 12
# Host memory        : 41875 MB
# Swap memory        : 27648 MB
# Total Virtual      : 69524 MB
# Available Virtual  : 62505 MB
#-----------------------------------------------------------
source xsim.dir/tb_top_snap/xsim_script.tcl
# xsim {tb_top_snap} -testplusarg BT -autoloadwcfg -runall -sv_seed 71
Time resolution is 1 ps
run -all
[0] RUNNING BASE TEST
[0] INSIDE THE BASE TEST CONSTRUCTOR
[0] ENV: before agent
[0] SLAVE CONSTRUCTED
[0] MASTER MONITOR CONSTRUCTED
[0] MASTER MONITOR CONSTRUCTED
[0] SLAVE MONITOR CONSTRUCTED
[0] SLAVE MONITOR CONSTRUCTED
[0] ARB MONITOR CONSTRUCTED
GENERATOR CONSTRUCTED
[0] ENV: after agent
[0] ENV: before scoreboard
[0] ENV: after scoreboard
[15000] [SEQUENCER] READ mst_id=0 s_id=0 araddr=11f445f0 arid=0 arlen=1 arsize=3 arburst=1 rid=[] rresp=[] rdata=[]
[15000] [SEQUENCER] mst_id=0 s_id=0 awaddr=f174ec0 awid=111 awlen=1 awsize=3 awburst=1 wdata=[230d932880ae9438 aa919e6cee26e65a ] wstrb=[b2 32 ] bresp=0 bid=0
[15000] [SEQUENCER] READ mst_id=0 s_id=0 araddr=e4b43e0 arid=2 arlen=1 arsize=3 arburst=1 rid=[] rresp=[] rdata=[]
[15000] [SEQUENCER] READ mst_id=0 s_id=0 araddr=1a15b590 arid=3 arlen=1 arsize=3 arburst=1 rid=[] rresp=[] rdata=[]
[15000] [SEQUENCER] mst_id=0 s_id=0 awaddr=b7b57f8 awid=1101 awlen=1 awsize=3 awburst=1 wdata=[d749580ca0ebef66 c51485d5f38b54c0 ] wstrb=[ef f0 ] bresp=0 bid=0
[15000] MASTER_DRIVER0 received transaction, op=AXI_READ
[35000] MASTER_DRIVER0 received transaction, op=AXI_WRITE
[45000] ARB MONITOR: slave=1 m0_req=1 m1_req=0 winner=0
[45000] AXI S0_ARVALID_RDY HANDSHAKE
[45000] MEMORY READ MISS beat=0 addr=11f445f0 -> default data id=0
[55000] MEMORY READ MISS beat=1 addr=11f445f8 -> default data id=0
[55000] SLAVE 1 R_VALID_RDY Handshake beat=0 rlast=0
[55000] MASTER 0 AW_VALID_RDY Handshake
[65000] ARB MONITOR: slave=0 m0_req=1 m1_req=0 winner=0
[65000] SLAVE 1 R_VALID_RDY Handshake beat=1 rlast=1
[65000] [SLAVE MONITOR] READ mst_id=0 s_id=1 araddr=11f445f0 arid=0 arlen=1 arsize=3 arburst=1 rid=[00] rresp=[00] rdata=[baadf00d12345678baadf00d12345678]
[65000] AXI S0_AWVALID_RDY HANDSHAKE
[75000] MASTER 0 R_VALID_RDY Handshake beat=0 rlast=0
[75000] MASTER 0 W_VALID_RDY Handshake beat=0 wlast=0
[85000] [MASTER DRIVER] READ mst_id=0 s_id=0 araddr=11f445f0 arid=0 arlen=1 arsize=3 arburst=1 rid=[00] rresp=[00] rdata=[baadf00d12345678baadf00d12345678]
[85000] MASTER_DRIVER0 received transaction, op=AXI_READ
[85000] MASTER 0 W_VALID_RDY Handshake beat=1 wlast=1
[85000] MASTER 0 R_VALID_RDY Handshake beat=1 rlast=1
[85000] [MASTER MONITOR] READ mst_id=0 s_id=1 araddr=11f445f0 arid=0 arlen=1 arsize=3 arburst=1 rid=[00] rresp=[00] rdata=[baadf00d12345678baadf00d12345678]
[85000] AXI S0_WVALID_RDY HANDSHAKE
[85000] S0 MEMORY WRITE beat=0 addr=0f174ec0 data=230d932880ae9438 id=07
[85000] SCOREBOARD MATCH: decode_err expected = 0, actual =0
[85000] SCOREBOARD MATCH: slave_id expected = 1, actual =1
[85000] SCOREBOARD MATCH: araddr passthrough expected = 11f445f0, actual =11f445f0
[85000] SCOREBOARD MATCH: arlen passthrough expected = 1, actual =1
[85000] SCOREBOARD MATCH: arsize passthrough expected = 3, actual =3
[85000] SCOREBOARD MATCH: arburst passthrough expected = 1, actual =1
[85000] SCOREBOARD MATCH: rdata size check expected = 2, actual =2
[85000] SCOREBOARD MATCH: rdata passthrough beat=0 expected = baadf00d12345678, actual =baadf00d12345678
[85000] SCOREBOARD MATCH: rdata passthrough beat=1 expected = baadf00d12345678, actual =baadf00d12345678
[85000] SCOREBOARD MATCH: rresp size check expected = 2, actual =2
[85000] SCOREBOARD MATCH: rresp passthrough beat=0 expected = 0, actual =0
[85000] SCOREBOARD MATCH: rresp passthrough beat=1 expected = 0, actual =0
[85000] SCOREBOARD MATCH: response routed to correct master (read beat 0) expected = 0, actual =0
[85000] SCOREBOARD MATCH: response routed to correct master (read beat 1) expected = 0, actual =0
[85000] [SCOREBOARD-M] READ mst_id=0 s_id=1 araddr=11f445f0 arid=0 arlen=1 arsize=3 arburst=1 rid=[00] rresp=[00] rdata=[baadf00d12345678baadf00d12345678]
[85000] [SCOREBOARD-S] READ mst_id=0 s_id=1 araddr=11f445f0 arid=0 arlen=1 arsize=3 arburst=1 rid=[00] rresp=[00] rdata=[baadf00d12345678baadf00d12345678]
[85000] SCOREBOARD: Transaction 1 received. pass=14 fail=0
[85000] ALL PASS. Total transactions: 1
[95000] AXI S0_WVALID_RDY HANDSHAKE
[95000] S0 MEMORY WRITE beat=1 addr=0f174ec8 data=aa919e6cee26e65a id=07
[105000] MASTER_DRIVER0 received transaction, op=AXI_READ
[105000] SLAVE0 sent B resp, id=7
[115000] AXI S0_ARVALID_RDY HANDSHAKE
[115000] MEMORY READ MISS beat=0 addr=e4b43e0 -> default data id=2
[115000] [SLAVE MONITOR] mst_id=0 s_id=0 awaddr=f174ec0 awid=111 awlen=1 awsize=3 awburst=1 wdata=[230d932880ae9438 aa919e6cee26e65a ] wstrb=[b2 32 ] bresp=0 bid=111
[115000] ARB MONITOR: slave=0 m0_req=1 m1_req=0 winner=0
[125000] MASTER_DRIVER0 received transaction, op=AXI_WRITE
[125000] MASTER 0 RECEIVED BRESP. BRESP=0
[125000] [MASTER DRIVER] mst_id=0 s_id=0 awaddr=f174ec0 awid=111 awlen=1 awsize=3 awburst=1 wdata=[230d932880ae9438 aa919e6cee26e65a ] wstrb=[b2 32 ] bresp=0 bid=111
[125000] MASTER 0 B_VALID_RDY Handshake
[125000] [MASTER MONITOR] mst_id=0 s_id=0 awaddr=f174ec0 awid=111 awlen=1 awsize=3 awburst=1 wdata=[230d932880ae9438 aa919e6cee26e65a ] wstrb=[b2 32 ] bresp=0 bid=111
[125000] SLAVE 0 R_VALID_RDY Handshake beat=0 rlast=0
[125000] MEMORY READ MISS beat=1 addr=e4b43e8 -> default data id=2
[125000] SCOREBOARD MATCH: decode_err expected = 0, actual =0
[125000] SCOREBOARD MATCH: slave_id expected = 0, actual =0
[125000] SCOREBOARD MATCH: awaddr passthrough expected = f174ec0, actual =f174ec0
[125000] SCOREBOARD MATCH: awlen passthrough expected = 1, actual =1
[125000] SCOREBOARD MATCH: awsize passthrough expected = 3, actual =3
[125000] SCOREBOARD MATCH: awburst passthrough expected = 1, actual =1
[125000] SCOREBOARD MATCH: wdata size check expected = 2, actual =2
[125000] SCOREBOARD MATCH: wdata passthrough beat=0 expected = 230d932880ae9438, actual =230d932880ae9438
[125000] SCOREBOARD MATCH: wdata passthrough beat=1 expected = aa919e6cee26e65a, actual =aa919e6cee26e65a
[125000] SCOREBOARD MATCH: wstrb size check expected = 2, actual =2
[125000] SCOREBOARD MATCH: wstrb passthrough beat=0 expected = b2, actual =b2
[125000] SCOREBOARD MATCH: wstrb passthrough beat=1 expected = 32, actual =32
[125000] SCOREBOARD MATCH: bresp passthrough expected = 0, actual =0
[125000] SCOREBOARD MATCH: response routed to correct master (write) expected = 0, actual =0
[125000] [SCOREBOARD-M] mst_id=0 s_id=0 awaddr=f174ec0 awid=111 awlen=1 awsize=3 awburst=1 wdata=[230d932880ae9438 aa919e6cee26e65a ] wstrb=[b2 32 ] bresp=0 bid=111
[125000] [SCOREBOARD-S] mst_id=0 s_id=0 awaddr=f174ec0 awid=111 awlen=1 awsize=3 awburst=1 wdata=[230d932880ae9438 aa919e6cee26e65a ] wstrb=[b2 32 ] bresp=0 bid=111
[125000] SCOREBOARD: Transaction 2 received. pass=28 fail=0
[125000] ALL PASS. Total transactions: 2
[135000] AXI S0_ARVALID_RDY HANDSHAKE
[135000] MEMORY READ MISS beat=0 addr=1a15b590 -> default data id=3
[135000] SLAVE 0 R_VALID_RDY Handshake beat=1 rlast=1
[135000] [SLAVE MONITOR] READ mst_id=0 s_id=0 araddr=e4b43e0 arid=2 arlen=1 arsize=3 arburst=1 rid=[22] rresp=[00] rdata=[baadf00d12345678baadf00d12345678]
[135000] ARB MONITOR: slave=1 m0_req=1 m1_req=0 winner=0
[145000] MASTER 0 AW_VALID_RDY Handshake
[145000] MASTER 0 R_VALID_RDY Handshake beat=0 rlast=0
[145000] SLAVE 1 R_VALID_RDY Handshake beat=0 rlast=0
[145000] MEMORY READ MISS beat=1 addr=1a15b598 -> default data id=3
[155000] AXI S0_AWVALID_RDY HANDSHAKE
[155000] SLAVE 1 R_VALID_RDY Handshake beat=1 rlast=1
[155000] [SLAVE MONITOR] READ mst_id=0 s_id=1 araddr=1a15b590 arid=3 arlen=1 arsize=3 arburst=1 rid=[33] rresp=[00] rdata=[baadf00d12345678baadf00d12345678]
[155000] ARB MONITOR: slave=0 m0_req=1 m1_req=0 winner=0
[155000] MASTER 0 R_VALID_RDY Handshake beat=1 rlast=1
[155000] [MASTER MONITOR] READ mst_id=0 s_id=0 araddr=e4b43e0 arid=2 arlen=1 arsize=3 arburst=1 rid=[22] rresp=[00] rdata=[baadf00d12345678baadf00d12345678]
[155000] [MASTER DRIVER] READ mst_id=0 s_id=0 araddr=e4b43e0 arid=2 arlen=1 arsize=3 arburst=1 rid=[22] rresp=[00] rdata=[baadf00d12345678baadf00d12345678]
[155000] SCOREBOARD MATCH: decode_err expected = 0, actual =0
[155000] SCOREBOARD MATCH: slave_id expected = 0, actual =0
[155000] SCOREBOARD MATCH: araddr passthrough expected = e4b43e0, actual =e4b43e0
[155000] SCOREBOARD MATCH: arlen passthrough expected = 1, actual =1
[155000] SCOREBOARD MATCH: arsize passthrough expected = 3, actual =3
[155000] SCOREBOARD MATCH: arburst passthrough expected = 1, actual =1
[155000] SCOREBOARD MATCH: rdata size check expected = 2, actual =2
[155000] SCOREBOARD MATCH: rdata passthrough beat=0 expected = baadf00d12345678, actual =baadf00d12345678
[155000] SCOREBOARD MATCH: rdata passthrough beat=1 expected = baadf00d12345678, actual =baadf00d12345678
[155000] SCOREBOARD MATCH: rresp size check expected = 2, actual =2
[155000] SCOREBOARD MATCH: rresp passthrough beat=0 expected = 0, actual =0
[155000] SCOREBOARD MATCH: rresp passthrough beat=1 expected = 0, actual =0
[155000] SCOREBOARD MATCH: response routed to correct master (read beat 0) expected = 0, actual =0
[155000] SCOREBOARD MATCH: response routed to correct master (read beat 1) expected = 0, actual =0
[155000] [SCOREBOARD-M] READ mst_id=0 s_id=0 araddr=e4b43e0 arid=2 arlen=1 arsize=3 arburst=1 rid=[22] rresp=[00] rdata=[baadf00d12345678baadf00d12345678]
[155000] [SCOREBOARD-S] READ mst_id=0 s_id=0 araddr=e4b43e0 arid=2 arlen=1 arsize=3 arburst=1 rid=[22] rresp=[00] rdata=[baadf00d12345678baadf00d12345678]
[155000] SCOREBOARD: Transaction 3 received. pass=42 fail=0
[155000] ALL PASS. Total transactions: 3
[165000] MASTER 0 W_VALID_RDY Handshake beat=0 wlast=0
[175000] AXI S0_WVALID_RDY HANDSHAKE
[175000] S0 MEMORY WRITE beat=0 addr=0b7b57f8 data=d749580ca0ebef66 id=0d
[175000] MASTER 0 R_VALID_RDY Handshake beat=0 rlast=0
[175000] MASTER 0 W_VALID_RDY Handshake beat=1 wlast=1
[185000] [MASTER DRIVER] READ mst_id=0 s_id=0 araddr=1a15b590 arid=3 arlen=1 arsize=3 arburst=1 rid=[33] rresp=[00] rdata=[baadf00d12345678baadf00d12345678]
[185000] MASTER 0 R_VALID_RDY Handshake beat=1 rlast=1
[185000] [MASTER MONITOR] READ mst_id=0 s_id=1 araddr=1a15b590 arid=3 arlen=1 arsize=3 arburst=1 rid=[33] rresp=[00] rdata=[baadf00d12345678baadf00d12345678]
[185000] AXI S0_WVALID_RDY HANDSHAKE
[185000] S0 MEMORY WRITE beat=1 addr=0b7b5800 data=c51485d5f38b54c0 id=0d
[185000] SCOREBOARD MATCH: decode_err expected = 0, actual =0
[185000] SCOREBOARD MATCH: slave_id expected = 1, actual =1
[185000] SCOREBOARD MATCH: araddr passthrough expected = 1a15b590, actual =1a15b590
[185000] SCOREBOARD MATCH: arlen passthrough expected = 1, actual =1
[185000] SCOREBOARD MATCH: arsize passthrough expected = 3, actual =3
[185000] SCOREBOARD MATCH: arburst passthrough expected = 1, actual =1
[185000] SCOREBOARD MATCH: rdata size check expected = 2, actual =2
[185000] SCOREBOARD MATCH: rdata passthrough beat=0 expected = baadf00d12345678, actual =baadf00d12345678
[185000] SCOREBOARD MATCH: rdata passthrough beat=1 expected = baadf00d12345678, actual =baadf00d12345678
[185000] SCOREBOARD MATCH: rresp size check expected = 2, actual =2
[185000] SCOREBOARD MATCH: rresp passthrough beat=0 expected = 0, actual =0
[185000] SCOREBOARD MATCH: rresp passthrough beat=1 expected = 0, actual =0
[185000] SCOREBOARD MATCH: response routed to correct master (read beat 0) expected = 0, actual =0
[185000] SCOREBOARD MATCH: response routed to correct master (read beat 1) expected = 0, actual =0
[185000] [SCOREBOARD-M] READ mst_id=0 s_id=1 araddr=1a15b590 arid=3 arlen=1 arsize=3 arburst=1 rid=[33] rresp=[00] rdata=[baadf00d12345678baadf00d12345678]
[185000] [SCOREBOARD-S] READ mst_id=0 s_id=1 araddr=1a15b590 arid=3 arlen=1 arsize=3 arburst=1 rid=[33] rresp=[00] rdata=[baadf00d12345678baadf00d12345678]
[185000] SCOREBOARD: Transaction 4 received. pass=56 fail=0
[185000] ALL PASS. Total transactions: 4
[195000] SLAVE0 sent B resp, id=13
[195000] [SLAVE MONITOR] mst_id=0 s_id=0 awaddr=b7b57f8 awid=1101 awlen=1 awsize=3 awburst=1 wdata=[d749580ca0ebef66 c51485d5f38b54c0 ] wstrb=[ef f0 ] bresp=0 bid=1101
[215000] MASTER 0 B_VALID_RDY Handshake
[215000] [MASTER MONITOR] mst_id=0 s_id=0 awaddr=b7b57f8 awid=1101 awlen=1 awsize=3 awburst=1 wdata=[d749580ca0ebef66 c51485d5f38b54c0 ] wstrb=[ef f0 ] bresp=0 bid=1101
[215000] MASTER 0 RECEIVED BRESP. BRESP=0
[215000] [MASTER DRIVER] mst_id=0 s_id=0 awaddr=b7b57f8 awid=1101 awlen=1 awsize=3 awburst=1 wdata=[d749580ca0ebef66 c51485d5f38b54c0 ] wstrb=[ef f0 ] bresp=0 bid=1101
[215000] SCOREBOARD MATCH: decode_err expected = 0, actual =0
[215000] SCOREBOARD MATCH: slave_id expected = 0, actual =0
[215000] SCOREBOARD MATCH: awaddr passthrough expected = b7b57f8, actual =b7b57f8
[215000] SCOREBOARD MATCH: awlen passthrough expected = 1, actual =1
[215000] SCOREBOARD MATCH: awsize passthrough expected = 3, actual =3
[215000] SCOREBOARD MATCH: awburst passthrough expected = 1, actual =1
[215000] SCOREBOARD MATCH: wdata size check expected = 2, actual =2
[215000] SCOREBOARD MATCH: wdata passthrough beat=0 expected = d749580ca0ebef66, actual =d749580ca0ebef66
[215000] SCOREBOARD MATCH: wdata passthrough beat=1 expected = c51485d5f38b54c0, actual =c51485d5f38b54c0
[215000] SCOREBOARD MATCH: wstrb size check expected = 2, actual =2
[215000] SCOREBOARD MATCH: wstrb passthrough beat=0 expected = ef, actual =ef
[215000] SCOREBOARD MATCH: wstrb passthrough beat=1 expected = f0, actual =f0
[215000] SCOREBOARD MATCH: bresp passthrough expected = 0, actual =0
[215000] SCOREBOARD MATCH: response routed to correct master (write) expected = 0, actual =0
[215000] [SCOREBOARD-M] mst_id=0 s_id=0 awaddr=b7b57f8 awid=1101 awlen=1 awsize=3 awburst=1 wdata=[d749580ca0ebef66 c51485d5f38b54c0 ] wstrb=[ef f0 ] bresp=0 bid=1101
[215000] [SCOREBOARD-S] mst_id=0 s_id=0 awaddr=b7b57f8 awid=1101 awlen=1 awsize=3 awburst=1 wdata=[d749580ca0ebef66 c51485d5f38b54c0 ] wstrb=[ef f0 ] bresp=0 bid=1101
[215000] SCOREBOARD: Transaction 5 received. pass=70 fail=0
[215000] SCOREBOARD: Expected 5 transactions completed, PASS=70 FAIL=0
[215000] ALL PASS. Total transactions: 5
[215000] ALL TRANSACTIONS MONITORED
$finish called at time : 235 ns : File "/home/nashita/Desktop/practice/axi_xbar/tb/top/axi_tb_top.sv" Line 220
exit
INFO: xsimkernel Simulation Memory Usage: 289464 KB (Peak: 337864 KB), Simulation CPU Usage: 1170 ms
INFO: [Common 17-206] Exiting xsim at Thu Sep 10 17:54:04 2026...
