#-----------------------------------------------------------
# xsim v2025.2 (64-bit)
# SW Build 6299465 on Fri Nov 14 12:34:56 MST 2025
# IP Build 6300035 on Fri Nov 14 10:48:45 MST 2025
# SharedData Build 6298862 on Thu Nov 13 04:50:51 MST 2025
# Start of session at: Thu Sep 10 18:37:28 2026
# Process ID         : 3652341
# Current directory  : /home/nashita/Desktop/practice/axi_xbar/sim
# Command line       : xsim -log regress_results/BT_run349.log -mode tcl -source {xsim.dir/tb_top_snap/xsim_script.tcl}
# Log file           : /home/nashita/Desktop/practice/axi_xbar/sim/regress_results/BT_run349.log
# Journal file       : /home/nashita/Desktop/practice/axi_xbar/sim/xsim.jou
# Running On         : vlsi-vivado
# Platform           : Ubuntu
# Operating System   : Ubuntu 24.04.4 LTS
# Processor Detail   : Intel(R) Core(TM) i5-10400 CPU @ 2.90GHz
# CPU Frequency      : 3998.972 MHz
# CPU Physical cores : 6
# CPU Logical cores  : 12
# Host memory        : 41875 MB
# Swap memory        : 27648 MB
# Total Virtual      : 69524 MB
# Available Virtual  : 62680 MB
#-----------------------------------------------------------
source xsim.dir/tb_top_snap/xsim_script.tcl
# xsim {tb_top_snap} -testplusarg BT -autoloadwcfg -runall -sv_seed 350
Time resolution is 1 ps
run -all
[0] RUNNING BASE TEST
[0] INSIDE THE BASE TEST CONSTRUCTOR
[0] ENV: before agent
[0] SLAVE CONSTRUCTED
[0] MASTER MONITOR CONSTRUCTED
[0] MASTER MONITOR CONSTRUCTED
[0] SLAVE MONITOR CONSTRUCTED
[0] SLAVE MONITOR CONSTRUCTED
[0] ARB MONITOR CONSTRUCTED
GENERATOR CONSTRUCTED
[0] ENV: after agent
[0] ENV: before scoreboard
[0] ENV: after scoreboard
[15000] [SEQUENCER] READ mst_id=1 s_id=0 araddr=e5231a0 arid=0 arlen=1 arsize=3 arburst=1 rid=[] rresp=[] rdata=[]
[15000] [SEQUENCER] mst_id=1 s_id=0 awaddr=14cdfaa8 awid=1111 awlen=5 awsize=4 awburst=2 wdata=[fc4c66eb183369b9 c4fcd93dfd541918 137ee858007ce52d 18b04ee6cbb73300 c90b4c198fcb4f43 90483470ddad2823 ] wstrb=[71 24 56 b4 3d 7a ] bresp=0 bid=0
[15000] [SEQUENCER] mst_id=1 s_id=0 awaddr=f1e18e0 awid=100 awlen=1 awsize=6 awburst=1 wdata=[8f9b43dfae3f886a 36433818f5d88f2f ] wstrb=[fc b4 ] bresp=0 bid=0
[15000] [SEQUENCER] READ mst_id=1 s_id=0 araddr=18c0e80 arid=3 arlen=1 arsize=3 arburst=1 rid=[] rresp=[] rdata=[]
[15000] [SEQUENCER] mst_id=0 s_id=0 awaddr=eb37688 awid=1000 awlen=1 awsize=3 awburst=0 wdata=[3085c787b5c5e2fe 32594c04b370aebf ] wstrb=[58 bc ] bresp=0 bid=0
[15000] MASTER_DRIVER1 received transaction, op=AXI_READ
[15000] MASTER_DRIVER0 received transaction, op=AXI_WRITE
[35000] MASTER 0 AW_VALID_RDY Handshake
[35000] MASTER_DRIVER1 received transaction, op=AXI_WRITE
[45000] ARB MONITOR: slave=0 m0_req=1 m1_req=0 winner=0
[45000] ARB MONITOR: slave=0 m0_req=0 m1_req=1 winner=1
[45000] AXI S0_ARVALID_RDY HANDSHAKE
[45000] MEMORY READ MISS beat=0 addr=e5231a0 -> default data id=16
[45000] AXI S0_AWVALID_RDY HANDSHAKE
[55000] MEMORY READ MISS beat=1 addr=e5231a8 -> default data id=16
[55000] SLAVE 0 R_VALID_RDY Handshake beat=0 rlast=0
[55000] MASTER 1 AW_VALID_RDY Handshake
[55000] MASTER 0 W_VALID_RDY Handshake beat=0 wlast=0
[65000] MASTER 0 W_VALID_RDY Handshake beat=1 wlast=1
[65000] ARB MONITOR: slave=1 m0_req=0 m1_req=1 winner=1
[65000] SLAVE 0 R_VALID_RDY Handshake beat=1 rlast=1
[65000] [SLAVE MONITOR] READ mst_id=1 s_id=0 araddr=e5231a0 arid=0 arlen=1 arsize=3 arburst=1 rid=[1010] rresp=[00] rdata=[baadf00d12345678baadf00d12345678]
[65000] AXI S1_AWVALID_RDY HANDSHAKE
[65000] AXI S0_WVALID_RDY HANDSHAKE
[65000] S0 MEMORY WRITE beat=0 addr=0eb37688 data=3085c787b5c5e2fe id=08
[75000] AXI S0_WVALID_RDY HANDSHAKE
[75000] S0 MEMORY WRITE beat=1 addr=0eb37688 data=32594c04b370aebf id=08
[75000] MASTER 1 R_VALID_RDY Handshake beat=0 rlast=0
[75000] MASTER 1 W_VALID_RDY Handshake beat=0 wlast=0
[85000] [MASTER DRIVER] READ mst_id=1 s_id=0 araddr=e5231a0 arid=0 arlen=1 arsize=3 arburst=1 rid=[00] rresp=[00] rdata=[baadf00d12345678baadf00d12345678]
[85000] MASTER 1 W_VALID_RDY Handshake beat=1 wlast=0
[85000] MASTER 1 R_VALID_RDY Handshake beat=1 rlast=1
[85000] [MASTER MONITOR] READ mst_id=1 s_id=0 araddr=e5231a0 arid=0 arlen=1 arsize=3 arburst=1 rid=[00] rresp=[00] rdata=[baadf00d12345678baadf00d12345678]
[85000] S1 MEMORY WRITE beat=0 addr=14cdfaa8 data=fc4c66eb183369b9 id=1f
[85000] SLAVE0 sent B resp, id=8
[85000] SCOREBOARD MATCH: decode_err expected = 0, actual =0
[85000] SCOREBOARD MATCH: slave_id expected = 0, actual =0
[85000] SCOREBOARD MATCH: araddr passthrough expected = e5231a0, actual =e5231a0
[85000] SCOREBOARD MATCH: arlen passthrough expected = 1, actual =1
[85000] SCOREBOARD MATCH: arsize passthrough expected = 3, actual =3
[85000] SCOREBOARD MATCH: arburst passthrough expected = 1, actual =1
[85000] SCOREBOARD MATCH: rdata size check expected = 2, actual =2
[85000] SCOREBOARD MATCH: rdata passthrough beat=0 expected = baadf00d12345678, actual =baadf00d12345678
[85000] SCOREBOARD MATCH: rdata passthrough beat=1 expected = baadf00d12345678, actual =baadf00d12345678
[85000] SCOREBOARD MATCH: rresp size check expected = 2, actual =2
[85000] SCOREBOARD MATCH: rresp passthrough beat=0 expected = 0, actual =0
[85000] SCOREBOARD MATCH: rresp passthrough beat=1 expected = 0, actual =0
[85000] SCOREBOARD MATCH: response routed to correct master (read beat 0) expected = 1, actual =1
[85000] SCOREBOARD MATCH: response routed to correct master (read beat 1) expected = 1, actual =1
[85000] [SCOREBOARD-M] READ mst_id=1 s_id=0 araddr=e5231a0 arid=0 arlen=1 arsize=3 arburst=1 rid=[00] rresp=[00] rdata=[baadf00d12345678baadf00d12345678]
[85000] [SCOREBOARD-S] READ mst_id=1 s_id=0 araddr=e5231a0 arid=0 arlen=1 arsize=3 arburst=1 rid=[1010] rresp=[00] rdata=[baadf00d12345678baadf00d12345678]
[85000] SCOREBOARD: Transaction 1 received. pass=14 fail=0
[85000] ALL PASS. Total transactions: 1
[95000] S1 MEMORY WRITE beat=1 addr=14cdfab8 data=c4fcd93dfd541918 id=1f
[95000] [SLAVE MONITOR] mst_id=0 s_id=0 awaddr=eb37688 awid=1000 awlen=1 awsize=3 awburst=0 wdata=[3085c787b5c5e2fe 32594c04b370aebf ] wstrb=[58 bc ] bresp=0 bid=1000
[95000] MASTER 1 W_VALID_RDY Handshake beat=2 wlast=0
[105000] MASTER 0 RECEIVED BRESP. BRESP=0
[105000] [MASTER DRIVER] mst_id=0 s_id=0 awaddr=eb37688 awid=1000 awlen=1 awsize=3 awburst=0 wdata=[3085c787b5c5e2fe 32594c04b370aebf ] wstrb=[58 bc ] bresp=0 bid=1000
[105000] MASTER 0 B_VALID_RDY Handshake
[105000] [MASTER MONITOR] mst_id=0 s_id=0 awaddr=eb37688 awid=1000 awlen=1 awsize=3 awburst=0 wdata=[3085c787b5c5e2fe 32594c04b370aebf ] wstrb=[58 bc ] bresp=0 bid=1000
[105000] MASTER 1 W_VALID_RDY Handshake beat=3 wlast=0
[105000] S1 MEMORY WRITE beat=2 addr=14cdfac8 data=137ee858007ce52d id=1f
[105000] SCOREBOARD MATCH: decode_err expected = 0, actual =0
[105000] SCOREBOARD MATCH: slave_id expected = 0, actual =0
[105000] SCOREBOARD MATCH: awaddr passthrough expected = eb37688, actual =eb37688
[105000] SCOREBOARD MATCH: awlen passthrough expected = 1, actual =1
[105000] SCOREBOARD MATCH: awsize passthrough expected = 3, actual =3
[105000] SCOREBOARD MATCH: awburst passthrough expected = 0, actual =0
[105000] SCOREBOARD MATCH: wdata size check expected = 2, actual =2
[105000] SCOREBOARD MATCH: wdata passthrough beat=0 expected = 3085c787b5c5e2fe, actual =3085c787b5c5e2fe
[105000] SCOREBOARD MATCH: wdata passthrough beat=1 expected = 32594c04b370aebf, actual =32594c04b370aebf
[105000] SCOREBOARD MATCH: wstrb size check expected = 2, actual =2
[105000] SCOREBOARD MATCH: wstrb passthrough beat=0 expected = 58, actual =58
[105000] SCOREBOARD MATCH: wstrb passthrough beat=1 expected = bc, actual =bc
[105000] SCOREBOARD MATCH: bresp passthrough expected = 0, actual =0
[105000] SCOREBOARD MATCH: response routed to correct master (write) expected = 0, actual =0
[105000] [SCOREBOARD-M] mst_id=0 s_id=0 awaddr=eb37688 awid=1000 awlen=1 awsize=3 awburst=0 wdata=[3085c787b5c5e2fe 32594c04b370aebf ] wstrb=[58 bc ] bresp=0 bid=1000
[105000] [SCOREBOARD-S] mst_id=0 s_id=0 awaddr=eb37688 awid=1000 awlen=1 awsize=3 awburst=0 wdata=[3085c787b5c5e2fe 32594c04b370aebf ] wstrb=[58 bc ] bresp=0 bid=1000
[105000] SCOREBOARD: Transaction 2 received. pass=28 fail=0
[105000] ALL PASS. Total transactions: 2
[115000] S1 MEMORY WRITE beat=3 addr=14cdfad8 data=18b04ee6cbb73300 id=1f
[115000] MASTER 1 W_VALID_RDY Handshake beat=4 wlast=0
[125000] MASTER_DRIVER1 received transaction, op=AXI_WRITE
[125000] MASTER 1 W_VALID_RDY Handshake beat=5 wlast=1
[125000] S1 MEMORY WRITE beat=4 addr=14cdfa80 data=c90b4c198fcb4f43 id=1f
[135000] S1 MEMORY WRITE beat=5 addr=14cdfa90 data=90483470ddad2823 id=1f
[145000] MASTER 1 AW_VALID_RDY Handshake
[145000] SLAVE1 sent B resp, id=15
[155000] AXI S0_AWVALID_RDY HANDSHAKE
[155000] [SLAVE MONITOR] mst_id=1 s_id=1 awaddr=14cdfaa8 awid=1111 awlen=5 awsize=4 awburst=2 wdata=[fc4c66eb183369b9 c4fcd93dfd541918 137ee858007ce52d 18b04ee6cbb73300 c90b4c198fcb4f43 90483470ddad2823 ] wstrb=[71 24 56 b4 3d 7a ] bresp=0 bid=11111
[155000] ARB MONITOR: slave=0 m0_req=0 m1_req=1 winner=1
[165000] MASTER 1 RECEIVED BRESP. BRESP=0
[165000] [MASTER DRIVER] mst_id=1 s_id=0 awaddr=14cdfaa8 awid=1111 awlen=5 awsize=4 awburst=2 wdata=[fc4c66eb183369b9 c4fcd93dfd541918 137ee858007ce52d 18b04ee6cbb73300 c90b4c198fcb4f43 90483470ddad2823 ] wstrb=[71 24 56 b4 3d 7a ] bresp=0 bid=1111
[165000] MASTER 1 W_VALID_RDY Handshake beat=0 wlast=0
[165000] MASTER 1 B_VALID_RDY Handshake
[165000] [MASTER MONITOR] mst_id=1 s_id=1 awaddr=14cdfaa8 awid=1111 awlen=5 awsize=4 awburst=2 wdata=[fc4c66eb183369b9 c4fcd93dfd541918 137ee858007ce52d 18b04ee6cbb73300 c90b4c198fcb4f43 90483470ddad2823 ] wstrb=[71 24 56 b4 3d 7a ] bresp=0 bid=1111
[165000] SCOREBOARD MATCH: decode_err expected = 0, actual =0
[165000] SCOREBOARD MATCH: slave_id expected = 1, actual =1
[165000] SCOREBOARD MATCH: awaddr passthrough expected = 14cdfaa8, actual =14cdfaa8
[165000] SCOREBOARD MATCH: awlen passthrough expected = 5, actual =5
[165000] SCOREBOARD MATCH: awsize passthrough expected = 4, actual =4
[165000] SCOREBOARD MATCH: awburst passthrough expected = 2, actual =2
[165000] SCOREBOARD MATCH: wdata size check expected = 6, actual =6
[165000] SCOREBOARD MATCH: wdata passthrough beat=0 expected = fc4c66eb183369b9, actual =fc4c66eb183369b9
[165000] SCOREBOARD MATCH: wdata passthrough beat=1 expected = c4fcd93dfd541918, actual =c4fcd93dfd541918
[165000] SCOREBOARD MATCH: wdata passthrough beat=2 expected = 137ee858007ce52d, actual =137ee858007ce52d
[165000] SCOREBOARD MATCH: wdata passthrough beat=3 expected = 18b04ee6cbb73300, actual =18b04ee6cbb73300
[165000] SCOREBOARD MATCH: wdata passthrough beat=4 expected = c90b4c198fcb4f43, actual =c90b4c198fcb4f43
[165000] SCOREBOARD MATCH: wdata passthrough beat=5 expected = 90483470ddad2823, actual =90483470ddad2823
[165000] SCOREBOARD MATCH: wstrb size check expected = 6, actual =6
[165000] SCOREBOARD MATCH: wstrb passthrough beat=0 expected = 71, actual =71
[165000] SCOREBOARD MATCH: wstrb passthrough beat=1 expected = 24, actual =24
[165000] SCOREBOARD MATCH: wstrb passthrough beat=2 expected = 56, actual =56
[165000] SCOREBOARD MATCH: wstrb passthrough beat=3 expected = b4, actual =b4
[165000] SCOREBOARD MATCH: wstrb passthrough beat=4 expected = 3d, actual =3d
[165000] SCOREBOARD MATCH: wstrb passthrough beat=5 expected = 7a, actual =7a
[165000] SCOREBOARD MATCH: bresp passthrough expected = 0, actual =0
[165000] SCOREBOARD MATCH: response routed to correct master (write) expected = 1, actual =1
[165000] [SCOREBOARD-M] mst_id=1 s_id=1 awaddr=14cdfaa8 awid=1111 awlen=5 awsize=4 awburst=2 wdata=[fc4c66eb183369b9 c4fcd93dfd541918 137ee858007ce52d 18b04ee6cbb73300 c90b4c198fcb4f43 90483470ddad2823 ] wstrb=[71 24 56 b4 3d 7a ] bresp=0 bid=1111
[165000] [SCOREBOARD-S] mst_id=1 s_id=1 awaddr=14cdfaa8 awid=1111 awlen=5 awsize=4 awburst=2 wdata=[fc4c66eb183369b9 c4fcd93dfd541918 137ee858007ce52d 18b04ee6cbb73300 c90b4c198fcb4f43 90483470ddad2823 ] wstrb=[71 24 56 b4 3d 7a ] bresp=0 bid=11111
[165000] SCOREBOARD: Transaction 3 received. pass=50 fail=0
[165000] ALL PASS. Total transactions: 3
[175000] AXI S0_WVALID_RDY HANDSHAKE
[175000] S0 MEMORY WRITE beat=0 addr=0f1e18e0 data=8f9b43dfae3f886a id=14
[175000] MASTER 1 W_VALID_RDY Handshake beat=1 wlast=1
[175000] MASTER_DRIVER1 received transaction, op=AXI_READ
[185000] AXI S0_WVALID_RDY HANDSHAKE
[185000] S0 MEMORY WRITE beat=1 addr=0f1e1920 data=36433818f5d88f2f id=14
[195000] SLAVE0 sent B resp, id=4
[195000] [SLAVE MONITOR] mst_id=1 s_id=0 awaddr=f1e18e0 awid=100 awlen=1 awsize=6 awburst=1 wdata=[8f9b43dfae3f886a 36433818f5d88f2f ] wstrb=[fc b4 ] bresp=0 bid=10100
[205000] ARB MONITOR: slave=0 m0_req=0 m1_req=1 winner=1
[205000] AXI S0_ARVALID_RDY HANDSHAKE
[205000] MEMORY READ MISS beat=0 addr=18c0e80 -> default data id=19
[215000] MEMORY READ MISS beat=1 addr=18c0e88 -> default data id=19
[215000] SLAVE 0 R_VALID_RDY Handshake beat=0 rlast=0
[215000] MASTER 1 B_VALID_RDY Handshake
[215000] [MASTER MONITOR] mst_id=1 s_id=0 awaddr=f1e18e0 awid=100 awlen=1 awsize=6 awburst=1 wdata=[8f9b43dfae3f886a 36433818f5d88f2f ] wstrb=[fc b4 ] bresp=0 bid=100
[215000] MASTER 1 RECEIVED BRESP. BRESP=0
[215000] [MASTER DRIVER] mst_id=1 s_id=0 awaddr=f1e18e0 awid=100 awlen=1 awsize=6 awburst=1 wdata=[8f9b43dfae3f886a 36433818f5d88f2f ] wstrb=[fc b4 ] bresp=0 bid=100
[215000] SCOREBOARD MATCH: decode_err expected = 0, actual =0
[215000] SCOREBOARD MATCH: slave_id expected = 0, actual =0
[215000] SCOREBOARD MATCH: awaddr passthrough expected = f1e18e0, actual =f1e18e0
[215000] SCOREBOARD MATCH: awlen passthrough expected = 1, actual =1
[215000] SCOREBOARD MATCH: awsize passthrough expected = 6, actual =6
[215000] SCOREBOARD MATCH: awburst passthrough expected = 1, actual =1
[215000] SCOREBOARD MATCH: wdata size check expected = 2, actual =2
[215000] SCOREBOARD MATCH: wdata passthrough beat=0 expected = 8f9b43dfae3f886a, actual =8f9b43dfae3f886a
[215000] SCOREBOARD MATCH: wdata passthrough beat=1 expected = 36433818f5d88f2f, actual =36433818f5d88f2f
[215000] SCOREBOARD MATCH: wstrb size check expected = 2, actual =2
[215000] SCOREBOARD MATCH: wstrb passthrough beat=0 expected = fc, actual =fc
[215000] SCOREBOARD MATCH: wstrb passthrough beat=1 expected = b4, actual =b4
[215000] SCOREBOARD MATCH: bresp passthrough expected = 0, actual =0
[215000] SCOREBOARD MATCH: response routed to correct master (write) expected = 1, actual =1
[215000] [SCOREBOARD-M] mst_id=1 s_id=0 awaddr=f1e18e0 awid=100 awlen=1 awsize=6 awburst=1 wdata=[8f9b43dfae3f886a 36433818f5d88f2f ] wstrb=[fc b4 ] bresp=0 bid=100
[215000] [SCOREBOARD-S] mst_id=1 s_id=0 awaddr=f1e18e0 awid=100 awlen=1 awsize=6 awburst=1 wdata=[8f9b43dfae3f886a 36433818f5d88f2f ] wstrb=[fc b4 ] bresp=0 bid=10100
[215000] SCOREBOARD: Transaction 4 received. pass=64 fail=0
[215000] ALL PASS. Total transactions: 4
[225000] SLAVE 0 R_VALID_RDY Handshake beat=1 rlast=1
[225000] [SLAVE MONITOR] READ mst_id=1 s_id=0 araddr=18c0e80 arid=3 arlen=1 arsize=3 arburst=1 rid=[1313] rresp=[00] rdata=[baadf00d12345678baadf00d12345678]
[235000] MASTER 1 R_VALID_RDY Handshake beat=0 rlast=0
[245000] [MASTER DRIVER] READ mst_id=1 s_id=0 araddr=18c0e80 arid=3 arlen=1 arsize=3 arburst=1 rid=[33] rresp=[00] rdata=[baadf00d12345678baadf00d12345678]
[245000] MASTER 1 R_VALID_RDY Handshake beat=1 rlast=1
[245000] [MASTER MONITOR] READ mst_id=1 s_id=0 araddr=18c0e80 arid=3 arlen=1 arsize=3 arburst=1 rid=[33] rresp=[00] rdata=[baadf00d12345678baadf00d12345678]
[245000] SCOREBOARD MATCH: decode_err expected = 0, actual =0
[245000] SCOREBOARD MATCH: slave_id expected = 0, actual =0
[245000] SCOREBOARD MATCH: araddr passthrough expected = 18c0e80, actual =18c0e80
[245000] SCOREBOARD MATCH: arlen passthrough expected = 1, actual =1
[245000] SCOREBOARD MATCH: arsize passthrough expected = 3, actual =3
[245000] SCOREBOARD MATCH: arburst passthrough expected = 1, actual =1
[245000] SCOREBOARD MATCH: rdata size check expected = 2, actual =2
[245000] SCOREBOARD MATCH: rdata passthrough beat=0 expected = baadf00d12345678, actual =baadf00d12345678
[245000] SCOREBOARD MATCH: rdata passthrough beat=1 expected = baadf00d12345678, actual =baadf00d12345678
[245000] SCOREBOARD MATCH: rresp size check expected = 2, actual =2
[245000] SCOREBOARD MATCH: rresp passthrough beat=0 expected = 0, actual =0
[245000] SCOREBOARD MATCH: rresp passthrough beat=1 expected = 0, actual =0
[245000] SCOREBOARD MATCH: response routed to correct master (read beat 0) expected = 1, actual =1
[245000] SCOREBOARD MATCH: response routed to correct master (read beat 1) expected = 1, actual =1
[245000] [SCOREBOARD-M] READ mst_id=1 s_id=0 araddr=18c0e80 arid=3 arlen=1 arsize=3 arburst=1 rid=[33] rresp=[00] rdata=[baadf00d12345678baadf00d12345678]
[245000] [SCOREBOARD-S] READ mst_id=1 s_id=0 araddr=18c0e80 arid=3 arlen=1 arsize=3 arburst=1 rid=[1313] rresp=[00] rdata=[baadf00d12345678baadf00d12345678]
[245000] SCOREBOARD: Transaction 5 received. pass=78 fail=0
[245000] SCOREBOARD: Expected 5 transactions completed, PASS=78 FAIL=0
[245000] ALL PASS. Total transactions: 5
[245000] ALL TRANSACTIONS MONITORED
$finish called at time : 265 ns : File "/home/nashita/Desktop/practice/axi_xbar/tb/top/axi_tb_top.sv" Line 220
exit
INFO: xsimkernel Simulation Memory Usage: 289464 KB (Peak: 337864 KB), Simulation CPU Usage: 1200 ms
INFO: [Common 17-206] Exiting xsim at Thu Sep 10 18:37:31 2026...
