#-----------------------------------------------------------
# xsim v2025.2 (64-bit)
# SW Build 6299465 on Fri Nov 14 12:34:56 MST 2025
# IP Build 6300035 on Fri Nov 14 10:48:45 MST 2025
# SharedData Build 6298862 on Thu Nov 13 04:50:51 MST 2025
# Start of session at: Tue Sep  8 16:05:55 2026
# Process ID         : 3985014
# Current directory  : /home/nashita/Desktop/practice/axi_xbar/sim
# Command line       : xsim -log regress_results/BT_run71.log -mode tcl -source {xsim.dir/tb_top_snap/xsim_script.tcl}
# Log file           : /home/nashita/Desktop/practice/axi_xbar/sim/regress_results/BT_run71.log
# Journal file       : /home/nashita/Desktop/practice/axi_xbar/sim/xsim.jou
# Running On         : vlsi-vivado
# Platform           : Ubuntu
# Operating System   : Ubuntu 24.04.4 LTS
# Processor Detail   : Intel(R) Core(TM) i5-10400 CPU @ 2.90GHz
# CPU Frequency      : 4127.596 MHz
# CPU Physical cores : 6
# CPU Logical cores  : 12
# Host memory        : 41875 MB
# Swap memory        : 27648 MB
# Total Virtual      : 69524 MB
# Available Virtual  : 60311 MB
#-----------------------------------------------------------
source xsim.dir/tb_top_snap/xsim_script.tcl
# xsim {tb_top_snap} -testplusarg BT -autoloadwcfg -runall -sv_seed 72
Time resolution is 1 ps
run -all
[0] RUNNING BASE TEST
[0] INSIDE THE BASE TEST CONSTRUCTOR
[0] ENV: before agent
[0] SLAVE CONSTRUCTED
[0] MASTER MONITOR CONSTRUCTED
[0] MASTER MONITOR CONSTRUCTED
[0] SLAVE MONITOR CONSTRUCTED
[0] SLAVE MONITOR CONSTRUCTED
[0] ARB MONITOR CONSTRUCTED
GENERATOR CONSTRUCTED
[0] ENV: after agent
[0] ENV: before scoreboard
[0] ENV: after scoreboard
[15000] [SEQUENCER] READ mst_id=0 s_id=0 araddr=1739dce8 arid=0 arlen=1 arsize=3 arburst=1 rid=[] rresp=[] rdata=[]
[15000] [SEQUENCER] READ mst_id=0 s_id=0 araddr=6f9c7f8 arid=1 arlen=1 arsize=3 arburst=1 rid=[] rresp=[] rdata=[]
[15000] [SEQUENCER] mst_id=0 s_id=0 awaddr=2a579d8 awid=1100 awlen=1 awsize=3 awburst=1 wdata=[] wstrb=[] bresp=0 bid=0
[15000] [SEQUENCER] mst_id=0 s_id=0 awaddr=19808c68 awid=101 awlen=1 awsize=3 awburst=1 wdata=[] wstrb=[] bresp=0 bid=0
[15000] [SEQUENCER] READ mst_id=0 s_id=0 araddr=12cc3500 arid=4 arlen=1 arsize=3 arburst=1 rid=[] rresp=[] rdata=[]
[15000] [SEQUENCER] READ mst_id=1 s_id=0 araddr=f077bb8 arid=0 arlen=1 arsize=3 arburst=1 rid=[] rresp=[] rdata=[]
[15000] [SEQUENCER] mst_id=1 s_id=0 awaddr=13bff868 awid=101 awlen=1 awsize=3 awburst=1 wdata=[] wstrb=[] bresp=0 bid=0
[15000] [SEQUENCER] mst_id=1 s_id=0 awaddr=15f860e8 awid=1011 awlen=1 awsize=3 awburst=1 wdata=[] wstrb=[] bresp=0 bid=0
[15000] [SEQUENCER] mst_id=1 s_id=0 awaddr=1a4fdbf8 awid=1001 awlen=1 awsize=3 awburst=1 wdata=[] wstrb=[] bresp=0 bid=0
[15000] [SEQUENCER] READ mst_id=0 s_id=0 araddr=69e4bd8 arid=5 arlen=1 arsize=3 arburst=1 rid=[] rresp=[] rdata=[]
[15000] MASTER_DRIVER0 received transaction, op=AXI_READ
[15000] MASTER_DRIVER1 received transaction, op=AXI_READ
[35000] MASTER_DRIVER0 received transaction, op=AXI_READ
[35000] MASTER_DRIVER1 received transaction, op=AXI_WRITE
[45000] ARB MONITOR: slave=0 m0_req=0 m1_req=1 winner=1
[45000] ARB MONITOR: slave=1 m0_req=1 m1_req=0 winner=0
[45000] AXI S0_ARVALID_RDY HANDSHAKE
[45000] MEMORY READ MISS beat=0 addr=1739dce8 -> default data id=0
[45000] AXI S0_ARVALID_RDY HANDSHAKE
[45000] MEMORY READ MISS beat=0 addr=f077bb8 -> default data id=16
[55000] MEMORY READ MISS beat=1 addr=f077bc0 -> default data id=16
[55000] MEMORY READ MISS beat=1 addr=1739dcf0 -> default data id=0
[55000] SLAVE 0 R_VALID_RDY Handshake beat=0 rlast=0
[55000] SLAVE 1 R_VALID_RDY Handshake beat=0 rlast=0
[55000] MASTER 1 AW_VALID_RDY Handshake
[55000] MASTER_DRIVER0 received transaction, op=AXI_WRITE
[65000] ARB MONITOR: slave=1 m0_req=0 m1_req=1 winner=1
[65000] SLAVE 1 R_VALID_RDY Handshake beat=1 rlast=1
[65000] [SLAVE MONITOR AR] READ mst_id=0 s_id=1 araddr=1739dce8 arid=0 arlen=1 arsize=3 arburst=1 rid=[00] rresp=[00] rdata=[baadf00d12345678baadf00d12345678]
[65000] SLAVE 0 R_VALID_RDY Handshake beat=1 rlast=1
[65000] [SLAVE MONITOR AR] READ mst_id=1 s_id=0 araddr=f077bb8 arid=0 arlen=1 arsize=3 arburst=1 rid=[1010] rresp=[00] rdata=[baadf00d12345678baadf00d12345678]
[65000] AXI S1_AWVALID_RDY HANDSHAKE
[75000] AXI S0_ARVALID_RDY HANDSHAKE
[75000] MEMORY READ MISS beat=0 addr=6f9c7f8 -> default data id=1
[75000] ARB MONITOR: slave=0 m0_req=1 m1_req=0 winner=0
[75000] MASTER 1 R_VALID_RDY Handshake beat=0 rlast=0
[75000] MASTER 1 W_VALID_RDY Handshake beat=0 wlast=0
[75000] MASTER 0 R_VALID_RDY Handshake beat=0 rlast=0
[75000] MASTER 0 AW_VALID_RDY Handshake
[85000] [MASTER DRIVER] READ mst_id=1 s_id=0 araddr=f077bb8 arid=0 arlen=1 arsize=3 arburst=1 rid=[00] rresp=[00] rdata=[baadf00d12345678baadf00d12345678]
[85000] MASTER_DRIVER1 received transaction, op=AXI_WRITE
[85000] [MASTER DRIVER] READ mst_id=0 s_id=0 araddr=1739dce8 arid=0 arlen=1 arsize=3 arburst=1 rid=[00] rresp=[00] rdata=[baadf00d12345678baadf00d12345678]
[85000] MASTER 0 R_VALID_RDY Handshake beat=1 rlast=1
[85000] [MASTER MONITOR] READ mst_id=0 s_id=1 araddr=1739dce8 arid=0 arlen=1 arsize=3 arburst=1 rid=[00] rresp=[00] rdata=[baadf00d12345678baadf00d12345678]
[85000] MASTER 1 W_VALID_RDY Handshake beat=1 wlast=1
[85000] MASTER 1 R_VALID_RDY Handshake beat=1 rlast=1
[85000] [MASTER MONITOR] READ mst_id=1 s_id=0 araddr=f077bb8 arid=0 arlen=1 arsize=3 arburst=1 rid=[00] rresp=[00] rdata=[baadf00d12345678baadf00d12345678]
[85000] ARB MONITOR: slave=0 m0_req=1 m1_req=0 winner=0
[85000] AXI S1_WVALID_RDY HANDSHAKE
[85000] SLAVE 0 R_VALID_RDY Handshake beat=0 rlast=0
[85000] MEMORY READ MISS beat=1 addr=6f9c800 -> default data id=1
[85000] S1 MEMORY WRITE beat=0 addr=13bff868 data=0000000000000000 id=15
[85000] AXI S0_AWVALID_RDY HANDSHAKE
[85000] SCOREBOARD MATCH: decode_err expected = 0, actual =0
[85000] SCOREBOARD MATCH: slave_id expected = 1, actual =1
[85000] SCOREBOARD MATCH: araddr passthrough expected = 1739dce8, actual =1739dce8
[85000] SCOREBOARD MATCH: arlen passthrough expected = 1, actual =1
[85000] SCOREBOARD MATCH: arsize passthrough expected = 3, actual =3
[85000] SCOREBOARD MATCH: arburst passthrough expected = 1, actual =1
[85000] SCOREBOARD MATCH: rdata size check expected = 2, actual =2
[85000] SCOREBOARD MATCH: rdata passthrough beat=0 expected = baadf00d12345678, actual =baadf00d12345678
[85000] SCOREBOARD MATCH: rdata passthrough beat=1 expected = baadf00d12345678, actual =baadf00d12345678
[85000] SCOREBOARD MATCH: rresp size check expected = 2, actual =2
[85000] SCOREBOARD MATCH: rresp passthrough beat=0 expected = 0, actual =0
[85000] SCOREBOARD MATCH: rresp passthrough beat=1 expected = 0, actual =0
[85000] SCOREBOARD MATCH: response routed to correct master (read beat 0) expected = 0, actual =0
[85000] SCOREBOARD MATCH: response routed to correct master (read beat 1) expected = 0, actual =0
[85000] [SCOREBOARD-M] READ mst_id=0 s_id=1 araddr=1739dce8 arid=0 arlen=1 arsize=3 arburst=1 rid=[00] rresp=[00] rdata=[baadf00d12345678baadf00d12345678]
[85000] [SCOREBOARD-S] READ mst_id=0 s_id=1 araddr=1739dce8 arid=0 arlen=1 arsize=3 arburst=1 rid=[00] rresp=[00] rdata=[baadf00d12345678baadf00d12345678]
[85000] SCOREBOARD: Transaction 1 received. pass=14 fail=0
[85000] ALL PASS. Total transactions: 1
[85000] SCOREBOARD MATCH: decode_err expected = 0, actual =0
[85000] SCOREBOARD MATCH: slave_id expected = 0, actual =0
[85000] SCOREBOARD MATCH: araddr passthrough expected = f077bb8, actual =f077bb8
[85000] SCOREBOARD MATCH: arlen passthrough expected = 1, actual =1
[85000] SCOREBOARD MATCH: arsize passthrough expected = 3, actual =3
[85000] SCOREBOARD MATCH: arburst passthrough expected = 1, actual =1
[85000] SCOREBOARD MATCH: rdata size check expected = 2, actual =2
[85000] SCOREBOARD MATCH: rdata passthrough beat=0 expected = baadf00d12345678, actual =baadf00d12345678
[85000] SCOREBOARD MATCH: rdata passthrough beat=1 expected = baadf00d12345678, actual =baadf00d12345678
[85000] SCOREBOARD MATCH: rresp size check expected = 2, actual =2
[85000] SCOREBOARD MATCH: rresp passthrough beat=0 expected = 0, actual =0
[85000] SCOREBOARD MATCH: rresp passthrough beat=1 expected = 0, actual =0
[85000] SCOREBOARD MATCH: response routed to correct master (read beat 0) expected = 1, actual =1
[85000] SCOREBOARD MATCH: response routed to correct master (read beat 1) expected = 1, actual =1
[85000] [SCOREBOARD-M] READ mst_id=1 s_id=0 araddr=f077bb8 arid=0 arlen=1 arsize=3 arburst=1 rid=[00] rresp=[00] rdata=[baadf00d12345678baadf00d12345678]
[85000] [SCOREBOARD-S] READ mst_id=1 s_id=0 araddr=f077bb8 arid=0 arlen=1 arsize=3 arburst=1 rid=[1010] rresp=[00] rdata=[baadf00d12345678baadf00d12345678]
[85000] SCOREBOARD: Transaction 2 received. pass=28 fail=0
[85000] ALL PASS. Total transactions: 2
[95000] S1 MEMORY WRITE beat=1 addr=13bff870 data=0000000000000000 id=15
[95000] SLAVE 0 R_VALID_RDY Handshake beat=1 rlast=1
[95000] [SLAVE MONITOR AR] READ mst_id=0 s_id=0 araddr=6f9c7f8 arid=1 arlen=1 arsize=3 arburst=1 rid=[11] rresp=[00] rdata=[baadf00d12345678baadf00d12345678]
[95000] AXI S1_WVALID_RDY HANDSHAKE
[95000] MASTER 0 W_VALID_RDY Handshake beat=0 wlast=0
[105000] MASTER_DRIVER0 received transaction, op=AXI_WRITE
[105000] MASTER 0 W_VALID_RDY Handshake beat=1 wlast=1
[105000] MASTER 0 R_VALID_RDY Handshake beat=0 rlast=0
[105000] MASTER 1 AW_VALID_RDY Handshake
[105000] AXI S1_BVALID_RDY HANDSHAKE
[105000] [SLAVE MONITOR] mst_id=1 s_id=1 awaddr=13bff868 awid=101 awlen=1 awsize=3 awburst=1 wdata=[0 0 ] wstrb=[0 0 ] bresp=0 bid=10101
[105000] AXI S0_WVALID_RDY HANDSHAKE
[105000] SLAVE1 sent B resp, id=5
[105000] AXI S0_WVALID_RDY HANDSHAKE
[105000] S0 MEMORY WRITE beat=0 addr=02a579d8 data=0000000000000000 id=0c
[115000] AXI S0_WVALID_RDY HANDSHAKE
[115000] S0 MEMORY WRITE beat=1 addr=02a579e0 data=0000000000000000 id=0c
[115000] AXI S1_AWVALID_RDY HANDSHAKE
[115000] AXI S0_WVALID_RDY HANDSHAKE
[115000] ARB MONITOR: slave=1 m0_req=0 m1_req=1 winner=1
[115000] MASTER 0 R_VALID_RDY Handshake beat=1 rlast=1
[115000] [MASTER MONITOR] READ mst_id=0 s_id=0 araddr=6f9c7f8 arid=1 arlen=1 arsize=3 arburst=1 rid=[11] rresp=[00] rdata=[baadf00d12345678baadf00d12345678]
[115000] [MASTER DRIVER] READ mst_id=0 s_id=0 araddr=6f9c7f8 arid=1 arlen=1 arsize=3 arburst=1 rid=[11] rresp=[00] rdata=[baadf00d12345678baadf00d12345678]
[115000] SCOREBOARD MATCH: decode_err expected = 0, actual =0
[115000] SCOREBOARD MATCH: slave_id expected = 0, actual =0
[115000] SCOREBOARD MATCH: araddr passthrough expected = 6f9c7f8, actual =6f9c7f8
[115000] SCOREBOARD MATCH: arlen passthrough expected = 1, actual =1
[115000] SCOREBOARD MATCH: arsize passthrough expected = 3, actual =3
[115000] SCOREBOARD MATCH: arburst passthrough expected = 1, actual =1
[115000] SCOREBOARD MATCH: rdata size check expected = 2, actual =2
[115000] SCOREBOARD MATCH: rdata passthrough beat=0 expected = baadf00d12345678, actual =baadf00d12345678
[115000] SCOREBOARD MATCH: rdata passthrough beat=1 expected = baadf00d12345678, actual =baadf00d12345678
[115000] SCOREBOARD MATCH: rresp size check expected = 2, actual =2
[115000] SCOREBOARD MATCH: rresp passthrough beat=0 expected = 0, actual =0
[115000] SCOREBOARD MATCH: rresp passthrough beat=1 expected = 0, actual =0
[115000] SCOREBOARD MATCH: response routed to correct master (read beat 0) expected = 0, actual =0
[115000] SCOREBOARD MATCH: response routed to correct master (read beat 1) expected = 0, actual =0
[115000] [SCOREBOARD-M] READ mst_id=0 s_id=0 araddr=6f9c7f8 arid=1 arlen=1 arsize=3 arburst=1 rid=[11] rresp=[00] rdata=[baadf00d12345678baadf00d12345678]
[115000] [SCOREBOARD-S] READ mst_id=0 s_id=0 araddr=6f9c7f8 arid=1 arlen=1 arsize=3 arburst=1 rid=[11] rresp=[00] rdata=[baadf00d12345678baadf00d12345678]
[115000] SCOREBOARD: Transaction 3 received. pass=42 fail=0
[115000] ALL PASS. Total transactions: 3
[125000] MASTER 1 RECEIVED BRESP. BRESP=0
[125000] [MASTER DRIVER] mst_id=1 s_id=0 awaddr=13bff868 awid=101 awlen=1 awsize=3 awburst=1 wdata=[] wstrb=[] bresp=0 bid=101
[125000] MASTER 0 AW_VALID_RDY Handshake
[125000] MASTER 1 W_VALID_RDY Handshake beat=0 wlast=0
[125000] MASTER 1 B_VALID_RDY Handshake
[125000] [MASTER MONITOR] mst_id=1 s_id=1 awaddr=13bff868 awid=101 awlen=1 awsize=3 awburst=1 wdata=[0 0 ] wstrb=[0 0 ] bresp=0 bid=101
[125000] AXI S0_BVALID_RDY HANDSHAKE
[125000] [SLAVE MONITOR] mst_id=0 s_id=0 awaddr=2a579d8 awid=1100 awlen=1 awsize=3 awburst=1 wdata=[0 0 ] wstrb=[0 0 ] bresp=0 bid=1100
[125000] SLAVE0 sent B resp, id=12
[125000] SCOREBOARD MATCH: decode_err expected = 0, actual =0
[125000] SCOREBOARD MATCH: slave_id expected = 1, actual =1
[125000] SCOREBOARD MATCH: awaddr passthrough expected = 13bff868, actual =13bff868
[125000] SCOREBOARD MATCH: awlen passthrough expected = 1, actual =1
[125000] SCOREBOARD MATCH: awsize passthrough expected = 3, actual =3
[125000] SCOREBOARD MATCH: awburst passthrough expected = 1, actual =1
[125000] SCOREBOARD MATCH: wdata size check expected = 2, actual =2
[125000] SCOREBOARD MATCH: wdata passthrough beat=0 expected = 0, actual =0
[125000] SCOREBOARD MATCH: wdata passthrough beat=1 expected = 0, actual =0
[125000] SCOREBOARD MATCH: wstrb size check expected = 2, actual =2
[125000] SCOREBOARD MATCH: wstrb passthrough beat=0 expected = 0, actual =0
[125000] SCOREBOARD MATCH: wstrb passthrough beat=1 expected = 0, actual =0
[125000] SCOREBOARD MATCH: bresp passthrough expected = 0, actual =0
[125000] SCOREBOARD MATCH: response routed to correct master (write) expected = 1, actual =1
[125000] [SCOREBOARD-M] mst_id=1 s_id=1 awaddr=13bff868 awid=101 awlen=1 awsize=3 awburst=1 wdata=[0 0 ] wstrb=[0 0 ] bresp=0 bid=101
[125000] [SCOREBOARD-S] mst_id=1 s_id=1 awaddr=13bff868 awid=101 awlen=1 awsize=3 awburst=1 wdata=[0 0 ] wstrb=[0 0 ] bresp=0 bid=10101
[125000] SCOREBOARD: Transaction 4 received. pass=56 fail=0
[125000] ALL PASS. Total transactions: 4
[135000] S1 MEMORY WRITE beat=0 addr=15f860e8 data=0000000000000000 id=1b
[135000] AXI S1_WVALID_RDY HANDSHAKE
[135000] MASTER 1 W_VALID_RDY Handshake beat=1 wlast=1
[135000] MASTER_DRIVER1 received transaction, op=AXI_WRITE
[145000] MASTER 0 RECEIVED BRESP. BRESP=0
[145000] [MASTER DRIVER] mst_id=0 s_id=0 awaddr=2a579d8 awid=1100 awlen=1 awsize=3 awburst=1 wdata=[] wstrb=[] bresp=0 bid=1100
[145000] MASTER 0 W_VALID_RDY Handshake beat=0 wlast=0
[145000] MASTER 0 B_VALID_RDY Handshake
[145000] [MASTER MONITOR] mst_id=0 s_id=0 awaddr=2a579d8 awid=1100 awlen=1 awsize=3 awburst=1 wdata=[0 0 ] wstrb=[0 0 ] bresp=0 bid=1100
[145000] AXI S1_WVALID_RDY HANDSHAKE
[145000] S1 MEMORY WRITE beat=1 addr=15f860f0 data=0000000000000000 id=1b
[145000] SCOREBOARD MATCH: decode_err expected = 0, actual =0
[145000] SCOREBOARD MATCH: slave_id expected = 0, actual =0
[145000] SCOREBOARD MATCH: awaddr passthrough expected = 2a579d8, actual =2a579d8
[145000] SCOREBOARD MATCH: awlen passthrough expected = 1, actual =1
[145000] SCOREBOARD MATCH: awsize passthrough expected = 3, actual =3
[145000] SCOREBOARD MATCH: awburst passthrough expected = 1, actual =1
[145000] SCOREBOARD MATCH: wdata size check expected = 2, actual =2
[145000] SCOREBOARD MATCH: wdata passthrough beat=0 expected = 0, actual =0
[145000] SCOREBOARD MATCH: wdata passthrough beat=1 expected = 0, actual =0
[145000] SCOREBOARD MATCH: wstrb size check expected = 2, actual =2
[145000] SCOREBOARD MATCH: wstrb passthrough beat=0 expected = 0, actual =0
[145000] SCOREBOARD MATCH: wstrb passthrough beat=1 expected = 0, actual =0
[145000] SCOREBOARD MATCH: bresp passthrough expected = 0, actual =0
[145000] SCOREBOARD MATCH: response routed to correct master (write) expected = 0, actual =0
[145000] [SCOREBOARD-M] mst_id=0 s_id=0 awaddr=2a579d8 awid=1100 awlen=1 awsize=3 awburst=1 wdata=[0 0 ] wstrb=[0 0 ] bresp=0 bid=1100
[145000] [SCOREBOARD-S] mst_id=0 s_id=0 awaddr=2a579d8 awid=1100 awlen=1 awsize=3 awburst=1 wdata=[0 0 ] wstrb=[0 0 ] bresp=0 bid=1100
[145000] SCOREBOARD: Transaction 5 received. pass=70 fail=0
[145000] ALL PASS. Total transactions: 5
[155000] SLAVE1 sent B resp, id=11
[155000] AXI S1_BVALID_RDY HANDSHAKE
[155000] [SLAVE MONITOR] mst_id=1 s_id=1 awaddr=15f860e8 awid=1011 awlen=1 awsize=3 awburst=1 wdata=[0 0 ] wstrb=[0 0 ] bresp=0 bid=11011
[155000] MASTER 1 AW_VALID_RDY Handshake
[155000] MASTER 0 W_VALID_RDY Handshake beat=1 wlast=1
[155000] MASTER_DRIVER0 received transaction, op=AXI_READ
[165000] ARB MONITOR: slave=1 m0_req=1 m1_req=1 winner=0
[165000] AXI S1_AWVALID_RDY HANDSHAKE
[165000] SCOREBOARD MATCH: arbitration winner (slave 1) expected = 0, actual =0
[175000] S1 MEMORY WRITE beat=0 addr=19808c68 data=0000000000000000 id=05
[175000] AXI S1_WVALID_RDY HANDSHAKE
[175000] MASTER 1 W_VALID_RDY Handshake beat=0 wlast=0
[175000] MASTER 1 B_VALID_RDY Handshake
[175000] [MASTER MONITOR] mst_id=1 s_id=1 awaddr=15f860e8 awid=1011 awlen=1 awsize=3 awburst=1 wdata=[0 0 ] wstrb=[0 0 ] bresp=0 bid=1011
[175000] MASTER_DRIVER0 received transaction, op=AXI_READ
[175000] MASTER 1 RECEIVED BRESP. BRESP=0
[175000] [MASTER DRIVER] mst_id=1 s_id=0 awaddr=15f860e8 awid=1011 awlen=1 awsize=3 awburst=1 wdata=[] wstrb=[] bresp=0 bid=1011
[175000] SCOREBOARD MATCH: decode_err expected = 0, actual =0
[175000] SCOREBOARD MATCH: slave_id expected = 1, actual =1
[175000] SCOREBOARD MATCH: awaddr passthrough expected = 15f860e8, actual =15f860e8
[175000] SCOREBOARD MATCH: awlen passthrough expected = 1, actual =1
[175000] SCOREBOARD MATCH: awsize passthrough expected = 3, actual =3
[175000] SCOREBOARD MATCH: awburst passthrough expected = 1, actual =1
[175000] SCOREBOARD MATCH: wdata size check expected = 2, actual =2
[175000] SCOREBOARD MATCH: wdata passthrough beat=0 expected = 0, actual =0
[175000] SCOREBOARD MATCH: wdata passthrough beat=1 expected = 0, actual =0
[175000] SCOREBOARD MATCH: wstrb size check expected = 2, actual =2
[175000] SCOREBOARD MATCH: wstrb passthrough beat=0 expected = 0, actual =0
[175000] SCOREBOARD MATCH: wstrb passthrough beat=1 expected = 0, actual =0
[175000] SCOREBOARD MATCH: bresp passthrough expected = 0, actual =0
[175000] SCOREBOARD MATCH: response routed to correct master (write) expected = 1, actual =1
[175000] [SCOREBOARD-M] mst_id=1 s_id=1 awaddr=15f860e8 awid=1011 awlen=1 awsize=3 awburst=1 wdata=[0 0 ] wstrb=[0 0 ] bresp=0 bid=1011
[175000] [SCOREBOARD-S] mst_id=1 s_id=1 awaddr=15f860e8 awid=1011 awlen=1 awsize=3 awburst=1 wdata=[0 0 ] wstrb=[0 0 ] bresp=0 bid=11011
[175000] SCOREBOARD: Transaction 6 received. pass=85 fail=0
[175000] ALL PASS. Total transactions: 6
[185000] MASTER 1 W_VALID_RDY Handshake beat=1 wlast=1
[185000] ARB MONITOR: slave=1 m0_req=1 m1_req=0 winner=0
[185000] AXI S1_WVALID_RDY HANDSHAKE
[185000] AXI S0_ARVALID_RDY HANDSHAKE
[185000] MEMORY READ MISS beat=0 addr=12cc3500 -> default data id=4
[185000] S1 MEMORY WRITE beat=1 addr=19808c70 data=0000000000000000 id=05
[195000] SLAVE1 sent B resp, id=5
[195000] MEMORY READ MISS beat=1 addr=12cc3508 -> default data id=4
[195000] AXI S1_BVALID_RDY HANDSHAKE
[195000] [SLAVE MONITOR] mst_id=0 s_id=1 awaddr=19808c68 awid=101 awlen=1 awsize=3 awburst=1 wdata=[0 0 ] wstrb=[0 0 ] bresp=0 bid=101
[195000] SLAVE 1 R_VALID_RDY Handshake beat=0 rlast=0
[205000] ARB MONITOR: slave=0 m0_req=1 m1_req=0 winner=0
[205000] ARB MONITOR: slave=1 m0_req=0 m1_req=1 winner=1
[205000] SLAVE 1 R_VALID_RDY Handshake beat=1 rlast=1
[205000] [SLAVE MONITOR AR] READ mst_id=0 s_id=1 araddr=12cc3500 arid=4 arlen=1 arsize=3 arburst=1 rid=[44] rresp=[00] rdata=[baadf00d12345678baadf00d12345678]
[205000] AXI S0_ARVALID_RDY HANDSHAKE
[205000] MEMORY READ MISS beat=0 addr=69e4bd8 -> default data id=5
[205000] AXI S1_AWVALID_RDY HANDSHAKE
[215000] S1 MEMORY WRITE beat=0 addr=1a4fdbf8 data=0000000000000000 id=19
[215000] MEMORY READ MISS beat=1 addr=69e4be0 -> default data id=5
[215000] SLAVE 0 R_VALID_RDY Handshake beat=0 rlast=0
[215000] AXI S1_WVALID_RDY HANDSHAKE
[215000] MASTER 0 R_VALID_RDY Handshake beat=0 rlast=0
[215000] MASTER 0 B_VALID_RDY Handshake
[215000] [MASTER MONITOR] mst_id=0 s_id=1 awaddr=19808c68 awid=101 awlen=1 awsize=3 awburst=1 wdata=[0 0 ] wstrb=[0 0 ] bresp=0 bid=101
[215000] MASTER 0 RECEIVED BRESP. BRESP=0
[215000] [MASTER DRIVER] mst_id=0 s_id=0 awaddr=19808c68 awid=101 awlen=1 awsize=3 awburst=1 wdata=[] wstrb=[] bresp=0 bid=101
[215000] SCOREBOARD MATCH: decode_err expected = 0, actual =0
[215000] SCOREBOARD MATCH: slave_id expected = 1, actual =1
[215000] SCOREBOARD MATCH: awaddr passthrough expected = 19808c68, actual =19808c68
[215000] SCOREBOARD MATCH: awlen passthrough expected = 1, actual =1
[215000] SCOREBOARD MATCH: awsize passthrough expected = 3, actual =3
[215000] SCOREBOARD MATCH: awburst passthrough expected = 1, actual =1
[215000] SCOREBOARD MATCH: wdata size check expected = 2, actual =2
[215000] SCOREBOARD MATCH: wdata passthrough beat=0 expected = 0, actual =0
[215000] SCOREBOARD MATCH: wdata passthrough beat=1 expected = 0, actual =0
[215000] SCOREBOARD MATCH: wstrb size check expected = 2, actual =2
[215000] SCOREBOARD MATCH: wstrb passthrough beat=0 expected = 0, actual =0
[215000] SCOREBOARD MATCH: wstrb passthrough beat=1 expected = 0, actual =0
[215000] SCOREBOARD MATCH: bresp passthrough expected = 0, actual =0
[215000] SCOREBOARD MATCH: response routed to correct master (write) expected = 0, actual =0
[215000] [SCOREBOARD-M] mst_id=0 s_id=1 awaddr=19808c68 awid=101 awlen=1 awsize=3 awburst=1 wdata=[0 0 ] wstrb=[0 0 ] bresp=0 bid=101
[215000] [SCOREBOARD-S] mst_id=0 s_id=1 awaddr=19808c68 awid=101 awlen=1 awsize=3 awburst=1 wdata=[0 0 ] wstrb=[0 0 ] bresp=0 bid=101
[215000] SCOREBOARD: Transaction 7 received. pass=99 fail=0
[215000] ALL PASS. Total transactions: 7
[225000] [MASTER DRIVER] READ mst_id=0 s_id=0 araddr=12cc3500 arid=4 arlen=1 arsize=3 arburst=1 rid=[44] rresp=[00] rdata=[baadf00d12345678baadf00d12345678]
[225000] MASTER 0 R_VALID_RDY Handshake beat=1 rlast=1
[225000] [MASTER MONITOR] READ mst_id=0 s_id=1 araddr=12cc3500 arid=4 arlen=1 arsize=3 arburst=1 rid=[44] rresp=[00] rdata=[baadf00d12345678baadf00d12345678]
[225000] AXI S1_WVALID_RDY HANDSHAKE
[225000] SLAVE 0 R_VALID_RDY Handshake beat=1 rlast=1
[225000] [SLAVE MONITOR AR] READ mst_id=0 s_id=0 araddr=69e4bd8 arid=5 arlen=1 arsize=3 arburst=1 rid=[55] rresp=[00] rdata=[baadf00d12345678baadf00d12345678]
[225000] S1 MEMORY WRITE beat=1 addr=1a4fdc00 data=0000000000000000 id=19
[225000] SCOREBOARD MATCH: decode_err expected = 0, actual =0
[225000] SCOREBOARD MATCH: slave_id expected = 1, actual =1
[225000] SCOREBOARD MATCH: araddr passthrough expected = 12cc3500, actual =12cc3500
[225000] SCOREBOARD MATCH: arlen passthrough expected = 1, actual =1
[225000] SCOREBOARD MATCH: arsize passthrough expected = 3, actual =3
[225000] SCOREBOARD MATCH: arburst passthrough expected = 1, actual =1
[225000] SCOREBOARD MATCH: rdata size check expected = 2, actual =2
[225000] SCOREBOARD MATCH: rdata passthrough beat=0 expected = baadf00d12345678, actual =baadf00d12345678
[225000] SCOREBOARD MATCH: rdata passthrough beat=1 expected = baadf00d12345678, actual =baadf00d12345678
[225000] SCOREBOARD MATCH: rresp size check expected = 2, actual =2
[225000] SCOREBOARD MATCH: rresp passthrough beat=0 expected = 0, actual =0
[225000] SCOREBOARD MATCH: rresp passthrough beat=1 expected = 0, actual =0
[225000] SCOREBOARD MATCH: response routed to correct master (read beat 0) expected = 0, actual =0
[225000] SCOREBOARD MATCH: response routed to correct master (read beat 1) expected = 0, actual =0
[225000] [SCOREBOARD-M] READ mst_id=0 s_id=1 araddr=12cc3500 arid=4 arlen=1 arsize=3 arburst=1 rid=[44] rresp=[00] rdata=[baadf00d12345678baadf00d12345678]
[225000] [SCOREBOARD-S] READ mst_id=0 s_id=1 araddr=12cc3500 arid=4 arlen=1 arsize=3 arburst=1 rid=[44] rresp=[00] rdata=[baadf00d12345678baadf00d12345678]
[225000] SCOREBOARD: Transaction 8 received. pass=113 fail=0
[225000] ALL PASS. Total transactions: 8
[235000] SLAVE1 sent B resp, id=9
[235000] AXI S1_BVALID_RDY HANDSHAKE
[235000] [SLAVE MONITOR] mst_id=1 s_id=1 awaddr=1a4fdbf8 awid=1001 awlen=1 awsize=3 awburst=1 wdata=[0 0 ] wstrb=[0 0 ] bresp=0 bid=11001
[245000] MASTER 0 R_VALID_RDY Handshake beat=0 rlast=0
[255000] MASTER 1 B_VALID_RDY Handshake
[255000] [MASTER MONITOR] mst_id=1 s_id=1 awaddr=1a4fdbf8 awid=1001 awlen=1 awsize=3 awburst=1 wdata=[0 0 ] wstrb=[0 0 ] bresp=0 bid=1001
[255000] MASTER 0 R_VALID_RDY Handshake beat=1 rlast=1
[255000] [MASTER MONITOR] READ mst_id=0 s_id=0 araddr=69e4bd8 arid=5 arlen=1 arsize=3 arburst=1 rid=[55] rresp=[00] rdata=[baadf00d12345678baadf00d12345678]
[255000] [MASTER DRIVER] READ mst_id=0 s_id=0 araddr=69e4bd8 arid=5 arlen=1 arsize=3 arburst=1 rid=[55] rresp=[00] rdata=[baadf00d12345678baadf00d12345678]
[255000] MASTER 1 RECEIVED BRESP. BRESP=0
[255000] [MASTER DRIVER] mst_id=1 s_id=0 awaddr=1a4fdbf8 awid=1001 awlen=1 awsize=3 awburst=1 wdata=[] wstrb=[] bresp=0 bid=1001
[255000] SCOREBOARD MATCH: decode_err expected = 0, actual =0
[255000] SCOREBOARD MATCH: slave_id expected = 1, actual =1
[255000] SCOREBOARD MATCH: awaddr passthrough expected = 1a4fdbf8, actual =1a4fdbf8
[255000] SCOREBOARD MATCH: awlen passthrough expected = 1, actual =1
[255000] SCOREBOARD MATCH: awsize passthrough expected = 3, actual =3
[255000] SCOREBOARD MATCH: awburst passthrough expected = 1, actual =1
[255000] SCOREBOARD MATCH: wdata size check expected = 2, actual =2
[255000] SCOREBOARD MATCH: wdata passthrough beat=0 expected = 0, actual =0
[255000] SCOREBOARD MATCH: wdata passthrough beat=1 expected = 0, actual =0
[255000] SCOREBOARD MATCH: wstrb size check expected = 2, actual =2
[255000] SCOREBOARD MATCH: wstrb passthrough beat=0 expected = 0, actual =0
[255000] SCOREBOARD MATCH: wstrb passthrough beat=1 expected = 0, actual =0
[255000] SCOREBOARD MATCH: bresp passthrough expected = 0, actual =0
[255000] SCOREBOARD MATCH: response routed to correct master (write) expected = 1, actual =1
[255000] [SCOREBOARD-M] mst_id=1 s_id=1 awaddr=1a4fdbf8 awid=1001 awlen=1 awsize=3 awburst=1 wdata=[0 0 ] wstrb=[0 0 ] bresp=0 bid=1001
[255000] [SCOREBOARD-S] mst_id=1 s_id=1 awaddr=1a4fdbf8 awid=1001 awlen=1 awsize=3 awburst=1 wdata=[0 0 ] wstrb=[0 0 ] bresp=0 bid=11001
[255000] SCOREBOARD: Transaction 9 received. pass=127 fail=0
[255000] ALL PASS. Total transactions: 9
[255000] SCOREBOARD MATCH: decode_err expected = 0, actual =0
[255000] SCOREBOARD MATCH: slave_id expected = 0, actual =0
[255000] SCOREBOARD MATCH: araddr passthrough expected = 69e4bd8, actual =69e4bd8
[255000] SCOREBOARD MATCH: arlen passthrough expected = 1, actual =1
[255000] SCOREBOARD MATCH: arsize passthrough expected = 3, actual =3
[255000] SCOREBOARD MATCH: arburst passthrough expected = 1, actual =1
[255000] SCOREBOARD MATCH: rdata size check expected = 2, actual =2
[255000] SCOREBOARD MATCH: rdata passthrough beat=0 expected = baadf00d12345678, actual =baadf00d12345678
[255000] SCOREBOARD MATCH: rdata passthrough beat=1 expected = baadf00d12345678, actual =baadf00d12345678
[255000] SCOREBOARD MATCH: rresp size check expected = 2, actual =2
[255000] SCOREBOARD MATCH: rresp passthrough beat=0 expected = 0, actual =0
[255000] SCOREBOARD MATCH: rresp passthrough beat=1 expected = 0, actual =0
[255000] SCOREBOARD MATCH: response routed to correct master (read beat 0) expected = 0, actual =0
[255000] SCOREBOARD MATCH: response routed to correct master (read beat 1) expected = 0, actual =0
[255000] [SCOREBOARD-M] READ mst_id=0 s_id=0 araddr=69e4bd8 arid=5 arlen=1 arsize=3 arburst=1 rid=[55] rresp=[00] rdata=[baadf00d12345678baadf00d12345678]
[255000] [SCOREBOARD-S] READ mst_id=0 s_id=0 araddr=69e4bd8 arid=5 arlen=1 arsize=3 arburst=1 rid=[55] rresp=[00] rdata=[baadf00d12345678baadf00d12345678]
[255000] SCOREBOARD: Transaction 10 received. pass=141 fail=0
[255000] SCOREBOARD: Expected 10 transactions completed, PASS=141 FAIL=0
[255000] ALL PASS. Total transactions: 10
[255000] ALL TRANSACTIONS MONITORED
$finish called at time : 275 ns : File "/home/nashita/Desktop/practice/axi_xbar/tb/top/axi_tb_top.sv" Line 206
exit
INFO: xsimkernel Simulation Memory Usage: 289420 KB (Peak: 337824 KB), Simulation CPU Usage: 1180 ms
INFO: [Common 17-206] Exiting xsim at Tue Sep  8 16:05:58 2026...
