#-----------------------------------------------------------
# xsim v2025.2 (64-bit)
# SW Build 6299465 on Fri Nov 14 12:34:56 MST 2025
# IP Build 6300035 on Fri Nov 14 10:48:45 MST 2025
# SharedData Build 6298862 on Thu Nov 13 04:50:51 MST 2025
# Start of session at: Thu Sep 10 17:55:25 2026
# Process ID         : 3547726
# Current directory  : /home/nashita/Desktop/practice/axi_xbar/sim
# Command line       : xsim -log regress_results/BT_run88.log -mode tcl -source {xsim.dir/tb_top_snap/xsim_script.tcl}
# Log file           : /home/nashita/Desktop/practice/axi_xbar/sim/regress_results/BT_run88.log
# Journal file       : /home/nashita/Desktop/practice/axi_xbar/sim/xsim.jou
# Running On         : vlsi-vivado
# Platform           : Ubuntu
# Operating System   : Ubuntu 24.04.4 LTS
# Processor Detail   : Intel(R) Core(TM) i5-10400 CPU @ 2.90GHz
# CPU Frequency      : 3999.999 MHz
# CPU Physical cores : 6
# CPU Logical cores  : 12
# Host memory        : 41875 MB
# Swap memory        : 27648 MB
# Total Virtual      : 69524 MB
# Available Virtual  : 62711 MB
#-----------------------------------------------------------
source xsim.dir/tb_top_snap/xsim_script.tcl
# xsim {tb_top_snap} -testplusarg BT -autoloadwcfg -runall -sv_seed 89
Time resolution is 1 ps
run -all
[0] RUNNING BASE TEST
[0] INSIDE THE BASE TEST CONSTRUCTOR
[0] ENV: before agent
[0] SLAVE CONSTRUCTED
[0] MASTER MONITOR CONSTRUCTED
[0] MASTER MONITOR CONSTRUCTED
[0] SLAVE MONITOR CONSTRUCTED
[0] SLAVE MONITOR CONSTRUCTED
[0] ARB MONITOR CONSTRUCTED
GENERATOR CONSTRUCTED
[0] ENV: after agent
[0] ENV: before scoreboard
[0] ENV: after scoreboard
[15000] [SEQUENCER] READ mst_id=1 s_id=0 araddr=132bc550 arid=0 arlen=1 arsize=3 arburst=1 rid=[] rresp=[] rdata=[]
[15000] [SEQUENCER] mst_id=1 s_id=0 awaddr=e3ffde8 awid=1010 awlen=1 awsize=3 awburst=1 wdata=[eb86d59fc82521b5 e8502dd0920086b5 ] wstrb=[6e 72 ] bresp=0 bid=0
[15000] [SEQUENCER] READ mst_id=0 s_id=0 araddr=58bb2e0 arid=0 arlen=1 arsize=3 arburst=1 rid=[] rresp=[] rdata=[]
[15000] [SEQUENCER] mst_id=1 s_id=0 awaddr=a250450 awid=111 awlen=1 awsize=3 awburst=1 wdata=[8ba55010bde6bb30 fc52f231d19083f4 ] wstrb=[9b 4 ] bresp=0 bid=0
[15000] [SEQUENCER] mst_id=0 s_id=0 awaddr=dbc0310 awid=1100 awlen=1 awsize=3 awburst=1 wdata=[279126b4884df6ba 2a2eaa30aa6ff4f8 ] wstrb=[37 4a ] bresp=0 bid=0
[15000] MASTER_DRIVER1 received transaction, op=AXI_READ
[15000] MASTER_DRIVER0 received transaction, op=AXI_READ
[35000] MASTER_DRIVER1 received transaction, op=AXI_WRITE
[35000] MASTER_DRIVER0 received transaction, op=AXI_WRITE
[45000] ARB MONITOR: slave=0 m0_req=1 m1_req=0 winner=0
[45000] ARB MONITOR: slave=1 m0_req=0 m1_req=1 winner=1
[45000] AXI S0_ARVALID_RDY HANDSHAKE
[45000] MEMORY READ MISS beat=0 addr=132bc550 -> default data id=16
[45000] AXI S0_ARVALID_RDY HANDSHAKE
[45000] MEMORY READ MISS beat=0 addr=58bb2e0 -> default data id=0
[55000] MEMORY READ MISS beat=1 addr=58bb2e8 -> default data id=0
[55000] MEMORY READ MISS beat=1 addr=132bc558 -> default data id=16
[55000] SLAVE 0 R_VALID_RDY Handshake beat=0 rlast=0
[55000] SLAVE 1 R_VALID_RDY Handshake beat=0 rlast=0
[55000] MASTER 1 AW_VALID_RDY Handshake
[55000] MASTER 0 AW_VALID_RDY Handshake
[65000] ARB MONITOR: slave=0 m0_req=1 m1_req=1 winner=0
[65000] SLAVE 1 R_VALID_RDY Handshake beat=1 rlast=1
[65000] [SLAVE MONITOR] READ mst_id=1 s_id=1 araddr=132bc550 arid=0 arlen=1 arsize=3 arburst=1 rid=[1010] rresp=[00] rdata=[baadf00d12345678baadf00d12345678]
[65000] SLAVE 0 R_VALID_RDY Handshake beat=1 rlast=1
[65000] [SLAVE MONITOR] READ mst_id=0 s_id=0 araddr=58bb2e0 arid=0 arlen=1 arsize=3 arburst=1 rid=[00] rresp=[00] rdata=[baadf00d12345678baadf00d12345678]
[65000] AXI S0_AWVALID_RDY HANDSHAKE
[65000] SCOREBOARD MATCH: arbitration winner (slave 0) expected = 0, actual =0
[75000] MASTER 1 R_VALID_RDY Handshake beat=0 rlast=0
[75000] MASTER 1 W_VALID_RDY Handshake beat=0 wlast=0
[75000] MASTER 0 R_VALID_RDY Handshake beat=0 rlast=0
[75000] MASTER 0 W_VALID_RDY Handshake beat=0 wlast=0
[85000] [MASTER DRIVER] READ mst_id=0 s_id=0 araddr=58bb2e0 arid=0 arlen=1 arsize=3 arburst=1 rid=[00] rresp=[00] rdata=[baadf00d12345678baadf00d12345678]
[85000] [MASTER DRIVER] READ mst_id=1 s_id=0 araddr=132bc550 arid=0 arlen=1 arsize=3 arburst=1 rid=[00] rresp=[00] rdata=[baadf00d12345678baadf00d12345678]
[85000] MASTER_DRIVER1 received transaction, op=AXI_WRITE
[85000] MASTER 0 W_VALID_RDY Handshake beat=1 wlast=1
[85000] MASTER 0 R_VALID_RDY Handshake beat=1 rlast=1
[85000] [MASTER MONITOR] READ mst_id=0 s_id=0 araddr=58bb2e0 arid=0 arlen=1 arsize=3 arburst=1 rid=[00] rresp=[00] rdata=[baadf00d12345678baadf00d12345678]
[85000] MASTER 1 W_VALID_RDY Handshake beat=1 wlast=1
[85000] MASTER 1 R_VALID_RDY Handshake beat=1 rlast=1
[85000] [MASTER MONITOR] READ mst_id=1 s_id=1 araddr=132bc550 arid=0 arlen=1 arsize=3 arburst=1 rid=[00] rresp=[00] rdata=[baadf00d12345678baadf00d12345678]
[85000] AXI S0_WVALID_RDY HANDSHAKE
[85000] S0 MEMORY WRITE beat=0 addr=0dbc0310 data=279126b4884df6ba id=0c
[85000] SCOREBOARD MATCH: decode_err expected = 0, actual =0
[85000] SCOREBOARD MATCH: slave_id expected = 0, actual =0
[85000] SCOREBOARD MATCH: araddr passthrough expected = 58bb2e0, actual =58bb2e0
[85000] SCOREBOARD MATCH: arlen passthrough expected = 1, actual =1
[85000] SCOREBOARD MATCH: arsize passthrough expected = 3, actual =3
[85000] SCOREBOARD MATCH: arburst passthrough expected = 1, actual =1
[85000] SCOREBOARD MATCH: rdata size check expected = 2, actual =2
[85000] SCOREBOARD MATCH: rdata passthrough beat=0 expected = baadf00d12345678, actual =baadf00d12345678
[85000] SCOREBOARD MATCH: rdata passthrough beat=1 expected = baadf00d12345678, actual =baadf00d12345678
[85000] SCOREBOARD MATCH: rresp size check expected = 2, actual =2
[85000] SCOREBOARD MATCH: rresp passthrough beat=0 expected = 0, actual =0
[85000] SCOREBOARD MATCH: rresp passthrough beat=1 expected = 0, actual =0
[85000] SCOREBOARD MATCH: response routed to correct master (read beat 0) expected = 0, actual =0
[85000] SCOREBOARD MATCH: response routed to correct master (read beat 1) expected = 0, actual =0
[85000] [SCOREBOARD-M] READ mst_id=0 s_id=0 araddr=58bb2e0 arid=0 arlen=1 arsize=3 arburst=1 rid=[00] rresp=[00] rdata=[baadf00d12345678baadf00d12345678]
[85000] [SCOREBOARD-S] READ mst_id=0 s_id=0 araddr=58bb2e0 arid=0 arlen=1 arsize=3 arburst=1 rid=[00] rresp=[00] rdata=[baadf00d12345678baadf00d12345678]
[85000] SCOREBOARD: Transaction 1 received. pass=15 fail=0
[85000] ALL PASS. Total transactions: 1
[85000] SCOREBOARD MATCH: decode_err expected = 0, actual =0
[85000] SCOREBOARD MATCH: slave_id expected = 1, actual =1
[85000] SCOREBOARD MATCH: araddr passthrough expected = 132bc550, actual =132bc550
[85000] SCOREBOARD MATCH: arlen passthrough expected = 1, actual =1
[85000] SCOREBOARD MATCH: arsize passthrough expected = 3, actual =3
[85000] SCOREBOARD MATCH: arburst passthrough expected = 1, actual =1
[85000] SCOREBOARD MATCH: rdata size check expected = 2, actual =2
[85000] SCOREBOARD MATCH: rdata passthrough beat=0 expected = baadf00d12345678, actual =baadf00d12345678
[85000] SCOREBOARD MATCH: rdata passthrough beat=1 expected = baadf00d12345678, actual =baadf00d12345678
[85000] SCOREBOARD MATCH: rresp size check expected = 2, actual =2
[85000] SCOREBOARD MATCH: rresp passthrough beat=0 expected = 0, actual =0
[85000] SCOREBOARD MATCH: rresp passthrough beat=1 expected = 0, actual =0
[85000] SCOREBOARD MATCH: response routed to correct master (read beat 0) expected = 1, actual =1
[85000] SCOREBOARD MATCH: response routed to correct master (read beat 1) expected = 1, actual =1
[85000] [SCOREBOARD-M] READ mst_id=1 s_id=1 araddr=132bc550 arid=0 arlen=1 arsize=3 arburst=1 rid=[00] rresp=[00] rdata=[baadf00d12345678baadf00d12345678]
[85000] [SCOREBOARD-S] READ mst_id=1 s_id=1 araddr=132bc550 arid=0 arlen=1 arsize=3 arburst=1 rid=[1010] rresp=[00] rdata=[baadf00d12345678baadf00d12345678]
[85000] SCOREBOARD: Transaction 2 received. pass=29 fail=0
[85000] ALL PASS. Total transactions: 2
[95000] AXI S0_WVALID_RDY HANDSHAKE
[95000] S0 MEMORY WRITE beat=1 addr=0dbc0318 data=2a2eaa30aa6ff4f8 id=0c
[105000] MASTER 1 AW_VALID_RDY Handshake
[105000] SLAVE0 sent B resp, id=12
[115000] AXI S0_AWVALID_RDY HANDSHAKE
[115000] [SLAVE MONITOR] mst_id=0 s_id=0 awaddr=dbc0310 awid=1100 awlen=1 awsize=3 awburst=1 wdata=[279126b4884df6ba 2a2eaa30aa6ff4f8 ] wstrb=[37 4a ] bresp=0 bid=1100
[115000] ARB MONITOR: slave=0 m0_req=0 m1_req=1 winner=1
[125000] MASTER 0 RECEIVED BRESP. BRESP=0
[125000] [MASTER DRIVER] mst_id=0 s_id=0 awaddr=dbc0310 awid=1100 awlen=1 awsize=3 awburst=1 wdata=[279126b4884df6ba 2a2eaa30aa6ff4f8 ] wstrb=[37 4a ] bresp=0 bid=1100
[125000] MASTER 0 B_VALID_RDY Handshake
[125000] [MASTER MONITOR] mst_id=0 s_id=0 awaddr=dbc0310 awid=1100 awlen=1 awsize=3 awburst=1 wdata=[279126b4884df6ba 2a2eaa30aa6ff4f8 ] wstrb=[37 4a ] bresp=0 bid=1100
[125000] MASTER 1 W_VALID_RDY Handshake beat=0 wlast=0
[125000] AXI S0_WVALID_RDY HANDSHAKE
[125000] S0 MEMORY WRITE beat=0 addr=0e3ffde8 data=eb86d59fc82521b5 id=1a
[125000] SCOREBOARD MATCH: decode_err expected = 0, actual =0
[125000] SCOREBOARD MATCH: slave_id expected = 0, actual =0
[125000] SCOREBOARD MATCH: awaddr passthrough expected = dbc0310, actual =dbc0310
[125000] SCOREBOARD MATCH: awlen passthrough expected = 1, actual =1
[125000] SCOREBOARD MATCH: awsize passthrough expected = 3, actual =3
[125000] SCOREBOARD MATCH: awburst passthrough expected = 1, actual =1
[125000] SCOREBOARD MATCH: wdata size check expected = 2, actual =2
[125000] SCOREBOARD MATCH: wdata passthrough beat=0 expected = 279126b4884df6ba, actual =279126b4884df6ba
[125000] SCOREBOARD MATCH: wdata passthrough beat=1 expected = 2a2eaa30aa6ff4f8, actual =2a2eaa30aa6ff4f8
[125000] SCOREBOARD MATCH: wstrb size check expected = 2, actual =2
[125000] SCOREBOARD MATCH: wstrb passthrough beat=0 expected = 37, actual =37
[125000] SCOREBOARD MATCH: wstrb passthrough beat=1 expected = 4a, actual =4a
[125000] SCOREBOARD MATCH: bresp passthrough expected = 0, actual =0
[125000] SCOREBOARD MATCH: response routed to correct master (write) expected = 0, actual =0
[125000] [SCOREBOARD-M] mst_id=0 s_id=0 awaddr=dbc0310 awid=1100 awlen=1 awsize=3 awburst=1 wdata=[279126b4884df6ba 2a2eaa30aa6ff4f8 ] wstrb=[37 4a ] bresp=0 bid=1100
[125000] [SCOREBOARD-S] mst_id=0 s_id=0 awaddr=dbc0310 awid=1100 awlen=1 awsize=3 awburst=1 wdata=[279126b4884df6ba 2a2eaa30aa6ff4f8 ] wstrb=[37 4a ] bresp=0 bid=1100
[125000] SCOREBOARD: Transaction 3 received. pass=43 fail=0
[125000] ALL PASS. Total transactions: 3
[135000] AXI S0_WVALID_RDY HANDSHAKE
[135000] S0 MEMORY WRITE beat=1 addr=0e3ffdf0 data=e8502dd0920086b5 id=1a
[135000] MASTER 1 W_VALID_RDY Handshake beat=1 wlast=1
[145000] SLAVE0 sent B resp, id=10
[155000] AXI S0_AWVALID_RDY HANDSHAKE
[155000] [SLAVE MONITOR] mst_id=1 s_id=0 awaddr=e3ffde8 awid=1010 awlen=1 awsize=3 awburst=1 wdata=[eb86d59fc82521b5 e8502dd0920086b5 ] wstrb=[6e 72 ] bresp=0 bid=11010
[155000] ARB MONITOR: slave=0 m0_req=0 m1_req=0 winner=1
[165000] MASTER 1 RECEIVED BRESP. BRESP=0
[165000] [MASTER DRIVER] mst_id=1 s_id=0 awaddr=e3ffde8 awid=1010 awlen=1 awsize=3 awburst=1 wdata=[eb86d59fc82521b5 e8502dd0920086b5 ] wstrb=[6e 72 ] bresp=0 bid=1010
[165000] MASTER 1 B_VALID_RDY Handshake
[165000] [MASTER MONITOR] mst_id=1 s_id=0 awaddr=e3ffde8 awid=1010 awlen=1 awsize=3 awburst=1 wdata=[eb86d59fc82521b5 e8502dd0920086b5 ] wstrb=[6e 72 ] bresp=0 bid=1010
[165000] AXI S0_WVALID_RDY HANDSHAKE
[165000] S0 MEMORY WRITE beat=0 addr=0a250450 data=8ba55010bde6bb30 id=17
[165000] SCOREBOARD MATCH: decode_err expected = 0, actual =0
[165000] SCOREBOARD MATCH: slave_id expected = 0, actual =0
[165000] SCOREBOARD MATCH: awaddr passthrough expected = e3ffde8, actual =e3ffde8
[165000] SCOREBOARD MATCH: awlen passthrough expected = 1, actual =1
[165000] SCOREBOARD MATCH: awsize passthrough expected = 3, actual =3
[165000] SCOREBOARD MATCH: awburst passthrough expected = 1, actual =1
[165000] SCOREBOARD MATCH: wdata size check expected = 2, actual =2
[165000] SCOREBOARD MATCH: wdata passthrough beat=0 expected = eb86d59fc82521b5, actual =eb86d59fc82521b5
[165000] SCOREBOARD MATCH: wdata passthrough beat=1 expected = e8502dd0920086b5, actual =e8502dd0920086b5
[165000] SCOREBOARD MATCH: wstrb size check expected = 2, actual =2
[165000] SCOREBOARD MATCH: wstrb passthrough beat=0 expected = 6e, actual =6e
[165000] SCOREBOARD MATCH: wstrb passthrough beat=1 expected = 72, actual =72
[165000] SCOREBOARD MATCH: bresp passthrough expected = 0, actual =0
[165000] SCOREBOARD MATCH: response routed to correct master (write) expected = 1, actual =1
[165000] [SCOREBOARD-M] mst_id=1 s_id=0 awaddr=e3ffde8 awid=1010 awlen=1 awsize=3 awburst=1 wdata=[eb86d59fc82521b5 e8502dd0920086b5 ] wstrb=[6e 72 ] bresp=0 bid=1010
[165000] [SCOREBOARD-S] mst_id=1 s_id=0 awaddr=e3ffde8 awid=1010 awlen=1 awsize=3 awburst=1 wdata=[eb86d59fc82521b5 e8502dd0920086b5 ] wstrb=[6e 72 ] bresp=0 bid=11010
[165000] SCOREBOARD: Transaction 4 received. pass=57 fail=0
[165000] ALL PASS. Total transactions: 4
[175000] AXI S0_WVALID_RDY HANDSHAKE
[175000] S0 MEMORY WRITE beat=1 addr=0a250458 data=fc52f231d19083f4 id=17
[185000] SLAVE0 sent B resp, id=7
[195000] [SLAVE MONITOR] mst_id=1 s_id=0 awaddr=a250450 awid=111 awlen=1 awsize=3 awburst=1 wdata=[8ba55010bde6bb30 fc52f231d19083f4 ] wstrb=[9b 4 ] bresp=0 bid=10111
[205000] MASTER 1 RECEIVED BRESP. BRESP=0
[205000] [MASTER DRIVER] mst_id=1 s_id=0 awaddr=a250450 awid=111 awlen=1 awsize=3 awburst=1 wdata=[8ba55010bde6bb30 fc52f231d19083f4 ] wstrb=[9b 4 ] bresp=0 bid=111
[205000] MASTER 1 B_VALID_RDY Handshake
[205000] [MASTER MONITOR] mst_id=1 s_id=0 awaddr=a250450 awid=111 awlen=1 awsize=3 awburst=1 wdata=[8ba55010bde6bb30 fc52f231d19083f4 ] wstrb=[9b 4 ] bresp=0 bid=111
[205000] SCOREBOARD MATCH: decode_err expected = 0, actual =0
[205000] SCOREBOARD MATCH: slave_id expected = 0, actual =0
[205000] SCOREBOARD MATCH: awaddr passthrough expected = a250450, actual =a250450
[205000] SCOREBOARD MATCH: awlen passthrough expected = 1, actual =1
[205000] SCOREBOARD MATCH: awsize passthrough expected = 3, actual =3
[205000] SCOREBOARD MATCH: awburst passthrough expected = 1, actual =1
[205000] SCOREBOARD MATCH: wdata size check expected = 2, actual =2
[205000] SCOREBOARD MATCH: wdata passthrough beat=0 expected = 8ba55010bde6bb30, actual =8ba55010bde6bb30
[205000] SCOREBOARD MATCH: wdata passthrough beat=1 expected = fc52f231d19083f4, actual =fc52f231d19083f4
[205000] SCOREBOARD MATCH: wstrb size check expected = 2, actual =2
[205000] SCOREBOARD MATCH: wstrb passthrough beat=0 expected = 9b, actual =9b
[205000] SCOREBOARD MATCH: wstrb passthrough beat=1 expected = 4, actual =4
[205000] SCOREBOARD MATCH: bresp passthrough expected = 0, actual =0
[205000] SCOREBOARD MATCH: response routed to correct master (write) expected = 1, actual =1
[205000] [SCOREBOARD-M] mst_id=1 s_id=0 awaddr=a250450 awid=111 awlen=1 awsize=3 awburst=1 wdata=[8ba55010bde6bb30 fc52f231d19083f4 ] wstrb=[9b 4 ] bresp=0 bid=111
[205000] [SCOREBOARD-S] mst_id=1 s_id=0 awaddr=a250450 awid=111 awlen=1 awsize=3 awburst=1 wdata=[8ba55010bde6bb30 fc52f231d19083f4 ] wstrb=[9b 4 ] bresp=0 bid=10111
[205000] SCOREBOARD: Transaction 5 received. pass=71 fail=0
[205000] SCOREBOARD: Expected 5 transactions completed, PASS=71 FAIL=0
[205000] ALL PASS. Total transactions: 5
[205000] ALL TRANSACTIONS MONITORED
$finish called at time : 225 ns : File "/home/nashita/Desktop/practice/axi_xbar/tb/top/axi_tb_top.sv" Line 220
exit
INFO: xsimkernel Simulation Memory Usage: 289464 KB (Peak: 337864 KB), Simulation CPU Usage: 1180 ms
INFO: [Common 17-206] Exiting xsim at Thu Sep 10 17:55:28 2026...
