#-----------------------------------------------------------
# xsim v2025.2 (64-bit)
# SW Build 6299465 on Fri Nov 14 12:34:56 MST 2025
# IP Build 6300035 on Fri Nov 14 10:48:45 MST 2025
# SharedData Build 6298862 on Thu Nov 13 04:50:51 MST 2025
# Start of session at: Fri Sep 11 11:48:53 2026
# Process ID         : 717646
# Current directory  : /home/nashita/Desktop/practice/axi_xbar/sim
# Command line       : xsim -log regress_results/BT_run139.log -mode tcl -source {xsim.dir/tb_top_snap/xsim_script.tcl}
# Log file           : /home/nashita/Desktop/practice/axi_xbar/sim/regress_results/BT_run139.log
# Journal file       : /home/nashita/Desktop/practice/axi_xbar/sim/xsim.jou
# Running On         : vlsi-vivado
# Platform           : Ubuntu
# Operating System   : Ubuntu 24.04.4 LTS
# Processor Detail   : Intel(R) Core(TM) i5-10400 CPU @ 2.90GHz
# CPU Frequency      : 3999.954 MHz
# CPU Physical cores : 6
# CPU Logical cores  : 12
# Host memory        : 41875 MB
# Swap memory        : 27648 MB
# Total Virtual      : 69524 MB
# Available Virtual  : 62605 MB
#-----------------------------------------------------------
source xsim.dir/tb_top_snap/xsim_script.tcl
# xsim {tb_top_snap} -testplusarg BT -autoloadwcfg -runall -sv_seed 140
Time resolution is 1 ps
run -all
[0] RUNNING BASE TEST
[0] INSIDE THE BASE TEST CONSTRUCTOR
[0] ENV: before agent
[0] SLAVE CONSTRUCTED
[0] MASTER MONITOR CONSTRUCTED
[0] MASTER MONITOR CONSTRUCTED
[0] SLAVE MONITOR CONSTRUCTED
[0] SLAVE MONITOR CONSTRUCTED
[0] ARB MONITOR CONSTRUCTED
GENERATOR CONSTRUCTED
[0] ENV: after agent
[0] ENV: before scoreboard
[0] ENV: after scoreboard
[15000] [SEQUENCER] READ mst_id=1 s_id=0 araddr=e4d88b0 arid=0 arlen=1 arsize=3 arburst=1 rid=[] rresp=[] rdata=[]
[15000] [SEQUENCER] READ mst_id=0 s_id=0 araddr=15da6e8 arid=0 arlen=1 arsize=3 arburst=1 rid=[] rresp=[] rdata=[]
[15000] [SEQUENCER] READ mst_id=0 s_id=0 araddr=a544508 arid=1 arlen=1 arsize=3 arburst=1 rid=[] rresp=[] rdata=[]
[15000] [SEQUENCER] mst_id=1 s_id=0 awaddr=18f5da80 awid=1110 awlen=101 awsize=7 awburst=1 wdata=[d790d8460d1e74b0 bd9ce38081ccda50 e59cfe31e447672c f165dbdcc1507ba6 c31d55f63d2dd678 21753da4af02bf5c f0533b0228ba5428 e5e82aa012db1980 c1ddd8dc337090f9 dc2ae521075d6844 1a3881c4323113df e5a1a4d8c2130fc1 c9707805dc165aa0 8e476e7fc1cc89f9 3df99bae3a8f9c9 bfbf5469f3e91357 b5b59d50cd5011bf 30f90b88ce06c2e9 c1efd640b995370a 86e548c9f0b85ff1 bebf22daf7a57391 b13aaa9bb7de5451 2896b44300aef91b f8546cac381ff365 effe47b6e755d71d e804d038a98f1747 e1af0aac9894fbf9 ffead317e0593ce4 9e8542cd1ad5263 ea424e5ce7efa34f c848e034eb975ed8 bd44b13bea2d2173 d21cc4c3d2313460 bdc893382786ff98 91b4210b1a65a4f7 ec96d957fb0d4474 2294440ce3d0e5ce fe368ac5aa5f6c8f a56cb103b4486517 18194ae6eacd641c 152cd0acc800f50f fc495a27964fd5ab 11d39c8ba9981af 29a76bf1462a50d aab27ab8164a0a74 d0e38c23fee3d0e6 134675f3abcfb480 c219bef4d37e02e2 d261d3c8bdf8f0ab e9c8a52c12fd4b18 e67b4dfae5a849bb 23a13a67abe26420 bedfaf3838dd21c3 9e856b7e0d69df93 b94c43b3255afd33 de381ef6c226a5e5 cf908578f82bf2ec 1d86f01ffcbd8a74 3ee4305a08dcc92c 108bc18fbbf0f15 f87c99898e74b5d2 97517efe1e8fac37 1a4ebb4cb760c9e3 c5d57fb6985a3b16 b6e9e74d92cb54d5 ca2c1eb9dd26feb4 f58139cbd138a299 e403f76f10019e6f ed289d23ac6b2118 fda3c3b22e301628 3e31b497e2a9d6ee f14f807e1a7bb21 fd7d149ab5a51ba e0428a90cb8bbb9 ee6076dace0985e0 f963d79a1d1920b0 29d1dc69fe384823 cc41ce0387680043 a48120f318325343 166a9b66c5a5a59d cd0da5e1ce52fd5c e685509fe2ac6969 a8520f06f18ec6d4 3fe1c431fcefec05 df9c556ef55fb4e7 e6ee7bbca66714d0 235700d607ee6475 fd4e195c26d03fed cd3754bd82f35644 8ae1bab9e43c9518 8b0cd505f08e5593 f381abd8082fd416 ec6c692ed84429c3 c8d27f56fe636691 86933aa7f7793e34 cfbd67f7bc542b2e 3ab791c0f2ffa3d6 ea78e20a988fe74d d4e4127cc14acc67 b44a703d3a364a01 d2c6314e0f9ba43c d0e670a39ec35247 ] wstrb=[ca 48 e1 6 97 28 aa 61 71 8b 68 8 b3 12 69 24 9d d1 2c 50 e3 96 75 80 67 a1 d1 4b 37 46 cb 9f e7 9c ea 1f e2 b5 be ca 52 a8 e9 34 5d a7 fe af 4f e7 e4 ac 8e e2 5c dd ca 40 8a 58 22 e6 36 ec 26 c0 45 48 a6 7b 35 cc 3b 7a 14 e1 f5 49 ad 30 c3 c1 11 b8 b be e8 ce 7f f9 87 8a b7 6f 59 37 69 e0 c1 20 4f 1a ] bresp=0 bid=0
[15000] [SEQUENCER] mst_id=1 s_id=0 awaddr=10eaf6f0 awid=1010 awlen=7 awsize=1 awburst=0 wdata=[8a59ecd5be54679c cc3b9e2b030c349e c28aa87b186e5032 d6c2b7ce94403397 974c6835cce49550 e552e582a2fe55f9 373e8991d9d710b0 26bba6013c159d51 ] wstrb=[c6 4a 83 77 db d4 78 a2 ] bresp=0 bid=0
[15000] MASTER_DRIVER1 received transaction, op=AXI_READ
[15000] MASTER_DRIVER0 received transaction, op=AXI_READ
[35000] MASTER_DRIVER1 received transaction, op=AXI_WRITE
[35000] MASTER_DRIVER0 received transaction, op=AXI_READ
[45000] ARB MONITOR: slave=0 m0_req=1 m1_req=1 winner=0
[45000] AXI S0_ARVALID_RDY HANDSHAKE
[45000] MEMORY READ MISS beat=0 addr=15da6e8 -> default data id=0
[45000] SCOREBOARD MATCH: arbitration winner (slave 0) expected = 0, actual =0
[55000] MEMORY READ MISS beat=1 addr=15da6f0 -> default data id=0
[55000] SLAVE 0 R_VALID_RDY Handshake beat=0 rlast=0
[55000] MASTER 1 AW_VALID_RDY Handshake
[65000] ARB MONITOR: slave=1 m0_req=0 m1_req=1 winner=1
[65000] SLAVE 0 R_VALID_RDY Handshake beat=1 rlast=1
[65000] [SLAVE MONITOR] READ mst_id=0 s_id=0 araddr=15da6e8 arid=0 arlen=1 arsize=3 arburst=1 rid=[00] rresp=[00] rdata=[baadf00d12345678baadf00d12345678]
[65000] AXI S1_AWVALID_RDY HANDSHAKE
[75000] AXI S0_ARVALID_RDY HANDSHAKE
[75000] MEMORY READ MISS beat=0 addr=e4d88b0 -> default data id=16
[75000] ARB MONITOR: slave=0 m0_req=1 m1_req=1 winner=1
[75000] MASTER 1 W_VALID_RDY Handshake beat=0 wlast=0
[75000] MASTER 0 R_VALID_RDY Handshake beat=0 rlast=0
[75000] SCOREBOARD MATCH: arbitration winner (slave 0) expected = 1, actual =1
[85000] [MASTER DRIVER] READ mst_id=0 s_id=0 araddr=15da6e8 arid=0 arlen=1 arsize=3 arburst=1 rid=[00] rresp=[00] rdata=[baadf00d12345678baadf00d12345678]
[85000] MASTER 0 R_VALID_RDY Handshake beat=1 rlast=1
[85000] [MASTER MONITOR] READ mst_id=0 s_id=0 araddr=15da6e8 arid=0 arlen=1 arsize=3 arburst=1 rid=[00] rresp=[00] rdata=[baadf00d12345678baadf00d12345678]
[85000] MASTER 1 W_VALID_RDY Handshake beat=1 wlast=0
[85000] SLAVE 0 R_VALID_RDY Handshake beat=0 rlast=0
[85000] MEMORY READ MISS beat=1 addr=e4d88b8 -> default data id=16
[85000] S1 MEMORY WRITE beat=0 addr=18f5da80 data=d790d8460d1e74b0 id=1e
[85000] SCOREBOARD MATCH: decode_err expected = 0, actual =0
[85000] SCOREBOARD MATCH: slave_id expected = 0, actual =0
[85000] SCOREBOARD MATCH: araddr passthrough expected = 15da6e8, actual =15da6e8
[85000] SCOREBOARD MATCH: arlen passthrough expected = 1, actual =1
[85000] SCOREBOARD MATCH: arsize passthrough expected = 3, actual =3
[85000] SCOREBOARD MATCH: arburst passthrough expected = 1, actual =1
[85000] SCOREBOARD MATCH: rdata size check expected = 2, actual =2
[85000] SCOREBOARD MATCH: rdata passthrough beat=0 expected = baadf00d12345678, actual =baadf00d12345678
[85000] SCOREBOARD MATCH: rdata passthrough beat=1 expected = baadf00d12345678, actual =baadf00d12345678
[85000] SCOREBOARD MATCH: rresp size check expected = 2, actual =2
[85000] SCOREBOARD MATCH: rresp passthrough beat=0 expected = 0, actual =0
[85000] SCOREBOARD MATCH: rresp passthrough beat=1 expected = 0, actual =0
[85000] SCOREBOARD MATCH: response routed to correct master (read beat 0) expected = 0, actual =0
[85000] SCOREBOARD MATCH: response routed to correct master (read beat 1) expected = 0, actual =0
[85000] [SCOREBOARD-M] READ mst_id=0 s_id=0 araddr=15da6e8 arid=0 arlen=1 arsize=3 arburst=1 rid=[00] rresp=[00] rdata=[baadf00d12345678baadf00d12345678]
[85000] [SCOREBOARD-S] READ mst_id=0 s_id=0 araddr=15da6e8 arid=0 arlen=1 arsize=3 arburst=1 rid=[00] rresp=[00] rdata=[baadf00d12345678baadf00d12345678]
[85000] SCOREBOARD: Transaction 1 received. pass=16 fail=0
[85000] ALL PASS. Total transactions: 1
[95000] S1 MEMORY WRITE beat=1 addr=18f5db00 data=bd9ce38081ccda50 id=1e
[95000] SLAVE 0 R_VALID_RDY Handshake beat=1 rlast=1
[95000] [SLAVE MONITOR] READ mst_id=1 s_id=0 araddr=e4d88b0 arid=0 arlen=1 arsize=3 arburst=1 rid=[1010] rresp=[00] rdata=[baadf00d12345678baadf00d12345678]
[95000] MASTER 1 W_VALID_RDY Handshake beat=2 wlast=0
[105000] MASTER 1 W_VALID_RDY Handshake beat=3 wlast=0
[105000] MASTER 1 R_VALID_RDY Handshake beat=0 rlast=0
[105000] ARB MONITOR: slave=0 m0_req=1 m1_req=0 winner=0
[105000] AXI S0_ARVALID_RDY HANDSHAKE
[105000] MEMORY READ MISS beat=0 addr=a544508 -> default data id=1
[105000] S1 MEMORY WRITE beat=2 addr=18f5db80 data=e59cfe31e447672c id=1e
[115000] S1 MEMORY WRITE beat=3 addr=18f5dc00 data=f165dbdcc1507ba6 id=1e
[115000] MEMORY READ MISS beat=1 addr=a544510 -> default data id=1
[115000] SLAVE 0 R_VALID_RDY Handshake beat=0 rlast=0
[115000] MASTER 1 R_VALID_RDY Handshake beat=1 rlast=1
[115000] [MASTER MONITOR] READ mst_id=1 s_id=0 araddr=e4d88b0 arid=0 arlen=1 arsize=3 arburst=1 rid=[00] rresp=[00] rdata=[baadf00d12345678baadf00d12345678]
[115000] MASTER 1 W_VALID_RDY Handshake beat=4 wlast=0
[115000] [MASTER DRIVER] READ mst_id=1 s_id=0 araddr=e4d88b0 arid=0 arlen=1 arsize=3 arburst=1 rid=[00] rresp=[00] rdata=[baadf00d12345678baadf00d12345678]
[115000] SCOREBOARD MATCH: decode_err expected = 0, actual =0
[115000] SCOREBOARD MATCH: slave_id expected = 0, actual =0
[115000] SCOREBOARD MATCH: araddr passthrough expected = e4d88b0, actual =e4d88b0
[115000] SCOREBOARD MATCH: arlen passthrough expected = 1, actual =1
[115000] SCOREBOARD MATCH: arsize passthrough expected = 3, actual =3
[115000] SCOREBOARD MATCH: arburst passthrough expected = 1, actual =1
[115000] SCOREBOARD MATCH: rdata size check expected = 2, actual =2
[115000] SCOREBOARD MATCH: rdata passthrough beat=0 expected = baadf00d12345678, actual =baadf00d12345678
[115000] SCOREBOARD MATCH: rdata passthrough beat=1 expected = baadf00d12345678, actual =baadf00d12345678
[115000] SCOREBOARD MATCH: rresp size check expected = 2, actual =2
[115000] SCOREBOARD MATCH: rresp passthrough beat=0 expected = 0, actual =0
[115000] SCOREBOARD MATCH: rresp passthrough beat=1 expected = 0, actual =0
[115000] SCOREBOARD MATCH: response routed to correct master (read beat 0) expected = 1, actual =1
[115000] SCOREBOARD MATCH: response routed to correct master (read beat 1) expected = 1, actual =1
[115000] [SCOREBOARD-M] READ mst_id=1 s_id=0 araddr=e4d88b0 arid=0 arlen=1 arsize=3 arburst=1 rid=[00] rresp=[00] rdata=[baadf00d12345678baadf00d12345678]
[115000] [SCOREBOARD-S] READ mst_id=1 s_id=0 araddr=e4d88b0 arid=0 arlen=1 arsize=3 arburst=1 rid=[1010] rresp=[00] rdata=[baadf00d12345678baadf00d12345678]
[115000] SCOREBOARD: Transaction 2 received. pass=30 fail=0
[115000] ALL PASS. Total transactions: 2
[125000] MASTER 1 W_VALID_RDY Handshake beat=5 wlast=0
[125000] SLAVE 0 R_VALID_RDY Handshake beat=1 rlast=1
[125000] [SLAVE MONITOR] READ mst_id=0 s_id=0 araddr=a544508 arid=1 arlen=1 arsize=3 arburst=1 rid=[11] rresp=[00] rdata=[baadf00d12345678baadf00d12345678]
[125000] S1 MEMORY WRITE beat=4 addr=18f5dc80 data=c31d55f63d2dd678 id=1e
[135000] S1 MEMORY WRITE beat=5 addr=18f5dd00 data=21753da4af02bf5c id=1e
[135000] MASTER 1 W_VALID_RDY Handshake beat=6 wlast=0
[135000] MASTER 0 R_VALID_RDY Handshake beat=0 rlast=0
[145000] [MASTER DRIVER] READ mst_id=0 s_id=0 araddr=a544508 arid=1 arlen=1 arsize=3 arburst=1 rid=[11] rresp=[00] rdata=[baadf00d12345678baadf00d12345678]
[145000] MASTER 0 R_VALID_RDY Handshake beat=1 rlast=1
[145000] [MASTER MONITOR] READ mst_id=0 s_id=0 araddr=a544508 arid=1 arlen=1 arsize=3 arburst=1 rid=[11] rresp=[00] rdata=[baadf00d12345678baadf00d12345678]
[145000] MASTER 1 W_VALID_RDY Handshake beat=7 wlast=0
[145000] S1 MEMORY WRITE beat=6 addr=18f5dd80 data=f0533b0228ba5428 id=1e
[145000] SCOREBOARD MATCH: decode_err expected = 0, actual =0
[145000] SCOREBOARD MATCH: slave_id expected = 0, actual =0
[145000] SCOREBOARD MATCH: araddr passthrough expected = a544508, actual =a544508
[145000] SCOREBOARD MATCH: arlen passthrough expected = 1, actual =1
[145000] SCOREBOARD MATCH: arsize passthrough expected = 3, actual =3
[145000] SCOREBOARD MATCH: arburst passthrough expected = 1, actual =1
[145000] SCOREBOARD MATCH: rdata size check expected = 2, actual =2
[145000] SCOREBOARD MATCH: rdata passthrough beat=0 expected = baadf00d12345678, actual =baadf00d12345678
[145000] SCOREBOARD MATCH: rdata passthrough beat=1 expected = baadf00d12345678, actual =baadf00d12345678
[145000] SCOREBOARD MATCH: rresp size check expected = 2, actual =2
[145000] SCOREBOARD MATCH: rresp passthrough beat=0 expected = 0, actual =0
[145000] SCOREBOARD MATCH: rresp passthrough beat=1 expected = 0, actual =0
[145000] SCOREBOARD MATCH: response routed to correct master (read beat 0) expected = 0, actual =0
[145000] SCOREBOARD MATCH: response routed to correct master (read beat 1) expected = 0, actual =0
[145000] [SCOREBOARD-M] READ mst_id=0 s_id=0 araddr=a544508 arid=1 arlen=1 arsize=3 arburst=1 rid=[11] rresp=[00] rdata=[baadf00d12345678baadf00d12345678]
[145000] [SCOREBOARD-S] READ mst_id=0 s_id=0 araddr=a544508 arid=1 arlen=1 arsize=3 arburst=1 rid=[11] rresp=[00] rdata=[baadf00d12345678baadf00d12345678]
[145000] SCOREBOARD: Transaction 3 received. pass=44 fail=0
[145000] ALL PASS. Total transactions: 3
[155000] S1 MEMORY WRITE beat=7 addr=18f5de00 data=e5e82aa012db1980 id=1e
[155000] MASTER 1 W_VALID_RDY Handshake beat=8 wlast=0
[165000] MASTER 1 W_VALID_RDY Handshake beat=9 wlast=0
[165000] S1 MEMORY WRITE beat=8 addr=18f5de80 data=c1ddd8dc337090f9 id=1e
[175000] S1 MEMORY WRITE beat=9 addr=18f5df00 data=dc2ae521075d6844 id=1e
[175000] MASTER 1 W_VALID_RDY Handshake beat=10 wlast=0
[185000] MASTER 1 W_VALID_RDY Handshake beat=11 wlast=0
[185000] S1 MEMORY WRITE beat=10 addr=18f5df80 data=1a3881c4323113df id=1e
[195000] S1 MEMORY WRITE beat=11 addr=18f5e000 data=e5a1a4d8c2130fc1 id=1e
[195000] MASTER 1 W_VALID_RDY Handshake beat=12 wlast=0
[205000] MASTER 1 W_VALID_RDY Handshake beat=13 wlast=0
[205000] S1 MEMORY WRITE beat=12 addr=18f5e080 data=c9707805dc165aa0 id=1e
[215000] S1 MEMORY WRITE beat=13 addr=18f5e100 data=8e476e7fc1cc89f9 id=1e
[215000] MASTER 1 W_VALID_RDY Handshake beat=14 wlast=0
[225000] MASTER 1 W_VALID_RDY Handshake beat=15 wlast=0
[225000] S1 MEMORY WRITE beat=14 addr=18f5e180 data=03df99bae3a8f9c9 id=1e
[235000] S1 MEMORY WRITE beat=15 addr=18f5e200 data=bfbf5469f3e91357 id=1e
[235000] MASTER 1 W_VALID_RDY Handshake beat=16 wlast=0
[245000] MASTER 1 W_VALID_RDY Handshake beat=17 wlast=0
[245000] S1 MEMORY WRITE beat=16 addr=18f5e280 data=b5b59d50cd5011bf id=1e
[255000] S1 MEMORY WRITE beat=17 addr=18f5e300 data=30f90b88ce06c2e9 id=1e
[255000] MASTER 1 W_VALID_RDY Handshake beat=18 wlast=0
[265000] MASTER 1 W_VALID_RDY Handshake beat=19 wlast=0
[265000] S1 MEMORY WRITE beat=18 addr=18f5e380 data=c1efd640b995370a id=1e
[275000] S1 MEMORY WRITE beat=19 addr=18f5e400 data=86e548c9f0b85ff1 id=1e
[275000] MASTER 1 W_VALID_RDY Handshake beat=20 wlast=0
[285000] MASTER 1 W_VALID_RDY Handshake beat=21 wlast=0
[285000] S1 MEMORY WRITE beat=20 addr=18f5e480 data=bebf22daf7a57391 id=1e
[295000] S1 MEMORY WRITE beat=21 addr=18f5e500 data=b13aaa9bb7de5451 id=1e
[295000] MASTER 1 W_VALID_RDY Handshake beat=22 wlast=0
[305000] MASTER 1 W_VALID_RDY Handshake beat=23 wlast=0
[305000] S1 MEMORY WRITE beat=22 addr=18f5e580 data=2896b44300aef91b id=1e
[315000] S1 MEMORY WRITE beat=23 addr=18f5e600 data=f8546cac381ff365 id=1e
[315000] MASTER 1 W_VALID_RDY Handshake beat=24 wlast=0
[325000] MASTER 1 W_VALID_RDY Handshake beat=25 wlast=0
[325000] S1 MEMORY WRITE beat=24 addr=18f5e680 data=effe47b6e755d71d id=1e
[335000] S1 MEMORY WRITE beat=25 addr=18f5e700 data=e804d038a98f1747 id=1e
[335000] MASTER 1 W_VALID_RDY Handshake beat=26 wlast=0
[345000] MASTER 1 W_VALID_RDY Handshake beat=27 wlast=0
[345000] S1 MEMORY WRITE beat=26 addr=18f5e780 data=e1af0aac9894fbf9 id=1e
[355000] S1 MEMORY WRITE beat=27 addr=18f5e800 data=ffead317e0593ce4 id=1e
[355000] MASTER 1 W_VALID_RDY Handshake beat=28 wlast=0
[365000] MASTER 1 W_VALID_RDY Handshake beat=29 wlast=0
[365000] S1 MEMORY WRITE beat=28 addr=18f5e880 data=09e8542cd1ad5263 id=1e
[375000] S1 MEMORY WRITE beat=29 addr=18f5e900 data=ea424e5ce7efa34f id=1e
[375000] MASTER 1 W_VALID_RDY Handshake beat=30 wlast=0
[385000] MASTER 1 W_VALID_RDY Handshake beat=31 wlast=0
[385000] S1 MEMORY WRITE beat=30 addr=18f5e980 data=c848e034eb975ed8 id=1e
[395000] S1 MEMORY WRITE beat=31 addr=18f5ea00 data=bd44b13bea2d2173 id=1e
[395000] MASTER 1 W_VALID_RDY Handshake beat=32 wlast=0
[405000] MASTER 1 W_VALID_RDY Handshake beat=33 wlast=0
[405000] S1 MEMORY WRITE beat=32 addr=18f5ea80 data=d21cc4c3d2313460 id=1e
[415000] S1 MEMORY WRITE beat=33 addr=18f5eb00 data=bdc893382786ff98 id=1e
[415000] MASTER 1 W_VALID_RDY Handshake beat=34 wlast=0
[425000] MASTER 1 W_VALID_RDY Handshake beat=35 wlast=0
[425000] S1 MEMORY WRITE beat=34 addr=18f5eb80 data=91b4210b1a65a4f7 id=1e
[435000] S1 MEMORY WRITE beat=35 addr=18f5ec00 data=ec96d957fb0d4474 id=1e
[435000] MASTER 1 W_VALID_RDY Handshake beat=36 wlast=0
[445000] MASTER 1 W_VALID_RDY Handshake beat=37 wlast=0
[445000] S1 MEMORY WRITE beat=36 addr=18f5ec80 data=2294440ce3d0e5ce id=1e
[455000] S1 MEMORY WRITE beat=37 addr=18f5ed00 data=fe368ac5aa5f6c8f id=1e
[455000] MASTER 1 W_VALID_RDY Handshake beat=38 wlast=0
[465000] MASTER 1 W_VALID_RDY Handshake beat=39 wlast=0
[465000] S1 MEMORY WRITE beat=38 addr=18f5ed80 data=a56cb103b4486517 id=1e
[475000] S1 MEMORY WRITE beat=39 addr=18f5ee00 data=18194ae6eacd641c id=1e
[475000] MASTER 1 W_VALID_RDY Handshake beat=40 wlast=0
[485000] MASTER 1 W_VALID_RDY Handshake beat=41 wlast=0
[485000] S1 MEMORY WRITE beat=40 addr=18f5ee80 data=152cd0acc800f50f id=1e
[495000] S1 MEMORY WRITE beat=41 addr=18f5ef00 data=fc495a27964fd5ab id=1e
[495000] MASTER 1 W_VALID_RDY Handshake beat=42 wlast=0
[505000] MASTER 1 W_VALID_RDY Handshake beat=43 wlast=0
[505000] S1 MEMORY WRITE beat=42 addr=18f5ef80 data=011d39c8ba9981af id=1e
[515000] S1 MEMORY WRITE beat=43 addr=18f5f000 data=029a76bf1462a50d id=1e
[515000] MASTER 1 W_VALID_RDY Handshake beat=44 wlast=0
[525000] MASTER 1 W_VALID_RDY Handshake beat=45 wlast=0
[525000] S1 MEMORY WRITE beat=44 addr=18f5f080 data=aab27ab8164a0a74 id=1e
[535000] S1 MEMORY WRITE beat=45 addr=18f5f100 data=d0e38c23fee3d0e6 id=1e
[535000] MASTER 1 W_VALID_RDY Handshake beat=46 wlast=0
[545000] MASTER 1 W_VALID_RDY Handshake beat=47 wlast=0
[545000] S1 MEMORY WRITE beat=46 addr=18f5f180 data=134675f3abcfb480 id=1e
[555000] S1 MEMORY WRITE beat=47 addr=18f5f200 data=c219bef4d37e02e2 id=1e
[555000] MASTER 1 W_VALID_RDY Handshake beat=48 wlast=0
[565000] MASTER 1 W_VALID_RDY Handshake beat=49 wlast=0
[565000] S1 MEMORY WRITE beat=48 addr=18f5f280 data=d261d3c8bdf8f0ab id=1e
[575000] S1 MEMORY WRITE beat=49 addr=18f5f300 data=e9c8a52c12fd4b18 id=1e
[575000] MASTER 1 W_VALID_RDY Handshake beat=50 wlast=0
[585000] MASTER 1 W_VALID_RDY Handshake beat=51 wlast=0
[585000] S1 MEMORY WRITE beat=50 addr=18f5f380 data=e67b4dfae5a849bb id=1e
[595000] S1 MEMORY WRITE beat=51 addr=18f5f400 data=23a13a67abe26420 id=1e
[595000] MASTER 1 W_VALID_RDY Handshake beat=52 wlast=0
[605000] MASTER 1 W_VALID_RDY Handshake beat=53 wlast=0
[605000] S1 MEMORY WRITE beat=52 addr=18f5f480 data=bedfaf3838dd21c3 id=1e
[615000] S1 MEMORY WRITE beat=53 addr=18f5f500 data=9e856b7e0d69df93 id=1e
[615000] MASTER 1 W_VALID_RDY Handshake beat=54 wlast=0
[625000] MASTER 1 W_VALID_RDY Handshake beat=55 wlast=0
[625000] S1 MEMORY WRITE beat=54 addr=18f5f580 data=b94c43b3255afd33 id=1e
[635000] S1 MEMORY WRITE beat=55 addr=18f5f600 data=de381ef6c226a5e5 id=1e
[635000] MASTER 1 W_VALID_RDY Handshake beat=56 wlast=0
[645000] MASTER 1 W_VALID_RDY Handshake beat=57 wlast=0
[645000] S1 MEMORY WRITE beat=56 addr=18f5f680 data=cf908578f82bf2ec id=1e
[655000] S1 MEMORY WRITE beat=57 addr=18f5f700 data=1d86f01ffcbd8a74 id=1e
[655000] MASTER 1 W_VALID_RDY Handshake beat=58 wlast=0
[665000] MASTER 1 W_VALID_RDY Handshake beat=59 wlast=0
[665000] S1 MEMORY WRITE beat=58 addr=18f5f780 data=3ee4305a08dcc92c id=1e
[675000] S1 MEMORY WRITE beat=59 addr=18f5f800 data=0108bc18fbbf0f15 id=1e
[675000] MASTER 1 W_VALID_RDY Handshake beat=60 wlast=0
[685000] MASTER 1 W_VALID_RDY Handshake beat=61 wlast=0
[685000] S1 MEMORY WRITE beat=60 addr=18f5f880 data=f87c99898e74b5d2 id=1e
[695000] S1 MEMORY WRITE beat=61 addr=18f5f900 data=97517efe1e8fac37 id=1e
[695000] MASTER 1 W_VALID_RDY Handshake beat=62 wlast=0
[705000] MASTER 1 W_VALID_RDY Handshake beat=63 wlast=0
[705000] S1 MEMORY WRITE beat=62 addr=18f5f980 data=1a4ebb4cb760c9e3 id=1e
[715000] S1 MEMORY WRITE beat=63 addr=18f5fa00 data=c5d57fb6985a3b16 id=1e
[715000] MASTER 1 W_VALID_RDY Handshake beat=64 wlast=0
[725000] MASTER 1 W_VALID_RDY Handshake beat=65 wlast=0
[725000] S1 MEMORY WRITE beat=64 addr=18f5fa80 data=b6e9e74d92cb54d5 id=1e
[735000] S1 MEMORY WRITE beat=65 addr=18f5fb00 data=ca2c1eb9dd26feb4 id=1e
[735000] MASTER 1 W_VALID_RDY Handshake beat=66 wlast=0
[745000] MASTER 1 W_VALID_RDY Handshake beat=67 wlast=0
[745000] S1 MEMORY WRITE beat=66 addr=18f5fb80 data=f58139cbd138a299 id=1e
[755000] S1 MEMORY WRITE beat=67 addr=18f5fc00 data=e403f76f10019e6f id=1e
[755000] MASTER 1 W_VALID_RDY Handshake beat=68 wlast=0
[765000] MASTER 1 W_VALID_RDY Handshake beat=69 wlast=0
[765000] S1 MEMORY WRITE beat=68 addr=18f5fc80 data=ed289d23ac6b2118 id=1e
[775000] S1 MEMORY WRITE beat=69 addr=18f5fd00 data=fda3c3b22e301628 id=1e
[775000] MASTER 1 W_VALID_RDY Handshake beat=70 wlast=0
[785000] MASTER 1 W_VALID_RDY Handshake beat=71 wlast=0
[785000] S1 MEMORY WRITE beat=70 addr=18f5fd80 data=3e31b497e2a9d6ee id=1e
[795000] S1 MEMORY WRITE beat=71 addr=18f5fe00 data=0f14f807e1a7bb21 id=1e
[795000] MASTER 1 W_VALID_RDY Handshake beat=72 wlast=0
[805000] MASTER 1 W_VALID_RDY Handshake beat=73 wlast=0
[805000] S1 MEMORY WRITE beat=72 addr=18f5fe80 data=0fd7d149ab5a51ba id=1e
[815000] S1 MEMORY WRITE beat=73 addr=18f5ff00 data=0e0428a90cb8bbb9 id=1e
[815000] MASTER 1 W_VALID_RDY Handshake beat=74 wlast=0
[825000] MASTER 1 W_VALID_RDY Handshake beat=75 wlast=0
[825000] S1 MEMORY WRITE beat=74 addr=18f5ff80 data=ee6076dace0985e0 id=1e
[835000] S1 MEMORY WRITE beat=75 addr=18f60000 data=f963d79a1d1920b0 id=1e
[835000] MASTER 1 W_VALID_RDY Handshake beat=76 wlast=0
[845000] MASTER 1 W_VALID_RDY Handshake beat=77 wlast=0
[845000] S1 MEMORY WRITE beat=76 addr=18f60080 data=29d1dc69fe384823 id=1e
[855000] S1 MEMORY WRITE beat=77 addr=18f60100 data=cc41ce0387680043 id=1e
[855000] MASTER 1 W_VALID_RDY Handshake beat=78 wlast=0
[865000] MASTER 1 W_VALID_RDY Handshake beat=79 wlast=0
[865000] S1 MEMORY WRITE beat=78 addr=18f60180 data=a48120f318325343 id=1e
[875000] S1 MEMORY WRITE beat=79 addr=18f60200 data=166a9b66c5a5a59d id=1e
[875000] MASTER 1 W_VALID_RDY Handshake beat=80 wlast=0
[885000] MASTER 1 W_VALID_RDY Handshake beat=81 wlast=0
[885000] S1 MEMORY WRITE beat=80 addr=18f60280 data=cd0da5e1ce52fd5c id=1e
[895000] S1 MEMORY WRITE beat=81 addr=18f60300 data=e685509fe2ac6969 id=1e
[895000] MASTER 1 W_VALID_RDY Handshake beat=82 wlast=0
[905000] MASTER 1 W_VALID_RDY Handshake beat=83 wlast=0
[905000] S1 MEMORY WRITE beat=82 addr=18f60380 data=a8520f06f18ec6d4 id=1e
[915000] S1 MEMORY WRITE beat=83 addr=18f60400 data=3fe1c431fcefec05 id=1e
[915000] MASTER 1 W_VALID_RDY Handshake beat=84 wlast=0
[925000] MASTER 1 W_VALID_RDY Handshake beat=85 wlast=0
[925000] S1 MEMORY WRITE beat=84 addr=18f60480 data=df9c556ef55fb4e7 id=1e
[935000] S1 MEMORY WRITE beat=85 addr=18f60500 data=e6ee7bbca66714d0 id=1e
[935000] MASTER 1 W_VALID_RDY Handshake beat=86 wlast=0
[945000] MASTER 1 W_VALID_RDY Handshake beat=87 wlast=0
[945000] S1 MEMORY WRITE beat=86 addr=18f60580 data=235700d607ee6475 id=1e
[955000] S1 MEMORY WRITE beat=87 addr=18f60600 data=fd4e195c26d03fed id=1e
[955000] MASTER 1 W_VALID_RDY Handshake beat=88 wlast=0
[965000] MASTER 1 W_VALID_RDY Handshake beat=89 wlast=0
[965000] S1 MEMORY WRITE beat=88 addr=18f60680 data=cd3754bd82f35644 id=1e
[975000] S1 MEMORY WRITE beat=89 addr=18f60700 data=8ae1bab9e43c9518 id=1e
[975000] MASTER 1 W_VALID_RDY Handshake beat=90 wlast=0
[985000] MASTER 1 W_VALID_RDY Handshake beat=91 wlast=0
[985000] S1 MEMORY WRITE beat=90 addr=18f60780 data=8b0cd505f08e5593 id=1e
[995000] S1 MEMORY WRITE beat=91 addr=18f60800 data=f381abd8082fd416 id=1e
[995000] MASTER 1 W_VALID_RDY Handshake beat=92 wlast=0
[1005000] MASTER 1 W_VALID_RDY Handshake beat=93 wlast=0
[1005000] S1 MEMORY WRITE beat=92 addr=18f60880 data=ec6c692ed84429c3 id=1e
[1015000] S1 MEMORY WRITE beat=93 addr=18f60900 data=c8d27f56fe636691 id=1e
[1015000] MASTER 1 W_VALID_RDY Handshake beat=94 wlast=0
[1025000] MASTER 1 W_VALID_RDY Handshake beat=95 wlast=0
[1025000] S1 MEMORY WRITE beat=94 addr=18f60980 data=86933aa7f7793e34 id=1e
[1035000] S1 MEMORY WRITE beat=95 addr=18f60a00 data=cfbd67f7bc542b2e id=1e
[1035000] MASTER 1 W_VALID_RDY Handshake beat=96 wlast=0
[1045000] MASTER 1 W_VALID_RDY Handshake beat=97 wlast=0
[1045000] S1 MEMORY WRITE beat=96 addr=18f60a80 data=3ab791c0f2ffa3d6 id=1e
[1055000] S1 MEMORY WRITE beat=97 addr=18f60b00 data=ea78e20a988fe74d id=1e
[1055000] MASTER 1 W_VALID_RDY Handshake beat=98 wlast=0
[1065000] MASTER 1 W_VALID_RDY Handshake beat=99 wlast=0
[1065000] S1 MEMORY WRITE beat=98 addr=18f60b80 data=d4e4127cc14acc67 id=1e
[1075000] S1 MEMORY WRITE beat=99 addr=18f60c00 data=b44a703d3a364a01 id=1e
[1075000] MASTER 1 W_VALID_RDY Handshake beat=100 wlast=0
[1085000] MASTER_DRIVER1 received transaction, op=AXI_WRITE
[1085000] MASTER 1 W_VALID_RDY Handshake beat=101 wlast=1
[1085000] S1 MEMORY WRITE beat=100 addr=18f60c80 data=d2c6314e0f9ba43c id=1e
[1095000] S1 MEMORY WRITE beat=101 addr=18f60d00 data=d0e670a39ec35247 id=1e
[1105000] MASTER 1 AW_VALID_RDY Handshake
[1105000] SLAVE1 sent B resp, id=14
[1115000] AXI S1_AWVALID_RDY HANDSHAKE
[1115000] [SLAVE MONITOR] mst_id=1 s_id=1 awaddr=18f5da80 awid=1110 awlen=101 awsize=7 awburst=1 wdata=[d790d8460d1e74b0 bd9ce38081ccda50 e59cfe31e447672c f165dbdcc1507ba6 c31d55f63d2dd678 21753da4af02bf5c f0533b0228ba5428 e5e82aa012db1980 c1ddd8dc337090f9 dc2ae521075d6844 1a3881c4323113df e5a1a4d8c2130fc1 c9707805dc165aa0 8e476e7fc1cc89f9 3df99bae3a8f9c9 bfbf5469f3e91357 b5b59d50cd5011bf 30f90b88ce06c2e9 c1efd640b995370a 86e548c9f0b85ff1 bebf22daf7a57391 b13aaa9bb7de5451 2896b44300aef91b f8546cac381ff365 effe47b6e755d71d e804d038a98f1747 e1af0aac9894fbf9 ffead317e0593ce4 9e8542cd1ad5263 ea424e5ce7efa34f c848e034eb975ed8 bd44b13bea2d2173 d21cc4c3d2313460 bdc893382786ff98 91b4210b1a65a4f7 ec96d957fb0d4474 2294440ce3d0e5ce fe368ac5aa5f6c8f a56cb103b4486517 18194ae6eacd641c 152cd0acc800f50f fc495a27964fd5ab 11d39c8ba9981af 29a76bf1462a50d aab27ab8164a0a74 d0e38c23fee3d0e6 134675f3abcfb480 c219bef4d37e02e2 d261d3c8bdf8f0ab e9c8a52c12fd4b18 e67b4dfae5a849bb 23a13a67abe26420 bedfaf3838dd21c3 9e856b7e0d69df93 b94c43b3255afd33 de381ef6c226a5e5 cf908578f82bf2ec 1d86f01ffcbd8a74 3ee4305a08dcc92c 108bc18fbbf0f15 f87c99898e74b5d2 97517efe1e8fac37 1a4ebb4cb760c9e3 c5d57fb6985a3b16 b6e9e74d92cb54d5 ca2c1eb9dd26feb4 f58139cbd138a299 e403f76f10019e6f ed289d23ac6b2118 fda3c3b22e301628 3e31b497e2a9d6ee f14f807e1a7bb21 fd7d149ab5a51ba e0428a90cb8bbb9 ee6076dace0985e0 f963d79a1d1920b0 29d1dc69fe384823 cc41ce0387680043 a48120f318325343 166a9b66c5a5a59d cd0da5e1ce52fd5c e685509fe2ac6969 a8520f06f18ec6d4 3fe1c431fcefec05 df9c556ef55fb4e7 e6ee7bbca66714d0 235700d607ee6475 fd4e195c26d03fed cd3754bd82f35644 8ae1bab9e43c9518 8b0cd505f08e5593 f381abd8082fd416 ec6c692ed84429c3 c8d27f56fe636691 86933aa7f7793e34 cfbd67f7bc542b2e 3ab791c0f2ffa3d6 ea78e20a988fe74d d4e4127cc14acc67 b44a703d3a364a01 d2c6314e0f9ba43c d0e670a39ec35247 ] wstrb=[ca 48 e1 6 97 28 aa 61 71 8b 68 8 b3 12 69 24 9d d1 2c 50 e3 96 75 80 67 a1 d1 4b 37 46 cb 9f e7 9c ea 1f e2 b5 be ca 52 a8 e9 34 5d a7 fe af 4f e7 e4 ac 8e e2 5c dd ca 40 8a 58 22 e6 36 ec 26 c0 45 48 a6 7b 35 cc 3b 7a 14 e1 f5 49 ad 30 c3 c1 11 b8 b be e8 ce 7f f9 87 8a b7 6f 59 37 69 e0 c1 20 4f 1a ] bresp=0 bid=11110
[1115000] ARB MONITOR: slave=1 m0_req=0 m1_req=1 winner=1
[1125000] MASTER 1 RECEIVED BRESP. BRESP=0
[1125000] [MASTER DRIVER] mst_id=1 s_id=0 awaddr=18f5da80 awid=1110 awlen=101 awsize=7 awburst=1 wdata=[d790d8460d1e74b0 bd9ce38081ccda50 e59cfe31e447672c f165dbdcc1507ba6 c31d55f63d2dd678 21753da4af02bf5c f0533b0228ba5428 e5e82aa012db1980 c1ddd8dc337090f9 dc2ae521075d6844 1a3881c4323113df e5a1a4d8c2130fc1 c9707805dc165aa0 8e476e7fc1cc89f9 3df99bae3a8f9c9 bfbf5469f3e91357 b5b59d50cd5011bf 30f90b88ce06c2e9 c1efd640b995370a 86e548c9f0b85ff1 bebf22daf7a57391 b13aaa9bb7de5451 2896b44300aef91b f8546cac381ff365 effe47b6e755d71d e804d038a98f1747 e1af0aac9894fbf9 ffead317e0593ce4 9e8542cd1ad5263 ea424e5ce7efa34f c848e034eb975ed8 bd44b13bea2d2173 d21cc4c3d2313460 bdc893382786ff98 91b4210b1a65a4f7 ec96d957fb0d4474 2294440ce3d0e5ce fe368ac5aa5f6c8f a56cb103b4486517 18194ae6eacd641c 152cd0acc800f50f fc495a27964fd5ab 11d39c8ba9981af 29a76bf1462a50d aab27ab8164a0a74 d0e38c23fee3d0e6 134675f3abcfb480 c219bef4d37e02e2 d261d3c8bdf8f0ab e9c8a52c12fd4b18 e67b4dfae5a849bb 23a13a67abe26420 bedfaf3838dd21c3 9e856b7e0d69df93 b94c43b3255afd33 de381ef6c226a5e5 cf908578f82bf2ec 1d86f01ffcbd8a74 3ee4305a08dcc92c 108bc18fbbf0f15 f87c99898e74b5d2 97517efe1e8fac37 1a4ebb4cb760c9e3 c5d57fb6985a3b16 b6e9e74d92cb54d5 ca2c1eb9dd26feb4 f58139cbd138a299 e403f76f10019e6f ed289d23ac6b2118 fda3c3b22e301628 3e31b497e2a9d6ee f14f807e1a7bb21 fd7d149ab5a51ba e0428a90cb8bbb9 ee6076dace0985e0 f963d79a1d1920b0 29d1dc69fe384823 cc41ce0387680043 a48120f318325343 166a9b66c5a5a59d cd0da5e1ce52fd5c e685509fe2ac6969 a8520f06f18ec6d4 3fe1c431fcefec05 df9c556ef55fb4e7 e6ee7bbca66714d0 235700d607ee6475 fd4e195c26d03fed cd3754bd82f35644 8ae1bab9e43c9518 8b0cd505f08e5593 f381abd8082fd416 ec6c692ed84429c3 c8d27f56fe636691 86933aa7f7793e34 cfbd67f7bc542b2e 3ab791c0f2ffa3d6 ea78e20a988fe74d d4e4127cc14acc67 b44a703d3a364a01 d2c6314e0f9ba43c d0e670a39ec35247 ] wstrb=[ca 48 e1 6 97 28 aa 61 71 8b 68 8 b3 12 69 24 9d d1 2c 50 e3 96 75 80 67 a1 d1 4b 37 46 cb 9f e7 9c ea 1f e2 b5 be ca 52 a8 e9 34 5d a7 fe af 4f e7 e4 ac 8e e2 5c dd ca 40 8a 58 22 e6 36 ec 26 c0 45 48 a6 7b 35 cc 3b 7a 14 e1 f5 49 ad 30 c3 c1 11 b8 b be e8 ce 7f f9 87 8a b7 6f 59 37 69 e0 c1 20 4f 1a ] bresp=0 bid=1110
[1125000] MASTER 1 W_VALID_RDY Handshake beat=0 wlast=0
[1125000] MASTER 1 B_VALID_RDY Handshake
[1125000] [MASTER MONITOR] mst_id=1 s_id=1 awaddr=18f5da80 awid=1110 awlen=101 awsize=7 awburst=1 wdata=[d790d8460d1e74b0 bd9ce38081ccda50 e59cfe31e447672c f165dbdcc1507ba6 c31d55f63d2dd678 21753da4af02bf5c f0533b0228ba5428 e5e82aa012db1980 c1ddd8dc337090f9 dc2ae521075d6844 1a3881c4323113df e5a1a4d8c2130fc1 c9707805dc165aa0 8e476e7fc1cc89f9 3df99bae3a8f9c9 bfbf5469f3e91357 b5b59d50cd5011bf 30f90b88ce06c2e9 c1efd640b995370a 86e548c9f0b85ff1 bebf22daf7a57391 b13aaa9bb7de5451 2896b44300aef91b f8546cac381ff365 effe47b6e755d71d e804d038a98f1747 e1af0aac9894fbf9 ffead317e0593ce4 9e8542cd1ad5263 ea424e5ce7efa34f c848e034eb975ed8 bd44b13bea2d2173 d21cc4c3d2313460 bdc893382786ff98 91b4210b1a65a4f7 ec96d957fb0d4474 2294440ce3d0e5ce fe368ac5aa5f6c8f a56cb103b4486517 18194ae6eacd641c 152cd0acc800f50f fc495a27964fd5ab 11d39c8ba9981af 29a76bf1462a50d aab27ab8164a0a74 d0e38c23fee3d0e6 134675f3abcfb480 c219bef4d37e02e2 d261d3c8bdf8f0ab e9c8a52c12fd4b18 e67b4dfae5a849bb 23a13a67abe26420 bedfaf3838dd21c3 9e856b7e0d69df93 b94c43b3255afd33 de381ef6c226a5e5 cf908578f82bf2ec 1d86f01ffcbd8a74 3ee4305a08dcc92c 108bc18fbbf0f15 f87c99898e74b5d2 97517efe1e8fac37 1a4ebb4cb760c9e3 c5d57fb6985a3b16 b6e9e74d92cb54d5 ca2c1eb9dd26feb4 f58139cbd138a299 e403f76f10019e6f ed289d23ac6b2118 fda3c3b22e301628 3e31b497e2a9d6ee f14f807e1a7bb21 fd7d149ab5a51ba e0428a90cb8bbb9 ee6076dace0985e0 f963d79a1d1920b0 29d1dc69fe384823 cc41ce0387680043 a48120f318325343 166a9b66c5a5a59d cd0da5e1ce52fd5c e685509fe2ac6969 a8520f06f18ec6d4 3fe1c431fcefec05 df9c556ef55fb4e7 e6ee7bbca66714d0 235700d607ee6475 fd4e195c26d03fed cd3754bd82f35644 8ae1bab9e43c9518 8b0cd505f08e5593 f381abd8082fd416 ec6c692ed84429c3 c8d27f56fe636691 86933aa7f7793e34 cfbd67f7bc542b2e 3ab791c0f2ffa3d6 ea78e20a988fe74d d4e4127cc14acc67 b44a703d3a364a01 d2c6314e0f9ba43c d0e670a39ec35247 ] wstrb=[ca 48 e1 6 97 28 aa 61 71 8b 68 8 b3 12 69 24 9d d1 2c 50 e3 96 75 80 67 a1 d1 4b 37 46 cb 9f e7 9c ea 1f e2 b5 be ca 52 a8 e9 34 5d a7 fe af 4f e7 e4 ac 8e e2 5c dd ca 40 8a 58 22 e6 36 ec 26 c0 45 48 a6 7b 35 cc 3b 7a 14 e1 f5 49 ad 30 c3 c1 11 b8 b be e8 ce 7f f9 87 8a b7 6f 59 37 69 e0 c1 20 4f 1a ] bresp=0 bid=1110
[1125000] SCOREBOARD MATCH: decode_err expected = 0, actual =0
[1125000] SCOREBOARD MATCH: slave_id expected = 1, actual =1
[1125000] SCOREBOARD MATCH: awaddr passthrough expected = 18f5da80, actual =18f5da80
[1125000] SCOREBOARD MATCH: awlen passthrough expected = 101, actual =101
[1125000] SCOREBOARD MATCH: awsize passthrough expected = 7, actual =7
[1125000] SCOREBOARD MATCH: awburst passthrough expected = 1, actual =1
[1125000] SCOREBOARD MATCH: wdata size check expected = 66, actual =66
[1125000] SCOREBOARD MATCH: wdata passthrough beat=0 expected = d790d8460d1e74b0, actual =d790d8460d1e74b0
[1125000] SCOREBOARD MATCH: wdata passthrough beat=1 expected = bd9ce38081ccda50, actual =bd9ce38081ccda50
[1125000] SCOREBOARD MATCH: wdata passthrough beat=2 expected = e59cfe31e447672c, actual =e59cfe31e447672c
[1125000] SCOREBOARD MATCH: wdata passthrough beat=3 expected = f165dbdcc1507ba6, actual =f165dbdcc1507ba6
[1125000] SCOREBOARD MATCH: wdata passthrough beat=4 expected = c31d55f63d2dd678, actual =c31d55f63d2dd678
[1125000] SCOREBOARD MATCH: wdata passthrough beat=5 expected = 21753da4af02bf5c, actual =21753da4af02bf5c
[1125000] SCOREBOARD MATCH: wdata passthrough beat=6 expected = f0533b0228ba5428, actual =f0533b0228ba5428
[1125000] SCOREBOARD MATCH: wdata passthrough beat=7 expected = e5e82aa012db1980, actual =e5e82aa012db1980
[1125000] SCOREBOARD MATCH: wdata passthrough beat=8 expected = c1ddd8dc337090f9, actual =c1ddd8dc337090f9
[1125000] SCOREBOARD MATCH: wdata passthrough beat=9 expected = dc2ae521075d6844, actual =dc2ae521075d6844
[1125000] SCOREBOARD MATCH: wdata passthrough beat=10 expected = 1a3881c4323113df, actual =1a3881c4323113df
[1125000] SCOREBOARD MATCH: wdata passthrough beat=11 expected = e5a1a4d8c2130fc1, actual =e5a1a4d8c2130fc1
[1125000] SCOREBOARD MATCH: wdata passthrough beat=12 expected = c9707805dc165aa0, actual =c9707805dc165aa0
[1125000] SCOREBOARD MATCH: wdata passthrough beat=13 expected = 8e476e7fc1cc89f9, actual =8e476e7fc1cc89f9
[1125000] SCOREBOARD MATCH: wdata passthrough beat=14 expected = 3df99bae3a8f9c9, actual =3df99bae3a8f9c9
[1125000] SCOREBOARD MATCH: wdata passthrough beat=15 expected = bfbf5469f3e91357, actual =bfbf5469f3e91357
[1125000] SCOREBOARD MATCH: wdata passthrough beat=16 expected = b5b59d50cd5011bf, actual =b5b59d50cd5011bf
[1125000] SCOREBOARD MATCH: wdata passthrough beat=17 expected = 30f90b88ce06c2e9, actual =30f90b88ce06c2e9
[1125000] SCOREBOARD MATCH: wdata passthrough beat=18 expected = c1efd640b995370a, actual =c1efd640b995370a
[1125000] SCOREBOARD MATCH: wdata passthrough beat=19 expected = 86e548c9f0b85ff1, actual =86e548c9f0b85ff1
[1125000] SCOREBOARD MATCH: wdata passthrough beat=20 expected = bebf22daf7a57391, actual =bebf22daf7a57391
[1125000] SCOREBOARD MATCH: wdata passthrough beat=21 expected = b13aaa9bb7de5451, actual =b13aaa9bb7de5451
[1125000] SCOREBOARD MATCH: wdata passthrough beat=22 expected = 2896b44300aef91b, actual =2896b44300aef91b
[1125000] SCOREBOARD MATCH: wdata passthrough beat=23 expected = f8546cac381ff365, actual =f8546cac381ff365
[1125000] SCOREBOARD MATCH: wdata passthrough beat=24 expected = effe47b6e755d71d, actual =effe47b6e755d71d
[1125000] SCOREBOARD MATCH: wdata passthrough beat=25 expected = e804d038a98f1747, actual =e804d038a98f1747
[1125000] SCOREBOARD MATCH: wdata passthrough beat=26 expected = e1af0aac9894fbf9, actual =e1af0aac9894fbf9
[1125000] SCOREBOARD MATCH: wdata passthrough beat=27 expected = ffead317e0593ce4, actual =ffead317e0593ce4
[1125000] SCOREBOARD MATCH: wdata passthrough beat=28 expected = 9e8542cd1ad5263, actual =9e8542cd1ad5263
[1125000] SCOREBOARD MATCH: wdata passthrough beat=29 expected = ea424e5ce7efa34f, actual =ea424e5ce7efa34f
[1125000] SCOREBOARD MATCH: wdata passthrough beat=30 expected = c848e034eb975ed8, actual =c848e034eb975ed8
[1125000] SCOREBOARD MATCH: wdata passthrough beat=31 expected = bd44b13bea2d2173, actual =bd44b13bea2d2173
[1125000] SCOREBOARD MATCH: wdata passthrough beat=32 expected = d21cc4c3d2313460, actual =d21cc4c3d2313460
[1125000] SCOREBOARD MATCH: wdata passthrough beat=33 expected = bdc893382786ff98, actual =bdc893382786ff98
[1125000] SCOREBOARD MATCH: wdata passthrough beat=34 expected = 91b4210b1a65a4f7, actual =91b4210b1a65a4f7
[1125000] SCOREBOARD MATCH: wdata passthrough beat=35 expected = ec96d957fb0d4474, actual =ec96d957fb0d4474
[1125000] SCOREBOARD MATCH: wdata passthrough beat=36 expected = 2294440ce3d0e5ce, actual =2294440ce3d0e5ce
[1125000] SCOREBOARD MATCH: wdata passthrough beat=37 expected = fe368ac5aa5f6c8f, actual =fe368ac5aa5f6c8f
[1125000] SCOREBOARD MATCH: wdata passthrough beat=38 expected = a56cb103b4486517, actual =a56cb103b4486517
[1125000] SCOREBOARD MATCH: wdata passthrough beat=39 expected = 18194ae6eacd641c, actual =18194ae6eacd641c
[1125000] SCOREBOARD MATCH: wdata passthrough beat=40 expected = 152cd0acc800f50f, actual =152cd0acc800f50f
[1125000] SCOREBOARD MATCH: wdata passthrough beat=41 expected = fc495a27964fd5ab, actual =fc495a27964fd5ab
[1125000] SCOREBOARD MATCH: wdata passthrough beat=42 expected = 11d39c8ba9981af, actual =11d39c8ba9981af
[1125000] SCOREBOARD MATCH: wdata passthrough beat=43 expected = 29a76bf1462a50d, actual =29a76bf1462a50d
[1125000] SCOREBOARD MATCH: wdata passthrough beat=44 expected = aab27ab8164a0a74, actual =aab27ab8164a0a74
[1125000] SCOREBOARD MATCH: wdata passthrough beat=45 expected = d0e38c23fee3d0e6, actual =d0e38c23fee3d0e6
[1125000] SCOREBOARD MATCH: wdata passthrough beat=46 expected = 134675f3abcfb480, actual =134675f3abcfb480
[1125000] SCOREBOARD MATCH: wdata passthrough beat=47 expected = c219bef4d37e02e2, actual =c219bef4d37e02e2
[1125000] SCOREBOARD MATCH: wdata passthrough beat=48 expected = d261d3c8bdf8f0ab, actual =d261d3c8bdf8f0ab
[1125000] SCOREBOARD MATCH: wdata passthrough beat=49 expected = e9c8a52c12fd4b18, actual =e9c8a52c12fd4b18
[1125000] SCOREBOARD MATCH: wdata passthrough beat=50 expected = e67b4dfae5a849bb, actual =e67b4dfae5a849bb
[1125000] SCOREBOARD MATCH: wdata passthrough beat=51 expected = 23a13a67abe26420, actual =23a13a67abe26420
[1125000] SCOREBOARD MATCH: wdata passthrough beat=52 expected = bedfaf3838dd21c3, actual =bedfaf3838dd21c3
[1125000] SCOREBOARD MATCH: wdata passthrough beat=53 expected = 9e856b7e0d69df93, actual =9e856b7e0d69df93
[1125000] SCOREBOARD MATCH: wdata passthrough beat=54 expected = b94c43b3255afd33, actual =b94c43b3255afd33
[1125000] SCOREBOARD MATCH: wdata passthrough beat=55 expected = de381ef6c226a5e5, actual =de381ef6c226a5e5
[1125000] SCOREBOARD MATCH: wdata passthrough beat=56 expected = cf908578f82bf2ec, actual =cf908578f82bf2ec
[1125000] SCOREBOARD MATCH: wdata passthrough beat=57 expected = 1d86f01ffcbd8a74, actual =1d86f01ffcbd8a74
[1125000] SCOREBOARD MATCH: wdata passthrough beat=58 expected = 3ee4305a08dcc92c, actual =3ee4305a08dcc92c
[1125000] SCOREBOARD MATCH: wdata passthrough beat=59 expected = 108bc18fbbf0f15, actual =108bc18fbbf0f15
[1125000] SCOREBOARD MATCH: wdata passthrough beat=60 expected = f87c99898e74b5d2, actual =f87c99898e74b5d2
[1125000] SCOREBOARD MATCH: wdata passthrough beat=61 expected = 97517efe1e8fac37, actual =97517efe1e8fac37
[1125000] SCOREBOARD MATCH: wdata passthrough beat=62 expected = 1a4ebb4cb760c9e3, actual =1a4ebb4cb760c9e3
[1125000] SCOREBOARD MATCH: wdata passthrough beat=63 expected = c5d57fb6985a3b16, actual =c5d57fb6985a3b16
[1125000] SCOREBOARD MATCH: wdata passthrough beat=64 expected = b6e9e74d92cb54d5, actual =b6e9e74d92cb54d5
[1125000] SCOREBOARD MATCH: wdata passthrough beat=65 expected = ca2c1eb9dd26feb4, actual =ca2c1eb9dd26feb4
[1125000] SCOREBOARD MATCH: wdata passthrough beat=66 expected = f58139cbd138a299, actual =f58139cbd138a299
[1125000] SCOREBOARD MATCH: wdata passthrough beat=67 expected = e403f76f10019e6f, actual =e403f76f10019e6f
[1125000] SCOREBOARD MATCH: wdata passthrough beat=68 expected = ed289d23ac6b2118, actual =ed289d23ac6b2118
[1125000] SCOREBOARD MATCH: wdata passthrough beat=69 expected = fda3c3b22e301628, actual =fda3c3b22e301628
[1125000] SCOREBOARD MATCH: wdata passthrough beat=70 expected = 3e31b497e2a9d6ee, actual =3e31b497e2a9d6ee
[1125000] SCOREBOARD MATCH: wdata passthrough beat=71 expected = f14f807e1a7bb21, actual =f14f807e1a7bb21
[1125000] SCOREBOARD MATCH: wdata passthrough beat=72 expected = fd7d149ab5a51ba, actual =fd7d149ab5a51ba
[1125000] SCOREBOARD MATCH: wdata passthrough beat=73 expected = e0428a90cb8bbb9, actual =e0428a90cb8bbb9
[1125000] SCOREBOARD MATCH: wdata passthrough beat=74 expected = ee6076dace0985e0, actual =ee6076dace0985e0
[1125000] SCOREBOARD MATCH: wdata passthrough beat=75 expected = f963d79a1d1920b0, actual =f963d79a1d1920b0
[1125000] SCOREBOARD MATCH: wdata passthrough beat=76 expected = 29d1dc69fe384823, actual =29d1dc69fe384823
[1125000] SCOREBOARD MATCH: wdata passthrough beat=77 expected = cc41ce0387680043, actual =cc41ce0387680043
[1125000] SCOREBOARD MATCH: wdata passthrough beat=78 expected = a48120f318325343, actual =a48120f318325343
[1125000] SCOREBOARD MATCH: wdata passthrough beat=79 expected = 166a9b66c5a5a59d, actual =166a9b66c5a5a59d
[1125000] SCOREBOARD MATCH: wdata passthrough beat=80 expected = cd0da5e1ce52fd5c, actual =cd0da5e1ce52fd5c
[1125000] SCOREBOARD MATCH: wdata passthrough beat=81 expected = e685509fe2ac6969, actual =e685509fe2ac6969
[1125000] SCOREBOARD MATCH: wdata passthrough beat=82 expected = a8520f06f18ec6d4, actual =a8520f06f18ec6d4
[1125000] SCOREBOARD MATCH: wdata passthrough beat=83 expected = 3fe1c431fcefec05, actual =3fe1c431fcefec05
[1125000] SCOREBOARD MATCH: wdata passthrough beat=84 expected = df9c556ef55fb4e7, actual =df9c556ef55fb4e7
[1125000] SCOREBOARD MATCH: wdata passthrough beat=85 expected = e6ee7bbca66714d0, actual =e6ee7bbca66714d0
[1125000] SCOREBOARD MATCH: wdata passthrough beat=86 expected = 235700d607ee6475, actual =235700d607ee6475
[1125000] SCOREBOARD MATCH: wdata passthrough beat=87 expected = fd4e195c26d03fed, actual =fd4e195c26d03fed
[1125000] SCOREBOARD MATCH: wdata passthrough beat=88 expected = cd3754bd82f35644, actual =cd3754bd82f35644
[1125000] SCOREBOARD MATCH: wdata passthrough beat=89 expected = 8ae1bab9e43c9518, actual =8ae1bab9e43c9518
[1125000] SCOREBOARD MATCH: wdata passthrough beat=90 expected = 8b0cd505f08e5593, actual =8b0cd505f08e5593
[1125000] SCOREBOARD MATCH: wdata passthrough beat=91 expected = f381abd8082fd416, actual =f381abd8082fd416
[1125000] SCOREBOARD MATCH: wdata passthrough beat=92 expected = ec6c692ed84429c3, actual =ec6c692ed84429c3
[1125000] SCOREBOARD MATCH: wdata passthrough beat=93 expected = c8d27f56fe636691, actual =c8d27f56fe636691
[1125000] SCOREBOARD MATCH: wdata passthrough beat=94 expected = 86933aa7f7793e34, actual =86933aa7f7793e34
[1125000] SCOREBOARD MATCH: wdata passthrough beat=95 expected = cfbd67f7bc542b2e, actual =cfbd67f7bc542b2e
[1125000] SCOREBOARD MATCH: wdata passthrough beat=96 expected = 3ab791c0f2ffa3d6, actual =3ab791c0f2ffa3d6
[1125000] SCOREBOARD MATCH: wdata passthrough beat=97 expected = ea78e20a988fe74d, actual =ea78e20a988fe74d
[1125000] SCOREBOARD MATCH: wdata passthrough beat=98 expected = d4e4127cc14acc67, actual =d4e4127cc14acc67
[1125000] SCOREBOARD MATCH: wdata passthrough beat=99 expected = b44a703d3a364a01, actual =b44a703d3a364a01
[1125000] SCOREBOARD MATCH: wdata passthrough beat=100 expected = d2c6314e0f9ba43c, actual =d2c6314e0f9ba43c
[1125000] SCOREBOARD MATCH: wdata passthrough beat=101 expected = d0e670a39ec35247, actual =d0e670a39ec35247
[1125000] SCOREBOARD MATCH: wstrb size check expected = 66, actual =66
[1125000] SCOREBOARD MATCH: wstrb passthrough beat=0 expected = ca, actual =ca
[1125000] SCOREBOARD MATCH: wstrb passthrough beat=1 expected = 48, actual =48
[1125000] SCOREBOARD MATCH: wstrb passthrough beat=2 expected = e1, actual =e1
[1125000] SCOREBOARD MATCH: wstrb passthrough beat=3 expected = 6, actual =6
[1125000] SCOREBOARD MATCH: wstrb passthrough beat=4 expected = 97, actual =97
[1125000] SCOREBOARD MATCH: wstrb passthrough beat=5 expected = 28, actual =28
[1125000] SCOREBOARD MATCH: wstrb passthrough beat=6 expected = aa, actual =aa
[1125000] SCOREBOARD MATCH: wstrb passthrough beat=7 expected = 61, actual =61
[1125000] SCOREBOARD MATCH: wstrb passthrough beat=8 expected = 71, actual =71
[1125000] SCOREBOARD MATCH: wstrb passthrough beat=9 expected = 8b, actual =8b
[1125000] SCOREBOARD MATCH: wstrb passthrough beat=10 expected = 68, actual =68
[1125000] SCOREBOARD MATCH: wstrb passthrough beat=11 expected = 8, actual =8
[1125000] SCOREBOARD MATCH: wstrb passthrough beat=12 expected = b3, actual =b3
[1125000] SCOREBOARD MATCH: wstrb passthrough beat=13 expected = 12, actual =12
[1125000] SCOREBOARD MATCH: wstrb passthrough beat=14 expected = 69, actual =69
[1125000] SCOREBOARD MATCH: wstrb passthrough beat=15 expected = 24, actual =24
[1125000] SCOREBOARD MATCH: wstrb passthrough beat=16 expected = 9d, actual =9d
[1125000] SCOREBOARD MATCH: wstrb passthrough beat=17 expected = d1, actual =d1
[1125000] SCOREBOARD MATCH: wstrb passthrough beat=18 expected = 2c, actual =2c
[1125000] SCOREBOARD MATCH: wstrb passthrough beat=19 expected = 50, actual =50
[1125000] SCOREBOARD MATCH: wstrb passthrough beat=20 expected = e3, actual =e3
[1125000] SCOREBOARD MATCH: wstrb passthrough beat=21 expected = 96, actual =96
[1125000] SCOREBOARD MATCH: wstrb passthrough beat=22 expected = 75, actual =75
[1125000] SCOREBOARD MATCH: wstrb passthrough beat=23 expected = 80, actual =80
[1125000] SCOREBOARD MATCH: wstrb passthrough beat=24 expected = 67, actual =67
[1125000] SCOREBOARD MATCH: wstrb passthrough beat=25 expected = a1, actual =a1
[1125000] SCOREBOARD MATCH: wstrb passthrough beat=26 expected = d1, actual =d1
[1125000] SCOREBOARD MATCH: wstrb passthrough beat=27 expected = 4b, actual =4b
[1125000] SCOREBOARD MATCH: wstrb passthrough beat=28 expected = 37, actual =37
[1125000] SCOREBOARD MATCH: wstrb passthrough beat=29 expected = 46, actual =46
[1125000] SCOREBOARD MATCH: wstrb passthrough beat=30 expected = cb, actual =cb
[1125000] SCOREBOARD MATCH: wstrb passthrough beat=31 expected = 9f, actual =9f
[1125000] SCOREBOARD MATCH: wstrb passthrough beat=32 expected = e7, actual =e7
[1125000] SCOREBOARD MATCH: wstrb passthrough beat=33 expected = 9c, actual =9c
[1125000] SCOREBOARD MATCH: wstrb passthrough beat=34 expected = ea, actual =ea
[1125000] SCOREBOARD MATCH: wstrb passthrough beat=35 expected = 1f, actual =1f
[1125000] SCOREBOARD MATCH: wstrb passthrough beat=36 expected = e2, actual =e2
[1125000] SCOREBOARD MATCH: wstrb passthrough beat=37 expected = b5, actual =b5
[1125000] SCOREBOARD MATCH: wstrb passthrough beat=38 expected = be, actual =be
[1125000] SCOREBOARD MATCH: wstrb passthrough beat=39 expected = ca, actual =ca
[1125000] SCOREBOARD MATCH: wstrb passthrough beat=40 expected = 52, actual =52
[1125000] SCOREBOARD MATCH: wstrb passthrough beat=41 expected = a8, actual =a8
[1125000] SCOREBOARD MATCH: wstrb passthrough beat=42 expected = e9, actual =e9
[1125000] SCOREBOARD MATCH: wstrb passthrough beat=43 expected = 34, actual =34
[1125000] SCOREBOARD MATCH: wstrb passthrough beat=44 expected = 5d, actual =5d
[1125000] SCOREBOARD MATCH: wstrb passthrough beat=45 expected = a7, actual =a7
[1125000] SCOREBOARD MATCH: wstrb passthrough beat=46 expected = fe, actual =fe
[1125000] SCOREBOARD MATCH: wstrb passthrough beat=47 expected = af, actual =af
[1125000] SCOREBOARD MATCH: wstrb passthrough beat=48 expected = 4f, actual =4f
[1125000] SCOREBOARD MATCH: wstrb passthrough beat=49 expected = e7, actual =e7
[1125000] SCOREBOARD MATCH: wstrb passthrough beat=50 expected = e4, actual =e4
[1125000] SCOREBOARD MATCH: wstrb passthrough beat=51 expected = ac, actual =ac
[1125000] SCOREBOARD MATCH: wstrb passthrough beat=52 expected = 8e, actual =8e
[1125000] SCOREBOARD MATCH: wstrb passthrough beat=53 expected = e2, actual =e2
[1125000] SCOREBOARD MATCH: wstrb passthrough beat=54 expected = 5c, actual =5c
[1125000] SCOREBOARD MATCH: wstrb passthrough beat=55 expected = dd, actual =dd
[1125000] SCOREBOARD MATCH: wstrb passthrough beat=56 expected = ca, actual =ca
[1125000] SCOREBOARD MATCH: wstrb passthrough beat=57 expected = 40, actual =40
[1125000] SCOREBOARD MATCH: wstrb passthrough beat=58 expected = 8a, actual =8a
[1125000] SCOREBOARD MATCH: wstrb passthrough beat=59 expected = 58, actual =58
[1125000] SCOREBOARD MATCH: wstrb passthrough beat=60 expected = 22, actual =22
[1125000] SCOREBOARD MATCH: wstrb passthrough beat=61 expected = e6, actual =e6
[1125000] SCOREBOARD MATCH: wstrb passthrough beat=62 expected = 36, actual =36
[1125000] SCOREBOARD MATCH: wstrb passthrough beat=63 expected = ec, actual =ec
[1125000] SCOREBOARD MATCH: wstrb passthrough beat=64 expected = 26, actual =26
[1125000] SCOREBOARD MATCH: wstrb passthrough beat=65 expected = c0, actual =c0
[1125000] SCOREBOARD MATCH: wstrb passthrough beat=66 expected = 45, actual =45
[1125000] SCOREBOARD MATCH: wstrb passthrough beat=67 expected = 48, actual =48
[1125000] SCOREBOARD MATCH: wstrb passthrough beat=68 expected = a6, actual =a6
[1125000] SCOREBOARD MATCH: wstrb passthrough beat=69 expected = 7b, actual =7b
[1125000] SCOREBOARD MATCH: wstrb passthrough beat=70 expected = 35, actual =35
[1125000] SCOREBOARD MATCH: wstrb passthrough beat=71 expected = cc, actual =cc
[1125000] SCOREBOARD MATCH: wstrb passthrough beat=72 expected = 3b, actual =3b
[1125000] SCOREBOARD MATCH: wstrb passthrough beat=73 expected = 7a, actual =7a
[1125000] SCOREBOARD MATCH: wstrb passthrough beat=74 expected = 14, actual =14
[1125000] SCOREBOARD MATCH: wstrb passthrough beat=75 expected = e1, actual =e1
[1125000] SCOREBOARD MATCH: wstrb passthrough beat=76 expected = f5, actual =f5
[1125000] SCOREBOARD MATCH: wstrb passthrough beat=77 expected = 49, actual =49
[1125000] SCOREBOARD MATCH: wstrb passthrough beat=78 expected = ad, actual =ad
[1125000] SCOREBOARD MATCH: wstrb passthrough beat=79 expected = 30, actual =30
[1125000] SCOREBOARD MATCH: wstrb passthrough beat=80 expected = c3, actual =c3
[1125000] SCOREBOARD MATCH: wstrb passthrough beat=81 expected = c1, actual =c1
[1125000] SCOREBOARD MATCH: wstrb passthrough beat=82 expected = 11, actual =11
[1125000] SCOREBOARD MATCH: wstrb passthrough beat=83 expected = b8, actual =b8
[1125000] SCOREBOARD MATCH: wstrb passthrough beat=84 expected = b, actual =b
[1125000] SCOREBOARD MATCH: wstrb passthrough beat=85 expected = be, actual =be
[1125000] SCOREBOARD MATCH: wstrb passthrough beat=86 expected = e8, actual =e8
[1125000] SCOREBOARD MATCH: wstrb passthrough beat=87 expected = ce, actual =ce
[1125000] SCOREBOARD MATCH: wstrb passthrough beat=88 expected = 7f, actual =7f
[1125000] SCOREBOARD MATCH: wstrb passthrough beat=89 expected = f9, actual =f9
[1125000] SCOREBOARD MATCH: wstrb passthrough beat=90 expected = 87, actual =87
[1125000] SCOREBOARD MATCH: wstrb passthrough beat=91 expected = 8a, actual =8a
[1125000] SCOREBOARD MATCH: wstrb passthrough beat=92 expected = b7, actual =b7
[1125000] SCOREBOARD MATCH: wstrb passthrough beat=93 expected = 6f, actual =6f
[1125000] SCOREBOARD MATCH: wstrb passthrough beat=94 expected = 59, actual =59
[1125000] SCOREBOARD MATCH: wstrb passthrough beat=95 expected = 37, actual =37
[1125000] SCOREBOARD MATCH: wstrb passthrough beat=96 expected = 69, actual =69
[1125000] SCOREBOARD MATCH: wstrb passthrough beat=97 expected = e0, actual =e0
[1125000] SCOREBOARD MATCH: wstrb passthrough beat=98 expected = c1, actual =c1
[1125000] SCOREBOARD MATCH: wstrb passthrough beat=99 expected = 20, actual =20
[1125000] SCOREBOARD MATCH: wstrb passthrough beat=100 expected = 4f, actual =4f
[1125000] SCOREBOARD MATCH: wstrb passthrough beat=101 expected = 1a, actual =1a
[1125000] SCOREBOARD MATCH: bresp passthrough expected = 0, actual =0
[1125000] SCOREBOARD MATCH: response routed to correct master (write) expected = 1, actual =1
[1125000] [SCOREBOARD-M] mst_id=1 s_id=1 awaddr=18f5da80 awid=1110 awlen=101 awsize=7 awburst=1 wdata=[d790d8460d1e74b0 bd9ce38081ccda50 e59cfe31e447672c f165dbdcc1507ba6 c31d55f63d2dd678 21753da4af02bf5c f0533b0228ba5428 e5e82aa012db1980 c1ddd8dc337090f9 dc2ae521075d6844 1a3881c4323113df e5a1a4d8c2130fc1 c9707805dc165aa0 8e476e7fc1cc89f9 3df99bae3a8f9c9 bfbf5469f3e91357 b5b59d50cd5011bf 30f90b88ce06c2e9 c1efd640b995370a 86e548c9f0b85ff1 bebf22daf7a57391 b13aaa9bb7de5451 2896b44300aef91b f8546cac381ff365 effe47b6e755d71d e804d038a98f1747 e1af0aac9894fbf9 ffead317e0593ce4 9e8542cd1ad5263 ea424e5ce7efa34f c848e034eb975ed8 bd44b13bea2d2173 d21cc4c3d2313460 bdc893382786ff98 91b4210b1a65a4f7 ec96d957fb0d4474 2294440ce3d0e5ce fe368ac5aa5f6c8f a56cb103b4486517 18194ae6eacd641c 152cd0acc800f50f fc495a27964fd5ab 11d39c8ba9981af 29a76bf1462a50d aab27ab8164a0a74 d0e38c23fee3d0e6 134675f3abcfb480 c219bef4d37e02e2 d261d3c8bdf8f0ab e9c8a52c12fd4b18 e67b4dfae5a849bb 23a13a67abe26420 bedfaf3838dd21c3 9e856b7e0d69df93 b94c43b3255afd33 de381ef6c226a5e5 cf908578f82bf2ec 1d86f01ffcbd8a74 3ee4305a08dcc92c 108bc18fbbf0f15 f87c99898e74b5d2 97517efe1e8fac37 1a4ebb4cb760c9e3 c5d57fb6985a3b16 b6e9e74d92cb54d5 ca2c1eb9dd26feb4 f58139cbd138a299 e403f76f10019e6f ed289d23ac6b2118 fda3c3b22e301628 3e31b497e2a9d6ee f14f807e1a7bb21 fd7d149ab5a51ba e0428a90cb8bbb9 ee6076dace0985e0 f963d79a1d1920b0 29d1dc69fe384823 cc41ce0387680043 a48120f318325343 166a9b66c5a5a59d cd0da5e1ce52fd5c e685509fe2ac6969 a8520f06f18ec6d4 3fe1c431fcefec05 df9c556ef55fb4e7 e6ee7bbca66714d0 235700d607ee6475 fd4e195c26d03fed cd3754bd82f35644 8ae1bab9e43c9518 8b0cd505f08e5593 f381abd8082fd416 ec6c692ed84429c3 c8d27f56fe636691 86933aa7f7793e34 cfbd67f7bc542b2e 3ab791c0f2ffa3d6 ea78e20a988fe74d d4e4127cc14acc67 b44a703d3a364a01 d2c6314e0f9ba43c d0e670a39ec35247 ] wstrb=[ca 48 e1 6 97 28 aa 61 71 8b 68 8 b3 12 69 24 9d d1 2c 50 e3 96 75 80 67 a1 d1 4b 37 46 cb 9f e7 9c ea 1f e2 b5 be ca 52 a8 e9 34 5d a7 fe af 4f e7 e4 ac 8e e2 5c dd ca 40 8a 58 22 e6 36 ec 26 c0 45 48 a6 7b 35 cc 3b 7a 14 e1 f5 49 ad 30 c3 c1 11 b8 b be e8 ce 7f f9 87 8a b7 6f 59 37 69 e0 c1 20 4f 1a ] bresp=0 bid=1110
[1125000] [SCOREBOARD-S] mst_id=1 s_id=1 awaddr=18f5da80 awid=1110 awlen=101 awsize=7 awburst=1 wdata=[d790d8460d1e74b0 bd9ce38081ccda50 e59cfe31e447672c f165dbdcc1507ba6 c31d55f63d2dd678 21753da4af02bf5c f0533b0228ba5428 e5e82aa012db1980 c1ddd8dc337090f9 dc2ae521075d6844 1a3881c4323113df e5a1a4d8c2130fc1 c9707805dc165aa0 8e476e7fc1cc89f9 3df99bae3a8f9c9 bfbf5469f3e91357 b5b59d50cd5011bf 30f90b88ce06c2e9 c1efd640b995370a 86e548c9f0b85ff1 bebf22daf7a57391 b13aaa9bb7de5451 2896b44300aef91b f8546cac381ff365 effe47b6e755d71d e804d038a98f1747 e1af0aac9894fbf9 ffead317e0593ce4 9e8542cd1ad5263 ea424e5ce7efa34f c848e034eb975ed8 bd44b13bea2d2173 d21cc4c3d2313460 bdc893382786ff98 91b4210b1a65a4f7 ec96d957fb0d4474 2294440ce3d0e5ce fe368ac5aa5f6c8f a56cb103b4486517 18194ae6eacd641c 152cd0acc800f50f fc495a27964fd5ab 11d39c8ba9981af 29a76bf1462a50d aab27ab8164a0a74 d0e38c23fee3d0e6 134675f3abcfb480 c219bef4d37e02e2 d261d3c8bdf8f0ab e9c8a52c12fd4b18 e67b4dfae5a849bb 23a13a67abe26420 bedfaf3838dd21c3 9e856b7e0d69df93 b94c43b3255afd33 de381ef6c226a5e5 cf908578f82bf2ec 1d86f01ffcbd8a74 3ee4305a08dcc92c 108bc18fbbf0f15 f87c99898e74b5d2 97517efe1e8fac37 1a4ebb4cb760c9e3 c5d57fb6985a3b16 b6e9e74d92cb54d5 ca2c1eb9dd26feb4 f58139cbd138a299 e403f76f10019e6f ed289d23ac6b2118 fda3c3b22e301628 3e31b497e2a9d6ee f14f807e1a7bb21 fd7d149ab5a51ba e0428a90cb8bbb9 ee6076dace0985e0 f963d79a1d1920b0 29d1dc69fe384823 cc41ce0387680043 a48120f318325343 166a9b66c5a5a59d cd0da5e1ce52fd5c e685509fe2ac6969 a8520f06f18ec6d4 3fe1c431fcefec05 df9c556ef55fb4e7 e6ee7bbca66714d0 235700d607ee6475 fd4e195c26d03fed cd3754bd82f35644 8ae1bab9e43c9518 8b0cd505f08e5593 f381abd8082fd416 ec6c692ed84429c3 c8d27f56fe636691 86933aa7f7793e34 cfbd67f7bc542b2e 3ab791c0f2ffa3d6 ea78e20a988fe74d d4e4127cc14acc67 b44a703d3a364a01 d2c6314e0f9ba43c d0e670a39ec35247 ] wstrb=[ca 48 e1 6 97 28 aa 61 71 8b 68 8 b3 12 69 24 9d d1 2c 50 e3 96 75 80 67 a1 d1 4b 37 46 cb 9f e7 9c ea 1f e2 b5 be ca 52 a8 e9 34 5d a7 fe af 4f e7 e4 ac 8e e2 5c dd ca 40 8a 58 22 e6 36 ec 26 c0 45 48 a6 7b 35 cc 3b 7a 14 e1 f5 49 ad 30 c3 c1 11 b8 b be e8 ce 7f f9 87 8a b7 6f 59 37 69 e0 c1 20 4f 1a ] bresp=0 bid=11110
[1125000] SCOREBOARD: Transaction 4 received. pass=258 fail=0
[1125000] ALL PASS. Total transactions: 4
[1135000] S1 MEMORY WRITE beat=0 addr=10eaf6f0 data=8a59ecd5be54679c id=1a
[1135000] MASTER 1 W_VALID_RDY Handshake beat=1 wlast=0
[1145000] MASTER 1 W_VALID_RDY Handshake beat=2 wlast=0
[1145000] S1 MEMORY WRITE beat=1 addr=10eaf6f0 data=cc3b9e2b030c349e id=1a
[1155000] S1 MEMORY WRITE beat=2 addr=10eaf6f0 data=c28aa87b186e5032 id=1a
[1155000] MASTER 1 W_VALID_RDY Handshake beat=3 wlast=0
[1165000] MASTER 1 W_VALID_RDY Handshake beat=4 wlast=0
[1165000] S1 MEMORY WRITE beat=3 addr=10eaf6f0 data=d6c2b7ce94403397 id=1a
[1175000] S1 MEMORY WRITE beat=4 addr=10eaf6f0 data=974c6835cce49550 id=1a
[1175000] MASTER 1 W_VALID_RDY Handshake beat=5 wlast=0
[1185000] MASTER 1 W_VALID_RDY Handshake beat=6 wlast=0
[1185000] S1 MEMORY WRITE beat=5 addr=10eaf6f0 data=e552e582a2fe55f9 id=1a
[1195000] S1 MEMORY WRITE beat=6 addr=10eaf6f0 data=373e8991d9d710b0 id=1a
[1195000] MASTER 1 W_VALID_RDY Handshake beat=7 wlast=1
[1205000] S1 MEMORY WRITE beat=7 addr=10eaf6f0 data=26bba6013c159d51 id=1a
[1215000] SLAVE1 sent B resp, id=10
[1215000] [SLAVE MONITOR] mst_id=1 s_id=1 awaddr=10eaf6f0 awid=1010 awlen=7 awsize=1 awburst=0 wdata=[8a59ecd5be54679c cc3b9e2b030c349e c28aa87b186e5032 d6c2b7ce94403397 974c6835cce49550 e552e582a2fe55f9 373e8991d9d710b0 26bba6013c159d51 ] wstrb=[c6 4a 83 77 db d4 78 a2 ] bresp=0 bid=11010
[1235000] MASTER 1 B_VALID_RDY Handshake
[1235000] [MASTER MONITOR] mst_id=1 s_id=1 awaddr=10eaf6f0 awid=1010 awlen=7 awsize=1 awburst=0 wdata=[8a59ecd5be54679c cc3b9e2b030c349e c28aa87b186e5032 d6c2b7ce94403397 974c6835cce49550 e552e582a2fe55f9 373e8991d9d710b0 26bba6013c159d51 ] wstrb=[c6 4a 83 77 db d4 78 a2 ] bresp=0 bid=1010
[1235000] MASTER 1 RECEIVED BRESP. BRESP=0
[1235000] [MASTER DRIVER] mst_id=1 s_id=0 awaddr=10eaf6f0 awid=1010 awlen=7 awsize=1 awburst=0 wdata=[8a59ecd5be54679c cc3b9e2b030c349e c28aa87b186e5032 d6c2b7ce94403397 974c6835cce49550 e552e582a2fe55f9 373e8991d9d710b0 26bba6013c159d51 ] wstrb=[c6 4a 83 77 db d4 78 a2 ] bresp=0 bid=1010
[1235000] SCOREBOARD MATCH: decode_err expected = 0, actual =0
[1235000] SCOREBOARD MATCH: slave_id expected = 1, actual =1
[1235000] SCOREBOARD MATCH: awaddr passthrough expected = 10eaf6f0, actual =10eaf6f0
[1235000] SCOREBOARD MATCH: awlen passthrough expected = 7, actual =7
[1235000] SCOREBOARD MATCH: awsize passthrough expected = 1, actual =1
[1235000] SCOREBOARD MATCH: awburst passthrough expected = 0, actual =0
[1235000] SCOREBOARD MATCH: wdata size check expected = 8, actual =8
[1235000] SCOREBOARD MATCH: wdata passthrough beat=0 expected = 8a59ecd5be54679c, actual =8a59ecd5be54679c
[1235000] SCOREBOARD MATCH: wdata passthrough beat=1 expected = cc3b9e2b030c349e, actual =cc3b9e2b030c349e
[1235000] SCOREBOARD MATCH: wdata passthrough beat=2 expected = c28aa87b186e5032, actual =c28aa87b186e5032
[1235000] SCOREBOARD MATCH: wdata passthrough beat=3 expected = d6c2b7ce94403397, actual =d6c2b7ce94403397
[1235000] SCOREBOARD MATCH: wdata passthrough beat=4 expected = 974c6835cce49550, actual =974c6835cce49550
[1235000] SCOREBOARD MATCH: wdata passthrough beat=5 expected = e552e582a2fe55f9, actual =e552e582a2fe55f9
[1235000] SCOREBOARD MATCH: wdata passthrough beat=6 expected = 373e8991d9d710b0, actual =373e8991d9d710b0
[1235000] SCOREBOARD MATCH: wdata passthrough beat=7 expected = 26bba6013c159d51, actual =26bba6013c159d51
[1235000] SCOREBOARD MATCH: wstrb size check expected = 8, actual =8
[1235000] SCOREBOARD MATCH: wstrb passthrough beat=0 expected = c6, actual =c6
[1235000] SCOREBOARD MATCH: wstrb passthrough beat=1 expected = 4a, actual =4a
[1235000] SCOREBOARD MATCH: wstrb passthrough beat=2 expected = 83, actual =83
[1235000] SCOREBOARD MATCH: wstrb passthrough beat=3 expected = 77, actual =77
[1235000] SCOREBOARD MATCH: wstrb passthrough beat=4 expected = db, actual =db
[1235000] SCOREBOARD MATCH: wstrb passthrough beat=5 expected = d4, actual =d4
[1235000] SCOREBOARD MATCH: wstrb passthrough beat=6 expected = 78, actual =78
[1235000] SCOREBOARD MATCH: wstrb passthrough beat=7 expected = a2, actual =a2
[1235000] SCOREBOARD MATCH: bresp passthrough expected = 0, actual =0
[1235000] SCOREBOARD MATCH: response routed to correct master (write) expected = 1, actual =1
[1235000] [SCOREBOARD-M] mst_id=1 s_id=1 awaddr=10eaf6f0 awid=1010 awlen=7 awsize=1 awburst=0 wdata=[8a59ecd5be54679c cc3b9e2b030c349e c28aa87b186e5032 d6c2b7ce94403397 974c6835cce49550 e552e582a2fe55f9 373e8991d9d710b0 26bba6013c159d51 ] wstrb=[c6 4a 83 77 db d4 78 a2 ] bresp=0 bid=1010
[1235000] [SCOREBOARD-S] mst_id=1 s_id=1 awaddr=10eaf6f0 awid=1010 awlen=7 awsize=1 awburst=0 wdata=[8a59ecd5be54679c cc3b9e2b030c349e c28aa87b186e5032 d6c2b7ce94403397 974c6835cce49550 e552e582a2fe55f9 373e8991d9d710b0 26bba6013c159d51 ] wstrb=[c6 4a 83 77 db d4 78 a2 ] bresp=0 bid=11010
[1235000] SCOREBOARD: Transaction 5 received. pass=284 fail=0
[1235000] SCOREBOARD: Expected 5 transactions completed, PASS=284 FAIL=0
[1235000] ALL PASS. Total transactions: 5
[1235000] ALL TRANSACTIONS MONITORED
$finish called at time : 1255 ns : File "/home/nashita/Desktop/practice/axi_xbar/tb/top/axi_tb_top.sv" Line 220
exit
INFO: xsimkernel Simulation Memory Usage: 289468 KB (Peak: 337868 KB), Simulation CPU Usage: 1180 ms
INFO: [Common 17-206] Exiting xsim at Fri Sep 11 11:48:56 2026...
