#-----------------------------------------------------------
# xsim v2025.2 (64-bit)
# SW Build 6299465 on Fri Nov 14 12:34:56 MST 2025
# IP Build 6300035 on Fri Nov 14 10:48:45 MST 2025
# SharedData Build 6298862 on Thu Nov 13 04:50:51 MST 2025
# Start of session at: Tue Sep  8 16:03:12 2026
# Process ID         : 3977780
# Current directory  : /home/nashita/Desktop/practice/axi_xbar/sim
# Command line       : xsim -log regress_results/BT_run36.log -mode tcl -source {xsim.dir/tb_top_snap/xsim_script.tcl}
# Log file           : /home/nashita/Desktop/practice/axi_xbar/sim/regress_results/BT_run36.log
# Journal file       : /home/nashita/Desktop/practice/axi_xbar/sim/xsim.jou
# Running On         : vlsi-vivado
# Platform           : Ubuntu
# Operating System   : Ubuntu 24.04.4 LTS
# Processor Detail   : Intel(R) Core(TM) i5-10400 CPU @ 2.90GHz
# CPU Frequency      : 4128.633 MHz
# CPU Physical cores : 6
# CPU Logical cores  : 12
# Host memory        : 41875 MB
# Swap memory        : 27648 MB
# Total Virtual      : 69524 MB
# Available Virtual  : 60454 MB
#-----------------------------------------------------------
source xsim.dir/tb_top_snap/xsim_script.tcl
# xsim {tb_top_snap} -testplusarg BT -autoloadwcfg -runall -sv_seed 37
Time resolution is 1 ps
run -all
[0] RUNNING BASE TEST
[0] INSIDE THE BASE TEST CONSTRUCTOR
[0] ENV: before agent
[0] SLAVE CONSTRUCTED
[0] MASTER MONITOR CONSTRUCTED
[0] MASTER MONITOR CONSTRUCTED
[0] SLAVE MONITOR CONSTRUCTED
[0] SLAVE MONITOR CONSTRUCTED
[0] ARB MONITOR CONSTRUCTED
GENERATOR CONSTRUCTED
[0] ENV: after agent
[0] ENV: before scoreboard
[0] ENV: after scoreboard
[15000] [SEQUENCER] mst_id=1 s_id=0 awaddr=11d240 awid=0 awlen=1 awsize=3 awburst=1 wdata=[] wstrb=[] bresp=0 bid=0
[15000] [SEQUENCER] READ mst_id=1 s_id=0 araddr=16083e70 arid=1 arlen=1 arsize=3 arburst=1 rid=[] rresp=[] rdata=[]
[15000] [SEQUENCER] mst_id=0 s_id=0 awaddr=5dfb480 awid=110 awlen=1 awsize=3 awburst=1 wdata=[] wstrb=[] bresp=0 bid=0
[15000] [SEQUENCER] mst_id=1 s_id=0 awaddr=6c0c9f0 awid=1110 awlen=1 awsize=3 awburst=1 wdata=[] wstrb=[] bresp=0 bid=0
[15000] [SEQUENCER] READ mst_id=0 s_id=0 araddr=16dce080 arid=1 arlen=1 arsize=3 arburst=1 rid=[] rresp=[] rdata=[]
[15000] [SEQUENCER] mst_id=1 s_id=0 awaddr=e811fc8 awid=0 awlen=1 awsize=3 awburst=1 wdata=[] wstrb=[] bresp=0 bid=0
[15000] [SEQUENCER] READ mst_id=1 s_id=0 araddr=19b85b60 arid=4 arlen=1 arsize=3 arburst=1 rid=[] rresp=[] rdata=[]
[15000] [SEQUENCER] mst_id=1 s_id=0 awaddr=17054560 awid=110 awlen=1 awsize=3 awburst=1 wdata=[] wstrb=[] bresp=0 bid=0
[15000] [SEQUENCER] mst_id=1 s_id=0 awaddr=46d2d90 awid=101 awlen=1 awsize=3 awburst=1 wdata=[] wstrb=[] bresp=0 bid=0
[15000] [SEQUENCER] mst_id=1 s_id=0 awaddr=104beab8 awid=1110 awlen=1 awsize=3 awburst=1 wdata=[] wstrb=[] bresp=0 bid=0
[15000] MASTER_DRIVER1 received transaction, op=AXI_WRITE
[15000] MASTER_DRIVER0 received transaction, op=AXI_WRITE
[35000] MASTER 1 AW_VALID_RDY Handshake
[35000] MASTER 0 AW_VALID_RDY Handshake
[45000] ARB MONITOR: slave=0 m0_req=1 m1_req=1 winner=0
[45000] AXI S0_AWVALID_RDY HANDSHAKE
[45000] SCOREBOARD MATCH: arbitration winner (slave 0) expected = 0, actual =0
[55000] MASTER 1 W_VALID_RDY Handshake beat=0 wlast=0
[55000] MASTER 0 W_VALID_RDY Handshake beat=0 wlast=0
[65000] MASTER_DRIVER0 received transaction, op=AXI_READ
[65000] MASTER_DRIVER1 received transaction, op=AXI_READ
[65000] MASTER 0 W_VALID_RDY Handshake beat=1 wlast=1
[65000] MASTER 1 W_VALID_RDY Handshake beat=1 wlast=1
[65000] AXI S0_WVALID_RDY HANDSHAKE
[65000] AXI S0_WVALID_RDY HANDSHAKE
[65000] S0 MEMORY WRITE beat=0 addr=05dfb480 data=0000000000000000 id=06
[75000] AXI S0_WVALID_RDY HANDSHAKE
[75000] S0 MEMORY WRITE beat=1 addr=05dfb488 data=0000000000000000 id=06
[75000] AXI S0_WVALID_RDY HANDSHAKE
[85000] MASTER_DRIVER1 received transaction, op=AXI_WRITE
[85000] AXI S0_BVALID_RDY HANDSHAKE
[85000] [SLAVE MONITOR] mst_id=0 s_id=0 awaddr=5dfb480 awid=110 awlen=1 awsize=3 awburst=1 wdata=[0 0 ] wstrb=[0 0 ] bresp=0 bid=110
[85000] SLAVE0 sent B resp, id=6
[95000] AXI S0_AWVALID_RDY HANDSHAKE
[95000] AXI S0_ARVALID_RDY HANDSHAKE
[95000] MEMORY READ MISS beat=0 addr=16dce080 -> default data id=1
[95000] ARB MONITOR: slave=0 m0_req=0 m1_req=1 winner=1
[95000] ARB MONITOR: slave=1 m0_req=1 m1_req=1 winner=0
[95000] SCOREBOARD MATCH: arbitration winner (slave 1) expected = 0, actual =0
[105000] MASTER 0 RECEIVED BRESP. BRESP=0
[105000] [MASTER DRIVER] mst_id=0 s_id=0 awaddr=5dfb480 awid=110 awlen=1 awsize=3 awburst=1 wdata=[] wstrb=[] bresp=0 bid=110
[105000] MASTER 0 B_VALID_RDY Handshake
[105000] [MASTER MONITOR] mst_id=0 s_id=0 awaddr=5dfb480 awid=110 awlen=1 awsize=3 awburst=1 wdata=[0 0 ] wstrb=[0 0 ] bresp=0 bid=110
[105000] MASTER 1 AW_VALID_RDY Handshake
[105000] SLAVE 1 R_VALID_RDY Handshake beat=0 rlast=0
[105000] AXI S0_WVALID_RDY HANDSHAKE
[105000] MEMORY READ MISS beat=1 addr=16dce088 -> default data id=1
[105000] AXI S0_WVALID_RDY HANDSHAKE
[105000] S0 MEMORY WRITE beat=0 addr=0011d240 data=0000000000000000 id=10
[105000] SCOREBOARD MATCH: decode_err expected = 0, actual =0
[105000] SCOREBOARD MATCH: slave_id expected = 0, actual =0
[105000] SCOREBOARD MATCH: awaddr passthrough expected = 5dfb480, actual =5dfb480
[105000] SCOREBOARD MATCH: awlen passthrough expected = 1, actual =1
[105000] SCOREBOARD MATCH: awsize passthrough expected = 3, actual =3
[105000] SCOREBOARD MATCH: awburst passthrough expected = 1, actual =1
[105000] SCOREBOARD MATCH: wdata size check expected = 2, actual =2
[105000] SCOREBOARD MATCH: wdata passthrough beat=0 expected = 0, actual =0
[105000] SCOREBOARD MATCH: wdata passthrough beat=1 expected = 0, actual =0
[105000] SCOREBOARD MATCH: wstrb size check expected = 2, actual =2
[105000] SCOREBOARD MATCH: wstrb passthrough beat=0 expected = 0, actual =0
[105000] SCOREBOARD MATCH: wstrb passthrough beat=1 expected = 0, actual =0
[105000] SCOREBOARD MATCH: bresp passthrough expected = 0, actual =0
[105000] SCOREBOARD MATCH: response routed to correct master (write) expected = 0, actual =0
[105000] [SCOREBOARD-M] mst_id=0 s_id=0 awaddr=5dfb480 awid=110 awlen=1 awsize=3 awburst=1 wdata=[0 0 ] wstrb=[0 0 ] bresp=0 bid=110
[105000] [SCOREBOARD-S] mst_id=0 s_id=0 awaddr=5dfb480 awid=110 awlen=1 awsize=3 awburst=1 wdata=[0 0 ] wstrb=[0 0 ] bresp=0 bid=110
[105000] SCOREBOARD: Transaction 1 received. pass=16 fail=0
[105000] ALL PASS. Total transactions: 1
[115000] AXI S0_WVALID_RDY HANDSHAKE
[115000] S0 MEMORY WRITE beat=1 addr=0011d248 data=0000000000000000 id=10
[115000] AXI S0_WVALID_RDY HANDSHAKE
[115000] SLAVE 1 R_VALID_RDY Handshake beat=1 rlast=1
[115000] [SLAVE MONITOR AR] READ mst_id=0 s_id=1 araddr=16dce080 arid=1 arlen=1 arsize=3 arburst=1 rid=[11] rresp=[00] rdata=[baadf00d12345678baadf00d12345678]
[125000] MASTER 0 R_VALID_RDY Handshake beat=0 rlast=0
[125000] MASTER 1 W_VALID_RDY Handshake beat=0 wlast=0
[125000] ARB MONITOR: slave=1 m0_req=0 m1_req=1 winner=1
[125000] AXI S0_BVALID_RDY HANDSHAKE
[125000] [SLAVE MONITOR] mst_id=1 s_id=0 awaddr=11d240 awid=0 awlen=1 awsize=3 awburst=1 wdata=[0 0 ] wstrb=[0 0 ] bresp=0 bid=10000
[125000] AXI S0_ARVALID_RDY HANDSHAKE
[125000] MEMORY READ MISS beat=0 addr=16083e70 -> default data id=17
[125000] SLAVE0 sent B resp, id=0
[135000] AXI S0_AWVALID_RDY HANDSHAKE
[135000] MEMORY READ MISS beat=1 addr=16083e78 -> default data id=17
[135000] SLAVE 1 R_VALID_RDY Handshake beat=0 rlast=0
[135000] ARB MONITOR: slave=0 m0_req=0 m1_req=1 winner=1
[135000] MASTER 1 W_VALID_RDY Handshake beat=1 wlast=1
[135000] MASTER 0 R_VALID_RDY Handshake beat=1 rlast=1
[135000] [MASTER MONITOR] READ mst_id=0 s_id=1 araddr=16dce080 arid=1 arlen=1 arsize=3 arburst=1 rid=[11] rresp=[00] rdata=[baadf00d12345678baadf00d12345678]
[135000] MASTER_DRIVER1 received transaction, op=AXI_WRITE
[135000] [MASTER DRIVER] READ mst_id=0 s_id=0 araddr=16dce080 arid=1 arlen=1 arsize=3 arburst=1 rid=[11] rresp=[00] rdata=[baadf00d12345678baadf00d12345678]
[135000] SCOREBOARD MATCH: decode_err expected = 0, actual =0
[135000] SCOREBOARD MATCH: slave_id expected = 1, actual =1
[135000] SCOREBOARD MATCH: araddr passthrough expected = 16dce080, actual =16dce080
[135000] SCOREBOARD MATCH: arlen passthrough expected = 1, actual =1
[135000] SCOREBOARD MATCH: arsize passthrough expected = 3, actual =3
[135000] SCOREBOARD MATCH: arburst passthrough expected = 1, actual =1
[135000] SCOREBOARD MATCH: rdata size check expected = 2, actual =2
[135000] SCOREBOARD MATCH: rdata passthrough beat=0 expected = baadf00d12345678, actual =baadf00d12345678
[135000] SCOREBOARD MATCH: rdata passthrough beat=1 expected = baadf00d12345678, actual =baadf00d12345678
[135000] SCOREBOARD MATCH: rresp size check expected = 2, actual =2
[135000] SCOREBOARD MATCH: rresp passthrough beat=0 expected = 0, actual =0
[135000] SCOREBOARD MATCH: rresp passthrough beat=1 expected = 0, actual =0
[135000] SCOREBOARD MATCH: response routed to correct master (read beat 0) expected = 0, actual =0
[135000] SCOREBOARD MATCH: response routed to correct master (read beat 1) expected = 0, actual =0
[135000] [SCOREBOARD-M] READ mst_id=0 s_id=1 araddr=16dce080 arid=1 arlen=1 arsize=3 arburst=1 rid=[11] rresp=[00] rdata=[baadf00d12345678baadf00d12345678]
[135000] [SCOREBOARD-S] READ mst_id=0 s_id=1 araddr=16dce080 arid=1 arlen=1 arsize=3 arburst=1 rid=[11] rresp=[00] rdata=[baadf00d12345678baadf00d12345678]
[135000] SCOREBOARD: Transaction 2 received. pass=30 fail=0
[135000] ALL PASS. Total transactions: 2
[145000] MASTER 1 RECEIVED BRESP. BRESP=0
[145000] [MASTER DRIVER] mst_id=1 s_id=0 awaddr=11d240 awid=0 awlen=1 awsize=3 awburst=1 wdata=[] wstrb=[] bresp=0 bid=0
[145000] MASTER 1 B_VALID_RDY Handshake
[145000] [MASTER MONITOR] mst_id=1 s_id=0 awaddr=11d240 awid=0 awlen=1 awsize=3 awburst=1 wdata=[0 0 ] wstrb=[0 0 ] bresp=0 bid=0
[145000] SLAVE 1 R_VALID_RDY Handshake beat=1 rlast=1
[145000] [SLAVE MONITOR AR] READ mst_id=1 s_id=1 araddr=16083e70 arid=1 arlen=1 arsize=3 arburst=1 rid=[1111] rresp=[00] rdata=[baadf00d12345678baadf00d12345678]
[145000] AXI S0_WVALID_RDY HANDSHAKE
[145000] AXI S0_WVALID_RDY HANDSHAKE
[145000] S0 MEMORY WRITE beat=0 addr=06c0c9f0 data=0000000000000000 id=1e
[145000] SCOREBOARD MATCH: decode_err expected = 0, actual =0
[145000] SCOREBOARD MATCH: slave_id expected = 0, actual =0
[145000] SCOREBOARD MATCH: awaddr passthrough expected = 11d240, actual =11d240
[145000] SCOREBOARD MATCH: awlen passthrough expected = 1, actual =1
[145000] SCOREBOARD MATCH: awsize passthrough expected = 3, actual =3
[145000] SCOREBOARD MATCH: awburst passthrough expected = 1, actual =1
[145000] SCOREBOARD MATCH: wdata size check expected = 2, actual =2
[145000] SCOREBOARD MATCH: wdata passthrough beat=0 expected = 0, actual =0
[145000] SCOREBOARD MATCH: wdata passthrough beat=1 expected = 0, actual =0
[145000] SCOREBOARD MATCH: wstrb size check expected = 2, actual =2
[145000] SCOREBOARD MATCH: wstrb passthrough beat=0 expected = 0, actual =0
[145000] SCOREBOARD MATCH: wstrb passthrough beat=1 expected = 0, actual =0
[145000] SCOREBOARD MATCH: bresp passthrough expected = 0, actual =0
[145000] SCOREBOARD MATCH: response routed to correct master (write) expected = 1, actual =1
[145000] [SCOREBOARD-M] mst_id=1 s_id=0 awaddr=11d240 awid=0 awlen=1 awsize=3 awburst=1 wdata=[0 0 ] wstrb=[0 0 ] bresp=0 bid=0
[145000] [SCOREBOARD-S] mst_id=1 s_id=0 awaddr=11d240 awid=0 awlen=1 awsize=3 awburst=1 wdata=[0 0 ] wstrb=[0 0 ] bresp=0 bid=10000
[145000] SCOREBOARD: Transaction 3 received. pass=44 fail=0
[145000] ALL PASS. Total transactions: 3
[155000] AXI S0_WVALID_RDY HANDSHAKE
[155000] S0 MEMORY WRITE beat=1 addr=06c0c9f8 data=0000000000000000 id=1e
[155000] AXI S0_WVALID_RDY HANDSHAKE
[155000] MASTER 1 R_VALID_RDY Handshake beat=0 rlast=0
[155000] MASTER 1 AW_VALID_RDY Handshake
[165000] [MASTER DRIVER] READ mst_id=1 s_id=0 araddr=16083e70 arid=1 arlen=1 arsize=3 arburst=1 rid=[11] rresp=[00] rdata=[baadf00d12345678baadf00d12345678]
[165000] MASTER 1 R_VALID_RDY Handshake beat=1 rlast=1
[165000] [MASTER MONITOR] READ mst_id=1 s_id=1 araddr=16083e70 arid=1 arlen=1 arsize=3 arburst=1 rid=[11] rresp=[00] rdata=[baadf00d12345678baadf00d12345678]
[165000] AXI S0_BVALID_RDY HANDSHAKE
[165000] [SLAVE MONITOR] mst_id=1 s_id=0 awaddr=6c0c9f0 awid=1110 awlen=1 awsize=3 awburst=1 wdata=[0 0 ] wstrb=[0 0 ] bresp=0 bid=11110
[165000] SLAVE0 sent B resp, id=14
[165000] SCOREBOARD MATCH: decode_err expected = 0, actual =0
[165000] SCOREBOARD MATCH: slave_id expected = 1, actual =1
[165000] SCOREBOARD MATCH: araddr passthrough expected = 16083e70, actual =16083e70
[165000] SCOREBOARD MATCH: arlen passthrough expected = 1, actual =1
[165000] SCOREBOARD MATCH: arsize passthrough expected = 3, actual =3
[165000] SCOREBOARD MATCH: arburst passthrough expected = 1, actual =1
[165000] SCOREBOARD MATCH: rdata size check expected = 2, actual =2
[165000] SCOREBOARD MATCH: rdata passthrough beat=0 expected = baadf00d12345678, actual =baadf00d12345678
[165000] SCOREBOARD MATCH: rdata passthrough beat=1 expected = baadf00d12345678, actual =baadf00d12345678
[165000] SCOREBOARD MATCH: rresp size check expected = 2, actual =2
[165000] SCOREBOARD MATCH: rresp passthrough beat=0 expected = 0, actual =0
[165000] SCOREBOARD MATCH: rresp passthrough beat=1 expected = 0, actual =0
[165000] SCOREBOARD MATCH: response routed to correct master (read beat 0) expected = 1, actual =1
[165000] SCOREBOARD MATCH: response routed to correct master (read beat 1) expected = 1, actual =1
[165000] [SCOREBOARD-M] READ mst_id=1 s_id=1 araddr=16083e70 arid=1 arlen=1 arsize=3 arburst=1 rid=[11] rresp=[00] rdata=[baadf00d12345678baadf00d12345678]
[165000] [SCOREBOARD-S] READ mst_id=1 s_id=1 araddr=16083e70 arid=1 arlen=1 arsize=3 arburst=1 rid=[1111] rresp=[00] rdata=[baadf00d12345678baadf00d12345678]
[165000] SCOREBOARD: Transaction 4 received. pass=58 fail=0
[165000] ALL PASS. Total transactions: 4
[175000] AXI S0_AWVALID_RDY HANDSHAKE
[175000] ARB MONITOR: slave=0 m0_req=0 m1_req=1 winner=1
[175000] MASTER 1 W_VALID_RDY Handshake beat=0 wlast=0
[185000] MASTER 1 RECEIVED BRESP. BRESP=0
[185000] [MASTER DRIVER] mst_id=1 s_id=0 awaddr=6c0c9f0 awid=1110 awlen=1 awsize=3 awburst=1 wdata=[] wstrb=[] bresp=0 bid=1110
[185000] MASTER_DRIVER1 received transaction, op=AXI_READ
[185000] MASTER 1 B_VALID_RDY Handshake
[185000] [MASTER MONITOR] mst_id=1 s_id=0 awaddr=6c0c9f0 awid=1110 awlen=1 awsize=3 awburst=1 wdata=[0 0 ] wstrb=[0 0 ] bresp=0 bid=1110
[185000] MASTER 1 W_VALID_RDY Handshake beat=1 wlast=1
[185000] AXI S0_WVALID_RDY HANDSHAKE
[185000] AXI S0_WVALID_RDY HANDSHAKE
[185000] S0 MEMORY WRITE beat=0 addr=0e811fc8 data=0000000000000000 id=10
[185000] SCOREBOARD MATCH: decode_err expected = 0, actual =0
[185000] SCOREBOARD MATCH: slave_id expected = 0, actual =0
[185000] SCOREBOARD MATCH: awaddr passthrough expected = 6c0c9f0, actual =6c0c9f0
[185000] SCOREBOARD MATCH: awlen passthrough expected = 1, actual =1
[185000] SCOREBOARD MATCH: awsize passthrough expected = 3, actual =3
[185000] SCOREBOARD MATCH: awburst passthrough expected = 1, actual =1
[185000] SCOREBOARD MATCH: wdata size check expected = 2, actual =2
[185000] SCOREBOARD MATCH: wdata passthrough beat=0 expected = 0, actual =0
[185000] SCOREBOARD MATCH: wdata passthrough beat=1 expected = 0, actual =0
[185000] SCOREBOARD MATCH: wstrb size check expected = 2, actual =2
[185000] SCOREBOARD MATCH: wstrb passthrough beat=0 expected = 0, actual =0
[185000] SCOREBOARD MATCH: wstrb passthrough beat=1 expected = 0, actual =0
[185000] SCOREBOARD MATCH: bresp passthrough expected = 0, actual =0
[185000] SCOREBOARD MATCH: response routed to correct master (write) expected = 1, actual =1
[185000] [SCOREBOARD-M] mst_id=1 s_id=0 awaddr=6c0c9f0 awid=1110 awlen=1 awsize=3 awburst=1 wdata=[0 0 ] wstrb=[0 0 ] bresp=0 bid=1110
[185000] [SCOREBOARD-S] mst_id=1 s_id=0 awaddr=6c0c9f0 awid=1110 awlen=1 awsize=3 awburst=1 wdata=[0 0 ] wstrb=[0 0 ] bresp=0 bid=11110
[185000] SCOREBOARD: Transaction 5 received. pass=72 fail=0
[185000] ALL PASS. Total transactions: 5
[195000] AXI S0_WVALID_RDY HANDSHAKE
[195000] S0 MEMORY WRITE beat=1 addr=0e811fd0 data=0000000000000000 id=10
[195000] AXI S0_WVALID_RDY HANDSHAKE
[205000] MASTER_DRIVER1 received transaction, op=AXI_WRITE
[205000] AXI S0_BVALID_RDY HANDSHAKE
[205000] [SLAVE MONITOR] mst_id=1 s_id=0 awaddr=e811fc8 awid=0 awlen=1 awsize=3 awburst=1 wdata=[0 0 ] wstrb=[0 0 ] bresp=0 bid=10000
[205000] SLAVE0 sent B resp, id=0
[215000] AXI S0_ARVALID_RDY HANDSHAKE
[215000] MEMORY READ MISS beat=0 addr=19b85b60 -> default data id=20
[215000] ARB MONITOR: slave=1 m0_req=0 m1_req=1 winner=1
[225000] MASTER 1 RECEIVED BRESP. BRESP=0
[225000] [MASTER DRIVER] mst_id=1 s_id=0 awaddr=e811fc8 awid=0 awlen=1 awsize=3 awburst=1 wdata=[] wstrb=[] bresp=0 bid=0
[225000] MASTER 1 AW_VALID_RDY Handshake
[225000] MASTER 1 B_VALID_RDY Handshake
[225000] [MASTER MONITOR] mst_id=1 s_id=0 awaddr=e811fc8 awid=0 awlen=1 awsize=3 awburst=1 wdata=[0 0 ] wstrb=[0 0 ] bresp=0 bid=0
[225000] SLAVE 1 R_VALID_RDY Handshake beat=0 rlast=0
[225000] MEMORY READ MISS beat=1 addr=19b85b68 -> default data id=20
[225000] SCOREBOARD MATCH: decode_err expected = 0, actual =0
[225000] SCOREBOARD MATCH: slave_id expected = 0, actual =0
[225000] SCOREBOARD MATCH: awaddr passthrough expected = e811fc8, actual =e811fc8
[225000] SCOREBOARD MATCH: awlen passthrough expected = 1, actual =1
[225000] SCOREBOARD MATCH: awsize passthrough expected = 3, actual =3
[225000] SCOREBOARD MATCH: awburst passthrough expected = 1, actual =1
[225000] SCOREBOARD MATCH: wdata size check expected = 2, actual =2
[225000] SCOREBOARD MATCH: wdata passthrough beat=0 expected = 0, actual =0
[225000] SCOREBOARD MATCH: wdata passthrough beat=1 expected = 0, actual =0
[225000] SCOREBOARD MATCH: wstrb size check expected = 2, actual =2
[225000] SCOREBOARD MATCH: wstrb passthrough beat=0 expected = 0, actual =0
[225000] SCOREBOARD MATCH: wstrb passthrough beat=1 expected = 0, actual =0
[225000] SCOREBOARD MATCH: bresp passthrough expected = 0, actual =0
[225000] SCOREBOARD MATCH: response routed to correct master (write) expected = 1, actual =1
[225000] [SCOREBOARD-M] mst_id=1 s_id=0 awaddr=e811fc8 awid=0 awlen=1 awsize=3 awburst=1 wdata=[0 0 ] wstrb=[0 0 ] bresp=0 bid=0
[225000] [SCOREBOARD-S] mst_id=1 s_id=0 awaddr=e811fc8 awid=0 awlen=1 awsize=3 awburst=1 wdata=[0 0 ] wstrb=[0 0 ] bresp=0 bid=10000
[225000] SCOREBOARD: Transaction 6 received. pass=86 fail=0
[225000] ALL PASS. Total transactions: 6
[235000] AXI S1_AWVALID_RDY HANDSHAKE
[235000] SLAVE 1 R_VALID_RDY Handshake beat=1 rlast=1
[235000] [SLAVE MONITOR AR] READ mst_id=1 s_id=1 araddr=19b85b60 arid=4 arlen=1 arsize=3 arburst=1 rid=[1414] rresp=[00] rdata=[baadf00d12345678baadf00d12345678]
[235000] ARB MONITOR: slave=1 m0_req=0 m1_req=1 winner=1
[245000] MASTER 1 W_VALID_RDY Handshake beat=0 wlast=0
[245000] MASTER 1 R_VALID_RDY Handshake beat=0 rlast=0
[255000] S1 MEMORY WRITE beat=0 addr=17054560 data=0000000000000000 id=16
[255000] AXI S1_WVALID_RDY HANDSHAKE
[255000] MASTER 1 R_VALID_RDY Handshake beat=1 rlast=1
[255000] [MASTER MONITOR] READ mst_id=1 s_id=1 araddr=19b85b60 arid=4 arlen=1 arsize=3 arburst=1 rid=[44] rresp=[00] rdata=[baadf00d12345678baadf00d12345678]
[255000] MASTER 1 W_VALID_RDY Handshake beat=1 wlast=1
[255000] [MASTER DRIVER] READ mst_id=1 s_id=0 araddr=19b85b60 arid=4 arlen=1 arsize=3 arburst=1 rid=[44] rresp=[00] rdata=[baadf00d12345678baadf00d12345678]
[255000] MASTER_DRIVER1 received transaction, op=AXI_WRITE
[255000] SCOREBOARD MATCH: decode_err expected = 0, actual =0
[255000] SCOREBOARD MATCH: slave_id expected = 1, actual =1
[255000] SCOREBOARD MATCH: araddr passthrough expected = 19b85b60, actual =19b85b60
[255000] SCOREBOARD MATCH: arlen passthrough expected = 1, actual =1
[255000] SCOREBOARD MATCH: arsize passthrough expected = 3, actual =3
[255000] SCOREBOARD MATCH: arburst passthrough expected = 1, actual =1
[255000] SCOREBOARD MATCH: rdata size check expected = 2, actual =2
[255000] SCOREBOARD MATCH: rdata passthrough beat=0 expected = baadf00d12345678, actual =baadf00d12345678
[255000] SCOREBOARD MATCH: rdata passthrough beat=1 expected = baadf00d12345678, actual =baadf00d12345678
[255000] SCOREBOARD MATCH: rresp size check expected = 2, actual =2
[255000] SCOREBOARD MATCH: rresp passthrough beat=0 expected = 0, actual =0
[255000] SCOREBOARD MATCH: rresp passthrough beat=1 expected = 0, actual =0
[255000] SCOREBOARD MATCH: response routed to correct master (read beat 0) expected = 1, actual =1
[255000] SCOREBOARD MATCH: response routed to correct master (read beat 1) expected = 1, actual =1
[255000] [SCOREBOARD-M] READ mst_id=1 s_id=1 araddr=19b85b60 arid=4 arlen=1 arsize=3 arburst=1 rid=[44] rresp=[00] rdata=[baadf00d12345678baadf00d12345678]
[255000] [SCOREBOARD-S] READ mst_id=1 s_id=1 araddr=19b85b60 arid=4 arlen=1 arsize=3 arburst=1 rid=[1414] rresp=[00] rdata=[baadf00d12345678baadf00d12345678]
[255000] SCOREBOARD: Transaction 7 received. pass=100 fail=0
[255000] ALL PASS. Total transactions: 7
[265000] AXI S1_WVALID_RDY HANDSHAKE
[265000] S1 MEMORY WRITE beat=1 addr=17054568 data=0000000000000000 id=16
[275000] SLAVE1 sent B resp, id=6
[275000] AXI S1_BVALID_RDY HANDSHAKE
[275000] [SLAVE MONITOR] mst_id=1 s_id=1 awaddr=17054560 awid=110 awlen=1 awsize=3 awburst=1 wdata=[0 0 ] wstrb=[0 0 ] bresp=0 bid=10110
[275000] MASTER 1 AW_VALID_RDY Handshake
[285000] ARB MONITOR: slave=0 m0_req=0 m1_req=1 winner=1
[285000] AXI S0_AWVALID_RDY HANDSHAKE
[295000] MASTER 1 W_VALID_RDY Handshake beat=0 wlast=0
[295000] MASTER 1 B_VALID_RDY Handshake
[295000] [MASTER MONITOR] mst_id=1 s_id=1 awaddr=17054560 awid=110 awlen=1 awsize=3 awburst=1 wdata=[0 0 ] wstrb=[0 0 ] bresp=0 bid=110
[295000] MASTER 1 RECEIVED BRESP. BRESP=0
[295000] [MASTER DRIVER] mst_id=1 s_id=0 awaddr=17054560 awid=110 awlen=1 awsize=3 awburst=1 wdata=[] wstrb=[] bresp=0 bid=110
[295000] SCOREBOARD MATCH: decode_err expected = 0, actual =0
[295000] SCOREBOARD MATCH: slave_id expected = 1, actual =1
[295000] SCOREBOARD MATCH: awaddr passthrough expected = 17054560, actual =17054560
[295000] SCOREBOARD MATCH: awlen passthrough expected = 1, actual =1
[295000] SCOREBOARD MATCH: awsize passthrough expected = 3, actual =3
[295000] SCOREBOARD MATCH: awburst passthrough expected = 1, actual =1
[295000] SCOREBOARD MATCH: wdata size check expected = 2, actual =2
[295000] SCOREBOARD MATCH: wdata passthrough beat=0 expected = 0, actual =0
[295000] SCOREBOARD MATCH: wdata passthrough beat=1 expected = 0, actual =0
[295000] SCOREBOARD MATCH: wstrb size check expected = 2, actual =2
[295000] SCOREBOARD MATCH: wstrb passthrough beat=0 expected = 0, actual =0
[295000] SCOREBOARD MATCH: wstrb passthrough beat=1 expected = 0, actual =0
[295000] SCOREBOARD MATCH: bresp passthrough expected = 0, actual =0
[295000] SCOREBOARD MATCH: response routed to correct master (write) expected = 1, actual =1
[295000] [SCOREBOARD-M] mst_id=1 s_id=1 awaddr=17054560 awid=110 awlen=1 awsize=3 awburst=1 wdata=[0 0 ] wstrb=[0 0 ] bresp=0 bid=110
[295000] [SCOREBOARD-S] mst_id=1 s_id=1 awaddr=17054560 awid=110 awlen=1 awsize=3 awburst=1 wdata=[0 0 ] wstrb=[0 0 ] bresp=0 bid=10110
[295000] SCOREBOARD: Transaction 8 received. pass=114 fail=0
[295000] ALL PASS. Total transactions: 8
[305000] MASTER_DRIVER1 received transaction, op=AXI_WRITE
[305000] MASTER 1 W_VALID_RDY Handshake beat=1 wlast=1
[305000] AXI S0_WVALID_RDY HANDSHAKE
[305000] AXI S0_WVALID_RDY HANDSHAKE
[305000] S0 MEMORY WRITE beat=0 addr=046d2d90 data=0000000000000000 id=15
[315000] AXI S0_WVALID_RDY HANDSHAKE
[315000] S0 MEMORY WRITE beat=1 addr=046d2d98 data=0000000000000000 id=15
[315000] AXI S0_WVALID_RDY HANDSHAKE
[325000] MASTER 1 AW_VALID_RDY Handshake
[325000] AXI S0_BVALID_RDY HANDSHAKE
[325000] [SLAVE MONITOR] mst_id=1 s_id=0 awaddr=46d2d90 awid=101 awlen=1 awsize=3 awburst=1 wdata=[0 0 ] wstrb=[0 0 ] bresp=0 bid=10101
[325000] SLAVE0 sent B resp, id=5
[335000] AXI S1_AWVALID_RDY HANDSHAKE
[335000] ARB MONITOR: slave=1 m0_req=0 m1_req=1 winner=1
[345000] MASTER 1 RECEIVED BRESP. BRESP=0
[345000] [MASTER DRIVER] mst_id=1 s_id=0 awaddr=46d2d90 awid=101 awlen=1 awsize=3 awburst=1 wdata=[] wstrb=[] bresp=0 bid=101
[345000] MASTER 1 W_VALID_RDY Handshake beat=0 wlast=0
[345000] MASTER 1 B_VALID_RDY Handshake
[345000] [MASTER MONITOR] mst_id=1 s_id=0 awaddr=46d2d90 awid=101 awlen=1 awsize=3 awburst=1 wdata=[0 0 ] wstrb=[0 0 ] bresp=0 bid=101
[345000] SCOREBOARD MATCH: decode_err expected = 0, actual =0
[345000] SCOREBOARD MATCH: slave_id expected = 0, actual =0
[345000] SCOREBOARD MATCH: awaddr passthrough expected = 46d2d90, actual =46d2d90
[345000] SCOREBOARD MATCH: awlen passthrough expected = 1, actual =1
[345000] SCOREBOARD MATCH: awsize passthrough expected = 3, actual =3
[345000] SCOREBOARD MATCH: awburst passthrough expected = 1, actual =1
[345000] SCOREBOARD MATCH: wdata size check expected = 2, actual =2
[345000] SCOREBOARD MATCH: wdata passthrough beat=0 expected = 0, actual =0
[345000] SCOREBOARD MATCH: wdata passthrough beat=1 expected = 0, actual =0
[345000] SCOREBOARD MATCH: wstrb size check expected = 2, actual =2
[345000] SCOREBOARD MATCH: wstrb passthrough beat=0 expected = 0, actual =0
[345000] SCOREBOARD MATCH: wstrb passthrough beat=1 expected = 0, actual =0
[345000] SCOREBOARD MATCH: bresp passthrough expected = 0, actual =0
[345000] SCOREBOARD MATCH: response routed to correct master (write) expected = 1, actual =1
[345000] [SCOREBOARD-M] mst_id=1 s_id=0 awaddr=46d2d90 awid=101 awlen=1 awsize=3 awburst=1 wdata=[0 0 ] wstrb=[0 0 ] bresp=0 bid=101
[345000] [SCOREBOARD-S] mst_id=1 s_id=0 awaddr=46d2d90 awid=101 awlen=1 awsize=3 awburst=1 wdata=[0 0 ] wstrb=[0 0 ] bresp=0 bid=10101
[345000] SCOREBOARD: Transaction 9 received. pass=128 fail=0
[345000] ALL PASS. Total transactions: 9
[355000] S1 MEMORY WRITE beat=0 addr=104beab8 data=0000000000000000 id=1e
[355000] AXI S1_WVALID_RDY HANDSHAKE
[355000] MASTER 1 W_VALID_RDY Handshake beat=1 wlast=1
[365000] AXI S1_WVALID_RDY HANDSHAKE
[365000] S1 MEMORY WRITE beat=1 addr=104beac0 data=0000000000000000 id=1e
[375000] SLAVE1 sent B resp, id=14
[375000] AXI S1_BVALID_RDY HANDSHAKE
[375000] [SLAVE MONITOR] mst_id=1 s_id=1 awaddr=104beab8 awid=1110 awlen=1 awsize=3 awburst=1 wdata=[0 0 ] wstrb=[0 0 ] bresp=0 bid=11110
[395000] MASTER 1 B_VALID_RDY Handshake
[395000] [MASTER MONITOR] mst_id=1 s_id=1 awaddr=104beab8 awid=1110 awlen=1 awsize=3 awburst=1 wdata=[0 0 ] wstrb=[0 0 ] bresp=0 bid=1110
[395000] MASTER 1 RECEIVED BRESP. BRESP=0
[395000] [MASTER DRIVER] mst_id=1 s_id=0 awaddr=104beab8 awid=1110 awlen=1 awsize=3 awburst=1 wdata=[] wstrb=[] bresp=0 bid=1110
[395000] SCOREBOARD MATCH: decode_err expected = 0, actual =0
[395000] SCOREBOARD MATCH: slave_id expected = 1, actual =1
[395000] SCOREBOARD MATCH: awaddr passthrough expected = 104beab8, actual =104beab8
[395000] SCOREBOARD MATCH: awlen passthrough expected = 1, actual =1
[395000] SCOREBOARD MATCH: awsize passthrough expected = 3, actual =3
[395000] SCOREBOARD MATCH: awburst passthrough expected = 1, actual =1
[395000] SCOREBOARD MATCH: wdata size check expected = 2, actual =2
[395000] SCOREBOARD MATCH: wdata passthrough beat=0 expected = 0, actual =0
[395000] SCOREBOARD MATCH: wdata passthrough beat=1 expected = 0, actual =0
[395000] SCOREBOARD MATCH: wstrb size check expected = 2, actual =2
[395000] SCOREBOARD MATCH: wstrb passthrough beat=0 expected = 0, actual =0
[395000] SCOREBOARD MATCH: wstrb passthrough beat=1 expected = 0, actual =0
[395000] SCOREBOARD MATCH: bresp passthrough expected = 0, actual =0
[395000] SCOREBOARD MATCH: response routed to correct master (write) expected = 1, actual =1
[395000] [SCOREBOARD-M] mst_id=1 s_id=1 awaddr=104beab8 awid=1110 awlen=1 awsize=3 awburst=1 wdata=[0 0 ] wstrb=[0 0 ] bresp=0 bid=1110
[395000] [SCOREBOARD-S] mst_id=1 s_id=1 awaddr=104beab8 awid=1110 awlen=1 awsize=3 awburst=1 wdata=[0 0 ] wstrb=[0 0 ] bresp=0 bid=11110
[395000] SCOREBOARD: Transaction 10 received. pass=142 fail=0
[395000] SCOREBOARD: Expected 10 transactions completed, PASS=142 FAIL=0
[395000] ALL PASS. Total transactions: 10
[395000] ALL TRANSACTIONS MONITORED
$finish called at time : 415 ns : File "/home/nashita/Desktop/practice/axi_xbar/tb/top/axi_tb_top.sv" Line 206
exit
INFO: xsimkernel Simulation Memory Usage: 289420 KB (Peak: 337824 KB), Simulation CPU Usage: 1190 ms
INFO: [Common 17-206] Exiting xsim at Tue Sep  8 16:03:15 2026...
