#-----------------------------------------------------------
# xsim v2025.2 (64-bit)
# SW Build 6299465 on Fri Nov 14 12:34:56 MST 2025
# IP Build 6300035 on Fri Nov 14 10:48:45 MST 2025
# SharedData Build 6298862 on Thu Nov 13 04:50:51 MST 2025
# Start of session at: Thu Sep 10 18:29:18 2026
# Process ID         : 3630367
# Current directory  : /home/nashita/Desktop/practice/axi_xbar/sim
# Command line       : xsim -log regress_results/BT_run244.log -mode tcl -source {xsim.dir/tb_top_snap/xsim_script.tcl}
# Log file           : /home/nashita/Desktop/practice/axi_xbar/sim/regress_results/BT_run244.log
# Journal file       : /home/nashita/Desktop/practice/axi_xbar/sim/xsim.jou
# Running On         : vlsi-vivado
# Platform           : Ubuntu
# Operating System   : Ubuntu 24.04.4 LTS
# Processor Detail   : Intel(R) Core(TM) i5-10400 CPU @ 2.90GHz
# CPU Frequency      : 800.000 MHz
# CPU Physical cores : 6
# CPU Logical cores  : 12
# Host memory        : 41875 MB
# Swap memory        : 27648 MB
# Total Virtual      : 69524 MB
# Available Virtual  : 62729 MB
#-----------------------------------------------------------
source xsim.dir/tb_top_snap/xsim_script.tcl
# xsim {tb_top_snap} -testplusarg BT -autoloadwcfg -runall -sv_seed 245
Time resolution is 1 ps
run -all
[0] RUNNING BASE TEST
[0] INSIDE THE BASE TEST CONSTRUCTOR
[0] ENV: before agent
[0] SLAVE CONSTRUCTED
[0] MASTER MONITOR CONSTRUCTED
[0] MASTER MONITOR CONSTRUCTED
[0] SLAVE MONITOR CONSTRUCTED
[0] SLAVE MONITOR CONSTRUCTED
[0] ARB MONITOR CONSTRUCTED
GENERATOR CONSTRUCTED
[0] ENV: after agent
[0] ENV: before scoreboard
[0] ENV: after scoreboard
[15000] [SEQUENCER] READ mst_id=0 s_id=0 araddr=1ac2fe70 arid=0 arlen=1 arsize=3 arburst=1 rid=[] rresp=[] rdata=[]
[15000] [SEQUENCER] mst_id=0 s_id=0 awaddr=1f763f80 awid=0 awlen=135 awsize=4 awburst=1 wdata=[c258d022efe82c97 9260a72bac6d0131 2ad709638190821b f178aeb2d597b347 204b479ed2fd985 eec05ba003d955de d97109252cdbbddc 1a0b9761e0390a53 e4126031db75bd9e 88517b7a88cbf301 e904fd54bd836956 18f926f5a25d12db 2b2905ddcd175d85 a9ac6dca14aa26f c3a7b54b942e0331 e14560b72393edd1 c4de9040eed0bb28 82febe59ebe02793 f7415648886458b f75700b3e4441f10 d02446a3d452a5a4 dcd8eb30fa55bf0d de99de1ddf985c07 33eb01acd42febe3 ce85aaf02ebe24c1 8e5680c810c3ecdc e4f3d8bf2d1f890e dbddadcfc2418274 d3056f50337983b0 e0990cbeea342e97 2c75b10c37f94810 eb72cbc03c76ba8d a6aae924ff7b205c b774686ccc0bd87e 882930bd3209a30 d29bba8da2e7342c eef30caaaf2d7c2f 24e16608a1022f9 2cf75726f7759fb5 26a31be5d4e9d0ed def9f3e69bea63d0 1360038628f13245 fddb03328bf14b0c 27dbaedd3a031f6b e2f451b0dcd4f718 e8c642253b3bb263 f53ed1cee0cf54e2 bda44bfa10a1f102 cbdda365d833237e 39027860a66a8e1f b70c7f21c11c7533 194f98b1f6a6c45a 1d11527a82ea2286 c40697b9d2521111 c8f8d56bd41dd19b d707f422dd56306a afa8417be60a27e5 3a27f9819b0e8bdb f864bc46f8a116e7 deab3ecc112feda3 ac3e797ea80cfdc1 a0ae14a898d3384d aa0325f0a4a335c4 ccb03386ff595375 982c8bc2d6419f6f fae4d533ed5e482e ecb79ba3c22fb1b3 18715122c79508b9 34f350e804e42766 c713d91993562655 daeb2f0fa1aaec8b a68f13f1df852a3b f2db50900fde7ff7 b1896c82eda2ed0a cd281745cdc67f9f dda4ff96d8188074 c5bb6d7ec00367d6 8dc9e7750f2e6c19 e746ec8d12e384c4 d2e6ec9aeb6ee70c fa9d5325ad025a0b bfe5decfe0b0d40f cc1fbb1be1e43fb2 8ee699bd92cccb69 f37d9f79c6bd0e40 a8a14df2cecc788d e19943f6bf9d5a94 65a68d53787e7b0 654603dd516e36f 14b43e04aefbb6c7 e6839e77e7eda433 3d0487a31b0ea6d9 ca0a5da0ecd7feb4 d4c5a2e8d1b8c5a7 ecc76c80308dfc18 9d65facc11ca2a8b e382f032b6d1ca20 e75fc638f22b9db4 83f5c83fd04a5cb2 871c26d204c5c105 f6f15eb9e778b871 b7c31523ee7bed0b f341ae10fae726f9 e25fdf6a3edf3bf6 2d5b2901ea330cc9 e51a33c21a22f48e d9023084209cd711 8acfe3dac77a132d e19d07bb065d5985 26fa3096efea179d 37642aca3a9f383f c0fc91c4b1ca1470 a1b42c0d19013285 d3a06ac4e7f6c25a 99c0d6cad91856d7 f219895c149cfc88 fc93bee23b7502d8 948d59afc5b9f420 da56f0a8965495ac d1c9988406a6e30c cc60d72cd6eaaf8a ed3f4537e656f234 ecfdd54026b7c7d5 fda2775fbf08ddbb a55fcfefb95eac6c e0167441eae1bc96 29ea9a52925da52f cbbc519cddb8eba1 c89aa837cf4a6a41 e1a80f71abd2c5dd 898bb17ef2854289 c1cfaccb2d64610d d93726ead22659b6 c4ab9c3f2377bc3c d0dc1d49e2c2d869 34e9321f867b490a ] wstrb=[33 46 5e 9c 8f 69 bb c3 af 1a 5f 3f 83 1b 2 32 35 61 71 b8 7c 73 ea b1 d5 5c 69 51 cf 54 3 a4 b0 6c f6 7f c0 f9 24 70 65 1a f0 26 13 14 96 78 2e 86 9e 41 9a 35 b9 c8 bb 58 9 56 8d c3 1e 48 1b 28 9e a8 eb bd f0 6 e5 8f ae d0 4c 9e d6 31 2d 84 1 79 22 d7 aa 50 5b ab c9 7d 82 74 cd dd 1f 97 5b a2 b 28 7f 2a bf da cc ca 3 4c f5 c2 26 c1 8d 29 d 82 ec 34 43 79 5d 51 fb 49 85 3e c2 e2 8f bd 2c 14 fc ee ] bresp=0 bid=0
[15000] [SEQUENCER] READ mst_id=1 s_id=0 araddr=1a396620 arid=0 arlen=1 arsize=3 arburst=1 rid=[] rresp=[] rdata=[]
[15000] [SEQUENCER] mst_id=0 s_id=0 awaddr=167b90c0 awid=0 awlen=120 awsize=3 awburst=1 wdata=[f08ff449a0de7370 35c29d393aa3fd35 111cf0ad31766732 d254daa2f346bd84 adeabab901ace4f6 33234c28881777db fb5e3560bf07ab66 c0b4905c857826ca d8f9ea6a948f019 e8509b80f3d7dc84 f950034f08edd406 b236c41fa9052bdc 1cdd086106dfa1f5 fcd75fb9a875f9f c38c8b7c162d0bb0 1d0cada5c2043a1a dc8b99bae06993dd f6969f8d2cda23a0 eede5dba20182536 81b91313a34d32 c07d70d2cb69f774 eb821caaf71858a0 abba5d2af5bce8c fac5c601ec03d5bd e31c2e5dcb3916a4 fa94e530e647e2ab d24bb869edd7d42f b910ead3f55aab31 dba28dddb567e6c6 233fbaf633a5d004 a9007b352dee4646 e3562d0cdc50a5c9 8ff675cd84a30912 b2914f588695e802 e2e68dcc38f6f103 bd99fa1515e77c65 9c7d6467f2dd0399 abd3f49cf02b496e 612c5d3ff63f233 f240f5cde96deeb2 d9993820a2902a3a 21f41c6e9e14ea69 8782d91bdfabfdf3 823c282d1435123b b249fca4e11c113b c0c80f2ea430449b b86556d639ccd5c0 9ae8e6fbc304375c e7347bf7eaaf537b 247c293bdbb0f62a 1eb52d861f99d2ce a492649bf651036 9b16066085e9a97d a5837c4b2ec54f84 ee2a5fbab9cb33e6 3fb4dd64afcca294 de91f2180940661b c30b9a01e53859af 1504fc44ccbc51d3 d5fcb7ee82c07765 e7f8d115f396ee5c c053402f990851ef 1bc8c955fcfdcd59 f094bbb5964ff81d 2f584a0d03c19a6a bf67c330e7fbe5 c737f402cb211362 cee2adccf1542378 a23c1f5df6903e0f c1b15171cfa2158f c0f63907e9741360 e004516f9093ff3d e03614cce3325865 cca66bc521b5a2e1 b249a21e212c4dd4 45ea639acaabd34 ce606015127fb6eb 33ac04bfd10511fe fdafcf3200aa0234 1329b91f380aaaf8 90fbcf6cc102f48 ccba317cc6d5bdde fee068d686bf8c28 d2cfbb70dfe3ea9b 26b9a87907f025cc 8eafb1f49f89ecec ff6dd787259a114f 2d8a371be17f6d65 81095a51a6278000 cbc1914fbc39e90f 9db95674007731d9 a69eb1d9f94bc86a 3585b17a1ec2b0c6 1f39e29ff2604329 ebac0b93d33f07ee f201b8b4c5d89478 b838d7a1a131bd0d f470c4fc913b9b53 d7142fcc23e4e335 c516a042e6727db0 f7ae19048f4d076d b331eaa2b987653e 1ff9e2efcec248d0 de0f503df8488ae5 b1cff02317a7fbf3 e66a44c311413ae0 989c5c5d1c9d312 e971cf05c4799500 d5bacfe0bb59b5e8 d2388fbcfdc13c8 1455a8c9df4495a5 1a9e4b8ef6955800 c6716bc9ea1078a9 c9550e4f27c1d489 9e572c89dac71492 c4d78d3be3f359dd bb52e66e4c89852 bf8face48e2c9b8a f21ff567aa0c5aef ed4f34204673a20 9293d5aafdd523cd ] wstrb=[26 bd 12 46 ff df f1 25 9c 3 6c 9b e2 5d c1 7f 60 2d 1a 42 8a db c1 ea 8 dc 2c 92 b7 ee 7c c0 ca a9 52 81 97 cf 41 61 78 94 e2 f 63 24 70 db b8 52 ea 1b 76 5a f6 2e ac e0 49 23 3a 3f 51 e6 1f 9b 9 59 da 5b 40 fa f6 49 53 d0 a4 93 ca 9a dd 1e 6b 81 b1 35 1c 8e 53 87 10 5 bc 2c 93 10 b3 a3 15 6f cf a8 7f 82 4c 94 f2 1b 3d 71 9e 89 6 90 a4 43 1 42 cc 7 d2 ] bresp=0 bid=0
[15000] [SEQUENCER] READ mst_id=0 s_id=0 araddr=1958978 arid=3 arlen=1 arsize=3 arburst=1 rid=[] rresp=[] rdata=[]
[15000] MASTER_DRIVER0 received transaction, op=AXI_READ
[15000] MASTER_DRIVER1 received transaction, op=AXI_READ
[35000] MASTER_DRIVER0 received transaction, op=AXI_WRITE
[45000] ARB MONITOR: slave=1 m0_req=1 m1_req=1 winner=0
[45000] AXI S0_ARVALID_RDY HANDSHAKE
[45000] MEMORY READ MISS beat=0 addr=1ac2fe70 -> default data id=0
[45000] SCOREBOARD MATCH: arbitration winner (slave 1) expected = 0, actual =0
[55000] MEMORY READ MISS beat=1 addr=1ac2fe78 -> default data id=0
[55000] SLAVE 1 R_VALID_RDY Handshake beat=0 rlast=0
[55000] MASTER 0 AW_VALID_RDY Handshake
[65000] ARB MONITOR: slave=1 m0_req=1 m1_req=0 winner=0
[65000] SLAVE 1 R_VALID_RDY Handshake beat=1 rlast=1
[65000] [SLAVE MONITOR] READ mst_id=0 s_id=1 araddr=1ac2fe70 arid=0 arlen=1 arsize=3 arburst=1 rid=[00] rresp=[00] rdata=[baadf00d12345678baadf00d12345678]
[65000] AXI S1_AWVALID_RDY HANDSHAKE
[75000] AXI S0_ARVALID_RDY HANDSHAKE
[75000] MEMORY READ MISS beat=0 addr=1a396620 -> default data id=16
[75000] ARB MONITOR: slave=1 m0_req=0 m1_req=1 winner=1
[75000] MASTER 0 R_VALID_RDY Handshake beat=0 rlast=0
[75000] MASTER 0 W_VALID_RDY Handshake beat=0 wlast=0
[85000] [MASTER DRIVER] READ mst_id=0 s_id=0 araddr=1ac2fe70 arid=0 arlen=1 arsize=3 arburst=1 rid=[00] rresp=[00] rdata=[baadf00d12345678baadf00d12345678]
[85000] MASTER 0 W_VALID_RDY Handshake beat=1 wlast=0
[85000] MASTER 0 R_VALID_RDY Handshake beat=1 rlast=1
[85000] [MASTER MONITOR] READ mst_id=0 s_id=1 araddr=1ac2fe70 arid=0 arlen=1 arsize=3 arburst=1 rid=[00] rresp=[00] rdata=[baadf00d12345678baadf00d12345678]
[85000] SLAVE 1 R_VALID_RDY Handshake beat=0 rlast=0
[85000] MEMORY READ MISS beat=1 addr=1a396628 -> default data id=16
[85000] S1 MEMORY WRITE beat=0 addr=1f763f80 data=c258d022efe82c97 id=00
[85000] SCOREBOARD MATCH: decode_err expected = 0, actual =0
[85000] SCOREBOARD MATCH: slave_id expected = 1, actual =1
[85000] SCOREBOARD MATCH: araddr passthrough expected = 1ac2fe70, actual =1ac2fe70
[85000] SCOREBOARD MATCH: arlen passthrough expected = 1, actual =1
[85000] SCOREBOARD MATCH: arsize passthrough expected = 3, actual =3
[85000] SCOREBOARD MATCH: arburst passthrough expected = 1, actual =1
[85000] SCOREBOARD MATCH: rdata size check expected = 2, actual =2
[85000] SCOREBOARD MATCH: rdata passthrough beat=0 expected = baadf00d12345678, actual =baadf00d12345678
[85000] SCOREBOARD MATCH: rdata passthrough beat=1 expected = baadf00d12345678, actual =baadf00d12345678
[85000] SCOREBOARD MATCH: rresp size check expected = 2, actual =2
[85000] SCOREBOARD MATCH: rresp passthrough beat=0 expected = 0, actual =0
[85000] SCOREBOARD MATCH: rresp passthrough beat=1 expected = 0, actual =0
[85000] SCOREBOARD MATCH: response routed to correct master (read beat 0) expected = 0, actual =0
[85000] SCOREBOARD MATCH: response routed to correct master (read beat 1) expected = 0, actual =0
[85000] [SCOREBOARD-M] READ mst_id=0 s_id=1 araddr=1ac2fe70 arid=0 arlen=1 arsize=3 arburst=1 rid=[00] rresp=[00] rdata=[baadf00d12345678baadf00d12345678]
[85000] [SCOREBOARD-S] READ mst_id=0 s_id=1 araddr=1ac2fe70 arid=0 arlen=1 arsize=3 arburst=1 rid=[00] rresp=[00] rdata=[baadf00d12345678baadf00d12345678]
[85000] SCOREBOARD: Transaction 1 received. pass=15 fail=0
[85000] ALL PASS. Total transactions: 1
[95000] S1 MEMORY WRITE beat=1 addr=1f763f90 data=9260a72bac6d0131 id=00
[95000] SLAVE 1 R_VALID_RDY Handshake beat=1 rlast=1
[95000] [SLAVE MONITOR] READ mst_id=1 s_id=1 araddr=1a396620 arid=0 arlen=1 arsize=3 arburst=1 rid=[1010] rresp=[00] rdata=[baadf00d12345678baadf00d12345678]
[95000] MASTER 0 W_VALID_RDY Handshake beat=2 wlast=0
[105000] MASTER 0 W_VALID_RDY Handshake beat=3 wlast=0
[105000] MASTER 1 R_VALID_RDY Handshake beat=0 rlast=0
[105000] S1 MEMORY WRITE beat=2 addr=1f763fa0 data=2ad709638190821b id=00
[115000] S1 MEMORY WRITE beat=3 addr=1f763fb0 data=f178aeb2d597b347 id=00
[115000] MASTER 1 R_VALID_RDY Handshake beat=1 rlast=1
[115000] [MASTER MONITOR] READ mst_id=1 s_id=1 araddr=1a396620 arid=0 arlen=1 arsize=3 arburst=1 rid=[00] rresp=[00] rdata=[baadf00d12345678baadf00d12345678]
[115000] MASTER 0 W_VALID_RDY Handshake beat=4 wlast=0
[115000] [MASTER DRIVER] READ mst_id=1 s_id=0 araddr=1a396620 arid=0 arlen=1 arsize=3 arburst=1 rid=[00] rresp=[00] rdata=[baadf00d12345678baadf00d12345678]
[115000] SCOREBOARD MATCH: decode_err expected = 0, actual =0
[115000] SCOREBOARD MATCH: slave_id expected = 1, actual =1
[115000] SCOREBOARD MATCH: araddr passthrough expected = 1a396620, actual =1a396620
[115000] SCOREBOARD MATCH: arlen passthrough expected = 1, actual =1
[115000] SCOREBOARD MATCH: arsize passthrough expected = 3, actual =3
[115000] SCOREBOARD MATCH: arburst passthrough expected = 1, actual =1
[115000] SCOREBOARD MATCH: rdata size check expected = 2, actual =2
[115000] SCOREBOARD MATCH: rdata passthrough beat=0 expected = baadf00d12345678, actual =baadf00d12345678
[115000] SCOREBOARD MATCH: rdata passthrough beat=1 expected = baadf00d12345678, actual =baadf00d12345678
[115000] SCOREBOARD MATCH: rresp size check expected = 2, actual =2
[115000] SCOREBOARD MATCH: rresp passthrough beat=0 expected = 0, actual =0
[115000] SCOREBOARD MATCH: rresp passthrough beat=1 expected = 0, actual =0
[115000] SCOREBOARD MATCH: response routed to correct master (read beat 0) expected = 1, actual =1
[115000] SCOREBOARD MATCH: response routed to correct master (read beat 1) expected = 1, actual =1
[115000] [SCOREBOARD-M] READ mst_id=1 s_id=1 araddr=1a396620 arid=0 arlen=1 arsize=3 arburst=1 rid=[00] rresp=[00] rdata=[baadf00d12345678baadf00d12345678]
[115000] [SCOREBOARD-S] READ mst_id=1 s_id=1 araddr=1a396620 arid=0 arlen=1 arsize=3 arburst=1 rid=[1010] rresp=[00] rdata=[baadf00d12345678baadf00d12345678]
[115000] SCOREBOARD: Transaction 2 received. pass=29 fail=0
[115000] ALL PASS. Total transactions: 2
[125000] MASTER 0 W_VALID_RDY Handshake beat=5 wlast=0
[125000] S1 MEMORY WRITE beat=4 addr=1f763fc0 data=0204b479ed2fd985 id=00
[135000] S1 MEMORY WRITE beat=5 addr=1f763fd0 data=eec05ba003d955de id=00
[135000] MASTER 0 W_VALID_RDY Handshake beat=6 wlast=0
[145000] MASTER 0 W_VALID_RDY Handshake beat=7 wlast=0
[145000] S1 MEMORY WRITE beat=6 addr=1f763fe0 data=d97109252cdbbddc id=00
[155000] S1 MEMORY WRITE beat=7 addr=1f763ff0 data=1a0b9761e0390a53 id=00
[155000] MASTER 0 W_VALID_RDY Handshake beat=8 wlast=0
[165000] MASTER 0 W_VALID_RDY Handshake beat=9 wlast=0
[165000] S1 MEMORY WRITE beat=8 addr=1f764000 data=e4126031db75bd9e id=00
[175000] S1 MEMORY WRITE beat=9 addr=1f764010 data=88517b7a88cbf301 id=00
[175000] MASTER 0 W_VALID_RDY Handshake beat=10 wlast=0
[185000] MASTER 0 W_VALID_RDY Handshake beat=11 wlast=0
[185000] S1 MEMORY WRITE beat=10 addr=1f764020 data=e904fd54bd836956 id=00
[195000] S1 MEMORY WRITE beat=11 addr=1f764030 data=18f926f5a25d12db id=00
[195000] MASTER 0 W_VALID_RDY Handshake beat=12 wlast=0
[205000] MASTER 0 W_VALID_RDY Handshake beat=13 wlast=0
[205000] S1 MEMORY WRITE beat=12 addr=1f764040 data=2b2905ddcd175d85 id=00
[215000] S1 MEMORY WRITE beat=13 addr=1f764050 data=0a9ac6dca14aa26f id=00
[215000] MASTER 0 W_VALID_RDY Handshake beat=14 wlast=0
[225000] MASTER 0 W_VALID_RDY Handshake beat=15 wlast=0
[225000] S1 MEMORY WRITE beat=14 addr=1f764060 data=c3a7b54b942e0331 id=00
[235000] S1 MEMORY WRITE beat=15 addr=1f764070 data=e14560b72393edd1 id=00
[235000] MASTER 0 W_VALID_RDY Handshake beat=16 wlast=0
[245000] MASTER 0 W_VALID_RDY Handshake beat=17 wlast=0
[245000] S1 MEMORY WRITE beat=16 addr=1f764080 data=c4de9040eed0bb28 id=00
[255000] S1 MEMORY WRITE beat=17 addr=1f764090 data=82febe59ebe02793 id=00
[255000] MASTER 0 W_VALID_RDY Handshake beat=18 wlast=0
[265000] MASTER 0 W_VALID_RDY Handshake beat=19 wlast=0
[265000] S1 MEMORY WRITE beat=18 addr=1f7640a0 data=0f7415648886458b id=00
[275000] S1 MEMORY WRITE beat=19 addr=1f7640b0 data=f75700b3e4441f10 id=00
[275000] MASTER 0 W_VALID_RDY Handshake beat=20 wlast=0
[285000] MASTER 0 W_VALID_RDY Handshake beat=21 wlast=0
[285000] S1 MEMORY WRITE beat=20 addr=1f7640c0 data=d02446a3d452a5a4 id=00
[295000] S1 MEMORY WRITE beat=21 addr=1f7640d0 data=dcd8eb30fa55bf0d id=00
[295000] MASTER 0 W_VALID_RDY Handshake beat=22 wlast=0
[305000] MASTER 0 W_VALID_RDY Handshake beat=23 wlast=0
[305000] S1 MEMORY WRITE beat=22 addr=1f7640e0 data=de99de1ddf985c07 id=00
[315000] S1 MEMORY WRITE beat=23 addr=1f7640f0 data=33eb01acd42febe3 id=00
[315000] MASTER 0 W_VALID_RDY Handshake beat=24 wlast=0
[325000] MASTER 0 W_VALID_RDY Handshake beat=25 wlast=0
[325000] S1 MEMORY WRITE beat=24 addr=1f764100 data=ce85aaf02ebe24c1 id=00
[335000] S1 MEMORY WRITE beat=25 addr=1f764110 data=8e5680c810c3ecdc id=00
[335000] MASTER 0 W_VALID_RDY Handshake beat=26 wlast=0
[345000] MASTER 0 W_VALID_RDY Handshake beat=27 wlast=0
[345000] S1 MEMORY WRITE beat=26 addr=1f764120 data=e4f3d8bf2d1f890e id=00
[355000] S1 MEMORY WRITE beat=27 addr=1f764130 data=dbddadcfc2418274 id=00
[355000] MASTER 0 W_VALID_RDY Handshake beat=28 wlast=0
[365000] MASTER 0 W_VALID_RDY Handshake beat=29 wlast=0
[365000] S1 MEMORY WRITE beat=28 addr=1f764140 data=d3056f50337983b0 id=00
[375000] S1 MEMORY WRITE beat=29 addr=1f764150 data=e0990cbeea342e97 id=00
[375000] MASTER 0 W_VALID_RDY Handshake beat=30 wlast=0
[385000] MASTER 0 W_VALID_RDY Handshake beat=31 wlast=0
[385000] S1 MEMORY WRITE beat=30 addr=1f764160 data=2c75b10c37f94810 id=00
[395000] S1 MEMORY WRITE beat=31 addr=1f764170 data=eb72cbc03c76ba8d id=00
[395000] MASTER 0 W_VALID_RDY Handshake beat=32 wlast=0
[405000] MASTER 0 W_VALID_RDY Handshake beat=33 wlast=0
[405000] S1 MEMORY WRITE beat=32 addr=1f764180 data=a6aae924ff7b205c id=00
[415000] S1 MEMORY WRITE beat=33 addr=1f764190 data=b774686ccc0bd87e id=00
[415000] MASTER 0 W_VALID_RDY Handshake beat=34 wlast=0
[425000] MASTER 0 W_VALID_RDY Handshake beat=35 wlast=0
[425000] S1 MEMORY WRITE beat=34 addr=1f7641a0 data=0882930bd3209a30 id=00
[435000] S1 MEMORY WRITE beat=35 addr=1f7641b0 data=d29bba8da2e7342c id=00
[435000] MASTER 0 W_VALID_RDY Handshake beat=36 wlast=0
[445000] MASTER 0 W_VALID_RDY Handshake beat=37 wlast=0
[445000] S1 MEMORY WRITE beat=36 addr=1f7641c0 data=eef30caaaf2d7c2f id=00
[455000] S1 MEMORY WRITE beat=37 addr=1f7641d0 data=024e16608a1022f9 id=00
[455000] MASTER 0 W_VALID_RDY Handshake beat=38 wlast=0
[465000] MASTER 0 W_VALID_RDY Handshake beat=39 wlast=0
[465000] S1 MEMORY WRITE beat=38 addr=1f7641e0 data=2cf75726f7759fb5 id=00
[475000] S1 MEMORY WRITE beat=39 addr=1f7641f0 data=26a31be5d4e9d0ed id=00
[475000] MASTER 0 W_VALID_RDY Handshake beat=40 wlast=0
[485000] MASTER 0 W_VALID_RDY Handshake beat=41 wlast=0
[485000] S1 MEMORY WRITE beat=40 addr=1f764200 data=def9f3e69bea63d0 id=00
[495000] S1 MEMORY WRITE beat=41 addr=1f764210 data=1360038628f13245 id=00
[495000] MASTER 0 W_VALID_RDY Handshake beat=42 wlast=0
[505000] MASTER 0 W_VALID_RDY Handshake beat=43 wlast=0
[505000] S1 MEMORY WRITE beat=42 addr=1f764220 data=fddb03328bf14b0c id=00
[515000] S1 MEMORY WRITE beat=43 addr=1f764230 data=27dbaedd3a031f6b id=00
[515000] MASTER 0 W_VALID_RDY Handshake beat=44 wlast=0
[525000] MASTER 0 W_VALID_RDY Handshake beat=45 wlast=0
[525000] S1 MEMORY WRITE beat=44 addr=1f764240 data=e2f451b0dcd4f718 id=00
[535000] S1 MEMORY WRITE beat=45 addr=1f764250 data=e8c642253b3bb263 id=00
[535000] MASTER 0 W_VALID_RDY Handshake beat=46 wlast=0
[545000] MASTER 0 W_VALID_RDY Handshake beat=47 wlast=0
[545000] S1 MEMORY WRITE beat=46 addr=1f764260 data=f53ed1cee0cf54e2 id=00
[555000] S1 MEMORY WRITE beat=47 addr=1f764270 data=bda44bfa10a1f102 id=00
[555000] MASTER 0 W_VALID_RDY Handshake beat=48 wlast=0
[565000] MASTER 0 W_VALID_RDY Handshake beat=49 wlast=0
[565000] S1 MEMORY WRITE beat=48 addr=1f764280 data=cbdda365d833237e id=00
[575000] S1 MEMORY WRITE beat=49 addr=1f764290 data=39027860a66a8e1f id=00
[575000] MASTER 0 W_VALID_RDY Handshake beat=50 wlast=0
[585000] MASTER 0 W_VALID_RDY Handshake beat=51 wlast=0
[585000] S1 MEMORY WRITE beat=50 addr=1f7642a0 data=b70c7f21c11c7533 id=00
[595000] S1 MEMORY WRITE beat=51 addr=1f7642b0 data=194f98b1f6a6c45a id=00
[595000] MASTER 0 W_VALID_RDY Handshake beat=52 wlast=0
[605000] MASTER 0 W_VALID_RDY Handshake beat=53 wlast=0
[605000] S1 MEMORY WRITE beat=52 addr=1f7642c0 data=1d11527a82ea2286 id=00
[615000] S1 MEMORY WRITE beat=53 addr=1f7642d0 data=c40697b9d2521111 id=00
[615000] MASTER 0 W_VALID_RDY Handshake beat=54 wlast=0
[625000] MASTER 0 W_VALID_RDY Handshake beat=55 wlast=0
[625000] S1 MEMORY WRITE beat=54 addr=1f7642e0 data=c8f8d56bd41dd19b id=00
[635000] S1 MEMORY WRITE beat=55 addr=1f7642f0 data=d707f422dd56306a id=00
[635000] MASTER 0 W_VALID_RDY Handshake beat=56 wlast=0
[645000] MASTER 0 W_VALID_RDY Handshake beat=57 wlast=0
[645000] S1 MEMORY WRITE beat=56 addr=1f764300 data=afa8417be60a27e5 id=00
[655000] S1 MEMORY WRITE beat=57 addr=1f764310 data=3a27f9819b0e8bdb id=00
[655000] MASTER 0 W_VALID_RDY Handshake beat=58 wlast=0
[665000] MASTER 0 W_VALID_RDY Handshake beat=59 wlast=0
[665000] S1 MEMORY WRITE beat=58 addr=1f764320 data=f864bc46f8a116e7 id=00
[675000] S1 MEMORY WRITE beat=59 addr=1f764330 data=deab3ecc112feda3 id=00
[675000] MASTER 0 W_VALID_RDY Handshake beat=60 wlast=0
[685000] MASTER 0 W_VALID_RDY Handshake beat=61 wlast=0
[685000] S1 MEMORY WRITE beat=60 addr=1f764340 data=ac3e797ea80cfdc1 id=00
[695000] S1 MEMORY WRITE beat=61 addr=1f764350 data=a0ae14a898d3384d id=00
[695000] MASTER 0 W_VALID_RDY Handshake beat=62 wlast=0
[705000] MASTER 0 W_VALID_RDY Handshake beat=63 wlast=0
[705000] S1 MEMORY WRITE beat=62 addr=1f764360 data=aa0325f0a4a335c4 id=00
[715000] S1 MEMORY WRITE beat=63 addr=1f764370 data=ccb03386ff595375 id=00
[715000] MASTER 0 W_VALID_RDY Handshake beat=64 wlast=0
[725000] MASTER 0 W_VALID_RDY Handshake beat=65 wlast=0
[725000] S1 MEMORY WRITE beat=64 addr=1f764380 data=982c8bc2d6419f6f id=00
[735000] S1 MEMORY WRITE beat=65 addr=1f764390 data=fae4d533ed5e482e id=00
[735000] MASTER 0 W_VALID_RDY Handshake beat=66 wlast=0
[745000] MASTER 0 W_VALID_RDY Handshake beat=67 wlast=0
[745000] S1 MEMORY WRITE beat=66 addr=1f7643a0 data=ecb79ba3c22fb1b3 id=00
[755000] S1 MEMORY WRITE beat=67 addr=1f7643b0 data=18715122c79508b9 id=00
[755000] MASTER 0 W_VALID_RDY Handshake beat=68 wlast=0
[765000] MASTER 0 W_VALID_RDY Handshake beat=69 wlast=0
[765000] S1 MEMORY WRITE beat=68 addr=1f7643c0 data=34f350e804e42766 id=00
[775000] S1 MEMORY WRITE beat=69 addr=1f7643d0 data=c713d91993562655 id=00
[775000] MASTER 0 W_VALID_RDY Handshake beat=70 wlast=0
[785000] MASTER 0 W_VALID_RDY Handshake beat=71 wlast=0
[785000] S1 MEMORY WRITE beat=70 addr=1f7643e0 data=daeb2f0fa1aaec8b id=00
[795000] S1 MEMORY WRITE beat=71 addr=1f7643f0 data=a68f13f1df852a3b id=00
[795000] MASTER 0 W_VALID_RDY Handshake beat=72 wlast=0
[805000] MASTER 0 W_VALID_RDY Handshake beat=73 wlast=0
[805000] S1 MEMORY WRITE beat=72 addr=1f764400 data=f2db50900fde7ff7 id=00
[815000] S1 MEMORY WRITE beat=73 addr=1f764410 data=b1896c82eda2ed0a id=00
[815000] MASTER 0 W_VALID_RDY Handshake beat=74 wlast=0
[825000] MASTER 0 W_VALID_RDY Handshake beat=75 wlast=0
[825000] S1 MEMORY WRITE beat=74 addr=1f764420 data=cd281745cdc67f9f id=00
[835000] S1 MEMORY WRITE beat=75 addr=1f764430 data=dda4ff96d8188074 id=00
[835000] MASTER 0 W_VALID_RDY Handshake beat=76 wlast=0
[845000] MASTER 0 W_VALID_RDY Handshake beat=77 wlast=0
[845000] S1 MEMORY WRITE beat=76 addr=1f764440 data=c5bb6d7ec00367d6 id=00
[855000] S1 MEMORY WRITE beat=77 addr=1f764450 data=8dc9e7750f2e6c19 id=00
[855000] MASTER 0 W_VALID_RDY Handshake beat=78 wlast=0
[865000] MASTER 0 W_VALID_RDY Handshake beat=79 wlast=0
[865000] S1 MEMORY WRITE beat=78 addr=1f764460 data=e746ec8d12e384c4 id=00
[875000] S1 MEMORY WRITE beat=79 addr=1f764470 data=d2e6ec9aeb6ee70c id=00
[875000] MASTER 0 W_VALID_RDY Handshake beat=80 wlast=0
[885000] MASTER 0 W_VALID_RDY Handshake beat=81 wlast=0
[885000] S1 MEMORY WRITE beat=80 addr=1f764480 data=fa9d5325ad025a0b id=00
[895000] S1 MEMORY WRITE beat=81 addr=1f764490 data=bfe5decfe0b0d40f id=00
[895000] MASTER 0 W_VALID_RDY Handshake beat=82 wlast=0
[905000] MASTER 0 W_VALID_RDY Handshake beat=83 wlast=0
[905000] S1 MEMORY WRITE beat=82 addr=1f7644a0 data=cc1fbb1be1e43fb2 id=00
[915000] S1 MEMORY WRITE beat=83 addr=1f7644b0 data=8ee699bd92cccb69 id=00
[915000] MASTER 0 W_VALID_RDY Handshake beat=84 wlast=0
[925000] MASTER 0 W_VALID_RDY Handshake beat=85 wlast=0
[925000] S1 MEMORY WRITE beat=84 addr=1f7644c0 data=f37d9f79c6bd0e40 id=00
[935000] S1 MEMORY WRITE beat=85 addr=1f7644d0 data=a8a14df2cecc788d id=00
[935000] MASTER 0 W_VALID_RDY Handshake beat=86 wlast=0
[945000] MASTER 0 W_VALID_RDY Handshake beat=87 wlast=0
[945000] S1 MEMORY WRITE beat=86 addr=1f7644e0 data=e19943f6bf9d5a94 id=00
[955000] S1 MEMORY WRITE beat=87 addr=1f7644f0 data=065a68d53787e7b0 id=00
[955000] MASTER 0 W_VALID_RDY Handshake beat=88 wlast=0
[965000] MASTER 0 W_VALID_RDY Handshake beat=89 wlast=0
[965000] S1 MEMORY WRITE beat=88 addr=1f764500 data=0654603dd516e36f id=00
[975000] S1 MEMORY WRITE beat=89 addr=1f764510 data=14b43e04aefbb6c7 id=00
[975000] MASTER 0 W_VALID_RDY Handshake beat=90 wlast=0
[985000] MASTER 0 W_VALID_RDY Handshake beat=91 wlast=0
[985000] S1 MEMORY WRITE beat=90 addr=1f764520 data=e6839e77e7eda433 id=00
[995000] S1 MEMORY WRITE beat=91 addr=1f764530 data=3d0487a31b0ea6d9 id=00
[995000] MASTER 0 W_VALID_RDY Handshake beat=92 wlast=0
[1005000] MASTER 0 W_VALID_RDY Handshake beat=93 wlast=0
[1005000] S1 MEMORY WRITE beat=92 addr=1f764540 data=ca0a5da0ecd7feb4 id=00
[1015000] S1 MEMORY WRITE beat=93 addr=1f764550 data=d4c5a2e8d1b8c5a7 id=00
[1015000] MASTER 0 W_VALID_RDY Handshake beat=94 wlast=0
[1025000] MASTER 0 W_VALID_RDY Handshake beat=95 wlast=0
[1025000] S1 MEMORY WRITE beat=94 addr=1f764560 data=ecc76c80308dfc18 id=00
[1035000] S1 MEMORY WRITE beat=95 addr=1f764570 data=9d65facc11ca2a8b id=00
[1035000] MASTER 0 W_VALID_RDY Handshake beat=96 wlast=0
[1045000] MASTER 0 W_VALID_RDY Handshake beat=97 wlast=0
[1045000] S1 MEMORY WRITE beat=96 addr=1f764580 data=e382f032b6d1ca20 id=00
[1055000] S1 MEMORY WRITE beat=97 addr=1f764590 data=e75fc638f22b9db4 id=00
[1055000] MASTER 0 W_VALID_RDY Handshake beat=98 wlast=0
[1065000] MASTER 0 W_VALID_RDY Handshake beat=99 wlast=0
[1065000] S1 MEMORY WRITE beat=98 addr=1f7645a0 data=83f5c83fd04a5cb2 id=00
[1075000] S1 MEMORY WRITE beat=99 addr=1f7645b0 data=871c26d204c5c105 id=00
[1075000] MASTER 0 W_VALID_RDY Handshake beat=100 wlast=0
[1085000] MASTER 0 W_VALID_RDY Handshake beat=101 wlast=0
[1085000] S1 MEMORY WRITE beat=100 addr=1f7645c0 data=f6f15eb9e778b871 id=00
[1095000] S1 MEMORY WRITE beat=101 addr=1f7645d0 data=b7c31523ee7bed0b id=00
[1095000] MASTER 0 W_VALID_RDY Handshake beat=102 wlast=0
[1105000] MASTER 0 W_VALID_RDY Handshake beat=103 wlast=0
[1105000] S1 MEMORY WRITE beat=102 addr=1f7645e0 data=f341ae10fae726f9 id=00
[1115000] S1 MEMORY WRITE beat=103 addr=1f7645f0 data=e25fdf6a3edf3bf6 id=00
[1115000] MASTER 0 W_VALID_RDY Handshake beat=104 wlast=0
[1125000] MASTER 0 W_VALID_RDY Handshake beat=105 wlast=0
[1125000] S1 MEMORY WRITE beat=104 addr=1f764600 data=2d5b2901ea330cc9 id=00
[1135000] S1 MEMORY WRITE beat=105 addr=1f764610 data=e51a33c21a22f48e id=00
[1135000] MASTER 0 W_VALID_RDY Handshake beat=106 wlast=0
[1145000] MASTER 0 W_VALID_RDY Handshake beat=107 wlast=0
[1145000] S1 MEMORY WRITE beat=106 addr=1f764620 data=d9023084209cd711 id=00
[1155000] S1 MEMORY WRITE beat=107 addr=1f764630 data=8acfe3dac77a132d id=00
[1155000] MASTER 0 W_VALID_RDY Handshake beat=108 wlast=0
[1165000] MASTER 0 W_VALID_RDY Handshake beat=109 wlast=0
[1165000] S1 MEMORY WRITE beat=108 addr=1f764640 data=e19d07bb065d5985 id=00
[1175000] S1 MEMORY WRITE beat=109 addr=1f764650 data=26fa3096efea179d id=00
[1175000] MASTER 0 W_VALID_RDY Handshake beat=110 wlast=0
[1185000] MASTER 0 W_VALID_RDY Handshake beat=111 wlast=0
[1185000] S1 MEMORY WRITE beat=110 addr=1f764660 data=37642aca3a9f383f id=00
[1195000] S1 MEMORY WRITE beat=111 addr=1f764670 data=c0fc91c4b1ca1470 id=00
[1195000] MASTER 0 W_VALID_RDY Handshake beat=112 wlast=0
[1205000] MASTER 0 W_VALID_RDY Handshake beat=113 wlast=0
[1205000] S1 MEMORY WRITE beat=112 addr=1f764680 data=a1b42c0d19013285 id=00
[1215000] S1 MEMORY WRITE beat=113 addr=1f764690 data=d3a06ac4e7f6c25a id=00
[1215000] MASTER 0 W_VALID_RDY Handshake beat=114 wlast=0
[1225000] MASTER 0 W_VALID_RDY Handshake beat=115 wlast=0
[1225000] S1 MEMORY WRITE beat=114 addr=1f7646a0 data=99c0d6cad91856d7 id=00
[1235000] S1 MEMORY WRITE beat=115 addr=1f7646b0 data=f219895c149cfc88 id=00
[1235000] MASTER 0 W_VALID_RDY Handshake beat=116 wlast=0
[1245000] MASTER 0 W_VALID_RDY Handshake beat=117 wlast=0
[1245000] S1 MEMORY WRITE beat=116 addr=1f7646c0 data=fc93bee23b7502d8 id=00
[1255000] S1 MEMORY WRITE beat=117 addr=1f7646d0 data=948d59afc5b9f420 id=00
[1255000] MASTER 0 W_VALID_RDY Handshake beat=118 wlast=0
[1265000] MASTER 0 W_VALID_RDY Handshake beat=119 wlast=0
[1265000] S1 MEMORY WRITE beat=118 addr=1f7646e0 data=da56f0a8965495ac id=00
[1275000] S1 MEMORY WRITE beat=119 addr=1f7646f0 data=d1c9988406a6e30c id=00
[1275000] MASTER 0 W_VALID_RDY Handshake beat=120 wlast=0
[1285000] MASTER 0 W_VALID_RDY Handshake beat=121 wlast=0
[1285000] S1 MEMORY WRITE beat=120 addr=1f764700 data=cc60d72cd6eaaf8a id=00
[1295000] S1 MEMORY WRITE beat=121 addr=1f764710 data=ed3f4537e656f234 id=00
[1295000] MASTER 0 W_VALID_RDY Handshake beat=122 wlast=0
[1305000] MASTER 0 W_VALID_RDY Handshake beat=123 wlast=0
[1305000] S1 MEMORY WRITE beat=122 addr=1f764720 data=ecfdd54026b7c7d5 id=00
[1315000] S1 MEMORY WRITE beat=123 addr=1f764730 data=fda2775fbf08ddbb id=00
[1315000] MASTER 0 W_VALID_RDY Handshake beat=124 wlast=0
[1325000] MASTER 0 W_VALID_RDY Handshake beat=125 wlast=0
[1325000] S1 MEMORY WRITE beat=124 addr=1f764740 data=a55fcfefb95eac6c id=00
[1335000] S1 MEMORY WRITE beat=125 addr=1f764750 data=e0167441eae1bc96 id=00
[1335000] MASTER 0 W_VALID_RDY Handshake beat=126 wlast=0
[1345000] MASTER 0 W_VALID_RDY Handshake beat=127 wlast=0
[1345000] S1 MEMORY WRITE beat=126 addr=1f764760 data=29ea9a52925da52f id=00
[1355000] S1 MEMORY WRITE beat=127 addr=1f764770 data=cbbc519cddb8eba1 id=00
[1355000] MASTER 0 W_VALID_RDY Handshake beat=128 wlast=0
[1365000] MASTER 0 W_VALID_RDY Handshake beat=129 wlast=0
[1365000] S1 MEMORY WRITE beat=128 addr=1f764780 data=c89aa837cf4a6a41 id=00
[1375000] S1 MEMORY WRITE beat=129 addr=1f764790 data=e1a80f71abd2c5dd id=00
[1375000] MASTER 0 W_VALID_RDY Handshake beat=130 wlast=0
[1385000] MASTER 0 W_VALID_RDY Handshake beat=131 wlast=0
[1385000] S1 MEMORY WRITE beat=130 addr=1f7647a0 data=898bb17ef2854289 id=00
[1395000] S1 MEMORY WRITE beat=131 addr=1f7647b0 data=c1cfaccb2d64610d id=00
[1395000] MASTER 0 W_VALID_RDY Handshake beat=132 wlast=0
[1405000] MASTER 0 W_VALID_RDY Handshake beat=133 wlast=0
[1405000] S1 MEMORY WRITE beat=132 addr=1f7647c0 data=d93726ead22659b6 id=00
[1415000] S1 MEMORY WRITE beat=133 addr=1f7647d0 data=c4ab9c3f2377bc3c id=00
[1415000] MASTER 0 W_VALID_RDY Handshake beat=134 wlast=0
[1425000] MASTER_DRIVER0 received transaction, op=AXI_WRITE
[1425000] MASTER 0 W_VALID_RDY Handshake beat=135 wlast=1
[1425000] S1 MEMORY WRITE beat=134 addr=1f7647e0 data=d0dc1d49e2c2d869 id=00
[1435000] S1 MEMORY WRITE beat=135 addr=1f7647f0 data=34e9321f867b490a id=00
[1445000] MASTER 0 AW_VALID_RDY Handshake
[1445000] SLAVE1 sent B resp, id=0
[1455000] AXI S1_AWVALID_RDY HANDSHAKE
[1455000] [SLAVE MONITOR] mst_id=0 s_id=1 awaddr=1f763f80 awid=0 awlen=135 awsize=4 awburst=1 wdata=[c258d022efe82c97 9260a72bac6d0131 2ad709638190821b f178aeb2d597b347 204b479ed2fd985 eec05ba003d955de d97109252cdbbddc 1a0b9761e0390a53 e4126031db75bd9e 88517b7a88cbf301 e904fd54bd836956 18f926f5a25d12db 2b2905ddcd175d85 a9ac6dca14aa26f c3a7b54b942e0331 e14560b72393edd1 c4de9040eed0bb28 82febe59ebe02793 f7415648886458b f75700b3e4441f10 d02446a3d452a5a4 dcd8eb30fa55bf0d de99de1ddf985c07 33eb01acd42febe3 ce85aaf02ebe24c1 8e5680c810c3ecdc e4f3d8bf2d1f890e dbddadcfc2418274 d3056f50337983b0 e0990cbeea342e97 2c75b10c37f94810 eb72cbc03c76ba8d a6aae924ff7b205c b774686ccc0bd87e 882930bd3209a30 d29bba8da2e7342c eef30caaaf2d7c2f 24e16608a1022f9 2cf75726f7759fb5 26a31be5d4e9d0ed def9f3e69bea63d0 1360038628f13245 fddb03328bf14b0c 27dbaedd3a031f6b e2f451b0dcd4f718 e8c642253b3bb263 f53ed1cee0cf54e2 bda44bfa10a1f102 cbdda365d833237e 39027860a66a8e1f b70c7f21c11c7533 194f98b1f6a6c45a 1d11527a82ea2286 c40697b9d2521111 c8f8d56bd41dd19b d707f422dd56306a afa8417be60a27e5 3a27f9819b0e8bdb f864bc46f8a116e7 deab3ecc112feda3 ac3e797ea80cfdc1 a0ae14a898d3384d aa0325f0a4a335c4 ccb03386ff595375 982c8bc2d6419f6f fae4d533ed5e482e ecb79ba3c22fb1b3 18715122c79508b9 34f350e804e42766 c713d91993562655 daeb2f0fa1aaec8b a68f13f1df852a3b f2db50900fde7ff7 b1896c82eda2ed0a cd281745cdc67f9f dda4ff96d8188074 c5bb6d7ec00367d6 8dc9e7750f2e6c19 e746ec8d12e384c4 d2e6ec9aeb6ee70c fa9d5325ad025a0b bfe5decfe0b0d40f cc1fbb1be1e43fb2 8ee699bd92cccb69 f37d9f79c6bd0e40 a8a14df2cecc788d e19943f6bf9d5a94 65a68d53787e7b0 654603dd516e36f 14b43e04aefbb6c7 e6839e77e7eda433 3d0487a31b0ea6d9 ca0a5da0ecd7feb4 d4c5a2e8d1b8c5a7 ecc76c80308dfc18 9d65facc11ca2a8b e382f032b6d1ca20 e75fc638f22b9db4 83f5c83fd04a5cb2 871c26d204c5c105 f6f15eb9e778b871 b7c31523ee7bed0b f341ae10fae726f9 e25fdf6a3edf3bf6 2d5b2901ea330cc9 e51a33c21a22f48e d9023084209cd711 8acfe3dac77a132d e19d07bb065d5985 26fa3096efea179d 37642aca3a9f383f c0fc91c4b1ca1470 a1b42c0d19013285 d3a06ac4e7f6c25a 99c0d6cad91856d7 f219895c149cfc88 fc93bee23b7502d8 948d59afc5b9f420 da56f0a8965495ac d1c9988406a6e30c cc60d72cd6eaaf8a ed3f4537e656f234 ecfdd54026b7c7d5 fda2775fbf08ddbb a55fcfefb95eac6c e0167441eae1bc96 29ea9a52925da52f cbbc519cddb8eba1 c89aa837cf4a6a41 e1a80f71abd2c5dd 898bb17ef2854289 c1cfaccb2d64610d d93726ead22659b6 c4ab9c3f2377bc3c d0dc1d49e2c2d869 34e9321f867b490a ] wstrb=[33 46 5e 9c 8f 69 bb c3 af 1a 5f 3f 83 1b 2 32 35 61 71 b8 7c 73 ea b1 d5 5c 69 51 cf 54 3 a4 b0 6c f6 7f c0 f9 24 70 65 1a f0 26 13 14 96 78 2e 86 9e 41 9a 35 b9 c8 bb 58 9 56 8d c3 1e 48 1b 28 9e a8 eb bd f0 6 e5 8f ae d0 4c 9e d6 31 2d 84 1 79 22 d7 aa 50 5b ab c9 7d 82 74 cd dd 1f 97 5b a2 b 28 7f 2a bf da cc ca 3 4c f5 c2 26 c1 8d 29 d 82 ec 34 43 79 5d 51 fb 49 85 3e c2 e2 8f bd 2c 14 fc ee ] bresp=0 bid=0
[1455000] ARB MONITOR: slave=1 m0_req=1 m1_req=0 winner=0
[1465000] MASTER 0 RECEIVED BRESP. BRESP=0
[1465000] [MASTER DRIVER] mst_id=0 s_id=0 awaddr=1f763f80 awid=0 awlen=135 awsize=4 awburst=1 wdata=[c258d022efe82c97 9260a72bac6d0131 2ad709638190821b f178aeb2d597b347 204b479ed2fd985 eec05ba003d955de d97109252cdbbddc 1a0b9761e0390a53 e4126031db75bd9e 88517b7a88cbf301 e904fd54bd836956 18f926f5a25d12db 2b2905ddcd175d85 a9ac6dca14aa26f c3a7b54b942e0331 e14560b72393edd1 c4de9040eed0bb28 82febe59ebe02793 f7415648886458b f75700b3e4441f10 d02446a3d452a5a4 dcd8eb30fa55bf0d de99de1ddf985c07 33eb01acd42febe3 ce85aaf02ebe24c1 8e5680c810c3ecdc e4f3d8bf2d1f890e dbddadcfc2418274 d3056f50337983b0 e0990cbeea342e97 2c75b10c37f94810 eb72cbc03c76ba8d a6aae924ff7b205c b774686ccc0bd87e 882930bd3209a30 d29bba8da2e7342c eef30caaaf2d7c2f 24e16608a1022f9 2cf75726f7759fb5 26a31be5d4e9d0ed def9f3e69bea63d0 1360038628f13245 fddb03328bf14b0c 27dbaedd3a031f6b e2f451b0dcd4f718 e8c642253b3bb263 f53ed1cee0cf54e2 bda44bfa10a1f102 cbdda365d833237e 39027860a66a8e1f b70c7f21c11c7533 194f98b1f6a6c45a 1d11527a82ea2286 c40697b9d2521111 c8f8d56bd41dd19b d707f422dd56306a afa8417be60a27e5 3a27f9819b0e8bdb f864bc46f8a116e7 deab3ecc112feda3 ac3e797ea80cfdc1 a0ae14a898d3384d aa0325f0a4a335c4 ccb03386ff595375 982c8bc2d6419f6f fae4d533ed5e482e ecb79ba3c22fb1b3 18715122c79508b9 34f350e804e42766 c713d91993562655 daeb2f0fa1aaec8b a68f13f1df852a3b f2db50900fde7ff7 b1896c82eda2ed0a cd281745cdc67f9f dda4ff96d8188074 c5bb6d7ec00367d6 8dc9e7750f2e6c19 e746ec8d12e384c4 d2e6ec9aeb6ee70c fa9d5325ad025a0b bfe5decfe0b0d40f cc1fbb1be1e43fb2 8ee699bd92cccb69 f37d9f79c6bd0e40 a8a14df2cecc788d e19943f6bf9d5a94 65a68d53787e7b0 654603dd516e36f 14b43e04aefbb6c7 e6839e77e7eda433 3d0487a31b0ea6d9 ca0a5da0ecd7feb4 d4c5a2e8d1b8c5a7 ecc76c80308dfc18 9d65facc11ca2a8b e382f032b6d1ca20 e75fc638f22b9db4 83f5c83fd04a5cb2 871c26d204c5c105 f6f15eb9e778b871 b7c31523ee7bed0b f341ae10fae726f9 e25fdf6a3edf3bf6 2d5b2901ea330cc9 e51a33c21a22f48e d9023084209cd711 8acfe3dac77a132d e19d07bb065d5985 26fa3096efea179d 37642aca3a9f383f c0fc91c4b1ca1470 a1b42c0d19013285 d3a06ac4e7f6c25a 99c0d6cad91856d7 f219895c149cfc88 fc93bee23b7502d8 948d59afc5b9f420 da56f0a8965495ac d1c9988406a6e30c cc60d72cd6eaaf8a ed3f4537e656f234 ecfdd54026b7c7d5 fda2775fbf08ddbb a55fcfefb95eac6c e0167441eae1bc96 29ea9a52925da52f cbbc519cddb8eba1 c89aa837cf4a6a41 e1a80f71abd2c5dd 898bb17ef2854289 c1cfaccb2d64610d d93726ead22659b6 c4ab9c3f2377bc3c d0dc1d49e2c2d869 34e9321f867b490a ] wstrb=[33 46 5e 9c 8f 69 bb c3 af 1a 5f 3f 83 1b 2 32 35 61 71 b8 7c 73 ea b1 d5 5c 69 51 cf 54 3 a4 b0 6c f6 7f c0 f9 24 70 65 1a f0 26 13 14 96 78 2e 86 9e 41 9a 35 b9 c8 bb 58 9 56 8d c3 1e 48 1b 28 9e a8 eb bd f0 6 e5 8f ae d0 4c 9e d6 31 2d 84 1 79 22 d7 aa 50 5b ab c9 7d 82 74 cd dd 1f 97 5b a2 b 28 7f 2a bf da cc ca 3 4c f5 c2 26 c1 8d 29 d 82 ec 34 43 79 5d 51 fb 49 85 3e c2 e2 8f bd 2c 14 fc ee ] bresp=0 bid=0
[1465000] MASTER 0 W_VALID_RDY Handshake beat=0 wlast=0
[1465000] MASTER 0 B_VALID_RDY Handshake
[1465000] [MASTER MONITOR] mst_id=0 s_id=1 awaddr=1f763f80 awid=0 awlen=135 awsize=4 awburst=1 wdata=[c258d022efe82c97 9260a72bac6d0131 2ad709638190821b f178aeb2d597b347 204b479ed2fd985 eec05ba003d955de d97109252cdbbddc 1a0b9761e0390a53 e4126031db75bd9e 88517b7a88cbf301 e904fd54bd836956 18f926f5a25d12db 2b2905ddcd175d85 a9ac6dca14aa26f c3a7b54b942e0331 e14560b72393edd1 c4de9040eed0bb28 82febe59ebe02793 f7415648886458b f75700b3e4441f10 d02446a3d452a5a4 dcd8eb30fa55bf0d de99de1ddf985c07 33eb01acd42febe3 ce85aaf02ebe24c1 8e5680c810c3ecdc e4f3d8bf2d1f890e dbddadcfc2418274 d3056f50337983b0 e0990cbeea342e97 2c75b10c37f94810 eb72cbc03c76ba8d a6aae924ff7b205c b774686ccc0bd87e 882930bd3209a30 d29bba8da2e7342c eef30caaaf2d7c2f 24e16608a1022f9 2cf75726f7759fb5 26a31be5d4e9d0ed def9f3e69bea63d0 1360038628f13245 fddb03328bf14b0c 27dbaedd3a031f6b e2f451b0dcd4f718 e8c642253b3bb263 f53ed1cee0cf54e2 bda44bfa10a1f102 cbdda365d833237e 39027860a66a8e1f b70c7f21c11c7533 194f98b1f6a6c45a 1d11527a82ea2286 c40697b9d2521111 c8f8d56bd41dd19b d707f422dd56306a afa8417be60a27e5 3a27f9819b0e8bdb f864bc46f8a116e7 deab3ecc112feda3 ac3e797ea80cfdc1 a0ae14a898d3384d aa0325f0a4a335c4 ccb03386ff595375 982c8bc2d6419f6f fae4d533ed5e482e ecb79ba3c22fb1b3 18715122c79508b9 34f350e804e42766 c713d91993562655 daeb2f0fa1aaec8b a68f13f1df852a3b f2db50900fde7ff7 b1896c82eda2ed0a cd281745cdc67f9f dda4ff96d8188074 c5bb6d7ec00367d6 8dc9e7750f2e6c19 e746ec8d12e384c4 d2e6ec9aeb6ee70c fa9d5325ad025a0b bfe5decfe0b0d40f cc1fbb1be1e43fb2 8ee699bd92cccb69 f37d9f79c6bd0e40 a8a14df2cecc788d e19943f6bf9d5a94 65a68d53787e7b0 654603dd516e36f 14b43e04aefbb6c7 e6839e77e7eda433 3d0487a31b0ea6d9 ca0a5da0ecd7feb4 d4c5a2e8d1b8c5a7 ecc76c80308dfc18 9d65facc11ca2a8b e382f032b6d1ca20 e75fc638f22b9db4 83f5c83fd04a5cb2 871c26d204c5c105 f6f15eb9e778b871 b7c31523ee7bed0b f341ae10fae726f9 e25fdf6a3edf3bf6 2d5b2901ea330cc9 e51a33c21a22f48e d9023084209cd711 8acfe3dac77a132d e19d07bb065d5985 26fa3096efea179d 37642aca3a9f383f c0fc91c4b1ca1470 a1b42c0d19013285 d3a06ac4e7f6c25a 99c0d6cad91856d7 f219895c149cfc88 fc93bee23b7502d8 948d59afc5b9f420 da56f0a8965495ac d1c9988406a6e30c cc60d72cd6eaaf8a ed3f4537e656f234 ecfdd54026b7c7d5 fda2775fbf08ddbb a55fcfefb95eac6c e0167441eae1bc96 29ea9a52925da52f cbbc519cddb8eba1 c89aa837cf4a6a41 e1a80f71abd2c5dd 898bb17ef2854289 c1cfaccb2d64610d d93726ead22659b6 c4ab9c3f2377bc3c d0dc1d49e2c2d869 34e9321f867b490a ] wstrb=[33 46 5e 9c 8f 69 bb c3 af 1a 5f 3f 83 1b 2 32 35 61 71 b8 7c 73 ea b1 d5 5c 69 51 cf 54 3 a4 b0 6c f6 7f c0 f9 24 70 65 1a f0 26 13 14 96 78 2e 86 9e 41 9a 35 b9 c8 bb 58 9 56 8d c3 1e 48 1b 28 9e a8 eb bd f0 6 e5 8f ae d0 4c 9e d6 31 2d 84 1 79 22 d7 aa 50 5b ab c9 7d 82 74 cd dd 1f 97 5b a2 b 28 7f 2a bf da cc ca 3 4c f5 c2 26 c1 8d 29 d 82 ec 34 43 79 5d 51 fb 49 85 3e c2 e2 8f bd 2c 14 fc ee ] bresp=0 bid=0
[1465000] SCOREBOARD MATCH: decode_err expected = 0, actual =0
[1465000] SCOREBOARD MATCH: slave_id expected = 1, actual =1
[1465000] SCOREBOARD MATCH: awaddr passthrough expected = 1f763f80, actual =1f763f80
[1465000] SCOREBOARD MATCH: awlen passthrough expected = 135, actual =135
[1465000] SCOREBOARD MATCH: awsize passthrough expected = 4, actual =4
[1465000] SCOREBOARD MATCH: awburst passthrough expected = 1, actual =1
[1465000] SCOREBOARD MATCH: wdata size check expected = 88, actual =88
[1465000] SCOREBOARD MATCH: wdata passthrough beat=0 expected = c258d022efe82c97, actual =c258d022efe82c97
[1465000] SCOREBOARD MATCH: wdata passthrough beat=1 expected = 9260a72bac6d0131, actual =9260a72bac6d0131
[1465000] SCOREBOARD MATCH: wdata passthrough beat=2 expected = 2ad709638190821b, actual =2ad709638190821b
[1465000] SCOREBOARD MATCH: wdata passthrough beat=3 expected = f178aeb2d597b347, actual =f178aeb2d597b347
[1465000] SCOREBOARD MATCH: wdata passthrough beat=4 expected = 204b479ed2fd985, actual =204b479ed2fd985
[1465000] SCOREBOARD MATCH: wdata passthrough beat=5 expected = eec05ba003d955de, actual =eec05ba003d955de
[1465000] SCOREBOARD MATCH: wdata passthrough beat=6 expected = d97109252cdbbddc, actual =d97109252cdbbddc
[1465000] SCOREBOARD MATCH: wdata passthrough beat=7 expected = 1a0b9761e0390a53, actual =1a0b9761e0390a53
[1465000] SCOREBOARD MATCH: wdata passthrough beat=8 expected = e4126031db75bd9e, actual =e4126031db75bd9e
[1465000] SCOREBOARD MATCH: wdata passthrough beat=9 expected = 88517b7a88cbf301, actual =88517b7a88cbf301
[1465000] SCOREBOARD MATCH: wdata passthrough beat=10 expected = e904fd54bd836956, actual =e904fd54bd836956
[1465000] SCOREBOARD MATCH: wdata passthrough beat=11 expected = 18f926f5a25d12db, actual =18f926f5a25d12db
[1465000] SCOREBOARD MATCH: wdata passthrough beat=12 expected = 2b2905ddcd175d85, actual =2b2905ddcd175d85
[1465000] SCOREBOARD MATCH: wdata passthrough beat=13 expected = a9ac6dca14aa26f, actual =a9ac6dca14aa26f
[1465000] SCOREBOARD MATCH: wdata passthrough beat=14 expected = c3a7b54b942e0331, actual =c3a7b54b942e0331
[1465000] SCOREBOARD MATCH: wdata passthrough beat=15 expected = e14560b72393edd1, actual =e14560b72393edd1
[1465000] SCOREBOARD MATCH: wdata passthrough beat=16 expected = c4de9040eed0bb28, actual =c4de9040eed0bb28
[1465000] SCOREBOARD MATCH: wdata passthrough beat=17 expected = 82febe59ebe02793, actual =82febe59ebe02793
[1465000] SCOREBOARD MATCH: wdata passthrough beat=18 expected = f7415648886458b, actual =f7415648886458b
[1465000] SCOREBOARD MATCH: wdata passthrough beat=19 expected = f75700b3e4441f10, actual =f75700b3e4441f10
[1465000] SCOREBOARD MATCH: wdata passthrough beat=20 expected = d02446a3d452a5a4, actual =d02446a3d452a5a4
[1465000] SCOREBOARD MATCH: wdata passthrough beat=21 expected = dcd8eb30fa55bf0d, actual =dcd8eb30fa55bf0d
[1465000] SCOREBOARD MATCH: wdata passthrough beat=22 expected = de99de1ddf985c07, actual =de99de1ddf985c07
[1465000] SCOREBOARD MATCH: wdata passthrough beat=23 expected = 33eb01acd42febe3, actual =33eb01acd42febe3
[1465000] SCOREBOARD MATCH: wdata passthrough beat=24 expected = ce85aaf02ebe24c1, actual =ce85aaf02ebe24c1
[1465000] SCOREBOARD MATCH: wdata passthrough beat=25 expected = 8e5680c810c3ecdc, actual =8e5680c810c3ecdc
[1465000] SCOREBOARD MATCH: wdata passthrough beat=26 expected = e4f3d8bf2d1f890e, actual =e4f3d8bf2d1f890e
[1465000] SCOREBOARD MATCH: wdata passthrough beat=27 expected = dbddadcfc2418274, actual =dbddadcfc2418274
[1465000] SCOREBOARD MATCH: wdata passthrough beat=28 expected = d3056f50337983b0, actual =d3056f50337983b0
[1465000] SCOREBOARD MATCH: wdata passthrough beat=29 expected = e0990cbeea342e97, actual =e0990cbeea342e97
[1465000] SCOREBOARD MATCH: wdata passthrough beat=30 expected = 2c75b10c37f94810, actual =2c75b10c37f94810
[1465000] SCOREBOARD MATCH: wdata passthrough beat=31 expected = eb72cbc03c76ba8d, actual =eb72cbc03c76ba8d
[1465000] SCOREBOARD MATCH: wdata passthrough beat=32 expected = a6aae924ff7b205c, actual =a6aae924ff7b205c
[1465000] SCOREBOARD MATCH: wdata passthrough beat=33 expected = b774686ccc0bd87e, actual =b774686ccc0bd87e
[1465000] SCOREBOARD MATCH: wdata passthrough beat=34 expected = 882930bd3209a30, actual =882930bd3209a30
[1465000] SCOREBOARD MATCH: wdata passthrough beat=35 expected = d29bba8da2e7342c, actual =d29bba8da2e7342c
[1465000] SCOREBOARD MATCH: wdata passthrough beat=36 expected = eef30caaaf2d7c2f, actual =eef30caaaf2d7c2f
[1465000] SCOREBOARD MATCH: wdata passthrough beat=37 expected = 24e16608a1022f9, actual =24e16608a1022f9
[1465000] SCOREBOARD MATCH: wdata passthrough beat=38 expected = 2cf75726f7759fb5, actual =2cf75726f7759fb5
[1465000] SCOREBOARD MATCH: wdata passthrough beat=39 expected = 26a31be5d4e9d0ed, actual =26a31be5d4e9d0ed
[1465000] SCOREBOARD MATCH: wdata passthrough beat=40 expected = def9f3e69bea63d0, actual =def9f3e69bea63d0
[1465000] SCOREBOARD MATCH: wdata passthrough beat=41 expected = 1360038628f13245, actual =1360038628f13245
[1465000] SCOREBOARD MATCH: wdata passthrough beat=42 expected = fddb03328bf14b0c, actual =fddb03328bf14b0c
[1465000] SCOREBOARD MATCH: wdata passthrough beat=43 expected = 27dbaedd3a031f6b, actual =27dbaedd3a031f6b
[1465000] SCOREBOARD MATCH: wdata passthrough beat=44 expected = e2f451b0dcd4f718, actual =e2f451b0dcd4f718
[1465000] SCOREBOARD MATCH: wdata passthrough beat=45 expected = e8c642253b3bb263, actual =e8c642253b3bb263
[1465000] SCOREBOARD MATCH: wdata passthrough beat=46 expected = f53ed1cee0cf54e2, actual =f53ed1cee0cf54e2
[1465000] SCOREBOARD MATCH: wdata passthrough beat=47 expected = bda44bfa10a1f102, actual =bda44bfa10a1f102
[1465000] SCOREBOARD MATCH: wdata passthrough beat=48 expected = cbdda365d833237e, actual =cbdda365d833237e
[1465000] SCOREBOARD MATCH: wdata passthrough beat=49 expected = 39027860a66a8e1f, actual =39027860a66a8e1f
[1465000] SCOREBOARD MATCH: wdata passthrough beat=50 expected = b70c7f21c11c7533, actual =b70c7f21c11c7533
[1465000] SCOREBOARD MATCH: wdata passthrough beat=51 expected = 194f98b1f6a6c45a, actual =194f98b1f6a6c45a
[1465000] SCOREBOARD MATCH: wdata passthrough beat=52 expected = 1d11527a82ea2286, actual =1d11527a82ea2286
[1465000] SCOREBOARD MATCH: wdata passthrough beat=53 expected = c40697b9d2521111, actual =c40697b9d2521111
[1465000] SCOREBOARD MATCH: wdata passthrough beat=54 expected = c8f8d56bd41dd19b, actual =c8f8d56bd41dd19b
[1465000] SCOREBOARD MATCH: wdata passthrough beat=55 expected = d707f422dd56306a, actual =d707f422dd56306a
[1465000] SCOREBOARD MATCH: wdata passthrough beat=56 expected = afa8417be60a27e5, actual =afa8417be60a27e5
[1465000] SCOREBOARD MATCH: wdata passthrough beat=57 expected = 3a27f9819b0e8bdb, actual =3a27f9819b0e8bdb
[1465000] SCOREBOARD MATCH: wdata passthrough beat=58 expected = f864bc46f8a116e7, actual =f864bc46f8a116e7
[1465000] SCOREBOARD MATCH: wdata passthrough beat=59 expected = deab3ecc112feda3, actual =deab3ecc112feda3
[1465000] SCOREBOARD MATCH: wdata passthrough beat=60 expected = ac3e797ea80cfdc1, actual =ac3e797ea80cfdc1
[1465000] SCOREBOARD MATCH: wdata passthrough beat=61 expected = a0ae14a898d3384d, actual =a0ae14a898d3384d
[1465000] SCOREBOARD MATCH: wdata passthrough beat=62 expected = aa0325f0a4a335c4, actual =aa0325f0a4a335c4
[1465000] SCOREBOARD MATCH: wdata passthrough beat=63 expected = ccb03386ff595375, actual =ccb03386ff595375
[1465000] SCOREBOARD MATCH: wdata passthrough beat=64 expected = 982c8bc2d6419f6f, actual =982c8bc2d6419f6f
[1465000] SCOREBOARD MATCH: wdata passthrough beat=65 expected = fae4d533ed5e482e, actual =fae4d533ed5e482e
[1465000] SCOREBOARD MATCH: wdata passthrough beat=66 expected = ecb79ba3c22fb1b3, actual =ecb79ba3c22fb1b3
[1465000] SCOREBOARD MATCH: wdata passthrough beat=67 expected = 18715122c79508b9, actual =18715122c79508b9
[1465000] SCOREBOARD MATCH: wdata passthrough beat=68 expected = 34f350e804e42766, actual =34f350e804e42766
[1465000] SCOREBOARD MATCH: wdata passthrough beat=69 expected = c713d91993562655, actual =c713d91993562655
[1465000] SCOREBOARD MATCH: wdata passthrough beat=70 expected = daeb2f0fa1aaec8b, actual =daeb2f0fa1aaec8b
[1465000] SCOREBOARD MATCH: wdata passthrough beat=71 expected = a68f13f1df852a3b, actual =a68f13f1df852a3b
[1465000] SCOREBOARD MATCH: wdata passthrough beat=72 expected = f2db50900fde7ff7, actual =f2db50900fde7ff7
[1465000] SCOREBOARD MATCH: wdata passthrough beat=73 expected = b1896c82eda2ed0a, actual =b1896c82eda2ed0a
[1465000] SCOREBOARD MATCH: wdata passthrough beat=74 expected = cd281745cdc67f9f, actual =cd281745cdc67f9f
[1465000] SCOREBOARD MATCH: wdata passthrough beat=75 expected = dda4ff96d8188074, actual =dda4ff96d8188074
[1465000] SCOREBOARD MATCH: wdata passthrough beat=76 expected = c5bb6d7ec00367d6, actual =c5bb6d7ec00367d6
[1465000] SCOREBOARD MATCH: wdata passthrough beat=77 expected = 8dc9e7750f2e6c19, actual =8dc9e7750f2e6c19
[1465000] SCOREBOARD MATCH: wdata passthrough beat=78 expected = e746ec8d12e384c4, actual =e746ec8d12e384c4
[1465000] SCOREBOARD MATCH: wdata passthrough beat=79 expected = d2e6ec9aeb6ee70c, actual =d2e6ec9aeb6ee70c
[1465000] SCOREBOARD MATCH: wdata passthrough beat=80 expected = fa9d5325ad025a0b, actual =fa9d5325ad025a0b
[1465000] SCOREBOARD MATCH: wdata passthrough beat=81 expected = bfe5decfe0b0d40f, actual =bfe5decfe0b0d40f
[1465000] SCOREBOARD MATCH: wdata passthrough beat=82 expected = cc1fbb1be1e43fb2, actual =cc1fbb1be1e43fb2
[1465000] SCOREBOARD MATCH: wdata passthrough beat=83 expected = 8ee699bd92cccb69, actual =8ee699bd92cccb69
[1465000] SCOREBOARD MATCH: wdata passthrough beat=84 expected = f37d9f79c6bd0e40, actual =f37d9f79c6bd0e40
[1465000] SCOREBOARD MATCH: wdata passthrough beat=85 expected = a8a14df2cecc788d, actual =a8a14df2cecc788d
[1465000] SCOREBOARD MATCH: wdata passthrough beat=86 expected = e19943f6bf9d5a94, actual =e19943f6bf9d5a94
[1465000] SCOREBOARD MATCH: wdata passthrough beat=87 expected = 65a68d53787e7b0, actual =65a68d53787e7b0
[1465000] SCOREBOARD MATCH: wdata passthrough beat=88 expected = 654603dd516e36f, actual =654603dd516e36f
[1465000] SCOREBOARD MATCH: wdata passthrough beat=89 expected = 14b43e04aefbb6c7, actual =14b43e04aefbb6c7
[1465000] SCOREBOARD MATCH: wdata passthrough beat=90 expected = e6839e77e7eda433, actual =e6839e77e7eda433
[1465000] SCOREBOARD MATCH: wdata passthrough beat=91 expected = 3d0487a31b0ea6d9, actual =3d0487a31b0ea6d9
[1465000] SCOREBOARD MATCH: wdata passthrough beat=92 expected = ca0a5da0ecd7feb4, actual =ca0a5da0ecd7feb4
[1465000] SCOREBOARD MATCH: wdata passthrough beat=93 expected = d4c5a2e8d1b8c5a7, actual =d4c5a2e8d1b8c5a7
[1465000] SCOREBOARD MATCH: wdata passthrough beat=94 expected = ecc76c80308dfc18, actual =ecc76c80308dfc18
[1465000] SCOREBOARD MATCH: wdata passthrough beat=95 expected = 9d65facc11ca2a8b, actual =9d65facc11ca2a8b
[1465000] SCOREBOARD MATCH: wdata passthrough beat=96 expected = e382f032b6d1ca20, actual =e382f032b6d1ca20
[1465000] SCOREBOARD MATCH: wdata passthrough beat=97 expected = e75fc638f22b9db4, actual =e75fc638f22b9db4
[1465000] SCOREBOARD MATCH: wdata passthrough beat=98 expected = 83f5c83fd04a5cb2, actual =83f5c83fd04a5cb2
[1465000] SCOREBOARD MATCH: wdata passthrough beat=99 expected = 871c26d204c5c105, actual =871c26d204c5c105
[1465000] SCOREBOARD MATCH: wdata passthrough beat=100 expected = f6f15eb9e778b871, actual =f6f15eb9e778b871
[1465000] SCOREBOARD MATCH: wdata passthrough beat=101 expected = b7c31523ee7bed0b, actual =b7c31523ee7bed0b
[1465000] SCOREBOARD MATCH: wdata passthrough beat=102 expected = f341ae10fae726f9, actual =f341ae10fae726f9
[1465000] SCOREBOARD MATCH: wdata passthrough beat=103 expected = e25fdf6a3edf3bf6, actual =e25fdf6a3edf3bf6
[1465000] SCOREBOARD MATCH: wdata passthrough beat=104 expected = 2d5b2901ea330cc9, actual =2d5b2901ea330cc9
[1465000] SCOREBOARD MATCH: wdata passthrough beat=105 expected = e51a33c21a22f48e, actual =e51a33c21a22f48e
[1465000] SCOREBOARD MATCH: wdata passthrough beat=106 expected = d9023084209cd711, actual =d9023084209cd711
[1465000] SCOREBOARD MATCH: wdata passthrough beat=107 expected = 8acfe3dac77a132d, actual =8acfe3dac77a132d
[1465000] SCOREBOARD MATCH: wdata passthrough beat=108 expected = e19d07bb065d5985, actual =e19d07bb065d5985
[1465000] SCOREBOARD MATCH: wdata passthrough beat=109 expected = 26fa3096efea179d, actual =26fa3096efea179d
[1465000] SCOREBOARD MATCH: wdata passthrough beat=110 expected = 37642aca3a9f383f, actual =37642aca3a9f383f
[1465000] SCOREBOARD MATCH: wdata passthrough beat=111 expected = c0fc91c4b1ca1470, actual =c0fc91c4b1ca1470
[1465000] SCOREBOARD MATCH: wdata passthrough beat=112 expected = a1b42c0d19013285, actual =a1b42c0d19013285
[1465000] SCOREBOARD MATCH: wdata passthrough beat=113 expected = d3a06ac4e7f6c25a, actual =d3a06ac4e7f6c25a
[1465000] SCOREBOARD MATCH: wdata passthrough beat=114 expected = 99c0d6cad91856d7, actual =99c0d6cad91856d7
[1465000] SCOREBOARD MATCH: wdata passthrough beat=115 expected = f219895c149cfc88, actual =f219895c149cfc88
[1465000] SCOREBOARD MATCH: wdata passthrough beat=116 expected = fc93bee23b7502d8, actual =fc93bee23b7502d8
[1465000] SCOREBOARD MATCH: wdata passthrough beat=117 expected = 948d59afc5b9f420, actual =948d59afc5b9f420
[1465000] SCOREBOARD MATCH: wdata passthrough beat=118 expected = da56f0a8965495ac, actual =da56f0a8965495ac
[1465000] SCOREBOARD MATCH: wdata passthrough beat=119 expected = d1c9988406a6e30c, actual =d1c9988406a6e30c
[1465000] SCOREBOARD MATCH: wdata passthrough beat=120 expected = cc60d72cd6eaaf8a, actual =cc60d72cd6eaaf8a
[1465000] SCOREBOARD MATCH: wdata passthrough beat=121 expected = ed3f4537e656f234, actual =ed3f4537e656f234
[1465000] SCOREBOARD MATCH: wdata passthrough beat=122 expected = ecfdd54026b7c7d5, actual =ecfdd54026b7c7d5
[1465000] SCOREBOARD MATCH: wdata passthrough beat=123 expected = fda2775fbf08ddbb, actual =fda2775fbf08ddbb
[1465000] SCOREBOARD MATCH: wdata passthrough beat=124 expected = a55fcfefb95eac6c, actual =a55fcfefb95eac6c
[1465000] SCOREBOARD MATCH: wdata passthrough beat=125 expected = e0167441eae1bc96, actual =e0167441eae1bc96
[1465000] SCOREBOARD MATCH: wdata passthrough beat=126 expected = 29ea9a52925da52f, actual =29ea9a52925da52f
[1465000] SCOREBOARD MATCH: wdata passthrough beat=127 expected = cbbc519cddb8eba1, actual =cbbc519cddb8eba1
[1465000] SCOREBOARD MATCH: wdata passthrough beat=128 expected = c89aa837cf4a6a41, actual =c89aa837cf4a6a41
[1465000] SCOREBOARD MATCH: wdata passthrough beat=129 expected = e1a80f71abd2c5dd, actual =e1a80f71abd2c5dd
[1465000] SCOREBOARD MATCH: wdata passthrough beat=130 expected = 898bb17ef2854289, actual =898bb17ef2854289
[1465000] SCOREBOARD MATCH: wdata passthrough beat=131 expected = c1cfaccb2d64610d, actual =c1cfaccb2d64610d
[1465000] SCOREBOARD MATCH: wdata passthrough beat=132 expected = d93726ead22659b6, actual =d93726ead22659b6
[1465000] SCOREBOARD MATCH: wdata passthrough beat=133 expected = c4ab9c3f2377bc3c, actual =c4ab9c3f2377bc3c
[1465000] SCOREBOARD MATCH: wdata passthrough beat=134 expected = d0dc1d49e2c2d869, actual =d0dc1d49e2c2d869
[1465000] SCOREBOARD MATCH: wdata passthrough beat=135 expected = 34e9321f867b490a, actual =34e9321f867b490a
[1465000] SCOREBOARD MATCH: wstrb size check expected = 88, actual =88
[1465000] SCOREBOARD MATCH: wstrb passthrough beat=0 expected = 33, actual =33
[1465000] SCOREBOARD MATCH: wstrb passthrough beat=1 expected = 46, actual =46
[1465000] SCOREBOARD MATCH: wstrb passthrough beat=2 expected = 5e, actual =5e
[1465000] SCOREBOARD MATCH: wstrb passthrough beat=3 expected = 9c, actual =9c
[1465000] SCOREBOARD MATCH: wstrb passthrough beat=4 expected = 8f, actual =8f
[1465000] SCOREBOARD MATCH: wstrb passthrough beat=5 expected = 69, actual =69
[1465000] SCOREBOARD MATCH: wstrb passthrough beat=6 expected = bb, actual =bb
[1465000] SCOREBOARD MATCH: wstrb passthrough beat=7 expected = c3, actual =c3
[1465000] SCOREBOARD MATCH: wstrb passthrough beat=8 expected = af, actual =af
[1465000] SCOREBOARD MATCH: wstrb passthrough beat=9 expected = 1a, actual =1a
[1465000] SCOREBOARD MATCH: wstrb passthrough beat=10 expected = 5f, actual =5f
[1465000] SCOREBOARD MATCH: wstrb passthrough beat=11 expected = 3f, actual =3f
[1465000] SCOREBOARD MATCH: wstrb passthrough beat=12 expected = 83, actual =83
[1465000] SCOREBOARD MATCH: wstrb passthrough beat=13 expected = 1b, actual =1b
[1465000] SCOREBOARD MATCH: wstrb passthrough beat=14 expected = 2, actual =2
[1465000] SCOREBOARD MATCH: wstrb passthrough beat=15 expected = 32, actual =32
[1465000] SCOREBOARD MATCH: wstrb passthrough beat=16 expected = 35, actual =35
[1465000] SCOREBOARD MATCH: wstrb passthrough beat=17 expected = 61, actual =61
[1465000] SCOREBOARD MATCH: wstrb passthrough beat=18 expected = 71, actual =71
[1465000] SCOREBOARD MATCH: wstrb passthrough beat=19 expected = b8, actual =b8
[1465000] SCOREBOARD MATCH: wstrb passthrough beat=20 expected = 7c, actual =7c
[1465000] SCOREBOARD MATCH: wstrb passthrough beat=21 expected = 73, actual =73
[1465000] SCOREBOARD MATCH: wstrb passthrough beat=22 expected = ea, actual =ea
[1465000] SCOREBOARD MATCH: wstrb passthrough beat=23 expected = b1, actual =b1
[1465000] SCOREBOARD MATCH: wstrb passthrough beat=24 expected = d5, actual =d5
[1465000] SCOREBOARD MATCH: wstrb passthrough beat=25 expected = 5c, actual =5c
[1465000] SCOREBOARD MATCH: wstrb passthrough beat=26 expected = 69, actual =69
[1465000] SCOREBOARD MATCH: wstrb passthrough beat=27 expected = 51, actual =51
[1465000] SCOREBOARD MATCH: wstrb passthrough beat=28 expected = cf, actual =cf
[1465000] SCOREBOARD MATCH: wstrb passthrough beat=29 expected = 54, actual =54
[1465000] SCOREBOARD MATCH: wstrb passthrough beat=30 expected = 3, actual =3
[1465000] SCOREBOARD MATCH: wstrb passthrough beat=31 expected = a4, actual =a4
[1465000] SCOREBOARD MATCH: wstrb passthrough beat=32 expected = b0, actual =b0
[1465000] SCOREBOARD MATCH: wstrb passthrough beat=33 expected = 6c, actual =6c
[1465000] SCOREBOARD MATCH: wstrb passthrough beat=34 expected = f6, actual =f6
[1465000] SCOREBOARD MATCH: wstrb passthrough beat=35 expected = 7f, actual =7f
[1465000] SCOREBOARD MATCH: wstrb passthrough beat=36 expected = c0, actual =c0
[1465000] SCOREBOARD MATCH: wstrb passthrough beat=37 expected = f9, actual =f9
[1465000] SCOREBOARD MATCH: wstrb passthrough beat=38 expected = 24, actual =24
[1465000] SCOREBOARD MATCH: wstrb passthrough beat=39 expected = 70, actual =70
[1465000] SCOREBOARD MATCH: wstrb passthrough beat=40 expected = 65, actual =65
[1465000] SCOREBOARD MATCH: wstrb passthrough beat=41 expected = 1a, actual =1a
[1465000] SCOREBOARD MATCH: wstrb passthrough beat=42 expected = f0, actual =f0
[1465000] SCOREBOARD MATCH: wstrb passthrough beat=43 expected = 26, actual =26
[1465000] SCOREBOARD MATCH: wstrb passthrough beat=44 expected = 13, actual =13
[1465000] SCOREBOARD MATCH: wstrb passthrough beat=45 expected = 14, actual =14
[1465000] SCOREBOARD MATCH: wstrb passthrough beat=46 expected = 96, actual =96
[1465000] SCOREBOARD MATCH: wstrb passthrough beat=47 expected = 78, actual =78
[1465000] SCOREBOARD MATCH: wstrb passthrough beat=48 expected = 2e, actual =2e
[1465000] SCOREBOARD MATCH: wstrb passthrough beat=49 expected = 86, actual =86
[1465000] SCOREBOARD MATCH: wstrb passthrough beat=50 expected = 9e, actual =9e
[1465000] SCOREBOARD MATCH: wstrb passthrough beat=51 expected = 41, actual =41
[1465000] SCOREBOARD MATCH: wstrb passthrough beat=52 expected = 9a, actual =9a
[1465000] SCOREBOARD MATCH: wstrb passthrough beat=53 expected = 35, actual =35
[1465000] SCOREBOARD MATCH: wstrb passthrough beat=54 expected = b9, actual =b9
[1465000] SCOREBOARD MATCH: wstrb passthrough beat=55 expected = c8, actual =c8
[1465000] SCOREBOARD MATCH: wstrb passthrough beat=56 expected = bb, actual =bb
[1465000] SCOREBOARD MATCH: wstrb passthrough beat=57 expected = 58, actual =58
[1465000] SCOREBOARD MATCH: wstrb passthrough beat=58 expected = 9, actual =9
[1465000] SCOREBOARD MATCH: wstrb passthrough beat=59 expected = 56, actual =56
[1465000] SCOREBOARD MATCH: wstrb passthrough beat=60 expected = 8d, actual =8d
[1465000] SCOREBOARD MATCH: wstrb passthrough beat=61 expected = c3, actual =c3
[1465000] SCOREBOARD MATCH: wstrb passthrough beat=62 expected = 1e, actual =1e
[1465000] SCOREBOARD MATCH: wstrb passthrough beat=63 expected = 48, actual =48
[1465000] SCOREBOARD MATCH: wstrb passthrough beat=64 expected = 1b, actual =1b
[1465000] SCOREBOARD MATCH: wstrb passthrough beat=65 expected = 28, actual =28
[1465000] SCOREBOARD MATCH: wstrb passthrough beat=66 expected = 9e, actual =9e
[1465000] SCOREBOARD MATCH: wstrb passthrough beat=67 expected = a8, actual =a8
[1465000] SCOREBOARD MATCH: wstrb passthrough beat=68 expected = eb, actual =eb
[1465000] SCOREBOARD MATCH: wstrb passthrough beat=69 expected = bd, actual =bd
[1465000] SCOREBOARD MATCH: wstrb passthrough beat=70 expected = f0, actual =f0
[1465000] SCOREBOARD MATCH: wstrb passthrough beat=71 expected = 6, actual =6
[1465000] SCOREBOARD MATCH: wstrb passthrough beat=72 expected = e5, actual =e5
[1465000] SCOREBOARD MATCH: wstrb passthrough beat=73 expected = 8f, actual =8f
[1465000] SCOREBOARD MATCH: wstrb passthrough beat=74 expected = ae, actual =ae
[1465000] SCOREBOARD MATCH: wstrb passthrough beat=75 expected = d0, actual =d0
[1465000] SCOREBOARD MATCH: wstrb passthrough beat=76 expected = 4c, actual =4c
[1465000] SCOREBOARD MATCH: wstrb passthrough beat=77 expected = 9e, actual =9e
[1465000] SCOREBOARD MATCH: wstrb passthrough beat=78 expected = d6, actual =d6
[1465000] SCOREBOARD MATCH: wstrb passthrough beat=79 expected = 31, actual =31
[1465000] SCOREBOARD MATCH: wstrb passthrough beat=80 expected = 2d, actual =2d
[1465000] SCOREBOARD MATCH: wstrb passthrough beat=81 expected = 84, actual =84
[1465000] SCOREBOARD MATCH: wstrb passthrough beat=82 expected = 1, actual =1
[1465000] SCOREBOARD MATCH: wstrb passthrough beat=83 expected = 79, actual =79
[1465000] SCOREBOARD MATCH: wstrb passthrough beat=84 expected = 22, actual =22
[1465000] SCOREBOARD MATCH: wstrb passthrough beat=85 expected = d7, actual =d7
[1465000] SCOREBOARD MATCH: wstrb passthrough beat=86 expected = aa, actual =aa
[1465000] SCOREBOARD MATCH: wstrb passthrough beat=87 expected = 50, actual =50
[1465000] SCOREBOARD MATCH: wstrb passthrough beat=88 expected = 5b, actual =5b
[1465000] SCOREBOARD MATCH: wstrb passthrough beat=89 expected = ab, actual =ab
[1465000] SCOREBOARD MATCH: wstrb passthrough beat=90 expected = c9, actual =c9
[1465000] SCOREBOARD MATCH: wstrb passthrough beat=91 expected = 7d, actual =7d
[1465000] SCOREBOARD MATCH: wstrb passthrough beat=92 expected = 82, actual =82
[1465000] SCOREBOARD MATCH: wstrb passthrough beat=93 expected = 74, actual =74
[1465000] SCOREBOARD MATCH: wstrb passthrough beat=94 expected = cd, actual =cd
[1465000] SCOREBOARD MATCH: wstrb passthrough beat=95 expected = dd, actual =dd
[1465000] SCOREBOARD MATCH: wstrb passthrough beat=96 expected = 1f, actual =1f
[1465000] SCOREBOARD MATCH: wstrb passthrough beat=97 expected = 97, actual =97
[1465000] SCOREBOARD MATCH: wstrb passthrough beat=98 expected = 5b, actual =5b
[1465000] SCOREBOARD MATCH: wstrb passthrough beat=99 expected = a2, actual =a2
[1465000] SCOREBOARD MATCH: wstrb passthrough beat=100 expected = b, actual =b
[1465000] SCOREBOARD MATCH: wstrb passthrough beat=101 expected = 28, actual =28
[1465000] SCOREBOARD MATCH: wstrb passthrough beat=102 expected = 7f, actual =7f
[1465000] SCOREBOARD MATCH: wstrb passthrough beat=103 expected = 2a, actual =2a
[1465000] SCOREBOARD MATCH: wstrb passthrough beat=104 expected = bf, actual =bf
[1465000] SCOREBOARD MATCH: wstrb passthrough beat=105 expected = da, actual =da
[1465000] SCOREBOARD MATCH: wstrb passthrough beat=106 expected = cc, actual =cc
[1465000] SCOREBOARD MATCH: wstrb passthrough beat=107 expected = ca, actual =ca
[1465000] SCOREBOARD MATCH: wstrb passthrough beat=108 expected = 3, actual =3
[1465000] SCOREBOARD MATCH: wstrb passthrough beat=109 expected = 4c, actual =4c
[1465000] SCOREBOARD MATCH: wstrb passthrough beat=110 expected = f5, actual =f5
[1465000] SCOREBOARD MATCH: wstrb passthrough beat=111 expected = c2, actual =c2
[1465000] SCOREBOARD MATCH: wstrb passthrough beat=112 expected = 26, actual =26
[1465000] SCOREBOARD MATCH: wstrb passthrough beat=113 expected = c1, actual =c1
[1465000] SCOREBOARD MATCH: wstrb passthrough beat=114 expected = 8d, actual =8d
[1465000] SCOREBOARD MATCH: wstrb passthrough beat=115 expected = 29, actual =29
[1465000] SCOREBOARD MATCH: wstrb passthrough beat=116 expected = d, actual =d
[1465000] SCOREBOARD MATCH: wstrb passthrough beat=117 expected = 82, actual =82
[1465000] SCOREBOARD MATCH: wstrb passthrough beat=118 expected = ec, actual =ec
[1465000] SCOREBOARD MATCH: wstrb passthrough beat=119 expected = 34, actual =34
[1465000] SCOREBOARD MATCH: wstrb passthrough beat=120 expected = 43, actual =43
[1465000] SCOREBOARD MATCH: wstrb passthrough beat=121 expected = 79, actual =79
[1465000] SCOREBOARD MATCH: wstrb passthrough beat=122 expected = 5d, actual =5d
[1465000] SCOREBOARD MATCH: wstrb passthrough beat=123 expected = 51, actual =51
[1465000] SCOREBOARD MATCH: wstrb passthrough beat=124 expected = fb, actual =fb
[1465000] SCOREBOARD MATCH: wstrb passthrough beat=125 expected = 49, actual =49
[1465000] SCOREBOARD MATCH: wstrb passthrough beat=126 expected = 85, actual =85
[1465000] SCOREBOARD MATCH: wstrb passthrough beat=127 expected = 3e, actual =3e
[1465000] SCOREBOARD MATCH: wstrb passthrough beat=128 expected = c2, actual =c2
[1465000] SCOREBOARD MATCH: wstrb passthrough beat=129 expected = e2, actual =e2
[1465000] SCOREBOARD MATCH: wstrb passthrough beat=130 expected = 8f, actual =8f
[1465000] SCOREBOARD MATCH: wstrb passthrough beat=131 expected = bd, actual =bd
[1465000] SCOREBOARD MATCH: wstrb passthrough beat=132 expected = 2c, actual =2c
[1465000] SCOREBOARD MATCH: wstrb passthrough beat=133 expected = 14, actual =14
[1465000] SCOREBOARD MATCH: wstrb passthrough beat=134 expected = fc, actual =fc
[1465000] SCOREBOARD MATCH: wstrb passthrough beat=135 expected = ee, actual =ee
[1465000] SCOREBOARD MATCH: bresp passthrough expected = 0, actual =0
[1465000] SCOREBOARD MATCH: response routed to correct master (write) expected = 0, actual =0
[1465000] [SCOREBOARD-M] mst_id=0 s_id=1 awaddr=1f763f80 awid=0 awlen=135 awsize=4 awburst=1 wdata=[c258d022efe82c97 9260a72bac6d0131 2ad709638190821b f178aeb2d597b347 204b479ed2fd985 eec05ba003d955de d97109252cdbbddc 1a0b9761e0390a53 e4126031db75bd9e 88517b7a88cbf301 e904fd54bd836956 18f926f5a25d12db 2b2905ddcd175d85 a9ac6dca14aa26f c3a7b54b942e0331 e14560b72393edd1 c4de9040eed0bb28 82febe59ebe02793 f7415648886458b f75700b3e4441f10 d02446a3d452a5a4 dcd8eb30fa55bf0d de99de1ddf985c07 33eb01acd42febe3 ce85aaf02ebe24c1 8e5680c810c3ecdc e4f3d8bf2d1f890e dbddadcfc2418274 d3056f50337983b0 e0990cbeea342e97 2c75b10c37f94810 eb72cbc03c76ba8d a6aae924ff7b205c b774686ccc0bd87e 882930bd3209a30 d29bba8da2e7342c eef30caaaf2d7c2f 24e16608a1022f9 2cf75726f7759fb5 26a31be5d4e9d0ed def9f3e69bea63d0 1360038628f13245 fddb03328bf14b0c 27dbaedd3a031f6b e2f451b0dcd4f718 e8c642253b3bb263 f53ed1cee0cf54e2 bda44bfa10a1f102 cbdda365d833237e 39027860a66a8e1f b70c7f21c11c7533 194f98b1f6a6c45a 1d11527a82ea2286 c40697b9d2521111 c8f8d56bd41dd19b d707f422dd56306a afa8417be60a27e5 3a27f9819b0e8bdb f864bc46f8a116e7 deab3ecc112feda3 ac3e797ea80cfdc1 a0ae14a898d3384d aa0325f0a4a335c4 ccb03386ff595375 982c8bc2d6419f6f fae4d533ed5e482e ecb79ba3c22fb1b3 18715122c79508b9 34f350e804e42766 c713d91993562655 daeb2f0fa1aaec8b a68f13f1df852a3b f2db50900fde7ff7 b1896c82eda2ed0a cd281745cdc67f9f dda4ff96d8188074 c5bb6d7ec00367d6 8dc9e7750f2e6c19 e746ec8d12e384c4 d2e6ec9aeb6ee70c fa9d5325ad025a0b bfe5decfe0b0d40f cc1fbb1be1e43fb2 8ee699bd92cccb69 f37d9f79c6bd0e40 a8a14df2cecc788d e19943f6bf9d5a94 65a68d53787e7b0 654603dd516e36f 14b43e04aefbb6c7 e6839e77e7eda433 3d0487a31b0ea6d9 ca0a5da0ecd7feb4 d4c5a2e8d1b8c5a7 ecc76c80308dfc18 9d65facc11ca2a8b e382f032b6d1ca20 e75fc638f22b9db4 83f5c83fd04a5cb2 871c26d204c5c105 f6f15eb9e778b871 b7c31523ee7bed0b f341ae10fae726f9 e25fdf6a3edf3bf6 2d5b2901ea330cc9 e51a33c21a22f48e d9023084209cd711 8acfe3dac77a132d e19d07bb065d5985 26fa3096efea179d 37642aca3a9f383f c0fc91c4b1ca1470 a1b42c0d19013285 d3a06ac4e7f6c25a 99c0d6cad91856d7 f219895c149cfc88 fc93bee23b7502d8 948d59afc5b9f420 da56f0a8965495ac d1c9988406a6e30c cc60d72cd6eaaf8a ed3f4537e656f234 ecfdd54026b7c7d5 fda2775fbf08ddbb a55fcfefb95eac6c e0167441eae1bc96 29ea9a52925da52f cbbc519cddb8eba1 c89aa837cf4a6a41 e1a80f71abd2c5dd 898bb17ef2854289 c1cfaccb2d64610d d93726ead22659b6 c4ab9c3f2377bc3c d0dc1d49e2c2d869 34e9321f867b490a ] wstrb=[33 46 5e 9c 8f 69 bb c3 af 1a 5f 3f 83 1b 2 32 35 61 71 b8 7c 73 ea b1 d5 5c 69 51 cf 54 3 a4 b0 6c f6 7f c0 f9 24 70 65 1a f0 26 13 14 96 78 2e 86 9e 41 9a 35 b9 c8 bb 58 9 56 8d c3 1e 48 1b 28 9e a8 eb bd f0 6 e5 8f ae d0 4c 9e d6 31 2d 84 1 79 22 d7 aa 50 5b ab c9 7d 82 74 cd dd 1f 97 5b a2 b 28 7f 2a bf da cc ca 3 4c f5 c2 26 c1 8d 29 d 82 ec 34 43 79 5d 51 fb 49 85 3e c2 e2 8f bd 2c 14 fc ee ] bresp=0 bid=0
[1465000] [SCOREBOARD-S] mst_id=0 s_id=1 awaddr=1f763f80 awid=0 awlen=135 awsize=4 awburst=1 wdata=[c258d022efe82c97 9260a72bac6d0131 2ad709638190821b f178aeb2d597b347 204b479ed2fd985 eec05ba003d955de d97109252cdbbddc 1a0b9761e0390a53 e4126031db75bd9e 88517b7a88cbf301 e904fd54bd836956 18f926f5a25d12db 2b2905ddcd175d85 a9ac6dca14aa26f c3a7b54b942e0331 e14560b72393edd1 c4de9040eed0bb28 82febe59ebe02793 f7415648886458b f75700b3e4441f10 d02446a3d452a5a4 dcd8eb30fa55bf0d de99de1ddf985c07 33eb01acd42febe3 ce85aaf02ebe24c1 8e5680c810c3ecdc e4f3d8bf2d1f890e dbddadcfc2418274 d3056f50337983b0 e0990cbeea342e97 2c75b10c37f94810 eb72cbc03c76ba8d a6aae924ff7b205c b774686ccc0bd87e 882930bd3209a30 d29bba8da2e7342c eef30caaaf2d7c2f 24e16608a1022f9 2cf75726f7759fb5 26a31be5d4e9d0ed def9f3e69bea63d0 1360038628f13245 fddb03328bf14b0c 27dbaedd3a031f6b e2f451b0dcd4f718 e8c642253b3bb263 f53ed1cee0cf54e2 bda44bfa10a1f102 cbdda365d833237e 39027860a66a8e1f b70c7f21c11c7533 194f98b1f6a6c45a 1d11527a82ea2286 c40697b9d2521111 c8f8d56bd41dd19b d707f422dd56306a afa8417be60a27e5 3a27f9819b0e8bdb f864bc46f8a116e7 deab3ecc112feda3 ac3e797ea80cfdc1 a0ae14a898d3384d aa0325f0a4a335c4 ccb03386ff595375 982c8bc2d6419f6f fae4d533ed5e482e ecb79ba3c22fb1b3 18715122c79508b9 34f350e804e42766 c713d91993562655 daeb2f0fa1aaec8b a68f13f1df852a3b f2db50900fde7ff7 b1896c82eda2ed0a cd281745cdc67f9f dda4ff96d8188074 c5bb6d7ec00367d6 8dc9e7750f2e6c19 e746ec8d12e384c4 d2e6ec9aeb6ee70c fa9d5325ad025a0b bfe5decfe0b0d40f cc1fbb1be1e43fb2 8ee699bd92cccb69 f37d9f79c6bd0e40 a8a14df2cecc788d e19943f6bf9d5a94 65a68d53787e7b0 654603dd516e36f 14b43e04aefbb6c7 e6839e77e7eda433 3d0487a31b0ea6d9 ca0a5da0ecd7feb4 d4c5a2e8d1b8c5a7 ecc76c80308dfc18 9d65facc11ca2a8b e382f032b6d1ca20 e75fc638f22b9db4 83f5c83fd04a5cb2 871c26d204c5c105 f6f15eb9e778b871 b7c31523ee7bed0b f341ae10fae726f9 e25fdf6a3edf3bf6 2d5b2901ea330cc9 e51a33c21a22f48e d9023084209cd711 8acfe3dac77a132d e19d07bb065d5985 26fa3096efea179d 37642aca3a9f383f c0fc91c4b1ca1470 a1b42c0d19013285 d3a06ac4e7f6c25a 99c0d6cad91856d7 f219895c149cfc88 fc93bee23b7502d8 948d59afc5b9f420 da56f0a8965495ac d1c9988406a6e30c cc60d72cd6eaaf8a ed3f4537e656f234 ecfdd54026b7c7d5 fda2775fbf08ddbb a55fcfefb95eac6c e0167441eae1bc96 29ea9a52925da52f cbbc519cddb8eba1 c89aa837cf4a6a41 e1a80f71abd2c5dd 898bb17ef2854289 c1cfaccb2d64610d d93726ead22659b6 c4ab9c3f2377bc3c d0dc1d49e2c2d869 34e9321f867b490a ] wstrb=[33 46 5e 9c 8f 69 bb c3 af 1a 5f 3f 83 1b 2 32 35 61 71 b8 7c 73 ea b1 d5 5c 69 51 cf 54 3 a4 b0 6c f6 7f c0 f9 24 70 65 1a f0 26 13 14 96 78 2e 86 9e 41 9a 35 b9 c8 bb 58 9 56 8d c3 1e 48 1b 28 9e a8 eb bd f0 6 e5 8f ae d0 4c 9e d6 31 2d 84 1 79 22 d7 aa 50 5b ab c9 7d 82 74 cd dd 1f 97 5b a2 b 28 7f 2a bf da cc ca 3 4c f5 c2 26 c1 8d 29 d 82 ec 34 43 79 5d 51 fb 49 85 3e c2 e2 8f bd 2c 14 fc ee ] bresp=0 bid=0
[1465000] SCOREBOARD: Transaction 3 received. pass=311 fail=0
[1465000] ALL PASS. Total transactions: 3
[1475000] S1 MEMORY WRITE beat=0 addr=167b90c0 data=f08ff449a0de7370 id=00
[1475000] MASTER 0 W_VALID_RDY Handshake beat=1 wlast=0
[1485000] MASTER 0 W_VALID_RDY Handshake beat=2 wlast=0
[1485000] S1 MEMORY WRITE beat=1 addr=167b90c8 data=35c29d393aa3fd35 id=00
[1495000] S1 MEMORY WRITE beat=2 addr=167b90d0 data=111cf0ad31766732 id=00
[1495000] MASTER 0 W_VALID_RDY Handshake beat=3 wlast=0
[1505000] MASTER 0 W_VALID_RDY Handshake beat=4 wlast=0
[1505000] S1 MEMORY WRITE beat=3 addr=167b90d8 data=d254daa2f346bd84 id=00
[1515000] S1 MEMORY WRITE beat=4 addr=167b90e0 data=adeabab901ace4f6 id=00
[1515000] MASTER 0 W_VALID_RDY Handshake beat=5 wlast=0
[1525000] MASTER 0 W_VALID_RDY Handshake beat=6 wlast=0
[1525000] S1 MEMORY WRITE beat=5 addr=167b90e8 data=33234c28881777db id=00
[1535000] S1 MEMORY WRITE beat=6 addr=167b90f0 data=fb5e3560bf07ab66 id=00
[1535000] MASTER 0 W_VALID_RDY Handshake beat=7 wlast=0
[1545000] MASTER 0 W_VALID_RDY Handshake beat=8 wlast=0
[1545000] S1 MEMORY WRITE beat=7 addr=167b90f8 data=c0b4905c857826ca id=00
[1555000] S1 MEMORY WRITE beat=8 addr=167b9100 data=0d8f9ea6a948f019 id=00
[1555000] MASTER 0 W_VALID_RDY Handshake beat=9 wlast=0
[1565000] MASTER 0 W_VALID_RDY Handshake beat=10 wlast=0
[1565000] S1 MEMORY WRITE beat=9 addr=167b9108 data=e8509b80f3d7dc84 id=00
[1575000] S1 MEMORY WRITE beat=10 addr=167b9110 data=f950034f08edd406 id=00
[1575000] MASTER 0 W_VALID_RDY Handshake beat=11 wlast=0
[1585000] MASTER 0 W_VALID_RDY Handshake beat=12 wlast=0
[1585000] S1 MEMORY WRITE beat=11 addr=167b9118 data=b236c41fa9052bdc id=00
[1595000] S1 MEMORY WRITE beat=12 addr=167b9120 data=1cdd086106dfa1f5 id=00
[1595000] MASTER 0 W_VALID_RDY Handshake beat=13 wlast=0
[1605000] MASTER 0 W_VALID_RDY Handshake beat=14 wlast=0
[1605000] S1 MEMORY WRITE beat=13 addr=167b9128 data=0fcd75fb9a875f9f id=00
[1615000] S1 MEMORY WRITE beat=14 addr=167b9130 data=c38c8b7c162d0bb0 id=00
[1615000] MASTER 0 W_VALID_RDY Handshake beat=15 wlast=0
[1625000] MASTER 0 W_VALID_RDY Handshake beat=16 wlast=0
[1625000] S1 MEMORY WRITE beat=15 addr=167b9138 data=1d0cada5c2043a1a id=00
[1635000] S1 MEMORY WRITE beat=16 addr=167b9140 data=dc8b99bae06993dd id=00
[1635000] MASTER 0 W_VALID_RDY Handshake beat=17 wlast=0
[1645000] MASTER 0 W_VALID_RDY Handshake beat=18 wlast=0
[1645000] S1 MEMORY WRITE beat=17 addr=167b9148 data=f6969f8d2cda23a0 id=00
[1655000] S1 MEMORY WRITE beat=18 addr=167b9150 data=eede5dba20182536 id=00
[1655000] MASTER 0 W_VALID_RDY Handshake beat=19 wlast=0
[1665000] MASTER 0 W_VALID_RDY Handshake beat=20 wlast=0
[1665000] S1 MEMORY WRITE beat=19 addr=167b9158 data=0081b91313a34d32 id=00
[1675000] S1 MEMORY WRITE beat=20 addr=167b9160 data=c07d70d2cb69f774 id=00
[1675000] MASTER 0 W_VALID_RDY Handshake beat=21 wlast=0
[1685000] MASTER 0 W_VALID_RDY Handshake beat=22 wlast=0
[1685000] S1 MEMORY WRITE beat=21 addr=167b9168 data=eb821caaf71858a0 id=00
[1695000] S1 MEMORY WRITE beat=22 addr=167b9170 data=0abba5d2af5bce8c id=00
[1695000] MASTER 0 W_VALID_RDY Handshake beat=23 wlast=0
[1705000] MASTER 0 W_VALID_RDY Handshake beat=24 wlast=0
[1705000] S1 MEMORY WRITE beat=23 addr=167b9178 data=fac5c601ec03d5bd id=00
[1715000] S1 MEMORY WRITE beat=24 addr=167b9180 data=e31c2e5dcb3916a4 id=00
[1715000] MASTER 0 W_VALID_RDY Handshake beat=25 wlast=0
[1725000] MASTER 0 W_VALID_RDY Handshake beat=26 wlast=0
[1725000] S1 MEMORY WRITE beat=25 addr=167b9188 data=fa94e530e647e2ab id=00
[1735000] S1 MEMORY WRITE beat=26 addr=167b9190 data=d24bb869edd7d42f id=00
[1735000] MASTER 0 W_VALID_RDY Handshake beat=27 wlast=0
[1745000] MASTER 0 W_VALID_RDY Handshake beat=28 wlast=0
[1745000] S1 MEMORY WRITE beat=27 addr=167b9198 data=b910ead3f55aab31 id=00
[1755000] S1 MEMORY WRITE beat=28 addr=167b91a0 data=dba28dddb567e6c6 id=00
[1755000] MASTER 0 W_VALID_RDY Handshake beat=29 wlast=0
[1765000] MASTER 0 W_VALID_RDY Handshake beat=30 wlast=0
[1765000] S1 MEMORY WRITE beat=29 addr=167b91a8 data=233fbaf633a5d004 id=00
[1775000] S1 MEMORY WRITE beat=30 addr=167b91b0 data=a9007b352dee4646 id=00
[1775000] MASTER 0 W_VALID_RDY Handshake beat=31 wlast=0
[1785000] MASTER 0 W_VALID_RDY Handshake beat=32 wlast=0
[1785000] S1 MEMORY WRITE beat=31 addr=167b91b8 data=e3562d0cdc50a5c9 id=00
[1795000] S1 MEMORY WRITE beat=32 addr=167b91c0 data=8ff675cd84a30912 id=00
[1795000] MASTER 0 W_VALID_RDY Handshake beat=33 wlast=0
[1805000] MASTER 0 W_VALID_RDY Handshake beat=34 wlast=0
[1805000] S1 MEMORY WRITE beat=33 addr=167b91c8 data=b2914f588695e802 id=00
[1815000] S1 MEMORY WRITE beat=34 addr=167b91d0 data=e2e68dcc38f6f103 id=00
[1815000] MASTER 0 W_VALID_RDY Handshake beat=35 wlast=0
[1825000] MASTER 0 W_VALID_RDY Handshake beat=36 wlast=0
[1825000] S1 MEMORY WRITE beat=35 addr=167b91d8 data=bd99fa1515e77c65 id=00
[1835000] S1 MEMORY WRITE beat=36 addr=167b91e0 data=9c7d6467f2dd0399 id=00
[1835000] MASTER 0 W_VALID_RDY Handshake beat=37 wlast=0
[1845000] MASTER 0 W_VALID_RDY Handshake beat=38 wlast=0
[1845000] S1 MEMORY WRITE beat=37 addr=167b91e8 data=abd3f49cf02b496e id=00
[1855000] S1 MEMORY WRITE beat=38 addr=167b91f0 data=0612c5d3ff63f233 id=00
[1855000] MASTER 0 W_VALID_RDY Handshake beat=39 wlast=0
[1865000] MASTER 0 W_VALID_RDY Handshake beat=40 wlast=0
[1865000] S1 MEMORY WRITE beat=39 addr=167b91f8 data=f240f5cde96deeb2 id=00
[1875000] S1 MEMORY WRITE beat=40 addr=167b9200 data=d9993820a2902a3a id=00
[1875000] MASTER 0 W_VALID_RDY Handshake beat=41 wlast=0
[1885000] MASTER 0 W_VALID_RDY Handshake beat=42 wlast=0
[1885000] S1 MEMORY WRITE beat=41 addr=167b9208 data=21f41c6e9e14ea69 id=00
[1895000] S1 MEMORY WRITE beat=42 addr=167b9210 data=8782d91bdfabfdf3 id=00
[1895000] MASTER 0 W_VALID_RDY Handshake beat=43 wlast=0
[1905000] MASTER 0 W_VALID_RDY Handshake beat=44 wlast=0
[1905000] S1 MEMORY WRITE beat=43 addr=167b9218 data=823c282d1435123b id=00
[1915000] S1 MEMORY WRITE beat=44 addr=167b9220 data=b249fca4e11c113b id=00
[1915000] MASTER 0 W_VALID_RDY Handshake beat=45 wlast=0
[1925000] MASTER 0 W_VALID_RDY Handshake beat=46 wlast=0
[1925000] S1 MEMORY WRITE beat=45 addr=167b9228 data=c0c80f2ea430449b id=00
[1935000] S1 MEMORY WRITE beat=46 addr=167b9230 data=b86556d639ccd5c0 id=00
[1935000] MASTER 0 W_VALID_RDY Handshake beat=47 wlast=0
[1945000] MASTER 0 W_VALID_RDY Handshake beat=48 wlast=0
[1945000] S1 MEMORY WRITE beat=47 addr=167b9238 data=9ae8e6fbc304375c id=00
[1955000] S1 MEMORY WRITE beat=48 addr=167b9240 data=e7347bf7eaaf537b id=00
[1955000] MASTER 0 W_VALID_RDY Handshake beat=49 wlast=0
[1965000] MASTER 0 W_VALID_RDY Handshake beat=50 wlast=0
[1965000] S1 MEMORY WRITE beat=49 addr=167b9248 data=247c293bdbb0f62a id=00
[1975000] S1 MEMORY WRITE beat=50 addr=167b9250 data=1eb52d861f99d2ce id=00
[1975000] MASTER 0 W_VALID_RDY Handshake beat=51 wlast=0
[1985000] MASTER 0 W_VALID_RDY Handshake beat=52 wlast=0
[1985000] S1 MEMORY WRITE beat=51 addr=167b9258 data=0a492649bf651036 id=00
[1995000] S1 MEMORY WRITE beat=52 addr=167b9260 data=9b16066085e9a97d id=00
[1995000] MASTER 0 W_VALID_RDY Handshake beat=53 wlast=0
[2005000] MASTER 0 W_VALID_RDY Handshake beat=54 wlast=0
[2005000] S1 MEMORY WRITE beat=53 addr=167b9268 data=a5837c4b2ec54f84 id=00
[2015000] S1 MEMORY WRITE beat=54 addr=167b9270 data=ee2a5fbab9cb33e6 id=00
[2015000] MASTER 0 W_VALID_RDY Handshake beat=55 wlast=0
[2025000] MASTER 0 W_VALID_RDY Handshake beat=56 wlast=0
[2025000] S1 MEMORY WRITE beat=55 addr=167b9278 data=3fb4dd64afcca294 id=00
[2035000] S1 MEMORY WRITE beat=56 addr=167b9280 data=de91f2180940661b id=00
[2035000] MASTER 0 W_VALID_RDY Handshake beat=57 wlast=0
[2045000] MASTER 0 W_VALID_RDY Handshake beat=58 wlast=0
[2045000] S1 MEMORY WRITE beat=57 addr=167b9288 data=c30b9a01e53859af id=00
[2055000] S1 MEMORY WRITE beat=58 addr=167b9290 data=1504fc44ccbc51d3 id=00
[2055000] MASTER 0 W_VALID_RDY Handshake beat=59 wlast=0
[2065000] MASTER 0 W_VALID_RDY Handshake beat=60 wlast=0
[2065000] S1 MEMORY WRITE beat=59 addr=167b9298 data=d5fcb7ee82c07765 id=00
[2075000] S1 MEMORY WRITE beat=60 addr=167b92a0 data=e7f8d115f396ee5c id=00
[2075000] MASTER 0 W_VALID_RDY Handshake beat=61 wlast=0
[2085000] MASTER 0 W_VALID_RDY Handshake beat=62 wlast=0
[2085000] S1 MEMORY WRITE beat=61 addr=167b92a8 data=c053402f990851ef id=00
[2095000] S1 MEMORY WRITE beat=62 addr=167b92b0 data=1bc8c955fcfdcd59 id=00
[2095000] MASTER 0 W_VALID_RDY Handshake beat=63 wlast=0
[2105000] MASTER 0 W_VALID_RDY Handshake beat=64 wlast=0
[2105000] S1 MEMORY WRITE beat=63 addr=167b92b8 data=f094bbb5964ff81d id=00
[2115000] S1 MEMORY WRITE beat=64 addr=167b92c0 data=2f584a0d03c19a6a id=00
[2115000] MASTER 0 W_VALID_RDY Handshake beat=65 wlast=0
[2125000] MASTER 0 W_VALID_RDY Handshake beat=66 wlast=0
[2125000] S1 MEMORY WRITE beat=65 addr=167b92c8 data=00bf67c330e7fbe5 id=00
[2135000] S1 MEMORY WRITE beat=66 addr=167b92d0 data=c737f402cb211362 id=00
[2135000] MASTER 0 W_VALID_RDY Handshake beat=67 wlast=0
[2145000] MASTER 0 W_VALID_RDY Handshake beat=68 wlast=0
[2145000] S1 MEMORY WRITE beat=67 addr=167b92d8 data=cee2adccf1542378 id=00
[2155000] S1 MEMORY WRITE beat=68 addr=167b92e0 data=a23c1f5df6903e0f id=00
[2155000] MASTER 0 W_VALID_RDY Handshake beat=69 wlast=0
[2165000] MASTER 0 W_VALID_RDY Handshake beat=70 wlast=0
[2165000] S1 MEMORY WRITE beat=69 addr=167b92e8 data=c1b15171cfa2158f id=00
[2175000] S1 MEMORY WRITE beat=70 addr=167b92f0 data=c0f63907e9741360 id=00
[2175000] MASTER 0 W_VALID_RDY Handshake beat=71 wlast=0
[2185000] MASTER 0 W_VALID_RDY Handshake beat=72 wlast=0
[2185000] S1 MEMORY WRITE beat=71 addr=167b92f8 data=e004516f9093ff3d id=00
[2195000] S1 MEMORY WRITE beat=72 addr=167b9300 data=e03614cce3325865 id=00
[2195000] MASTER 0 W_VALID_RDY Handshake beat=73 wlast=0
[2205000] MASTER 0 W_VALID_RDY Handshake beat=74 wlast=0
[2205000] S1 MEMORY WRITE beat=73 addr=167b9308 data=cca66bc521b5a2e1 id=00
[2215000] S1 MEMORY WRITE beat=74 addr=167b9310 data=b249a21e212c4dd4 id=00
[2215000] MASTER 0 W_VALID_RDY Handshake beat=75 wlast=0
[2225000] MASTER 0 W_VALID_RDY Handshake beat=76 wlast=0
[2225000] S1 MEMORY WRITE beat=75 addr=167b9318 data=045ea639acaabd34 id=00
[2235000] S1 MEMORY WRITE beat=76 addr=167b9320 data=ce606015127fb6eb id=00
[2235000] MASTER 0 W_VALID_RDY Handshake beat=77 wlast=0
[2245000] MASTER 0 W_VALID_RDY Handshake beat=78 wlast=0
[2245000] S1 MEMORY WRITE beat=77 addr=167b9328 data=33ac04bfd10511fe id=00
[2255000] S1 MEMORY WRITE beat=78 addr=167b9330 data=fdafcf3200aa0234 id=00
[2255000] MASTER 0 W_VALID_RDY Handshake beat=79 wlast=0
[2265000] MASTER 0 W_VALID_RDY Handshake beat=80 wlast=0
[2265000] S1 MEMORY WRITE beat=79 addr=167b9338 data=1329b91f380aaaf8 id=00
[2275000] S1 MEMORY WRITE beat=80 addr=167b9340 data=090fbcf6cc102f48 id=00
[2275000] MASTER 0 W_VALID_RDY Handshake beat=81 wlast=0
[2285000] MASTER 0 W_VALID_RDY Handshake beat=82 wlast=0
[2285000] S1 MEMORY WRITE beat=81 addr=167b9348 data=ccba317cc6d5bdde id=00
[2295000] S1 MEMORY WRITE beat=82 addr=167b9350 data=fee068d686bf8c28 id=00
[2295000] MASTER 0 W_VALID_RDY Handshake beat=83 wlast=0
[2305000] MASTER 0 W_VALID_RDY Handshake beat=84 wlast=0
[2305000] S1 MEMORY WRITE beat=83 addr=167b9358 data=d2cfbb70dfe3ea9b id=00
[2315000] S1 MEMORY WRITE beat=84 addr=167b9360 data=26b9a87907f025cc id=00
[2315000] MASTER 0 W_VALID_RDY Handshake beat=85 wlast=0
[2325000] MASTER 0 W_VALID_RDY Handshake beat=86 wlast=0
[2325000] S1 MEMORY WRITE beat=85 addr=167b9368 data=8eafb1f49f89ecec id=00
[2335000] S1 MEMORY WRITE beat=86 addr=167b9370 data=ff6dd787259a114f id=00
[2335000] MASTER 0 W_VALID_RDY Handshake beat=87 wlast=0
[2345000] MASTER 0 W_VALID_RDY Handshake beat=88 wlast=0
[2345000] S1 MEMORY WRITE beat=87 addr=167b9378 data=2d8a371be17f6d65 id=00
[2355000] S1 MEMORY WRITE beat=88 addr=167b9380 data=81095a51a6278000 id=00
[2355000] MASTER 0 W_VALID_RDY Handshake beat=89 wlast=0
[2365000] MASTER 0 W_VALID_RDY Handshake beat=90 wlast=0
[2365000] S1 MEMORY WRITE beat=89 addr=167b9388 data=cbc1914fbc39e90f id=00
[2375000] S1 MEMORY WRITE beat=90 addr=167b9390 data=9db95674007731d9 id=00
[2375000] MASTER 0 W_VALID_RDY Handshake beat=91 wlast=0
[2385000] MASTER 0 W_VALID_RDY Handshake beat=92 wlast=0
[2385000] S1 MEMORY WRITE beat=91 addr=167b9398 data=a69eb1d9f94bc86a id=00
[2395000] S1 MEMORY WRITE beat=92 addr=167b93a0 data=3585b17a1ec2b0c6 id=00
[2395000] MASTER 0 W_VALID_RDY Handshake beat=93 wlast=0
[2405000] MASTER 0 W_VALID_RDY Handshake beat=94 wlast=0
[2405000] S1 MEMORY WRITE beat=93 addr=167b93a8 data=1f39e29ff2604329 id=00
[2415000] S1 MEMORY WRITE beat=94 addr=167b93b0 data=ebac0b93d33f07ee id=00
[2415000] MASTER 0 W_VALID_RDY Handshake beat=95 wlast=0
[2425000] MASTER 0 W_VALID_RDY Handshake beat=96 wlast=0
[2425000] S1 MEMORY WRITE beat=95 addr=167b93b8 data=f201b8b4c5d89478 id=00
[2435000] S1 MEMORY WRITE beat=96 addr=167b93c0 data=b838d7a1a131bd0d id=00
[2435000] MASTER 0 W_VALID_RDY Handshake beat=97 wlast=0
[2445000] MASTER 0 W_VALID_RDY Handshake beat=98 wlast=0
[2445000] S1 MEMORY WRITE beat=97 addr=167b93c8 data=f470c4fc913b9b53 id=00
[2455000] S1 MEMORY WRITE beat=98 addr=167b93d0 data=d7142fcc23e4e335 id=00
[2455000] MASTER 0 W_VALID_RDY Handshake beat=99 wlast=0
[2465000] MASTER 0 W_VALID_RDY Handshake beat=100 wlast=0
[2465000] S1 MEMORY WRITE beat=99 addr=167b93d8 data=c516a042e6727db0 id=00
[2475000] S1 MEMORY WRITE beat=100 addr=167b93e0 data=f7ae19048f4d076d id=00
[2475000] MASTER 0 W_VALID_RDY Handshake beat=101 wlast=0
[2485000] MASTER 0 W_VALID_RDY Handshake beat=102 wlast=0
[2485000] S1 MEMORY WRITE beat=101 addr=167b93e8 data=b331eaa2b987653e id=00
[2495000] S1 MEMORY WRITE beat=102 addr=167b93f0 data=1ff9e2efcec248d0 id=00
[2495000] MASTER 0 W_VALID_RDY Handshake beat=103 wlast=0
[2505000] MASTER 0 W_VALID_RDY Handshake beat=104 wlast=0
[2505000] S1 MEMORY WRITE beat=103 addr=167b93f8 data=de0f503df8488ae5 id=00
[2515000] S1 MEMORY WRITE beat=104 addr=167b9400 data=b1cff02317a7fbf3 id=00
[2515000] MASTER 0 W_VALID_RDY Handshake beat=105 wlast=0
[2525000] MASTER 0 W_VALID_RDY Handshake beat=106 wlast=0
[2525000] S1 MEMORY WRITE beat=105 addr=167b9408 data=e66a44c311413ae0 id=00
[2535000] S1 MEMORY WRITE beat=106 addr=167b9410 data=0989c5c5d1c9d312 id=00
[2535000] MASTER 0 W_VALID_RDY Handshake beat=107 wlast=0
[2545000] MASTER 0 W_VALID_RDY Handshake beat=108 wlast=0
[2545000] S1 MEMORY WRITE beat=107 addr=167b9418 data=e971cf05c4799500 id=00
[2555000] S1 MEMORY WRITE beat=108 addr=167b9420 data=d5bacfe0bb59b5e8 id=00
[2555000] MASTER 0 W_VALID_RDY Handshake beat=109 wlast=0
[2565000] MASTER 0 W_VALID_RDY Handshake beat=110 wlast=0
[2565000] S1 MEMORY WRITE beat=109 addr=167b9428 data=0d2388fbcfdc13c8 id=00
[2575000] S1 MEMORY WRITE beat=110 addr=167b9430 data=1455a8c9df4495a5 id=00
[2575000] MASTER 0 W_VALID_RDY Handshake beat=111 wlast=0
[2585000] MASTER 0 W_VALID_RDY Handshake beat=112 wlast=0
[2585000] S1 MEMORY WRITE beat=111 addr=167b9438 data=1a9e4b8ef6955800 id=00
[2595000] S1 MEMORY WRITE beat=112 addr=167b9440 data=c6716bc9ea1078a9 id=00
[2595000] MASTER 0 W_VALID_RDY Handshake beat=113 wlast=0
[2605000] MASTER 0 W_VALID_RDY Handshake beat=114 wlast=0
[2605000] S1 MEMORY WRITE beat=113 addr=167b9448 data=c9550e4f27c1d489 id=00
[2615000] S1 MEMORY WRITE beat=114 addr=167b9450 data=9e572c89dac71492 id=00
[2615000] MASTER 0 W_VALID_RDY Handshake beat=115 wlast=0
[2625000] MASTER 0 W_VALID_RDY Handshake beat=116 wlast=0
[2625000] S1 MEMORY WRITE beat=115 addr=167b9458 data=c4d78d3be3f359dd id=00
[2635000] S1 MEMORY WRITE beat=116 addr=167b9460 data=0bb52e66e4c89852 id=00
[2635000] MASTER 0 W_VALID_RDY Handshake beat=117 wlast=0
[2645000] MASTER 0 W_VALID_RDY Handshake beat=118 wlast=0
[2645000] S1 MEMORY WRITE beat=117 addr=167b9468 data=bf8face48e2c9b8a id=00
[2655000] S1 MEMORY WRITE beat=118 addr=167b9470 data=f21ff567aa0c5aef id=00
[2655000] MASTER 0 W_VALID_RDY Handshake beat=119 wlast=0
[2665000] MASTER_DRIVER0 received transaction, op=AXI_READ
[2665000] MASTER 0 W_VALID_RDY Handshake beat=120 wlast=1
[2665000] S1 MEMORY WRITE beat=119 addr=167b9478 data=0ed4f34204673a20 id=00
[2675000] S1 MEMORY WRITE beat=120 addr=167b9480 data=9293d5aafdd523cd id=00
[2685000] SLAVE1 sent B resp, id=0
[2695000] AXI S0_ARVALID_RDY HANDSHAKE
[2695000] MEMORY READ MISS beat=0 addr=1958978 -> default data id=3
[2695000] [SLAVE MONITOR] mst_id=0 s_id=1 awaddr=167b90c0 awid=0 awlen=120 awsize=3 awburst=1 wdata=[f08ff449a0de7370 35c29d393aa3fd35 111cf0ad31766732 d254daa2f346bd84 adeabab901ace4f6 33234c28881777db fb5e3560bf07ab66 c0b4905c857826ca d8f9ea6a948f019 e8509b80f3d7dc84 f950034f08edd406 b236c41fa9052bdc 1cdd086106dfa1f5 fcd75fb9a875f9f c38c8b7c162d0bb0 1d0cada5c2043a1a dc8b99bae06993dd f6969f8d2cda23a0 eede5dba20182536 81b91313a34d32 c07d70d2cb69f774 eb821caaf71858a0 abba5d2af5bce8c fac5c601ec03d5bd e31c2e5dcb3916a4 fa94e530e647e2ab d24bb869edd7d42f b910ead3f55aab31 dba28dddb567e6c6 233fbaf633a5d004 a9007b352dee4646 e3562d0cdc50a5c9 8ff675cd84a30912 b2914f588695e802 e2e68dcc38f6f103 bd99fa1515e77c65 9c7d6467f2dd0399 abd3f49cf02b496e 612c5d3ff63f233 f240f5cde96deeb2 d9993820a2902a3a 21f41c6e9e14ea69 8782d91bdfabfdf3 823c282d1435123b b249fca4e11c113b c0c80f2ea430449b b86556d639ccd5c0 9ae8e6fbc304375c e7347bf7eaaf537b 247c293bdbb0f62a 1eb52d861f99d2ce a492649bf651036 9b16066085e9a97d a5837c4b2ec54f84 ee2a5fbab9cb33e6 3fb4dd64afcca294 de91f2180940661b c30b9a01e53859af 1504fc44ccbc51d3 d5fcb7ee82c07765 e7f8d115f396ee5c c053402f990851ef 1bc8c955fcfdcd59 f094bbb5964ff81d 2f584a0d03c19a6a bf67c330e7fbe5 c737f402cb211362 cee2adccf1542378 a23c1f5df6903e0f c1b15171cfa2158f c0f63907e9741360 e004516f9093ff3d e03614cce3325865 cca66bc521b5a2e1 b249a21e212c4dd4 45ea639acaabd34 ce606015127fb6eb 33ac04bfd10511fe fdafcf3200aa0234 1329b91f380aaaf8 90fbcf6cc102f48 ccba317cc6d5bdde fee068d686bf8c28 d2cfbb70dfe3ea9b 26b9a87907f025cc 8eafb1f49f89ecec ff6dd787259a114f 2d8a371be17f6d65 81095a51a6278000 cbc1914fbc39e90f 9db95674007731d9 a69eb1d9f94bc86a 3585b17a1ec2b0c6 1f39e29ff2604329 ebac0b93d33f07ee f201b8b4c5d89478 b838d7a1a131bd0d f470c4fc913b9b53 d7142fcc23e4e335 c516a042e6727db0 f7ae19048f4d076d b331eaa2b987653e 1ff9e2efcec248d0 de0f503df8488ae5 b1cff02317a7fbf3 e66a44c311413ae0 989c5c5d1c9d312 e971cf05c4799500 d5bacfe0bb59b5e8 d2388fbcfdc13c8 1455a8c9df4495a5 1a9e4b8ef6955800 c6716bc9ea1078a9 c9550e4f27c1d489 9e572c89dac71492 c4d78d3be3f359dd bb52e66e4c89852 bf8face48e2c9b8a f21ff567aa0c5aef ed4f34204673a20 9293d5aafdd523cd ] wstrb=[26 bd 12 46 ff df f1 25 9c 3 6c 9b e2 5d c1 7f 60 2d 1a 42 8a db c1 ea 8 dc 2c 92 b7 ee 7c c0 ca a9 52 81 97 cf 41 61 78 94 e2 f 63 24 70 db b8 52 ea 1b 76 5a f6 2e ac e0 49 23 3a 3f 51 e6 1f 9b 9 59 da 5b 40 fa f6 49 53 d0 a4 93 ca 9a dd 1e 6b 81 b1 35 1c 8e 53 87 10 5 bc 2c 93 10 b3 a3 15 6f cf a8 7f 82 4c 94 f2 1b 3d 71 9e 89 6 90 a4 43 1 42 cc 7 d2 ] bresp=0 bid=0
[2695000] ARB MONITOR: slave=0 m0_req=1 m1_req=0 winner=0
[2705000] MASTER 0 RECEIVED BRESP. BRESP=0
[2705000] [MASTER DRIVER] mst_id=0 s_id=0 awaddr=167b90c0 awid=0 awlen=120 awsize=3 awburst=1 wdata=[f08ff449a0de7370 35c29d393aa3fd35 111cf0ad31766732 d254daa2f346bd84 adeabab901ace4f6 33234c28881777db fb5e3560bf07ab66 c0b4905c857826ca d8f9ea6a948f019 e8509b80f3d7dc84 f950034f08edd406 b236c41fa9052bdc 1cdd086106dfa1f5 fcd75fb9a875f9f c38c8b7c162d0bb0 1d0cada5c2043a1a dc8b99bae06993dd f6969f8d2cda23a0 eede5dba20182536 81b91313a34d32 c07d70d2cb69f774 eb821caaf71858a0 abba5d2af5bce8c fac5c601ec03d5bd e31c2e5dcb3916a4 fa94e530e647e2ab d24bb869edd7d42f b910ead3f55aab31 dba28dddb567e6c6 233fbaf633a5d004 a9007b352dee4646 e3562d0cdc50a5c9 8ff675cd84a30912 b2914f588695e802 e2e68dcc38f6f103 bd99fa1515e77c65 9c7d6467f2dd0399 abd3f49cf02b496e 612c5d3ff63f233 f240f5cde96deeb2 d9993820a2902a3a 21f41c6e9e14ea69 8782d91bdfabfdf3 823c282d1435123b b249fca4e11c113b c0c80f2ea430449b b86556d639ccd5c0 9ae8e6fbc304375c e7347bf7eaaf537b 247c293bdbb0f62a 1eb52d861f99d2ce a492649bf651036 9b16066085e9a97d a5837c4b2ec54f84 ee2a5fbab9cb33e6 3fb4dd64afcca294 de91f2180940661b c30b9a01e53859af 1504fc44ccbc51d3 d5fcb7ee82c07765 e7f8d115f396ee5c c053402f990851ef 1bc8c955fcfdcd59 f094bbb5964ff81d 2f584a0d03c19a6a bf67c330e7fbe5 c737f402cb211362 cee2adccf1542378 a23c1f5df6903e0f c1b15171cfa2158f c0f63907e9741360 e004516f9093ff3d e03614cce3325865 cca66bc521b5a2e1 b249a21e212c4dd4 45ea639acaabd34 ce606015127fb6eb 33ac04bfd10511fe fdafcf3200aa0234 1329b91f380aaaf8 90fbcf6cc102f48 ccba317cc6d5bdde fee068d686bf8c28 d2cfbb70dfe3ea9b 26b9a87907f025cc 8eafb1f49f89ecec ff6dd787259a114f 2d8a371be17f6d65 81095a51a6278000 cbc1914fbc39e90f 9db95674007731d9 a69eb1d9f94bc86a 3585b17a1ec2b0c6 1f39e29ff2604329 ebac0b93d33f07ee f201b8b4c5d89478 b838d7a1a131bd0d f470c4fc913b9b53 d7142fcc23e4e335 c516a042e6727db0 f7ae19048f4d076d b331eaa2b987653e 1ff9e2efcec248d0 de0f503df8488ae5 b1cff02317a7fbf3 e66a44c311413ae0 989c5c5d1c9d312 e971cf05c4799500 d5bacfe0bb59b5e8 d2388fbcfdc13c8 1455a8c9df4495a5 1a9e4b8ef6955800 c6716bc9ea1078a9 c9550e4f27c1d489 9e572c89dac71492 c4d78d3be3f359dd bb52e66e4c89852 bf8face48e2c9b8a f21ff567aa0c5aef ed4f34204673a20 9293d5aafdd523cd ] wstrb=[26 bd 12 46 ff df f1 25 9c 3 6c 9b e2 5d c1 7f 60 2d 1a 42 8a db c1 ea 8 dc 2c 92 b7 ee 7c c0 ca a9 52 81 97 cf 41 61 78 94 e2 f 63 24 70 db b8 52 ea 1b 76 5a f6 2e ac e0 49 23 3a 3f 51 e6 1f 9b 9 59 da 5b 40 fa f6 49 53 d0 a4 93 ca 9a dd 1e 6b 81 b1 35 1c 8e 53 87 10 5 bc 2c 93 10 b3 a3 15 6f cf a8 7f 82 4c 94 f2 1b 3d 71 9e 89 6 90 a4 43 1 42 cc 7 d2 ] bresp=0 bid=0
[2705000] MASTER 0 B_VALID_RDY Handshake
[2705000] [MASTER MONITOR] mst_id=0 s_id=1 awaddr=167b90c0 awid=0 awlen=120 awsize=3 awburst=1 wdata=[f08ff449a0de7370 35c29d393aa3fd35 111cf0ad31766732 d254daa2f346bd84 adeabab901ace4f6 33234c28881777db fb5e3560bf07ab66 c0b4905c857826ca d8f9ea6a948f019 e8509b80f3d7dc84 f950034f08edd406 b236c41fa9052bdc 1cdd086106dfa1f5 fcd75fb9a875f9f c38c8b7c162d0bb0 1d0cada5c2043a1a dc8b99bae06993dd f6969f8d2cda23a0 eede5dba20182536 81b91313a34d32 c07d70d2cb69f774 eb821caaf71858a0 abba5d2af5bce8c fac5c601ec03d5bd e31c2e5dcb3916a4 fa94e530e647e2ab d24bb869edd7d42f b910ead3f55aab31 dba28dddb567e6c6 233fbaf633a5d004 a9007b352dee4646 e3562d0cdc50a5c9 8ff675cd84a30912 b2914f588695e802 e2e68dcc38f6f103 bd99fa1515e77c65 9c7d6467f2dd0399 abd3f49cf02b496e 612c5d3ff63f233 f240f5cde96deeb2 d9993820a2902a3a 21f41c6e9e14ea69 8782d91bdfabfdf3 823c282d1435123b b249fca4e11c113b c0c80f2ea430449b b86556d639ccd5c0 9ae8e6fbc304375c e7347bf7eaaf537b 247c293bdbb0f62a 1eb52d861f99d2ce a492649bf651036 9b16066085e9a97d a5837c4b2ec54f84 ee2a5fbab9cb33e6 3fb4dd64afcca294 de91f2180940661b c30b9a01e53859af 1504fc44ccbc51d3 d5fcb7ee82c07765 e7f8d115f396ee5c c053402f990851ef 1bc8c955fcfdcd59 f094bbb5964ff81d 2f584a0d03c19a6a bf67c330e7fbe5 c737f402cb211362 cee2adccf1542378 a23c1f5df6903e0f c1b15171cfa2158f c0f63907e9741360 e004516f9093ff3d e03614cce3325865 cca66bc521b5a2e1 b249a21e212c4dd4 45ea639acaabd34 ce606015127fb6eb 33ac04bfd10511fe fdafcf3200aa0234 1329b91f380aaaf8 90fbcf6cc102f48 ccba317cc6d5bdde fee068d686bf8c28 d2cfbb70dfe3ea9b 26b9a87907f025cc 8eafb1f49f89ecec ff6dd787259a114f 2d8a371be17f6d65 81095a51a6278000 cbc1914fbc39e90f 9db95674007731d9 a69eb1d9f94bc86a 3585b17a1ec2b0c6 1f39e29ff2604329 ebac0b93d33f07ee f201b8b4c5d89478 b838d7a1a131bd0d f470c4fc913b9b53 d7142fcc23e4e335 c516a042e6727db0 f7ae19048f4d076d b331eaa2b987653e 1ff9e2efcec248d0 de0f503df8488ae5 b1cff02317a7fbf3 e66a44c311413ae0 989c5c5d1c9d312 e971cf05c4799500 d5bacfe0bb59b5e8 d2388fbcfdc13c8 1455a8c9df4495a5 1a9e4b8ef6955800 c6716bc9ea1078a9 c9550e4f27c1d489 9e572c89dac71492 c4d78d3be3f359dd bb52e66e4c89852 bf8face48e2c9b8a f21ff567aa0c5aef ed4f34204673a20 9293d5aafdd523cd ] wstrb=[26 bd 12 46 ff df f1 25 9c 3 6c 9b e2 5d c1 7f 60 2d 1a 42 8a db c1 ea 8 dc 2c 92 b7 ee 7c c0 ca a9 52 81 97 cf 41 61 78 94 e2 f 63 24 70 db b8 52 ea 1b 76 5a f6 2e ac e0 49 23 3a 3f 51 e6 1f 9b 9 59 da 5b 40 fa f6 49 53 d0 a4 93 ca 9a dd 1e 6b 81 b1 35 1c 8e 53 87 10 5 bc 2c 93 10 b3 a3 15 6f cf a8 7f 82 4c 94 f2 1b 3d 71 9e 89 6 90 a4 43 1 42 cc 7 d2 ] bresp=0 bid=0
[2705000] SLAVE 0 R_VALID_RDY Handshake beat=0 rlast=0
[2705000] MEMORY READ MISS beat=1 addr=1958980 -> default data id=3
[2705000] SCOREBOARD MATCH: decode_err expected = 0, actual =0
[2705000] SCOREBOARD MATCH: slave_id expected = 1, actual =1
[2705000] SCOREBOARD MATCH: awaddr passthrough expected = 167b90c0, actual =167b90c0
[2705000] SCOREBOARD MATCH: awlen passthrough expected = 120, actual =120
[2705000] SCOREBOARD MATCH: awsize passthrough expected = 3, actual =3
[2705000] SCOREBOARD MATCH: awburst passthrough expected = 1, actual =1
[2705000] SCOREBOARD MATCH: wdata size check expected = 79, actual =79
[2705000] SCOREBOARD MATCH: wdata passthrough beat=0 expected = f08ff449a0de7370, actual =f08ff449a0de7370
[2705000] SCOREBOARD MATCH: wdata passthrough beat=1 expected = 35c29d393aa3fd35, actual =35c29d393aa3fd35
[2705000] SCOREBOARD MATCH: wdata passthrough beat=2 expected = 111cf0ad31766732, actual =111cf0ad31766732
[2705000] SCOREBOARD MATCH: wdata passthrough beat=3 expected = d254daa2f346bd84, actual =d254daa2f346bd84
[2705000] SCOREBOARD MATCH: wdata passthrough beat=4 expected = adeabab901ace4f6, actual =adeabab901ace4f6
[2705000] SCOREBOARD MATCH: wdata passthrough beat=5 expected = 33234c28881777db, actual =33234c28881777db
[2705000] SCOREBOARD MATCH: wdata passthrough beat=6 expected = fb5e3560bf07ab66, actual =fb5e3560bf07ab66
[2705000] SCOREBOARD MATCH: wdata passthrough beat=7 expected = c0b4905c857826ca, actual =c0b4905c857826ca
[2705000] SCOREBOARD MATCH: wdata passthrough beat=8 expected = d8f9ea6a948f019, actual =d8f9ea6a948f019
[2705000] SCOREBOARD MATCH: wdata passthrough beat=9 expected = e8509b80f3d7dc84, actual =e8509b80f3d7dc84
[2705000] SCOREBOARD MATCH: wdata passthrough beat=10 expected = f950034f08edd406, actual =f950034f08edd406
[2705000] SCOREBOARD MATCH: wdata passthrough beat=11 expected = b236c41fa9052bdc, actual =b236c41fa9052bdc
[2705000] SCOREBOARD MATCH: wdata passthrough beat=12 expected = 1cdd086106dfa1f5, actual =1cdd086106dfa1f5
[2705000] SCOREBOARD MATCH: wdata passthrough beat=13 expected = fcd75fb9a875f9f, actual =fcd75fb9a875f9f
[2705000] SCOREBOARD MATCH: wdata passthrough beat=14 expected = c38c8b7c162d0bb0, actual =c38c8b7c162d0bb0
[2705000] SCOREBOARD MATCH: wdata passthrough beat=15 expected = 1d0cada5c2043a1a, actual =1d0cada5c2043a1a
[2705000] SCOREBOARD MATCH: wdata passthrough beat=16 expected = dc8b99bae06993dd, actual =dc8b99bae06993dd
[2705000] SCOREBOARD MATCH: wdata passthrough beat=17 expected = f6969f8d2cda23a0, actual =f6969f8d2cda23a0
[2705000] SCOREBOARD MATCH: wdata passthrough beat=18 expected = eede5dba20182536, actual =eede5dba20182536
[2705000] SCOREBOARD MATCH: wdata passthrough beat=19 expected = 81b91313a34d32, actual =81b91313a34d32
[2705000] SCOREBOARD MATCH: wdata passthrough beat=20 expected = c07d70d2cb69f774, actual =c07d70d2cb69f774
[2705000] SCOREBOARD MATCH: wdata passthrough beat=21 expected = eb821caaf71858a0, actual =eb821caaf71858a0
[2705000] SCOREBOARD MATCH: wdata passthrough beat=22 expected = abba5d2af5bce8c, actual =abba5d2af5bce8c
[2705000] SCOREBOARD MATCH: wdata passthrough beat=23 expected = fac5c601ec03d5bd, actual =fac5c601ec03d5bd
[2705000] SCOREBOARD MATCH: wdata passthrough beat=24 expected = e31c2e5dcb3916a4, actual =e31c2e5dcb3916a4
[2705000] SCOREBOARD MATCH: wdata passthrough beat=25 expected = fa94e530e647e2ab, actual =fa94e530e647e2ab
[2705000] SCOREBOARD MATCH: wdata passthrough beat=26 expected = d24bb869edd7d42f, actual =d24bb869edd7d42f
[2705000] SCOREBOARD MATCH: wdata passthrough beat=27 expected = b910ead3f55aab31, actual =b910ead3f55aab31
[2705000] SCOREBOARD MATCH: wdata passthrough beat=28 expected = dba28dddb567e6c6, actual =dba28dddb567e6c6
[2705000] SCOREBOARD MATCH: wdata passthrough beat=29 expected = 233fbaf633a5d004, actual =233fbaf633a5d004
[2705000] SCOREBOARD MATCH: wdata passthrough beat=30 expected = a9007b352dee4646, actual =a9007b352dee4646
[2705000] SCOREBOARD MATCH: wdata passthrough beat=31 expected = e3562d0cdc50a5c9, actual =e3562d0cdc50a5c9
[2705000] SCOREBOARD MATCH: wdata passthrough beat=32 expected = 8ff675cd84a30912, actual =8ff675cd84a30912
[2705000] SCOREBOARD MATCH: wdata passthrough beat=33 expected = b2914f588695e802, actual =b2914f588695e802
[2705000] SCOREBOARD MATCH: wdata passthrough beat=34 expected = e2e68dcc38f6f103, actual =e2e68dcc38f6f103
[2705000] SCOREBOARD MATCH: wdata passthrough beat=35 expected = bd99fa1515e77c65, actual =bd99fa1515e77c65
