#-----------------------------------------------------------
# xsim v2025.2 (64-bit)
# SW Build 6299465 on Fri Nov 14 12:34:56 MST 2025
# IP Build 6300035 on Fri Nov 14 10:48:45 MST 2025
# SharedData Build 6298862 on Thu Nov 13 04:50:51 MST 2025
# Start of session at: Thu Sep 10 18:46:47 2026
# Process ID         : 3677498
# Current directory  : /home/nashita/Desktop/practice/axi_xbar/sim
# Command line       : xsim -log regress_results/BT_run469.log -mode tcl -source {xsim.dir/tb_top_snap/xsim_script.tcl}
# Log file           : /home/nashita/Desktop/practice/axi_xbar/sim/regress_results/BT_run469.log
# Journal file       : /home/nashita/Desktop/practice/axi_xbar/sim/xsim.jou
# Running On         : vlsi-vivado
# Platform           : Ubuntu
# Operating System   : Ubuntu 24.04.4 LTS
# Processor Detail   : Intel(R) Core(TM) i5-10400 CPU @ 2.90GHz
# CPU Frequency      : 4127.372 MHz
# CPU Physical cores : 6
# CPU Logical cores  : 12
# Host memory        : 41875 MB
# Swap memory        : 27648 MB
# Total Virtual      : 69524 MB
# Available Virtual  : 62758 MB
#-----------------------------------------------------------
source xsim.dir/tb_top_snap/xsim_script.tcl
# xsim {tb_top_snap} -testplusarg BT -autoloadwcfg -runall -sv_seed 470
Time resolution is 1 ps
run -all
[0] RUNNING BASE TEST
[0] INSIDE THE BASE TEST CONSTRUCTOR
[0] ENV: before agent
[0] SLAVE CONSTRUCTED
[0] MASTER MONITOR CONSTRUCTED
[0] MASTER MONITOR CONSTRUCTED
[0] SLAVE MONITOR CONSTRUCTED
[0] SLAVE MONITOR CONSTRUCTED
[0] ARB MONITOR CONSTRUCTED
GENERATOR CONSTRUCTED
[0] ENV: after agent
[0] ENV: before scoreboard
[0] ENV: after scoreboard
[15000] [SEQUENCER] READ mst_id=0 s_id=0 araddr=17ae67a0 arid=0 arlen=1 arsize=3 arburst=1 rid=[] rresp=[] rdata=[]
[15000] [SEQUENCER] mst_id=1 s_id=0 awaddr=16ed7ce8 awid=1111 awlen=163 awsize=0 awburst=1 wdata=[a02819c6f18b344b a515c25c1e03a3bd 3ad47ae0d305c964 c490fdaf38023e94 d605e251dafc94a6 ae025e0ae9a6c00b a1a8fe9f10da5d31 ebd6f1d7f2935bb9 dc3a1bc5f7aee0f0 88893e2119d94fe2 8c6cab9bfde31a64 f591fb55f4602ff9 e397fdbe8a6c760 e689e1c5fe1b3976 f27b696f9aa62b76 34cf2d7dc1bdd1a da37169080b4e94a 1b5b14c1e9d6d49c c5f2b1b6ccb28000 cd67694a1ea80798 87edc34a029c846 ecdc4846e8c27e0b 876a85a3ce718dea ee9b56303a43b191 a3062f9c8fe961d7 de5aefc1db779e77 15bb50082a70b540 ba5a1717ccf645f2 286de469b8c17fa4 e33234e418b506d9 e5ab4ccb3e293471 f6eab4151d8c4bfc 364152d50e193134 cc4265a5da1ce8fa f7a934f61bec9fa0 2a05d0d4c32d19ba 9d4a02b42dea87cb c9d7276bf6483679 b975503394f337aa c2ddbf75f3dcf83f ea252eb8d6bf52e8 ebb28a928cb4e6e0 8091df1fa39a7eeb fa59d1d32e904a08 bb4530e8eab70dd7 e518cc3e60c5c66 149ca66e3bd71008 a68e1ddf88ab5e96 eeb7bafccfe1d756 8bb8e75eb4dfaaa2 3d8b09398354616a d33638c13247053e e726afe0ac42c435 2f9725a0deef201f 9136255da4b1b919 d0f47d4f02cd5e61 e1bc7e80f85cd53e 9d0e8e57008ba2ef 3590150f2f2a3de eb4f791cee030ba6 ee8eae95e5157fd0 d80823ae885e0773 f661131af1e7afe5 d6fd2fb6c3579cca cbb5a43ee4efc1af d6d77195af055364 f25cf02fc216b758 a70679072dd4a14b dcd9f4af3e12946d 294bc5fdddea9c abb28be7cf36e4de 8d49794ba72fc4cc 250daf69088c8097 d7c365758d72c510 34a289ddd0c03b50 d94cbbe7e50cdec1 f27fa3d1d9b03946 aa7074963110215d 161d001ea7222dae 80d266f403bd307e 34cd51db889ca3ef 2fbed19e2b42db8b 2f000c09caea51f9 d386f5e8b0913892 dbd4141de3cd5de4 2eb7afdd8345c786 33d700198ad42026 eea17e0a823ea5c5 5846d4c8fab1436 1a7f345d9d592de7 1f97d3ad395b6d65 c906819b8920b267 2679e04f251c40f9 de77ae5ee385b5f8 eca66860c611b3fc eb2df4f5a77e2ff9 b03e5f2132048af d931fcabc9a5a353 f123d34cf7aa4e52 aca9701c45ff1a0 e0594f3fc27b93e f3d20790e3fc93ac 285c854cff29683f fb51217efe9c9e91 e299323d36621a3f b58b827eef23290e edbfc7a08af5b789 c157d1c8b0dca3fc 1fffcd0bd058f9dd db4eb167f6e35447 a7bff8430dbf94ab de188e889ca6832f 9389d776c7bfc54e d57f59f9b9673fef d60dc31f3b49cfba 830995083397e882 ecff2871e9979a95 a4e16a4fd888ef02 c20d784c30ceb90 2ca4862627eaff58 73ee5af91ffff5 3c2ceb86d185f075 f970efcd0c94c5de 85b4c5d3e8d171ac ba576221f9e4de27 8679a405c1e1b159 aab3230533c851ef adad30160c2e69d9 ce101b32e50a8527 18d2d7163426d41c c0553df5f8c33e38 ddcdc35fc680072c faa6db488e655927 8728975ff6a09a75 bd20a1a1bafc193d c9617265e4f65abe db96f53337c77cea f2c39627d08a09c4 3580648318b796d5 d07f13bfbc25088c caf1251911759b6 a9cef08bc342a9e6 ff67b273c22f76d4 d346d08afa4e044a 3d90ae310c16c4c4 ce463b98fd15c116 f763c5603cf860a4 c90f2568a18d0c22 9ea2cd38b4f47391 f1ecd43517556100 b8e26d2216069299 cafb062abafbf99d d2515a9dd7853a5b ed8bccf43ce7da60 f7e3d3fd0b33c7c0 e2b9021bb886d31e f56ead7eca352e9b d568f65bd044cf0f 88cba22ded52817c 3787b0173821f876 866c785fe3a4fac eb8cd1280cf0a672 c5129ee8913269b2 8f6cb95e2314813f ] wstrb=[6d b1 86 1f 99 c5 7e 6 76 4 25 f ca a3 15 40 a8 3b 50 72 de 65 b2 86 a0 2 f8 7f 68 ab 5 8 ad fe 87 15 a9 8d 1e 56 8b a5 6c 34 32 8a 8a bd 2f f6 f1 62 80 7c 1f b0 72 11 12 f3 8d 31 a3 ff 42 b5 f2 cf e6 95 cf 29 4a c1 f8 31 57 c7 5a a1 89 52 d2 e0 1a 2c 81 a3 7f 54 83 99 80 4 3c ff 58 bf 98 d9 c3 d4 d8 1c 93 71 f5 57 45 cd 73 d9 3e 68 30 84 35 a3 5d 74 b 8d f8 40 30 55 b4 3b e2 ac 7b 12 1 30 4d e3 dc c8 f5 de f8 42 c1 d5 b b7 b3 3 f9 74 d8 4 2b 8b 8 25 0 e0 29 2b 6c 31 50 6c ] bresp=0 bid=0
[15000] [SEQUENCER] mst_id=0 s_id=0 awaddr=16e2e918 awid=0 awlen=6 awsize=0 awburst=2 wdata=[ea9d9901c53839df a87dc40abaaa2845 ca6b6424c1731f94 86ab5973d427f6a5 8ed21eeab508fd25 f67c1cb92f291d7e 3511423d93d830e ] wstrb=[2d 34 d ab ed 1c ce ] bresp=0 bid=0
[15000] [SEQUENCER] READ mst_id=1 s_id=0 araddr=3d96768 arid=1 arlen=1 arsize=3 arburst=1 rid=[] rresp=[] rdata=[]
[15000] [SEQUENCER] mst_id=0 s_id=0 awaddr=1b513998 awid=1001 awlen=4 awsize=1 awburst=2 wdata=[917d52a4a7ff1e8e e7268bc8f350b39a db8da07ee6a5eeae ea50d3ddb0d182f ce5dcbc9ed0af322 ] wstrb=[5 d1 47 34 e ] bresp=0 bid=0
[15000] MASTER_DRIVER0 received transaction, op=AXI_READ
[15000] MASTER_DRIVER1 received transaction, op=AXI_WRITE
[35000] MASTER 1 AW_VALID_RDY Handshake
[35000] MASTER_DRIVER0 received transaction, op=AXI_WRITE
[45000] ARB MONITOR: slave=1 m0_req=0 m1_req=1 winner=1
[45000] ARB MONITOR: slave=1 m0_req=1 m1_req=0 winner=0
[45000] AXI S0_ARVALID_RDY HANDSHAKE
[45000] MEMORY READ MISS beat=0 addr=17ae67a0 -> default data id=0
[45000] AXI S1_AWVALID_RDY HANDSHAKE
[55000] MEMORY READ MISS beat=1 addr=17ae67a8 -> default data id=0
[55000] SLAVE 1 R_VALID_RDY Handshake beat=0 rlast=0
[55000] MASTER 1 W_VALID_RDY Handshake beat=0 wlast=0
[55000] MASTER 0 AW_VALID_RDY Handshake
[65000] MASTER 1 W_VALID_RDY Handshake beat=1 wlast=0
[65000] SLAVE 1 R_VALID_RDY Handshake beat=1 rlast=1
[65000] [SLAVE MONITOR] READ mst_id=0 s_id=1 araddr=17ae67a0 arid=0 arlen=1 arsize=3 arburst=1 rid=[00] rresp=[00] rdata=[baadf00d12345678baadf00d12345678]
[65000] S1 MEMORY WRITE beat=0 addr=16ed7ce8 data=a02819c6f18b344b id=1f
[75000] S1 MEMORY WRITE beat=1 addr=16ed7ce9 data=a515c25c1e03a3bd id=1f
[75000] MASTER 1 W_VALID_RDY Handshake beat=2 wlast=0
[75000] MASTER 0 R_VALID_RDY Handshake beat=0 rlast=0
[75000] MASTER 0 W_VALID_RDY Handshake beat=0 wlast=0
[85000] [MASTER DRIVER] READ mst_id=0 s_id=0 araddr=17ae67a0 arid=0 arlen=1 arsize=3 arburst=1 rid=[00] rresp=[00] rdata=[baadf00d12345678baadf00d12345678]
[85000] MASTER 0 W_VALID_RDY Handshake beat=1 wlast=0
[85000] MASTER 0 R_VALID_RDY Handshake beat=1 rlast=1
[85000] [MASTER MONITOR] READ mst_id=0 s_id=1 araddr=17ae67a0 arid=0 arlen=1 arsize=3 arburst=1 rid=[00] rresp=[00] rdata=[baadf00d12345678baadf00d12345678]
[85000] MASTER 1 W_VALID_RDY Handshake beat=3 wlast=0
[85000] S1 MEMORY WRITE beat=2 addr=16ed7cea data=3ad47ae0d305c964 id=1f
[85000] SCOREBOARD MATCH: decode_err expected = 0, actual =0
[85000] SCOREBOARD MATCH: slave_id expected = 1, actual =1
[85000] SCOREBOARD MATCH: araddr passthrough expected = 17ae67a0, actual =17ae67a0
[85000] SCOREBOARD MATCH: arlen passthrough expected = 1, actual =1
[85000] SCOREBOARD MATCH: arsize passthrough expected = 3, actual =3
[85000] SCOREBOARD MATCH: arburst passthrough expected = 1, actual =1
[85000] SCOREBOARD MATCH: rdata size check expected = 2, actual =2
[85000] SCOREBOARD MATCH: rdata passthrough beat=0 expected = baadf00d12345678, actual =baadf00d12345678
[85000] SCOREBOARD MATCH: rdata passthrough beat=1 expected = baadf00d12345678, actual =baadf00d12345678
[85000] SCOREBOARD MATCH: rresp size check expected = 2, actual =2
[85000] SCOREBOARD MATCH: rresp passthrough beat=0 expected = 0, actual =0
[85000] SCOREBOARD MATCH: rresp passthrough beat=1 expected = 0, actual =0
[85000] SCOREBOARD MATCH: response routed to correct master (read beat 0) expected = 0, actual =0
[85000] SCOREBOARD MATCH: response routed to correct master (read beat 1) expected = 0, actual =0
[85000] [SCOREBOARD-M] READ mst_id=0 s_id=1 araddr=17ae67a0 arid=0 arlen=1 arsize=3 arburst=1 rid=[00] rresp=[00] rdata=[baadf00d12345678baadf00d12345678]
[85000] [SCOREBOARD-S] READ mst_id=0 s_id=1 araddr=17ae67a0 arid=0 arlen=1 arsize=3 arburst=1 rid=[00] rresp=[00] rdata=[baadf00d12345678baadf00d12345678]
[85000] SCOREBOARD: Transaction 1 received. pass=14 fail=0
[85000] ALL PASS. Total transactions: 1
[95000] S1 MEMORY WRITE beat=3 addr=16ed7ceb data=c490fdaf38023e94 id=1f
[95000] MASTER 1 W_VALID_RDY Handshake beat=4 wlast=0
[95000] MASTER 0 W_VALID_RDY Handshake beat=2 wlast=0
[105000] MASTER 0 W_VALID_RDY Handshake beat=3 wlast=0
[105000] MASTER 1 W_VALID_RDY Handshake beat=5 wlast=0
[105000] S1 MEMORY WRITE beat=4 addr=16ed7cec data=d605e251dafc94a6 id=1f
[115000] S1 MEMORY WRITE beat=5 addr=16ed7ced data=ae025e0ae9a6c00b id=1f
[115000] MASTER 1 W_VALID_RDY Handshake beat=6 wlast=0
[115000] MASTER 0 W_VALID_RDY Handshake beat=4 wlast=0
[125000] MASTER 0 W_VALID_RDY Handshake beat=5 wlast=0
[125000] MASTER 1 W_VALID_RDY Handshake beat=7 wlast=0
[125000] S1 MEMORY WRITE beat=6 addr=16ed7cee data=a1a8fe9f10da5d31 id=1f
[135000] S1 MEMORY WRITE beat=7 addr=16ed7cef data=ebd6f1d7f2935bb9 id=1f
[135000] MASTER 1 W_VALID_RDY Handshake beat=8 wlast=0
[135000] MASTER 0 W_VALID_RDY Handshake beat=6 wlast=1
[135000] MASTER_DRIVER0 received transaction, op=AXI_WRITE
[145000] MASTER 1 W_VALID_RDY Handshake beat=9 wlast=0
[145000] S1 MEMORY WRITE beat=8 addr=16ed7cf0 data=dc3a1bc5f7aee0f0 id=1f
[155000] S1 MEMORY WRITE beat=9 addr=16ed7cf1 data=88893e2119d94fe2 id=1f
[155000] MASTER 1 W_VALID_RDY Handshake beat=10 wlast=0
[155000] MASTER 0 AW_VALID_RDY Handshake
[165000] MASTER 1 W_VALID_RDY Handshake beat=11 wlast=0
[165000] S1 MEMORY WRITE beat=10 addr=16ed7cf2 data=8c6cab9bfde31a64 id=1f
[175000] S1 MEMORY WRITE beat=11 addr=16ed7cf3 data=f591fb55f4602ff9 id=1f
[175000] MASTER 1 W_VALID_RDY Handshake beat=12 wlast=0
[175000] MASTER 0 W_VALID_RDY Handshake beat=0 wlast=0
[185000] MASTER 1 W_VALID_RDY Handshake beat=13 wlast=0
[185000] S1 MEMORY WRITE beat=12 addr=16ed7cf4 data=0e397fdbe8a6c760 id=1f
[195000] S1 MEMORY WRITE beat=13 addr=16ed7cf5 data=e689e1c5fe1b3976 id=1f
[195000] MASTER 1 W_VALID_RDY Handshake beat=14 wlast=0
[205000] MASTER 1 W_VALID_RDY Handshake beat=15 wlast=0
[205000] S1 MEMORY WRITE beat=14 addr=16ed7cf6 data=f27b696f9aa62b76 id=1f
[215000] S1 MEMORY WRITE beat=15 addr=16ed7cf7 data=034cf2d7dc1bdd1a id=1f
[215000] MASTER 1 W_VALID_RDY Handshake beat=16 wlast=0
[225000] MASTER 1 W_VALID_RDY Handshake beat=17 wlast=0
[225000] S1 MEMORY WRITE beat=16 addr=16ed7cf8 data=da37169080b4e94a id=1f
[235000] S1 MEMORY WRITE beat=17 addr=16ed7cf9 data=1b5b14c1e9d6d49c id=1f
[235000] MASTER 1 W_VALID_RDY Handshake beat=18 wlast=0
[245000] MASTER 1 W_VALID_RDY Handshake beat=19 wlast=0
[245000] S1 MEMORY WRITE beat=18 addr=16ed7cfa data=c5f2b1b6ccb28000 id=1f
[255000] S1 MEMORY WRITE beat=19 addr=16ed7cfb data=cd67694a1ea80798 id=1f
[255000] MASTER 1 W_VALID_RDY Handshake beat=20 wlast=0
[265000] MASTER 1 W_VALID_RDY Handshake beat=21 wlast=0
[265000] S1 MEMORY WRITE beat=20 addr=16ed7cfc data=087edc34a029c846 id=1f
[275000] S1 MEMORY WRITE beat=21 addr=16ed7cfd data=ecdc4846e8c27e0b id=1f
[275000] MASTER 1 W_VALID_RDY Handshake beat=22 wlast=0
[285000] MASTER 1 W_VALID_RDY Handshake beat=23 wlast=0
[285000] S1 MEMORY WRITE beat=22 addr=16ed7cfe data=876a85a3ce718dea id=1f
[295000] S1 MEMORY WRITE beat=23 addr=16ed7cff data=ee9b56303a43b191 id=1f
[295000] MASTER 1 W_VALID_RDY Handshake beat=24 wlast=0
[305000] MASTER 1 W_VALID_RDY Handshake beat=25 wlast=0
[305000] S1 MEMORY WRITE beat=24 addr=16ed7d00 data=a3062f9c8fe961d7 id=1f
[315000] S1 MEMORY WRITE beat=25 addr=16ed7d01 data=de5aefc1db779e77 id=1f
[315000] MASTER 1 W_VALID_RDY Handshake beat=26 wlast=0
[325000] MASTER 1 W_VALID_RDY Handshake beat=27 wlast=0
[325000] S1 MEMORY WRITE beat=26 addr=16ed7d02 data=15bb50082a70b540 id=1f
[335000] S1 MEMORY WRITE beat=27 addr=16ed7d03 data=ba5a1717ccf645f2 id=1f
[335000] MASTER 1 W_VALID_RDY Handshake beat=28 wlast=0
[345000] MASTER 1 W_VALID_RDY Handshake beat=29 wlast=0
[345000] S1 MEMORY WRITE beat=28 addr=16ed7d04 data=286de469b8c17fa4 id=1f
[355000] S1 MEMORY WRITE beat=29 addr=16ed7d05 data=e33234e418b506d9 id=1f
[355000] MASTER 1 W_VALID_RDY Handshake beat=30 wlast=0
[365000] MASTER 1 W_VALID_RDY Handshake beat=31 wlast=0
[365000] S1 MEMORY WRITE beat=30 addr=16ed7d06 data=e5ab4ccb3e293471 id=1f
[375000] S1 MEMORY WRITE beat=31 addr=16ed7d07 data=f6eab4151d8c4bfc id=1f
[375000] MASTER 1 W_VALID_RDY Handshake beat=32 wlast=0
[385000] MASTER 1 W_VALID_RDY Handshake beat=33 wlast=0
[385000] S1 MEMORY WRITE beat=32 addr=16ed7d08 data=364152d50e193134 id=1f
[395000] S1 MEMORY WRITE beat=33 addr=16ed7d09 data=cc4265a5da1ce8fa id=1f
[395000] MASTER 1 W_VALID_RDY Handshake beat=34 wlast=0
[405000] MASTER 1 W_VALID_RDY Handshake beat=35 wlast=0
[405000] S1 MEMORY WRITE beat=34 addr=16ed7d0a data=f7a934f61bec9fa0 id=1f
[415000] S1 MEMORY WRITE beat=35 addr=16ed7d0b data=2a05d0d4c32d19ba id=1f
[415000] MASTER 1 W_VALID_RDY Handshake beat=36 wlast=0
[425000] MASTER 1 W_VALID_RDY Handshake beat=37 wlast=0
[425000] S1 MEMORY WRITE beat=36 addr=16ed7d0c data=9d4a02b42dea87cb id=1f
[435000] S1 MEMORY WRITE beat=37 addr=16ed7d0d data=c9d7276bf6483679 id=1f
[435000] MASTER 1 W_VALID_RDY Handshake beat=38 wlast=0
[445000] MASTER 1 W_VALID_RDY Handshake beat=39 wlast=0
[445000] S1 MEMORY WRITE beat=38 addr=16ed7d0e data=b975503394f337aa id=1f
[455000] S1 MEMORY WRITE beat=39 addr=16ed7d0f data=c2ddbf75f3dcf83f id=1f
[455000] MASTER 1 W_VALID_RDY Handshake beat=40 wlast=0
[465000] MASTER 1 W_VALID_RDY Handshake beat=41 wlast=0
[465000] S1 MEMORY WRITE beat=40 addr=16ed7d10 data=ea252eb8d6bf52e8 id=1f
[475000] S1 MEMORY WRITE beat=41 addr=16ed7d11 data=ebb28a928cb4e6e0 id=1f
[475000] MASTER 1 W_VALID_RDY Handshake beat=42 wlast=0
[485000] MASTER 1 W_VALID_RDY Handshake beat=43 wlast=0
[485000] S1 MEMORY WRITE beat=42 addr=16ed7d12 data=8091df1fa39a7eeb id=1f
[495000] S1 MEMORY WRITE beat=43 addr=16ed7d13 data=fa59d1d32e904a08 id=1f
[495000] MASTER 1 W_VALID_RDY Handshake beat=44 wlast=0
[505000] MASTER 1 W_VALID_RDY Handshake beat=45 wlast=0
[505000] S1 MEMORY WRITE beat=44 addr=16ed7d14 data=bb4530e8eab70dd7 id=1f
[515000] S1 MEMORY WRITE beat=45 addr=16ed7d15 data=0e518cc3e60c5c66 id=1f
[515000] MASTER 1 W_VALID_RDY Handshake beat=46 wlast=0
[525000] MASTER 1 W_VALID_RDY Handshake beat=47 wlast=0
[525000] S1 MEMORY WRITE beat=46 addr=16ed7d16 data=149ca66e3bd71008 id=1f
[535000] S1 MEMORY WRITE beat=47 addr=16ed7d17 data=a68e1ddf88ab5e96 id=1f
[535000] MASTER 1 W_VALID_RDY Handshake beat=48 wlast=0
[545000] MASTER 1 W_VALID_RDY Handshake beat=49 wlast=0
[545000] S1 MEMORY WRITE beat=48 addr=16ed7d18 data=eeb7bafccfe1d756 id=1f
[555000] S1 MEMORY WRITE beat=49 addr=16ed7d19 data=8bb8e75eb4dfaaa2 id=1f
[555000] MASTER 1 W_VALID_RDY Handshake beat=50 wlast=0
[565000] MASTER 1 W_VALID_RDY Handshake beat=51 wlast=0
[565000] S1 MEMORY WRITE beat=50 addr=16ed7d1a data=3d8b09398354616a id=1f
[575000] S1 MEMORY WRITE beat=51 addr=16ed7d1b data=d33638c13247053e id=1f
[575000] MASTER 1 W_VALID_RDY Handshake beat=52 wlast=0
[585000] MASTER 1 W_VALID_RDY Handshake beat=53 wlast=0
[585000] S1 MEMORY WRITE beat=52 addr=16ed7d1c data=e726afe0ac42c435 id=1f
[595000] S1 MEMORY WRITE beat=53 addr=16ed7d1d data=2f9725a0deef201f id=1f
[595000] MASTER 1 W_VALID_RDY Handshake beat=54 wlast=0
[605000] MASTER 1 W_VALID_RDY Handshake beat=55 wlast=0
[605000] S1 MEMORY WRITE beat=54 addr=16ed7d1e data=9136255da4b1b919 id=1f
[615000] S1 MEMORY WRITE beat=55 addr=16ed7d1f data=d0f47d4f02cd5e61 id=1f
[615000] MASTER 1 W_VALID_RDY Handshake beat=56 wlast=0
[625000] MASTER 1 W_VALID_RDY Handshake beat=57 wlast=0
[625000] S1 MEMORY WRITE beat=56 addr=16ed7d20 data=e1bc7e80f85cd53e id=1f
[635000] S1 MEMORY WRITE beat=57 addr=16ed7d21 data=9d0e8e57008ba2ef id=1f
[635000] MASTER 1 W_VALID_RDY Handshake beat=58 wlast=0
[645000] MASTER 1 W_VALID_RDY Handshake beat=59 wlast=0
[645000] S1 MEMORY WRITE beat=58 addr=16ed7d22 data=03590150f2f2a3de id=1f
[655000] S1 MEMORY WRITE beat=59 addr=16ed7d23 data=eb4f791cee030ba6 id=1f
[655000] MASTER 1 W_VALID_RDY Handshake beat=60 wlast=0
[665000] MASTER 1 W_VALID_RDY Handshake beat=61 wlast=0
[665000] S1 MEMORY WRITE beat=60 addr=16ed7d24 data=ee8eae95e5157fd0 id=1f
[675000] S1 MEMORY WRITE beat=61 addr=16ed7d25 data=d80823ae885e0773 id=1f
[675000] MASTER 1 W_VALID_RDY Handshake beat=62 wlast=0
[685000] MASTER 1 W_VALID_RDY Handshake beat=63 wlast=0
[685000] S1 MEMORY WRITE beat=62 addr=16ed7d26 data=f661131af1e7afe5 id=1f
[695000] S1 MEMORY WRITE beat=63 addr=16ed7d27 data=d6fd2fb6c3579cca id=1f
[695000] MASTER 1 W_VALID_RDY Handshake beat=64 wlast=0
[705000] MASTER 1 W_VALID_RDY Handshake beat=65 wlast=0
[705000] S1 MEMORY WRITE beat=64 addr=16ed7d28 data=cbb5a43ee4efc1af id=1f
[715000] S1 MEMORY WRITE beat=65 addr=16ed7d29 data=d6d77195af055364 id=1f
[715000] MASTER 1 W_VALID_RDY Handshake beat=66 wlast=0
[725000] MASTER 1 W_VALID_RDY Handshake beat=67 wlast=0
[725000] S1 MEMORY WRITE beat=66 addr=16ed7d2a data=f25cf02fc216b758 id=1f
[735000] S1 MEMORY WRITE beat=67 addr=16ed7d2b data=a70679072dd4a14b id=1f
[735000] MASTER 1 W_VALID_RDY Handshake beat=68 wlast=0
[745000] MASTER 1 W_VALID_RDY Handshake beat=69 wlast=0
[745000] S1 MEMORY WRITE beat=68 addr=16ed7d2c data=dcd9f4af3e12946d id=1f
[755000] S1 MEMORY WRITE beat=69 addr=16ed7d2d data=00294bc5fdddea9c id=1f
[755000] MASTER 1 W_VALID_RDY Handshake beat=70 wlast=0
[765000] MASTER 1 W_VALID_RDY Handshake beat=71 wlast=0
[765000] S1 MEMORY WRITE beat=70 addr=16ed7d2e data=abb28be7cf36e4de id=1f
[775000] S1 MEMORY WRITE beat=71 addr=16ed7d2f data=8d49794ba72fc4cc id=1f
[775000] MASTER 1 W_VALID_RDY Handshake beat=72 wlast=0
[785000] MASTER 1 W_VALID_RDY Handshake beat=73 wlast=0
[785000] S1 MEMORY WRITE beat=72 addr=16ed7d30 data=250daf69088c8097 id=1f
[795000] S1 MEMORY WRITE beat=73 addr=16ed7d31 data=d7c365758d72c510 id=1f
[795000] MASTER 1 W_VALID_RDY Handshake beat=74 wlast=0
[805000] MASTER 1 W_VALID_RDY Handshake beat=75 wlast=0
[805000] S1 MEMORY WRITE beat=74 addr=16ed7d32 data=34a289ddd0c03b50 id=1f
[815000] S1 MEMORY WRITE beat=75 addr=16ed7d33 data=d94cbbe7e50cdec1 id=1f
[815000] MASTER 1 W_VALID_RDY Handshake beat=76 wlast=0
[825000] MASTER 1 W_VALID_RDY Handshake beat=77 wlast=0
[825000] S1 MEMORY WRITE beat=76 addr=16ed7d34 data=f27fa3d1d9b03946 id=1f
[835000] S1 MEMORY WRITE beat=77 addr=16ed7d35 data=aa7074963110215d id=1f
[835000] MASTER 1 W_VALID_RDY Handshake beat=78 wlast=0
[845000] MASTER 1 W_VALID_RDY Handshake beat=79 wlast=0
[845000] S1 MEMORY WRITE beat=78 addr=16ed7d36 data=161d001ea7222dae id=1f
[855000] S1 MEMORY WRITE beat=79 addr=16ed7d37 data=80d266f403bd307e id=1f
[855000] MASTER 1 W_VALID_RDY Handshake beat=80 wlast=0
[865000] MASTER 1 W_VALID_RDY Handshake beat=81 wlast=0
[865000] S1 MEMORY WRITE beat=80 addr=16ed7d38 data=34cd51db889ca3ef id=1f
[875000] S1 MEMORY WRITE beat=81 addr=16ed7d39 data=2fbed19e2b42db8b id=1f
[875000] MASTER 1 W_VALID_RDY Handshake beat=82 wlast=0
[885000] MASTER 1 W_VALID_RDY Handshake beat=83 wlast=0
[885000] S1 MEMORY WRITE beat=82 addr=16ed7d3a data=2f000c09caea51f9 id=1f
[895000] S1 MEMORY WRITE beat=83 addr=16ed7d3b data=d386f5e8b0913892 id=1f
[895000] MASTER 1 W_VALID_RDY Handshake beat=84 wlast=0
[905000] MASTER 1 W_VALID_RDY Handshake beat=85 wlast=0
[905000] S1 MEMORY WRITE beat=84 addr=16ed7d3c data=dbd4141de3cd5de4 id=1f
[915000] S1 MEMORY WRITE beat=85 addr=16ed7d3d data=2eb7afdd8345c786 id=1f
[915000] MASTER 1 W_VALID_RDY Handshake beat=86 wlast=0
[925000] MASTER 1 W_VALID_RDY Handshake beat=87 wlast=0
[925000] S1 MEMORY WRITE beat=86 addr=16ed7d3e data=33d700198ad42026 id=1f
[935000] S1 MEMORY WRITE beat=87 addr=16ed7d3f data=eea17e0a823ea5c5 id=1f
[935000] MASTER 1 W_VALID_RDY Handshake beat=88 wlast=0
[945000] MASTER 1 W_VALID_RDY Handshake beat=89 wlast=0
[945000] S1 MEMORY WRITE beat=88 addr=16ed7d40 data=05846d4c8fab1436 id=1f
[955000] S1 MEMORY WRITE beat=89 addr=16ed7d41 data=1a7f345d9d592de7 id=1f
[955000] MASTER 1 W_VALID_RDY Handshake beat=90 wlast=0
[965000] MASTER 1 W_VALID_RDY Handshake beat=91 wlast=0
[965000] S1 MEMORY WRITE beat=90 addr=16ed7d42 data=1f97d3ad395b6d65 id=1f
[975000] S1 MEMORY WRITE beat=91 addr=16ed7d43 data=c906819b8920b267 id=1f
[975000] MASTER 1 W_VALID_RDY Handshake beat=92 wlast=0
[985000] MASTER 1 W_VALID_RDY Handshake beat=93 wlast=0
[985000] S1 MEMORY WRITE beat=92 addr=16ed7d44 data=2679e04f251c40f9 id=1f
[995000] S1 MEMORY WRITE beat=93 addr=16ed7d45 data=de77ae5ee385b5f8 id=1f
[995000] MASTER 1 W_VALID_RDY Handshake beat=94 wlast=0
[1005000] MASTER 1 W_VALID_RDY Handshake beat=95 wlast=0
[1005000] S1 MEMORY WRITE beat=94 addr=16ed7d46 data=eca66860c611b3fc id=1f
[1015000] S1 MEMORY WRITE beat=95 addr=16ed7d47 data=eb2df4f5a77e2ff9 id=1f
[1015000] MASTER 1 W_VALID_RDY Handshake beat=96 wlast=0
[1025000] MASTER 1 W_VALID_RDY Handshake beat=97 wlast=0
[1025000] S1 MEMORY WRITE beat=96 addr=16ed7d48 data=0b03e5f2132048af id=1f
[1035000] S1 MEMORY WRITE beat=97 addr=16ed7d49 data=d931fcabc9a5a353 id=1f
[1035000] MASTER 1 W_VALID_RDY Handshake beat=98 wlast=0
[1045000] MASTER 1 W_VALID_RDY Handshake beat=99 wlast=0
[1045000] S1 MEMORY WRITE beat=98 addr=16ed7d4a data=f123d34cf7aa4e52 id=1f
[1055000] S1 MEMORY WRITE beat=99 addr=16ed7d4b data=0aca9701c45ff1a0 id=1f
[1055000] MASTER 1 W_VALID_RDY Handshake beat=100 wlast=0
[1065000] MASTER 1 W_VALID_RDY Handshake beat=101 wlast=0
[1065000] S1 MEMORY WRITE beat=100 addr=16ed7d4c data=0e0594f3fc27b93e id=1f
[1075000] S1 MEMORY WRITE beat=101 addr=16ed7d4d data=f3d20790e3fc93ac id=1f
[1075000] MASTER 1 W_VALID_RDY Handshake beat=102 wlast=0
[1085000] MASTER 1 W_VALID_RDY Handshake beat=103 wlast=0
[1085000] S1 MEMORY WRITE beat=102 addr=16ed7d4e data=285c854cff29683f id=1f
[1095000] S1 MEMORY WRITE beat=103 addr=16ed7d4f data=fb51217efe9c9e91 id=1f
[1095000] MASTER 1 W_VALID_RDY Handshake beat=104 wlast=0
[1105000] MASTER 1 W_VALID_RDY Handshake beat=105 wlast=0
[1105000] S1 MEMORY WRITE beat=104 addr=16ed7d50 data=e299323d36621a3f id=1f
[1115000] S1 MEMORY WRITE beat=105 addr=16ed7d51 data=b58b827eef23290e id=1f
[1115000] MASTER 1 W_VALID_RDY Handshake beat=106 wlast=0
[1125000] MASTER 1 W_VALID_RDY Handshake beat=107 wlast=0
[1125000] S1 MEMORY WRITE beat=106 addr=16ed7d52 data=edbfc7a08af5b789 id=1f
[1135000] S1 MEMORY WRITE beat=107 addr=16ed7d53 data=c157d1c8b0dca3fc id=1f
[1135000] MASTER 1 W_VALID_RDY Handshake beat=108 wlast=0
[1145000] MASTER 1 W_VALID_RDY Handshake beat=109 wlast=0
[1145000] S1 MEMORY WRITE beat=108 addr=16ed7d54 data=1fffcd0bd058f9dd id=1f
[1155000] S1 MEMORY WRITE beat=109 addr=16ed7d55 data=db4eb167f6e35447 id=1f
[1155000] MASTER 1 W_VALID_RDY Handshake beat=110 wlast=0
[1165000] MASTER 1 W_VALID_RDY Handshake beat=111 wlast=0
[1165000] S1 MEMORY WRITE beat=110 addr=16ed7d56 data=a7bff8430dbf94ab id=1f
[1175000] S1 MEMORY WRITE beat=111 addr=16ed7d57 data=de188e889ca6832f id=1f
[1175000] MASTER 1 W_VALID_RDY Handshake beat=112 wlast=0
[1185000] MASTER 1 W_VALID_RDY Handshake beat=113 wlast=0
[1185000] S1 MEMORY WRITE beat=112 addr=16ed7d58 data=9389d776c7bfc54e id=1f
[1195000] S1 MEMORY WRITE beat=113 addr=16ed7d59 data=d57f59f9b9673fef id=1f
[1195000] MASTER 1 W_VALID_RDY Handshake beat=114 wlast=0
[1205000] MASTER 1 W_VALID_RDY Handshake beat=115 wlast=0
[1205000] S1 MEMORY WRITE beat=114 addr=16ed7d5a data=d60dc31f3b49cfba id=1f
[1215000] S1 MEMORY WRITE beat=115 addr=16ed7d5b data=830995083397e882 id=1f
[1215000] MASTER 1 W_VALID_RDY Handshake beat=116 wlast=0
[1225000] MASTER 1 W_VALID_RDY Handshake beat=117 wlast=0
[1225000] S1 MEMORY WRITE beat=116 addr=16ed7d5c data=ecff2871e9979a95 id=1f
[1235000] S1 MEMORY WRITE beat=117 addr=16ed7d5d data=a4e16a4fd888ef02 id=1f
[1235000] MASTER 1 W_VALID_RDY Handshake beat=118 wlast=0
[1245000] MASTER 1 W_VALID_RDY Handshake beat=119 wlast=0
[1245000] S1 MEMORY WRITE beat=118 addr=16ed7d5e data=0c20d784c30ceb90 id=1f
[1255000] S1 MEMORY WRITE beat=119 addr=16ed7d5f data=2ca4862627eaff58 id=1f
[1255000] MASTER 1 W_VALID_RDY Handshake beat=120 wlast=0
[1265000] MASTER 1 W_VALID_RDY Handshake beat=121 wlast=0
[1265000] S1 MEMORY WRITE beat=120 addr=16ed7d60 data=0073ee5af91ffff5 id=1f
[1275000] S1 MEMORY WRITE beat=121 addr=16ed7d61 data=3c2ceb86d185f075 id=1f
[1275000] MASTER 1 W_VALID_RDY Handshake beat=122 wlast=0
[1285000] MASTER 1 W_VALID_RDY Handshake beat=123 wlast=0
[1285000] S1 MEMORY WRITE beat=122 addr=16ed7d62 data=f970efcd0c94c5de id=1f
[1295000] S1 MEMORY WRITE beat=123 addr=16ed7d63 data=85b4c5d3e8d171ac id=1f
[1295000] MASTER 1 W_VALID_RDY Handshake beat=124 wlast=0
[1305000] MASTER 1 W_VALID_RDY Handshake beat=125 wlast=0
[1305000] S1 MEMORY WRITE beat=124 addr=16ed7d64 data=ba576221f9e4de27 id=1f
[1315000] S1 MEMORY WRITE beat=125 addr=16ed7d65 data=8679a405c1e1b159 id=1f
[1315000] MASTER 1 W_VALID_RDY Handshake beat=126 wlast=0
[1325000] MASTER 1 W_VALID_RDY Handshake beat=127 wlast=0
[1325000] S1 MEMORY WRITE beat=126 addr=16ed7d66 data=aab3230533c851ef id=1f
[1335000] S1 MEMORY WRITE beat=127 addr=16ed7d67 data=adad30160c2e69d9 id=1f
[1335000] MASTER 1 W_VALID_RDY Handshake beat=128 wlast=0
[1345000] MASTER 1 W_VALID_RDY Handshake beat=129 wlast=0
[1345000] S1 MEMORY WRITE beat=128 addr=16ed7d68 data=ce101b32e50a8527 id=1f
[1355000] S1 MEMORY WRITE beat=129 addr=16ed7d69 data=18d2d7163426d41c id=1f
[1355000] MASTER 1 W_VALID_RDY Handshake beat=130 wlast=0
[1365000] MASTER 1 W_VALID_RDY Handshake beat=131 wlast=0
[1365000] S1 MEMORY WRITE beat=130 addr=16ed7d6a data=c0553df5f8c33e38 id=1f
[1375000] S1 MEMORY WRITE beat=131 addr=16ed7d6b data=ddcdc35fc680072c id=1f
[1375000] MASTER 1 W_VALID_RDY Handshake beat=132 wlast=0
[1385000] MASTER 1 W_VALID_RDY Handshake beat=133 wlast=0
[1385000] S1 MEMORY WRITE beat=132 addr=16ed7d6c data=faa6db488e655927 id=1f
[1395000] S1 MEMORY WRITE beat=133 addr=16ed7d6d data=8728975ff6a09a75 id=1f
[1395000] MASTER 1 W_VALID_RDY Handshake beat=134 wlast=0
[1405000] MASTER 1 W_VALID_RDY Handshake beat=135 wlast=0
[1405000] S1 MEMORY WRITE beat=134 addr=16ed7d6e data=bd20a1a1bafc193d id=1f
[1415000] S1 MEMORY WRITE beat=135 addr=16ed7d6f data=c9617265e4f65abe id=1f
[1415000] MASTER 1 W_VALID_RDY Handshake beat=136 wlast=0
[1425000] MASTER 1 W_VALID_RDY Handshake beat=137 wlast=0
[1425000] S1 MEMORY WRITE beat=136 addr=16ed7d70 data=db96f53337c77cea id=1f
[1435000] S1 MEMORY WRITE beat=137 addr=16ed7d71 data=f2c39627d08a09c4 id=1f
[1435000] MASTER 1 W_VALID_RDY Handshake beat=138 wlast=0
[1445000] MASTER 1 W_VALID_RDY Handshake beat=139 wlast=0
[1445000] S1 MEMORY WRITE beat=138 addr=16ed7d72 data=3580648318b796d5 id=1f
[1455000] S1 MEMORY WRITE beat=139 addr=16ed7d73 data=d07f13bfbc25088c id=1f
[1455000] MASTER 1 W_VALID_RDY Handshake beat=140 wlast=0
[1465000] MASTER 1 W_VALID_RDY Handshake beat=141 wlast=0
[1465000] S1 MEMORY WRITE beat=140 addr=16ed7d74 data=0caf1251911759b6 id=1f
[1475000] S1 MEMORY WRITE beat=141 addr=16ed7d75 data=a9cef08bc342a9e6 id=1f
[1475000] MASTER 1 W_VALID_RDY Handshake beat=142 wlast=0
[1485000] MASTER 1 W_VALID_RDY Handshake beat=143 wlast=0
[1485000] S1 MEMORY WRITE beat=142 addr=16ed7d76 data=ff67b273c22f76d4 id=1f
[1495000] S1 MEMORY WRITE beat=143 addr=16ed7d77 data=d346d08afa4e044a id=1f
[1495000] MASTER 1 W_VALID_RDY Handshake beat=144 wlast=0
[1505000] MASTER 1 W_VALID_RDY Handshake beat=145 wlast=0
[1505000] S1 MEMORY WRITE beat=144 addr=16ed7d78 data=3d90ae310c16c4c4 id=1f
[1515000] S1 MEMORY WRITE beat=145 addr=16ed7d79 data=ce463b98fd15c116 id=1f
[1515000] MASTER 1 W_VALID_RDY Handshake beat=146 wlast=0
[1525000] MASTER 1 W_VALID_RDY Handshake beat=147 wlast=0
[1525000] S1 MEMORY WRITE beat=146 addr=16ed7d7a data=f763c5603cf860a4 id=1f
[1535000] S1 MEMORY WRITE beat=147 addr=16ed7d7b data=c90f2568a18d0c22 id=1f
[1535000] MASTER 1 W_VALID_RDY Handshake beat=148 wlast=0
[1545000] MASTER 1 W_VALID_RDY Handshake beat=149 wlast=0
[1545000] S1 MEMORY WRITE beat=148 addr=16ed7d7c data=9ea2cd38b4f47391 id=1f
[1555000] S1 MEMORY WRITE beat=149 addr=16ed7d7d data=f1ecd43517556100 id=1f
[1555000] MASTER 1 W_VALID_RDY Handshake beat=150 wlast=0
[1565000] MASTER 1 W_VALID_RDY Handshake beat=151 wlast=0
[1565000] S1 MEMORY WRITE beat=150 addr=16ed7d7e data=b8e26d2216069299 id=1f
[1575000] S1 MEMORY WRITE beat=151 addr=16ed7d7f data=cafb062abafbf99d id=1f
[1575000] MASTER 1 W_VALID_RDY Handshake beat=152 wlast=0
[1585000] MASTER 1 W_VALID_RDY Handshake beat=153 wlast=0
[1585000] S1 MEMORY WRITE beat=152 addr=16ed7d80 data=d2515a9dd7853a5b id=1f
[1595000] S1 MEMORY WRITE beat=153 addr=16ed7d81 data=ed8bccf43ce7da60 id=1f
[1595000] MASTER 1 W_VALID_RDY Handshake beat=154 wlast=0
[1605000] MASTER 1 W_VALID_RDY Handshake beat=155 wlast=0
[1605000] S1 MEMORY WRITE beat=154 addr=16ed7d82 data=f7e3d3fd0b33c7c0 id=1f
[1615000] S1 MEMORY WRITE beat=155 addr=16ed7d83 data=e2b9021bb886d31e id=1f
[1615000] MASTER 1 W_VALID_RDY Handshake beat=156 wlast=0
[1625000] MASTER 1 W_VALID_RDY Handshake beat=157 wlast=0
[1625000] S1 MEMORY WRITE beat=156 addr=16ed7d84 data=f56ead7eca352e9b id=1f
[1635000] S1 MEMORY WRITE beat=157 addr=16ed7d85 data=d568f65bd044cf0f id=1f
[1635000] MASTER 1 W_VALID_RDY Handshake beat=158 wlast=0
[1645000] MASTER 1 W_VALID_RDY Handshake beat=159 wlast=0
[1645000] S1 MEMORY WRITE beat=158 addr=16ed7d86 data=88cba22ded52817c id=1f
[1655000] S1 MEMORY WRITE beat=159 addr=16ed7d87 data=3787b0173821f876 id=1f
[1655000] MASTER 1 W_VALID_RDY Handshake beat=160 wlast=0
[1665000] MASTER 1 W_VALID_RDY Handshake beat=161 wlast=0
[1665000] S1 MEMORY WRITE beat=160 addr=16ed7d88 data=0866c785fe3a4fac id=1f
[1675000] S1 MEMORY WRITE beat=161 addr=16ed7d89 data=eb8cd1280cf0a672 id=1f
[1675000] MASTER 1 W_VALID_RDY Handshake beat=162 wlast=0
[1685000] MASTER_DRIVER1 received transaction, op=AXI_READ
[1685000] MASTER 1 W_VALID_RDY Handshake beat=163 wlast=1
[1685000] S1 MEMORY WRITE beat=162 addr=16ed7d8a data=c5129ee8913269b2 id=1f
[1695000] S1 MEMORY WRITE beat=163 addr=16ed7d8b data=8f6cb95e2314813f id=1f
[1705000] SLAVE1 sent B resp, id=15
[1715000] AXI S1_AWVALID_RDY HANDSHAKE
[1715000] AXI S0_ARVALID_RDY HANDSHAKE
[1715000] MEMORY READ MISS beat=0 addr=3d96768 -> default data id=17
[1715000] [SLAVE MONITOR] mst_id=1 s_id=1 awaddr=16ed7ce8 awid=1111 awlen=163 awsize=0 awburst=1 wdata=[a02819c6f18b344b a515c25c1e03a3bd 3ad47ae0d305c964 c490fdaf38023e94 d605e251dafc94a6 ae025e0ae9a6c00b a1a8fe9f10da5d31 ebd6f1d7f2935bb9 dc3a1bc5f7aee0f0 88893e2119d94fe2 8c6cab9bfde31a64 f591fb55f4602ff9 e397fdbe8a6c760 e689e1c5fe1b3976 f27b696f9aa62b76 34cf2d7dc1bdd1a da37169080b4e94a 1b5b14c1e9d6d49c c5f2b1b6ccb28000 cd67694a1ea80798 87edc34a029c846 ecdc4846e8c27e0b 876a85a3ce718dea ee9b56303a43b191 a3062f9c8fe961d7 de5aefc1db779e77 15bb50082a70b540 ba5a1717ccf645f2 286de469b8c17fa4 e33234e418b506d9 e5ab4ccb3e293471 f6eab4151d8c4bfc 364152d50e193134 cc4265a5da1ce8fa f7a934f61bec9fa0 2a05d0d4c32d19ba 9d4a02b42dea87cb c9d7276bf6483679 b975503394f337aa c2ddbf75f3dcf83f ea252eb8d6bf52e8 ebb28a928cb4e6e0 8091df1fa39a7eeb fa59d1d32e904a08 bb4530e8eab70dd7 e518cc3e60c5c66 149ca66e3bd71008 a68e1ddf88ab5e96 eeb7bafccfe1d756 8bb8e75eb4dfaaa2 3d8b09398354616a d33638c13247053e e726afe0ac42c435 2f9725a0deef201f 9136255da4b1b919 d0f47d4f02cd5e61 e1bc7e80f85cd53e 9d0e8e57008ba2ef 3590150f2f2a3de eb4f791cee030ba6 ee8eae95e5157fd0 d80823ae885e0773 f661131af1e7afe5 d6fd2fb6c3579cca cbb5a43ee4efc1af d6d77195af055364 f25cf02fc216b758 a70679072dd4a14b dcd9f4af3e12946d 294bc5fdddea9c abb28be7cf36e4de 8d49794ba72fc4cc 250daf69088c8097 d7c365758d72c510 34a289ddd0c03b50 d94cbbe7e50cdec1 f27fa3d1d9b03946 aa7074963110215d 161d001ea7222dae 80d266f403bd307e 34cd51db889ca3ef 2fbed19e2b42db8b 2f000c09caea51f9 d386f5e8b0913892 dbd4141de3cd5de4 2eb7afdd8345c786 33d700198ad42026 eea17e0a823ea5c5 5846d4c8fab1436 1a7f345d9d592de7 1f97d3ad395b6d65 c906819b8920b267 2679e04f251c40f9 de77ae5ee385b5f8 eca66860c611b3fc eb2df4f5a77e2ff9 b03e5f2132048af d931fcabc9a5a353 f123d34cf7aa4e52 aca9701c45ff1a0 e0594f3fc27b93e f3d20790e3fc93ac 285c854cff29683f fb51217efe9c9e91 e299323d36621a3f b58b827eef23290e edbfc7a08af5b789 c157d1c8b0dca3fc 1fffcd0bd058f9dd db4eb167f6e35447 a7bff8430dbf94ab de188e889ca6832f 9389d776c7bfc54e d57f59f9b9673fef d60dc31f3b49cfba 830995083397e882 ecff2871e9979a95 a4e16a4fd888ef02 c20d784c30ceb90 2ca4862627eaff58 73ee5af91ffff5 3c2ceb86d185f075 f970efcd0c94c5de 85b4c5d3e8d171ac ba576221f9e4de27 8679a405c1e1b159 aab3230533c851ef adad30160c2e69d9 ce101b32e50a8527 18d2d7163426d41c c0553df5f8c33e38 ddcdc35fc680072c faa6db488e655927 8728975ff6a09a75 bd20a1a1bafc193d c9617265e4f65abe db96f53337c77cea f2c39627d08a09c4 3580648318b796d5 d07f13bfbc25088c caf1251911759b6 a9cef08bc342a9e6 ff67b273c22f76d4 d346d08afa4e044a 3d90ae310c16c4c4 ce463b98fd15c116 f763c5603cf860a4 c90f2568a18d0c22 9ea2cd38b4f47391 f1ecd43517556100 b8e26d2216069299 cafb062abafbf99d d2515a9dd7853a5b ed8bccf43ce7da60 f7e3d3fd0b33c7c0 e2b9021bb886d31e f56ead7eca352e9b d568f65bd044cf0f 88cba22ded52817c 3787b0173821f876 866c785fe3a4fac eb8cd1280cf0a672 c5129ee8913269b2 8f6cb95e2314813f ] wstrb=[6d b1 86 1f 99 c5 7e 6 76 4 25 f ca a3 15 40 a8 3b 50 72 de 65 b2 86 a0 2 f8 7f 68 ab 5 8 ad fe 87 15 a9 8d 1e 56 8b a5 6c 34 32 8a 8a bd 2f f6 f1 62 80 7c 1f b0 72 11 12 f3 8d 31 a3 ff 42 b5 f2 cf e6 95 cf 29 4a c1 f8 31 57 c7 5a a1 89 52 d2 e0 1a 2c 81 a3 7f 54 83 99 80 4 3c ff 58 bf 98 d9 c3 d4 d8 1c 93 71 f5 57 45 cd 73 d9 3e 68 30 84 35 a3 5d 74 b 8d f8 40 30 55 b4 3b e2 ac 7b 12 1 30 4d e3 dc c8 f5 de f8 42 c1 d5 b b7 b3 3 f9 74 d8 4 2b 8b 8 25 0 e0 29 2b 6c 31 50 6c ] bresp=0 bid=11111
[1715000] ARB MONITOR: slave=0 m0_req=0 m1_req=1 winner=1
[1715000] ARB MONITOR: slave=1 m0_req=1 m1_req=0 winner=0
[1725000] MASTER 1 RECEIVED BRESP. BRESP=0
[1725000] [MASTER DRIVER] mst_id=1 s_id=0 awaddr=16ed7ce8 awid=1111 awlen=163 awsize=0 awburst=1 wdata=[a02819c6f18b344b a515c25c1e03a3bd 3ad47ae0d305c964 c490fdaf38023e94 d605e251dafc94a6 ae025e0ae9a6c00b a1a8fe9f10da5d31 ebd6f1d7f2935bb9 dc3a1bc5f7aee0f0 88893e2119d94fe2 8c6cab9bfde31a64 f591fb55f4602ff9 e397fdbe8a6c760 e689e1c5fe1b3976 f27b696f9aa62b76 34cf2d7dc1bdd1a da37169080b4e94a 1b5b14c1e9d6d49c c5f2b1b6ccb28000 cd67694a1ea80798 87edc34a029c846 ecdc4846e8c27e0b 876a85a3ce718dea ee9b56303a43b191 a3062f9c8fe961d7 de5aefc1db779e77 15bb50082a70b540 ba5a1717ccf645f2 286de469b8c17fa4 e33234e418b506d9 e5ab4ccb3e293471 f6eab4151d8c4bfc 364152d50e193134 cc4265a5da1ce8fa f7a934f61bec9fa0 2a05d0d4c32d19ba 9d4a02b42dea87cb c9d7276bf6483679 b975503394f337aa c2ddbf75f3dcf83f ea252eb8d6bf52e8 ebb28a928cb4e6e0 8091df1fa39a7eeb fa59d1d32e904a08 bb4530e8eab70dd7 e518cc3e60c5c66 149ca66e3bd71008 a68e1ddf88ab5e96 eeb7bafccfe1d756 8bb8e75eb4dfaaa2 3d8b09398354616a d33638c13247053e e726afe0ac42c435 2f9725a0deef201f 9136255da4b1b919 d0f47d4f02cd5e61 e1bc7e80f85cd53e 9d0e8e57008ba2ef 3590150f2f2a3de eb4f791cee030ba6 ee8eae95e5157fd0 d80823ae885e0773 f661131af1e7afe5 d6fd2fb6c3579cca cbb5a43ee4efc1af d6d77195af055364 f25cf02fc216b758 a70679072dd4a14b dcd9f4af3e12946d 294bc5fdddea9c abb28be7cf36e4de 8d49794ba72fc4cc 250daf69088c8097 d7c365758d72c510 34a289ddd0c03b50 d94cbbe7e50cdec1 f27fa3d1d9b03946 aa7074963110215d 161d001ea7222dae 80d266f403bd307e 34cd51db889ca3ef 2fbed19e2b42db8b 2f000c09caea51f9 d386f5e8b0913892 dbd4141de3cd5de4 2eb7afdd8345c786 33d700198ad42026 eea17e0a823ea5c5 5846d4c8fab1436 1a7f345d9d592de7 1f97d3ad395b6d65 c906819b8920b267 2679e04f251c40f9 de77ae5ee385b5f8 eca66860c611b3fc eb2df4f5a77e2ff9 b03e5f2132048af d931fcabc9a5a353 f123d34cf7aa4e52 aca9701c45ff1a0 e0594f3fc27b93e f3d20790e3fc93ac 285c854cff29683f fb51217efe9c9e91 e299323d36621a3f b58b827eef23290e edbfc7a08af5b789 c157d1c8b0dca3fc 1fffcd0bd058f9dd db4eb167f6e35447 a7bff8430dbf94ab de188e889ca6832f 9389d776c7bfc54e d57f59f9b9673fef d60dc31f3b49cfba 830995083397e882 ecff2871e9979a95 a4e16a4fd888ef02 c20d784c30ceb90 2ca4862627eaff58 73ee5af91ffff5 3c2ceb86d185f075 f970efcd0c94c5de 85b4c5d3e8d171ac ba576221f9e4de27 8679a405c1e1b159 aab3230533c851ef adad30160c2e69d9 ce101b32e50a8527 18d2d7163426d41c c0553df5f8c33e38 ddcdc35fc680072c faa6db488e655927 8728975ff6a09a75 bd20a1a1bafc193d c9617265e4f65abe db96f53337c77cea f2c39627d08a09c4 3580648318b796d5 d07f13bfbc25088c caf1251911759b6 a9cef08bc342a9e6 ff67b273c22f76d4 d346d08afa4e044a 3d90ae310c16c4c4 ce463b98fd15c116 f763c5603cf860a4 c90f2568a18d0c22 9ea2cd38b4f47391 f1ecd43517556100 b8e26d2216069299 cafb062abafbf99d d2515a9dd7853a5b ed8bccf43ce7da60 f7e3d3fd0b33c7c0 e2b9021bb886d31e f56ead7eca352e9b d568f65bd044cf0f 88cba22ded52817c 3787b0173821f876 866c785fe3a4fac eb8cd1280cf0a672 c5129ee8913269b2 8f6cb95e2314813f ] wstrb=[6d b1 86 1f 99 c5 7e 6 76 4 25 f ca a3 15 40 a8 3b 50 72 de 65 b2 86 a0 2 f8 7f 68 ab 5 8 ad fe 87 15 a9 8d 1e 56 8b a5 6c 34 32 8a 8a bd 2f f6 f1 62 80 7c 1f b0 72 11 12 f3 8d 31 a3 ff 42 b5 f2 cf e6 95 cf 29 4a c1 f8 31 57 c7 5a a1 89 52 d2 e0 1a 2c 81 a3 7f 54 83 99 80 4 3c ff 58 bf 98 d9 c3 d4 d8 1c 93 71 f5 57 45 cd 73 d9 3e 68 30 84 35 a3 5d 74 b 8d f8 40 30 55 b4 3b e2 ac 7b 12 1 30 4d e3 dc c8 f5 de f8 42 c1 d5 b b7 b3 3 f9 74 d8 4 2b 8b 8 25 0 e0 29 2b 6c 31 50 6c ] bresp=0 bid=1111
[1725000] MASTER 1 B_VALID_RDY Handshake
[1725000] [MASTER MONITOR] mst_id=1 s_id=1 awaddr=16ed7ce8 awid=1111 awlen=163 awsize=0 awburst=1 wdata=[a02819c6f18b344b a515c25c1e03a3bd 3ad47ae0d305c964 c490fdaf38023e94 d605e251dafc94a6 ae025e0ae9a6c00b a1a8fe9f10da5d31 ebd6f1d7f2935bb9 dc3a1bc5f7aee0f0 88893e2119d94fe2 8c6cab9bfde31a64 f591fb55f4602ff9 e397fdbe8a6c760 e689e1c5fe1b3976 f27b696f9aa62b76 34cf2d7dc1bdd1a da37169080b4e94a 1b5b14c1e9d6d49c c5f2b1b6ccb28000 cd67694a1ea80798 87edc34a029c846 ecdc4846e8c27e0b 876a85a3ce718dea ee9b56303a43b191 a3062f9c8fe961d7 de5aefc1db779e77 15bb50082a70b540 ba5a1717ccf645f2 286de469b8c17fa4 e33234e418b506d9 e5ab4ccb3e293471 f6eab4151d8c4bfc 364152d50e193134 cc4265a5da1ce8fa f7a934f61bec9fa0 2a05d0d4c32d19ba 9d4a02b42dea87cb c9d7276bf6483679 b975503394f337aa c2ddbf75f3dcf83f ea252eb8d6bf52e8 ebb28a928cb4e6e0 8091df1fa39a7eeb fa59d1d32e904a08 bb4530e8eab70dd7 e518cc3e60c5c66 149ca66e3bd71008 a68e1ddf88ab5e96 eeb7bafccfe1d756 8bb8e75eb4dfaaa2 3d8b09398354616a d33638c13247053e e726afe0ac42c435 2f9725a0deef201f 9136255da4b1b919 d0f47d4f02cd5e61 e1bc7e80f85cd53e 9d0e8e57008ba2ef 3590150f2f2a3de eb4f791cee030ba6 ee8eae95e5157fd0 d80823ae885e0773 f661131af1e7afe5 d6fd2fb6c3579cca cbb5a43ee4efc1af d6d77195af055364 f25cf02fc216b758 a70679072dd4a14b dcd9f4af3e12946d 294bc5fdddea9c abb28be7cf36e4de 8d49794ba72fc4cc 250daf69088c8097 d7c365758d72c510 34a289ddd0c03b50 d94cbbe7e50cdec1 f27fa3d1d9b03946 aa7074963110215d 161d001ea7222dae 80d266f403bd307e 34cd51db889ca3ef 2fbed19e2b42db8b 2f000c09caea51f9 d386f5e8b0913892 dbd4141de3cd5de4 2eb7afdd8345c786 33d700198ad42026 eea17e0a823ea5c5 5846d4c8fab1436 1a7f345d9d592de7 1f97d3ad395b6d65 c906819b8920b267 2679e04f251c40f9 de77ae5ee385b5f8 eca66860c611b3fc eb2df4f5a77e2ff9 b03e5f2132048af d931fcabc9a5a353 f123d34cf7aa4e52 aca9701c45ff1a0 e0594f3fc27b93e f3d20790e3fc93ac 285c854cff29683f fb51217efe9c9e91 e299323d36621a3f b58b827eef23290e edbfc7a08af5b789 c157d1c8b0dca3fc 1fffcd0bd058f9dd db4eb167f6e35447 a7bff8430dbf94ab de188e889ca6832f 9389d776c7bfc54e d57f59f9b9673fef d60dc31f3b49cfba 830995083397e882 ecff2871e9979a95 a4e16a4fd888ef02 c20d784c30ceb90 2ca4862627eaff58 73ee5af91ffff5 3c2ceb86d185f075 f970efcd0c94c5de 85b4c5d3e8d171ac ba576221f9e4de27 8679a405c1e1b159 aab3230533c851ef adad30160c2e69d9 ce101b32e50a8527 18d2d7163426d41c c0553df5f8c33e38 ddcdc35fc680072c faa6db488e655927 8728975ff6a09a75 bd20a1a1bafc193d c9617265e4f65abe db96f53337c77cea f2c39627d08a09c4 3580648318b796d5 d07f13bfbc25088c caf1251911759b6 a9cef08bc342a9e6 ff67b273c22f76d4 d346d08afa4e044a 3d90ae310c16c4c4 ce463b98fd15c116 f763c5603cf860a4 c90f2568a18d0c22 9ea2cd38b4f47391 f1ecd43517556100 b8e26d2216069299 cafb062abafbf99d d2515a9dd7853a5b ed8bccf43ce7da60 f7e3d3fd0b33c7c0 e2b9021bb886d31e f56ead7eca352e9b d568f65bd044cf0f 88cba22ded52817c 3787b0173821f876 866c785fe3a4fac eb8cd1280cf0a672 c5129ee8913269b2 8f6cb95e2314813f ] wstrb=[6d b1 86 1f 99 c5 7e 6 76 4 25 f ca a3 15 40 a8 3b 50 72 de 65 b2 86 a0 2 f8 7f 68 ab 5 8 ad fe 87 15 a9 8d 1e 56 8b a5 6c 34 32 8a 8a bd 2f f6 f1 62 80 7c 1f b0 72 11 12 f3 8d 31 a3 ff 42 b5 f2 cf e6 95 cf 29 4a c1 f8 31 57 c7 5a a1 89 52 d2 e0 1a 2c 81 a3 7f 54 83 99 80 4 3c ff 58 bf 98 d9 c3 d4 d8 1c 93 71 f5 57 45 cd 73 d9 3e 68 30 84 35 a3 5d 74 b 8d f8 40 30 55 b4 3b e2 ac 7b 12 1 30 4d e3 dc c8 f5 de f8 42 c1 d5 b b7 b3 3 f9 74 d8 4 2b 8b 8 25 0 e0 29 2b 6c 31 50 6c ] bresp=0 bid=1111
[1725000] SLAVE 0 R_VALID_RDY Handshake beat=0 rlast=0
[1725000] MEMORY READ MISS beat=1 addr=3d96770 -> default data id=17
[1725000] S1 MEMORY WRITE beat=0 addr=16e2e918 data=ea9d9901c53839df id=00
[1725000] SCOREBOARD MATCH: decode_err expected = 0, actual =0
[1725000] SCOREBOARD MATCH: slave_id expected = 1, actual =1
[1725000] SCOREBOARD MATCH: awaddr passthrough expected = 16ed7ce8, actual =16ed7ce8
[1725000] SCOREBOARD MATCH: awlen passthrough expected = 163, actual =163
[1725000] SCOREBOARD MATCH: awsize passthrough expected = 0, actual =0
[1725000] SCOREBOARD MATCH: awburst passthrough expected = 1, actual =1
[1725000] SCOREBOARD MATCH: wdata size check expected = a4, actual =a4
[1725000] SCOREBOARD MATCH: wdata passthrough beat=0 expected = a02819c6f18b344b, actual =a02819c6f18b344b
[1725000] SCOREBOARD MATCH: wdata passthrough beat=1 expected = a515c25c1e03a3bd, actual =a515c25c1e03a3bd
[1725000] SCOREBOARD MATCH: wdata passthrough beat=2 expected = 3ad47ae0d305c964, actual =3ad47ae0d305c964
[1725000] SCOREBOARD MATCH: wdata passthrough beat=3 expected = c490fdaf38023e94, actual =c490fdaf38023e94
[1725000] SCOREBOARD MATCH: wdata passthrough beat=4 expected = d605e251dafc94a6, actual =d605e251dafc94a6
[1725000] SCOREBOARD MATCH: wdata passthrough beat=5 expected = ae025e0ae9a6c00b, actual =ae025e0ae9a6c00b
[1725000] SCOREBOARD MATCH: wdata passthrough beat=6 expected = a1a8fe9f10da5d31, actual =a1a8fe9f10da5d31
[1725000] SCOREBOARD MATCH: wdata passthrough beat=7 expected = ebd6f1d7f2935bb9, actual =ebd6f1d7f2935bb9
[1725000] SCOREBOARD MATCH: wdata passthrough beat=8 expected = dc3a1bc5f7aee0f0, actual =dc3a1bc5f7aee0f0
[1725000] SCOREBOARD MATCH: wdata passthrough beat=9 expected = 88893e2119d94fe2, actual =88893e2119d94fe2
[1725000] SCOREBOARD MATCH: wdata passthrough beat=10 expected = 8c6cab9bfde31a64, actual =8c6cab9bfde31a64
[1725000] SCOREBOARD MATCH: wdata passthrough beat=11 expected = f591fb55f4602ff9, actual =f591fb55f4602ff9
[1725000] SCOREBOARD MATCH: wdata passthrough beat=12 expected = e397fdbe8a6c760, actual =e397fdbe8a6c760
[1725000] SCOREBOARD MATCH: wdata passthrough beat=13 expected = e689e1c5fe1b3976, actual =e689e1c5fe1b3976
[1725000] SCOREBOARD MATCH: wdata passthrough beat=14 expected = f27b696f9aa62b76, actual =f27b696f9aa62b76
[1725000] SCOREBOARD MATCH: wdata passthrough beat=15 expected = 34cf2d7dc1bdd1a, actual =34cf2d7dc1bdd1a
[1725000] SCOREBOARD MATCH: wdata passthrough beat=16 expected = da37169080b4e94a, actual =da37169080b4e94a
[1725000] SCOREBOARD MATCH: wdata passthrough beat=17 expected = 1b5b14c1e9d6d49c, actual =1b5b14c1e9d6d49c
[1725000] SCOREBOARD MATCH: wdata passthrough beat=18 expected = c5f2b1b6ccb28000, actual =c5f2b1b6ccb28000
[1725000] SCOREBOARD MATCH: wdata passthrough beat=19 expected = cd67694a1ea80798, actual =cd67694a1ea80798
[1725000] SCOREBOARD MATCH: wdata passthrough beat=20 expected = 87edc34a029c846, actual =87edc34a029c846
[1725000] SCOREBOARD MATCH: wdata passthrough beat=21 expected = ecdc4846e8c27e0b, actual =ecdc4846e8c27e0b
[1725000] SCOREBOARD MATCH: wdata passthrough beat=22 expected = 876a85a3ce718dea, actual =876a85a3ce718dea
[1725000] SCOREBOARD MATCH: wdata passthrough beat=23 expected = ee9b56303a43b191, actual =ee9b56303a43b191
[1725000] SCOREBOARD MATCH: wdata passthrough beat=24 expected = a3062f9c8fe961d7, actual =a3062f9c8fe961d7
[1725000] SCOREBOARD MATCH: wdata passthrough beat=25 expected = de5aefc1db779e77, actual =de5aefc1db779e77
[1725000] SCOREBOARD MATCH: wdata passthrough beat=26 expected = 15bb50082a70b540, actual =15bb50082a70b540
[1725000] SCOREBOARD MATCH: wdata passthrough beat=27 expected = ba5a1717ccf645f2, actual =ba5a1717ccf645f2
[1725000] SCOREBOARD MATCH: wdata passthrough beat=28 expected = 286de469b8c17fa4, actual =286de469b8c17fa4
[1725000] SCOREBOARD MATCH: wdata passthrough beat=29 expected = e33234e418b506d9, actual =e33234e418b506d9
[1725000] SCOREBOARD MATCH: wdata passthrough beat=30 expected = e5ab4ccb3e293471, actual =e5ab4ccb3e293471
[1725000] SCOREBOARD MATCH: wdata passthrough beat=31 expected = f6eab4151d8c4bfc, actual =f6eab4151d8c4bfc
[1725000] SCOREBOARD MATCH: wdata passthrough beat=32 expected = 364152d50e193134, actual =364152d50e193134
[1725000] SCOREBOARD MATCH: wdata passthrough beat=33 expected = cc4265a5da1ce8fa, actual =cc4265a5da1ce8fa
[1725000] SCOREBOARD MATCH: wdata passthrough beat=34 expected = f7a934f61bec9fa0, actual =f7a934f61bec9fa0
[1725000] SCOREBOARD MATCH: wdata passthrough beat=35 expected = 2a05d0d4c32d19ba, actual =2a05d0d4c32d19ba
[1725000] SCOREBOARD MATCH: wdata passthrough beat=36 expected = 9d4a02b42dea87cb, actual =9d4a02b42dea87cb
[1725000] SCOREBOARD MATCH: wdata passthrough beat=37 expected = c9d7276bf6483679, actual =c9d7276bf6483679
[1725000] SCOREBOARD MATCH: wdata passthrough beat=38 expected = b975503394f337aa, actual =b975503394f337aa
[1725000] SCOREBOARD MATCH: wdata passthrough beat=39 expected = c2ddbf75f3dcf83f, actual =c2ddbf75f3dcf83f
[1725000] SCOREBOARD MATCH: wdata passthrough beat=40 expected = ea252eb8d6bf52e8, actual =ea252eb8d6bf52e8
[1725000] SCOREBOARD MATCH: wdata passthrough beat=41 expected = ebb28a928cb4e6e0, actual =ebb28a928cb4e6e0
[1725000] SCOREBOARD MATCH: wdata passthrough beat=42 expected = 8091df1fa39a7eeb, actual =8091df1fa39a7eeb
[1725000] SCOREBOARD MATCH: wdata passthrough beat=43 expected = fa59d1d32e904a08, actual =fa59d1d32e904a08
[1725000] SCOREBOARD MATCH: wdata passthrough beat=44 expected = bb4530e8eab70dd7, actual =bb4530e8eab70dd7
[1725000] SCOREBOARD MATCH: wdata passthrough beat=45 expected = e518cc3e60c5c66, actual =e518cc3e60c5c66
[1725000] SCOREBOARD MATCH: wdata passthrough beat=46 expected = 149ca66e3bd71008, actual =149ca66e3bd71008
[1725000] SCOREBOARD MATCH: wdata passthrough beat=47 expected = a68e1ddf88ab5e96, actual =a68e1ddf88ab5e96
[1725000] SCOREBOARD MATCH: wdata passthrough beat=48 expected = eeb7bafccfe1d756, actual =eeb7bafccfe1d756
[1725000] SCOREBOARD MATCH: wdata passthrough beat=49 expected = 8bb8e75eb4dfaaa2, actual =8bb8e75eb4dfaaa2
[1725000] SCOREBOARD MATCH: wdata passthrough beat=50 expected = 3d8b09398354616a, actual =3d8b09398354616a
[1725000] SCOREBOARD MATCH: wdata passthrough beat=51 expected = d33638c13247053e, actual =d33638c13247053e
[1725000] SCOREBOARD MATCH: wdata passthrough beat=52 expected = e726afe0ac42c435, actual =e726afe0ac42c435
[1725000] SCOREBOARD MATCH: wdata passthrough beat=53 expected = 2f9725a0deef201f, actual =2f9725a0deef201f
[1725000] SCOREBOARD MATCH: wdata passthrough beat=54 expected = 9136255da4b1b919, actual =9136255da4b1b919
[1725000] SCOREBOARD MATCH: wdata passthrough beat=55 expected = d0f47d4f02cd5e61, actual =d0f47d4f02cd5e61
[1725000] SCOREBOARD MATCH: wdata passthrough beat=56 expected = e1bc7e80f85cd53e, actual =e1bc7e80f85cd53e
[1725000] SCOREBOARD MATCH: wdata passthrough beat=57 expected = 9d0e8e57008ba2ef, actual =9d0e8e57008ba2ef
[1725000] SCOREBOARD MATCH: wdata passthrough beat=58 expected = 3590150f2f2a3de, actual =3590150f2f2a3de
[1725000] SCOREBOARD MATCH: wdata passthrough beat=59 expected = eb4f791cee030ba6, actual =eb4f791cee030ba6
[1725000] SCOREBOARD MATCH: wdata passthrough beat=60 expected = ee8eae95e5157fd0, actual =ee8eae95e5157fd0
[1725000] SCOREBOARD MATCH: wdata passthrough beat=61 expected = d80823ae885e0773, actual =d80823ae885e0773
[1725000] SCOREBOARD MATCH: wdata passthrough beat=62 expected = f661131af1e7afe5, actual =f661131af1e7afe5
[1725000] SCOREBOARD MATCH: wdata passthrough beat=63 expected = d6fd2fb6c3579cca, actual =d6fd2fb6c3579cca
[1725000] SCOREBOARD MATCH: wdata passthrough beat=64 expected = cbb5a43ee4efc1af, actual =cbb5a43ee4efc1af
[1725000] SCOREBOARD MATCH: wdata passthrough beat=65 expected = d6d77195af055364, actual =d6d77195af055364
[1725000] SCOREBOARD MATCH: wdata passthrough beat=66 expected = f25cf02fc216b758, actual =f25cf02fc216b758
[1725000] SCOREBOARD MATCH: wdata passthrough beat=67 expected = a70679072dd4a14b, actual =a70679072dd4a14b
[1725000] SCOREBOARD MATCH: wdata passthrough beat=68 expected = dcd9f4af3e12946d, actual =dcd9f4af3e12946d
[1725000] SCOREBOARD MATCH: wdata passthrough beat=69 expected = 294bc5fdddea9c, actual =294bc5fdddea9c
[1725000] SCOREBOARD MATCH: wdata passthrough beat=70 expected = abb28be7cf36e4de, actual =abb28be7cf36e4de
[1725000] SCOREBOARD MATCH: wdata passthrough beat=71 expected = 8d49794ba72fc4cc, actual =8d49794ba72fc4cc
[1725000] SCOREBOARD MATCH: wdata passthrough beat=72 expected = 250daf69088c8097, actual =250daf69088c8097
[1725000] SCOREBOARD MATCH: wdata passthrough beat=73 expected = d7c365758d72c510, actual =d7c365758d72c510
[1725000] SCOREBOARD MATCH: wdata passthrough beat=74 expected = 34a289ddd0c03b50, actual =34a289ddd0c03b50
[1725000] SCOREBOARD MATCH: wdata passthrough beat=75 expected = d94cbbe7e50cdec1, actual =d94cbbe7e50cdec1
[1725000] SCOREBOARD MATCH: wdata passthrough beat=76 expected = f27fa3d1d9b03946, actual =f27fa3d1d9b03946
[1725000] SCOREBOARD MATCH: wdata passthrough beat=77 expected = aa7074963110215d, actual =aa7074963110215d
[1725000] SCOREBOARD MATCH: wdata passthrough beat=78 expected = 161d001ea7222dae, actual =161d001ea7222dae
[1725000] SCOREBOARD MATCH: wdata passthrough beat=79 expected = 80d266f403bd307e, actual =80d266f403bd307e
[1725000] SCOREBOARD MATCH: wdata passthrough beat=80 expected = 34cd51db889ca3ef, actual =34cd51db889ca3ef
[1725000] SCOREBOARD MATCH: wdata passthrough beat=81 expected = 2fbed19e2b42db8b, actual =2fbed19e2b42db8b
[1725000] SCOREBOARD MATCH: wdata passthrough beat=82 expected = 2f000c09caea51f9, actual =2f000c09caea51f9
[1725000] SCOREBOARD MATCH: wdata passthrough beat=83 expected = d386f5e8b0913892, actual =d386f5e8b0913892
[1725000] SCOREBOARD MATCH: wdata passthrough beat=84 expected = dbd4141de3cd5de4, actual =dbd4141de3cd5de4
[1725000] SCOREBOARD MATCH: wdata passthrough beat=85 expected = 2eb7afdd8345c786, actual =2eb7afdd8345c786
[1725000] SCOREBOARD MATCH: wdata passthrough beat=86 expected = 33d700198ad42026, actual =33d700198ad42026
[1725000] SCOREBOARD MATCH: wdata passthrough beat=87 expected = eea17e0a823ea5c5, actual =eea17e0a823ea5c5
[1725000] SCOREBOARD MATCH: wdata passthrough beat=88 expected = 5846d4c8fab1436, actual =5846d4c8fab1436
[1725000] SCOREBOARD MATCH: wdata passthrough beat=89 expected = 1a7f345d9d592de7, actual =1a7f345d9d592de7
[1725000] SCOREBOARD MATCH: wdata passthrough beat=90 expected = 1f97d3ad395b6d65, actual =1f97d3ad395b6d65
[1725000] SCOREBOARD MATCH: wdata passthrough beat=91 expected = c906819b8920b267, actual =c906819b8920b267
[1725000] SCOREBOARD MATCH: wdata passthrough beat=92 expected = 2679e04f251c40f9, actual =2679e04f251c40f9
[1725000] SCOREBOARD MATCH: wdata passthrough beat=93 expected = de77ae5ee385b5f8, actual =de77ae5ee385b5f8
[1725000] SCOREBOARD MATCH: wdata passthrough beat=94 expected = eca66860c611b3fc, actual =eca66860c611b3fc
[1725000] SCOREBOARD MATCH: wdata passthrough beat=95 expected = eb2df4f5a77e2ff9, actual =eb2df4f5a77e2ff9
[1725000] SCOREBOARD MATCH: wdata passthrough beat=96 expected = b03e5f2132048af, actual =b03e5f2132048af
[1725000] SCOREBOARD MATCH: wdata passthrough beat=97 expected = d931fcabc9a5a353, actual =d931fcabc9a5a353
[1725000] SCOREBOARD MATCH: wdata passthrough beat=98 expected = f123d34cf7aa4e52, actual =f123d34cf7aa4e52
[1725000] SCOREBOARD MATCH: wdata passthrough beat=99 expected = aca9701c45ff1a0, actual =aca9701c45ff1a0
[1725000] SCOREBOARD MATCH: wdata passthrough beat=100 expected = e0594f3fc27b93e, actual =e0594f3fc27b93e
[1725000] SCOREBOARD MATCH: wdata passthrough beat=101 expected = f3d20790e3fc93ac, actual =f3d20790e3fc93ac
[1725000] SCOREBOARD MATCH: wdata passthrough beat=102 expected = 285c854cff29683f, actual =285c854cff29683f
[1725000] SCOREBOARD MATCH: wdata passthrough beat=103 expected = fb51217efe9c9e91, actual =fb51217efe9c9e91
[1725000] SCOREBOARD MATCH: wdata passthrough beat=104 expected = e299323d36621a3f, actual =e299323d36621a3f
[1725000] SCOREBOARD MATCH: wdata passthrough beat=105 expected = b58b827eef23290e, actual =b58b827eef23290e
[1725000] SCOREBOARD MATCH: wdata passthrough beat=106 expected = edbfc7a08af5b789, actual =edbfc7a08af5b789
[1725000] SCOREBOARD MATCH: wdata passthrough beat=107 expected = c157d1c8b0dca3fc, actual =c157d1c8b0dca3fc
[1725000] SCOREBOARD MATCH: wdata passthrough beat=108 expected = 1fffcd0bd058f9dd, actual =1fffcd0bd058f9dd
[1725000] SCOREBOARD MATCH: wdata passthrough beat=109 expected = db4eb167f6e35447, actual =db4eb167f6e35447
[1725000] SCOREBOARD MATCH: wdata passthrough beat=110 expected = a7bff8430dbf94ab, actual =a7bff8430dbf94ab
[1725000] SCOREBOARD MATCH: wdata passthrough beat=111 expected = de188e889ca6832f, actual =de188e889ca6832f
[1725000] SCOREBOARD MATCH: wdata passthrough beat=112 expected = 9389d776c7bfc54e, actual =9389d776c7bfc54e
[1725000] SCOREBOARD MATCH: wdata passthrough beat=113 expected = d57f59f9b9673fef, actual =d57f59f9b9673fef
[1725000] SCOREBOARD MATCH: wdata passthrough beat=114 expected = d60dc31f3b49cfba, actual =d60dc31f3b49cfba
[1725000] SCOREBOARD MATCH: wdata passthrough beat=115 expected = 830995083397e882, actual =830995083397e882
[1725000] SCOREBOARD MATCH: wdata passthrough beat=116 expected = ecff2871e9979a95, actual =ecff2871e9979a95
[1725000] SCOREBOARD MATCH: wdata passthrough beat=117 expected = a4e16a4fd888ef02, actual =a4e16a4fd888ef02
[1725000] SCOREBOARD MATCH: wdata passthrough beat=118 expected = c20d784c30ceb90, actual =c20d784c30ceb90
[1725000] SCOREBOARD MATCH: wdata passthrough beat=119 expected = 2ca4862627eaff58, actual =2ca4862627eaff58
[1725000] SCOREBOARD MATCH: wdata passthrough beat=120 expected = 73ee5af91ffff5, actual =73ee5af91ffff5
[1725000] SCOREBOARD MATCH: wdata passthrough beat=121 expected = 3c2ceb86d185f075, actual =3c2ceb86d185f075
[1725000] SCOREBOARD MATCH: wdata passthrough beat=122 expected = f970efcd0c94c5de, actual =f970efcd0c94c5de
[1725000] SCOREBOARD MATCH: wdata passthrough beat=123 expected = 85b4c5d3e8d171ac, actual =85b4c5d3e8d171ac
[1725000] SCOREBOARD MATCH: wdata passthrough beat=124 expected = ba576221f9e4de27, actual =ba576221f9e4de27
[1725000] SCOREBOARD MATCH: wdata passthrough beat=125 expected = 8679a405c1e1b159, actual =8679a405c1e1b159
[1725000] SCOREBOARD MATCH: wdata passthrough beat=126 expected = aab3230533c851ef, actual =aab3230533c851ef
[1725000] SCOREBOARD MATCH: wdata passthrough beat=127 expected = adad30160c2e69d9, actual =adad30160c2e69d9
[1725000] SCOREBOARD MATCH: wdata passthrough beat=128 expected = ce101b32e50a8527, actual =ce101b32e50a8527
[1725000] SCOREBOARD MATCH: wdata passthrough beat=129 expected = 18d2d7163426d41c, actual =18d2d7163426d41c
[1725000] SCOREBOARD MATCH: wdata passthrough beat=130 expected = c0553df5f8c33e38, actual =c0553df5f8c33e38
[1725000] SCOREBOARD MATCH: wdata passthrough beat=131 expected = ddcdc35fc680072c, actual =ddcdc35fc680072c
[1725000] SCOREBOARD MATCH: wdata passthrough beat=132 expected = faa6db488e655927, actual =faa6db488e655927
[1725000] SCOREBOARD MATCH: wdata passthrough beat=133 expected = 8728975ff6a09a75, actual =8728975ff6a09a75
[1725000] SCOREBOARD MATCH: wdata passthrough beat=134 expected = bd20a1a1bafc193d, actual =bd20a1a1bafc193d
[1725000] SCOREBOARD MATCH: wdata passthrough beat=135 expected = c9617265e4f65abe, actual =c9617265e4f65abe
[1725000] SCOREBOARD MATCH: wdata passthrough beat=136 expected = db96f53337c77cea, actual =db96f53337c77cea
[1725000] SCOREBOARD MATCH: wdata passthrough beat=137 expected = f2c39627d08a09c4, actual =f2c39627d08a09c4
[1725000] SCOREBOARD MATCH: wdata passthrough beat=138 expected = 3580648318b796d5, actual =3580648318b796d5
[1725000] SCOREBOARD MATCH: wdata passthrough beat=139 expected = d07f13bfbc25088c, actual =d07f13bfbc25088c
[1725000] SCOREBOARD MATCH: wdata passthrough beat=140 expected = caf1251911759b6, actual =caf1251911759b6
[1725000] SCOREBOARD MATCH: wdata passthrough beat=141 expected = a9cef08bc342a9e6, actual =a9cef08bc342a9e6
[1725000] SCOREBOARD MATCH: wdata passthrough beat=142 expected = ff67b273c22f76d4, actual =ff67b273c22f76d4
[1725000] SCOREBOARD MATCH: wdata passthrough beat=143 expected = d346d08afa4e044a, actual =d346d08afa4e044a
[1725000] SCOREBOARD MATCH: wdata passthrough beat=144 expected = 3d90ae310c16c4c4, actual =3d90ae310c16c4c4
[1725000] SCOREBOARD MATCH: wdata passthrough beat=145 expected = ce463b98fd15c116, actual =ce463b98fd15c116
[1725000] SCOREBOARD MATCH: wdata passthrough beat=146 expected = f763c5603cf860a4, actual =f763c5603cf860a4
[1725000] SCOREBOARD MATCH: wdata passthrough beat=147 expected = c90f2568a18d0c22, actual =c90f2568a18d0c22
[1725000] SCOREBOARD MATCH: wdata passthrough beat=148 expected = 9ea2cd38b4f47391, actual =9ea2cd38b4f47391
[1725000] SCOREBOARD MATCH: wdata passthrough beat=149 expected = f1ecd43517556100, actual =f1ecd43517556100
[1725000] SCOREBOARD MATCH: wdata passthrough beat=150 expected = b8e26d2216069299, actual =b8e26d2216069299
[1725000] SCOREBOARD MATCH: wdata passthrough beat=151 expected = cafb062abafbf99d, actual =cafb062abafbf99d
[1725000] SCOREBOARD MATCH: wdata passthrough beat=152 expected = d2515a9dd7853a5b, actual =d2515a9dd7853a5b
[1725000] SCOREBOARD MATCH: wdata passthrough beat=153 expected = ed8bccf43ce7da60, actual =ed8bccf43ce7da60
[1725000] SCOREBOARD MATCH: wdata passthrough beat=154 expected = f7e3d3fd0b33c7c0, actual =f7e3d3fd0b33c7c0
[1725000] SCOREBOARD MATCH: wdata passthrough beat=155 expected = e2b9021bb886d31e, actual =e2b9021bb886d31e
[1725000] SCOREBOARD MATCH: wdata passthrough beat=156 expected = f56ead7eca352e9b, actual =f56ead7eca352e9b
[1725000] SCOREBOARD MATCH: wdata passthrough beat=157 expected = d568f65bd044cf0f, actual =d568f65bd044cf0f
[1725000] SCOREBOARD MATCH: wdata passthrough beat=158 expected = 88cba22ded52817c, actual =88cba22ded52817c
[1725000] SCOREBOARD MATCH: wdata passthrough beat=159 expected = 3787b0173821f876, actual =3787b0173821f876
[1725000] SCOREBOARD MATCH: wdata passthrough beat=160 expected = 866c785fe3a4fac, actual =866c785fe3a4fac
[1725000] SCOREBOARD MATCH: wdata passthrough beat=161 expected = eb8cd1280cf0a672, actual =eb8cd1280cf0a672
[1725000] SCOREBOARD MATCH: wdata passthrough beat=162 expected = c5129ee8913269b2, actual =c5129ee8913269b2
[1725000] SCOREBOARD MATCH: wdata passthrough beat=163 expected = 8f6cb95e2314813f, actual =8f6cb95e2314813f
[1725000] SCOREBOARD MATCH: wstrb size check expected = a4, actual =a4
[1725000] SCOREBOARD MATCH: wstrb passthrough beat=0 expected = 6d, actual =6d
[1725000] SCOREBOARD MATCH: wstrb passthrough beat=1 expected = b1, actual =b1
[1725000] SCOREBOARD MATCH: wstrb passthrough beat=2 expected = 86, actual =86
[1725000] SCOREBOARD MATCH: wstrb passthrough beat=3 expected = 1f, actual =1f
[1725000] SCOREBOARD MATCH: wstrb passthrough beat=4 expected = 99, actual =99
[1725000] SCOREBOARD MATCH: wstrb passthrough beat=5 expected = c5, actual =c5
[1725000] SCOREBOARD MATCH: wstrb passthrough beat=6 expected = 7e, actual =7e
[1725000] SCOREBOARD MATCH: wstrb passthrough beat=7 expected = 6, actual =6
[1725000] SCOREBOARD MATCH: wstrb passthrough beat=8 expected = 76, actual =76
[1725000] SCOREBOARD MATCH: wstrb passthrough beat=9 expected = 4, actual =4
[1725000] SCOREBOARD MATCH: wstrb passthrough beat=10 expected = 25, actual =25
[1725000] SCOREBOARD MATCH: wstrb passthrough beat=11 expected = f, actual =f
[1725000] SCOREBOARD MATCH: wstrb passthrough beat=12 expected = ca, actual =ca
[1725000] SCOREBOARD MATCH: wstrb passthrough beat=13 expected = a3, actual =a3
[1725000] SCOREBOARD MATCH: wstrb passthrough beat=14 expected = 15, actual =15
[1725000] SCOREBOARD MATCH: wstrb passthrough beat=15 expected = 40, actual =40
[1725000] SCOREBOARD MATCH: wstrb passthrough beat=16 expected = a8, actual =a8
[1725000] SCOREBOARD MATCH: wstrb passthrough beat=17 expected = 3b, actual =3b
[1725000] SCOREBOARD MATCH: wstrb passthrough beat=18 expected = 50, actual =50
[1725000] SCOREBOARD MATCH: wstrb passthrough beat=19 expected = 72, actual =72
[1725000] SCOREBOARD MATCH: wstrb passthrough beat=20 expected = de, actual =de
[1725000] SCOREBOARD MATCH: wstrb passthrough beat=21 expected = 65, actual =65
[1725000] SCOREBOARD MATCH: wstrb passthrough beat=22 expected = b2, actual =b2
[1725000] SCOREBOARD MATCH: wstrb passthrough beat=23 expected = 86, actual =86
[1725000] SCOREBOARD MATCH: wstrb passthrough beat=24 expected = a0, actual =a0
[1725000] SCOREBOARD MATCH: wstrb passthrough beat=25 expected = 2, actual =2
[1725000] SCOREBOARD MATCH: wstrb passthrough beat=26 expected = f8, actual =f8
[1725000] SCOREBOARD MATCH: wstrb passthrough beat=27 expected = 7f, actual =7f
[1725000] SCOREBOARD MATCH: wstrb passthrough beat=28 expected = 68, actual =68
[1725000] SCOREBOARD MATCH: wstrb passthrough beat=29 expected = ab, actual =ab
[1725000] SCOREBOARD MATCH: wstrb passthrough beat=30 expected = 5, actual =5
[1725000] SCOREBOARD MATCH: wstrb passthrough beat=31 expected = 8, actual =8
[1725000] SCOREBOARD MATCH: wstrb passthrough beat=32 expected = ad, actual =ad
[1725000] SCOREBOARD MATCH: wstrb passthrough beat=33 expected = fe, actual =fe
[1725000] SCOREBOARD MATCH: wstrb passthrough beat=34 expected = 87, actual =87
[1725000] SCOREBOARD MATCH: wstrb passthrough beat=35 expected = 15, actual =15
[1725000] SCOREBOARD MATCH: wstrb passthrough beat=36 expected = a9, actual =a9
[1725000] SCOREBOARD MATCH: wstrb passthrough beat=37 expected = 8d, actual =8d
[1725000] SCOREBOARD MATCH: wstrb passthrough beat=38 expected = 1e, actual =1e
[1725000] SCOREBOARD MATCH: wstrb passthrough beat=39 expected = 56, actual =56
[1725000] SCOREBOARD MATCH: wstrb passthrough beat=40 expected = 8b, actual =8b
[1725000] SCOREBOARD MATCH: wstrb passthrough beat=41 expected = a5, actual =a5
[1725000] SCOREBOARD MATCH: wstrb passthrough beat=42 expected = 6c, actual =6c
[1725000] SCOREBOARD MATCH: wstrb passthrough beat=43 expected = 34, actual =34
[1725000] SCOREBOARD MATCH: wstrb passthrough beat=44 expected = 32, actual =32
[1725000] SCOREBOARD MATCH: wstrb passthrough beat=45 expected = 8a, actual =8a
[1725000] SCOREBOARD MATCH: wstrb passthrough beat=46 expected = 8a, actual =8a
[1725000] SCOREBOARD MATCH: wstrb passthrough beat=47 expected = bd, actual =bd
[1725000] SCOREBOARD MATCH: wstrb passthrough beat=48 expected = 2f, actual =2f
[1725000] SCOREBOARD MATCH: wstrb passthrough beat=49 expected = f6, actual =f6
[1725000] SCOREBOARD MATCH: wstrb passthrough beat=50 expected = f1, actual =f1
[1725000] SCOREBOARD MATCH: wstrb passthrough beat=51 expected = 62, actual =62
[1725000] SCOREBOARD MATCH: wstrb passthrough beat=52 expected = 80, actual =80
[1725000] SCOREBOARD MATCH: wstrb passthrough beat=53 expected = 7c, actual =7c
[1725000] SCOREBOARD MATCH: wstrb passthrough beat=54 expected = 1f, actual =1f
[1725000] SCOREBOARD MATCH: wstrb passthrough beat=55 expected = b0, actual =b0
[1725000] SCOREBOARD MATCH: wstrb passthrough beat=56 expected = 72, actual =72
[1725000] SCOREBOARD MATCH: wstrb passthrough beat=57 expected = 11, actual =11
[1725000] SCOREBOARD MATCH: wstrb passthrough beat=58 expected = 12, actual =12
[1725000] SCOREBOARD MATCH: wstrb passthrough beat=59 expected = f3, actual =f3
[1725000] SCOREBOARD MATCH: wstrb passthrough beat=60 expected = 8d, actual =8d
[1725000] SCOREBOARD MATCH: wstrb passthrough beat=61 expected = 31, actual =31
[1725000] SCOREBOARD MATCH: wstrb passthrough beat=62 expected = a3, actual =a3
[1725000] SCOREBOARD MATCH: wstrb passthrough beat=63 expected = ff, actual =ff
[1725000] SCOREBOARD MATCH: wstrb passthrough beat=64 expected = 42, actual =42
[1725000] SCOREBOARD MATCH: wstrb passthrough beat=65 expected = b5, actual =b5
[1725000] SCOREBOARD MATCH: wstrb passthrough beat=66 expected = f2, actual =f2
[1725000] SCOREBOARD MATCH: wstrb passthrough beat=67 expected = cf, actual =cf
[1725000] SCOREBOARD MATCH: wstrb passthrough beat=68 expected = e6, actual =e6
[1725000] SCOREBOARD MATCH: wstrb passthrough beat=69 expected = 95, actual =95
[1725000] SCOREBOARD MATCH: wstrb passthrough beat=70 expected = cf, actual =cf
[1725000] SCOREBOARD MATCH: wstrb passthrough beat=71 expected = 29, actual =29
[1725000] SCOREBOARD MATCH: wstrb passthrough beat=72 expected = 4a, actual =4a
[1725000] SCOREBOARD MATCH: wstrb passthrough beat=73 expected = c1, actual =c1
[1725000] SCOREBOARD MATCH: wstrb passthrough beat=74 expected = f8, actual =f8
[1725000] SCOREBOARD MATCH: wstrb passthrough beat=75 expected = 31, actual =31
[1725000] SCOREBOARD MATCH: wstrb passthrough beat=76 expected = 57, actual =57
[1725000] SCOREBOARD MATCH: wstrb passthrough beat=77 expected = c7, actual =c7
[1725000] SCOREBOARD MATCH: wstrb passthrough beat=78 expected = 5a, actual =5a
[1725000] SCOREBOARD MATCH: wstrb passthrough beat=79 expected = a1, actual =a1
[1725000] SCOREBOARD MATCH: wstrb passthrough beat=80 expected = 89, actual =89
[1725000] SCOREBOARD MATCH: wstrb passthrough beat=81 expected = 52, actual =52
[1725000] SCOREBOARD MATCH: wstrb passthrough beat=82 expected = d2, actual =d2
[1725000] SCOREBOARD MATCH: wstrb passthrough beat=83 expected = e0, actual =e0
[1725000] SCOREBOARD MATCH: wstrb passthrough beat=84 expected = 1a, actual =1a
[1725000] SCOREBOARD MATCH: wstrb passthrough beat=85 expected = 2c, actual =2c
[1725000] SCOREBOARD MATCH: wstrb passthrough beat=86 expected = 81, actual =81
[1725000] SCOREBOARD MATCH: wstrb passthrough beat=87 expected = a3, actual =a3
[1725000] SCOREBOARD MATCH: wstrb passthrough beat=88 expected = 7f, actual =7f
[1725000] SCOREBOARD MATCH: wstrb passthrough beat=89 expected = 54, actual =54
[1725000] SCOREBOARD MATCH: wstrb passthrough beat=90 expected = 83, actual =83
[1725000] SCOREBOARD MATCH: wstrb passthrough beat=91 expected = 99, actual =99
[1725000] SCOREBOARD MATCH: wstrb passthrough beat=92 expected = 80, actual =80
[1725000] SCOREBOARD MATCH: wstrb passthrough beat=93 expected = 4, actual =4
[1725000] SCOREBOARD MATCH: wstrb passthrough beat=94 expected = 3c, actual =3c
[1725000] SCOREBOARD MATCH: wstrb passthrough beat=95 expected = ff, actual =ff
[1725000] SCOREBOARD MATCH: wstrb passthrough beat=96 expected = 58, actual =58
[1725000] SCOREBOARD MATCH: wstrb passthrough beat=97 expected = bf, actual =bf
[1725000] SCOREBOARD MATCH: wstrb passthrough beat=98 expected = 98, actual =98
[1725000] SCOREBOARD MATCH: wstrb passthrough beat=99 expected = d9, actual =d9
[1725000] SCOREBOARD MATCH: wstrb passthrough beat=100 expected = c3, actual =c3
[1725000] SCOREBOARD MATCH: wstrb passthrough beat=101 expected = d4, actual =d4
[1725000] SCOREBOARD MATCH: wstrb passthrough beat=102 expected = d8, actual =d8
[1725000] SCOREBOARD MATCH: wstrb passthrough beat=103 expected = 1c, actual =1c
[1725000] SCOREBOARD MATCH: wstrb passthrough beat=104 expected = 93, actual =93
[1725000] SCOREBOARD MATCH: wstrb passthrough beat=105 expected = 71, actual =71
[1725000] SCOREBOARD MATCH: wstrb passthrough beat=106 expected = f5, actual =f5
[1725000] SCOREBOARD MATCH: wstrb passthrough beat=107 expected = 57, actual =57
[1725000] SCOREBOARD MATCH: wstrb passthrough beat=108 expected = 45, actual =45
[1725000] SCOREBOARD MATCH: wstrb passthrough beat=109 expected = cd, actual =cd
[1725000] SCOREBOARD MATCH: wstrb passthrough beat=110 expected = 73, actual =73
[1725000] SCOREBOARD MATCH: wstrb passthrough beat=111 expected = d9, actual =d9
[1725000] SCOREBOARD MATCH: wstrb passthrough beat=112 expected = 3e, actual =3e
[1725000] SCOREBOARD MATCH: wstrb passthrough beat=113 expected = 68, actual =68
[1725000] SCOREBOARD MATCH: wstrb passthrough beat=114 expected = 30, actual =30
[1725000] SCOREBOARD MATCH: wstrb passthrough beat=115 expected = 84, actual =84
[1725000] SCOREBOARD MATCH: wstrb passthrough beat=116 expected = 35, actual =35
[1725000] SCOREBOARD MATCH: wstrb passthrough beat=117 expected = a3, actual =a3
[1725000] SCOREBOARD MATCH: wstrb passthrough beat=118 expected = 5d, actual =5d
[1725000] SCOREBOARD MATCH: wstrb passthrough beat=119 expected = 74, actual =74
[1725000] SCOREBOARD MATCH: wstrb passthrough beat=120 expected = b, actual =b
[1725000] SCOREBOARD MATCH: wstrb passthrough beat=121 expected = 8d, actual =8d
[1725000] SCOREBOARD MATCH: wstrb passthrough beat=122 expected = f8, actual =f8
[1725000] SCOREBOARD MATCH: wstrb passthrough beat=123 expected = 40, actual =40
[1725000] SCOREBOARD MATCH: wstrb passthrough beat=124 expected = 30, actual =30
[1725000] SCOREBOARD MATCH: wstrb passthrough beat=125 expected = 55, actual =55
[1725000] SCOREBOARD MATCH: wstrb passthrough beat=126 expected = b4, actual =b4
[1725000] SCOREBOARD MATCH: wstrb passthrough beat=127 expected = 3b, actual =3b
[1725000] SCOREBOARD MATCH: wstrb passthrough beat=128 expected = e2, actual =e2
[1725000] SCOREBOARD MATCH: wstrb passthrough beat=129 expected = ac, actual =ac
[1725000] SCOREBOARD MATCH: wstrb passthrough beat=130 expected = 7b, actual =7b
[1725000] SCOREBOARD MATCH: wstrb passthrough beat=131 expected = 12, actual =12
[1725000] SCOREBOARD MATCH: wstrb passthrough beat=132 expected = 1, actual =1
[1725000] SCOREBOARD MATCH: wstrb passthrough beat=133 expected = 30, actual =30
[1725000] SCOREBOARD MATCH: wstrb passthrough beat=134 expected = 4d, actual =4d
[1725000] SCOREBOARD MATCH: wstrb passthrough beat=135 expected = e3, actual =e3
[1725000] SCOREBOARD MATCH: wstrb passthrough beat=136 expected = dc, actual =dc
[1725000] SCOREBOARD MATCH: wstrb passthrough beat=137 expected = c8, actual =c8
[1725000] SCOREBOARD MATCH: wstrb passthrough beat=138 expected = f5, actual =f5
[1725000] SCOREBOARD MATCH: wstrb passthrough beat=139 expected = de, actual =de
[1725000] SCOREBOARD MATCH: wstrb passthrough beat=140 expected = f8, actual =f8
[1725000] SCOREBOARD MATCH: wstrb passthrough beat=141 expected = 42, actual =42
[1725000] SCOREBOARD MATCH: wstrb passthrough beat=142 expected = c1, actual =c1
[1725000] SCOREBOARD MATCH: wstrb passthrough beat=143 expected = d5, actual =d5
[1725000] SCOREBOARD MATCH: wstrb passthrough beat=144 expected = b, actual =b
[1725000] SCOREBOARD MATCH: wstrb passthrough beat=145 expected = b7, actual =b7
[1725000] SCOREBOARD MATCH: wstrb passthrough beat=146 expected = b3, actual =b3
[1725000] SCOREBOARD MATCH: wstrb passthrough beat=147 expected = 3, actual =3
[1725000] SCOREBOARD MATCH: wstrb passthrough beat=148 expected = f9, actual =f9
[1725000] SCOREBOARD MATCH: wstrb passthrough beat=149 expected = 74, actual =74
[1725000] SCOREBOARD MATCH: wstrb passthrough beat=150 expected = d8, actual =d8
[1725000] SCOREBOARD MATCH: wstrb passthrough beat=151 expected = 4, actual =4
[1725000] SCOREBOARD MATCH: wstrb passthrough beat=152 expected = 2b, actual =2b
[1725000] SCOREBOARD MATCH: wstrb passthrough beat=153 expected = 8b, actual =8b
[1725000] SCOREBOARD MATCH: wstrb passthrough beat=154 expected = 8, actual =8
[1725000] SCOREBOARD MATCH: wstrb passthrough beat=155 expected = 25, actual =25
[1725000] SCOREBOARD MATCH: wstrb passthrough beat=156 expected = 0, actual =0
[1725000] SCOREBOARD MATCH: wstrb passthrough beat=157 expected = e0, actual =e0
[1725000] SCOREBOARD MATCH: wstrb passthrough beat=158 expected = 29, actual =29
[1725000] SCOREBOARD MATCH: wstrb passthrough beat=159 expected = 2b, actual =2b
[1725000] SCOREBOARD MATCH: wstrb passthrough beat=160 expected = 6c, actual =6c
[1725000] SCOREBOARD MATCH: wstrb passthrough beat=161 expected = 31, actual =31
[1725000] SCOREBOARD MATCH: wstrb passthrough beat=162 expected = 50, actual =50
[1725000] SCOREBOARD MATCH: wstrb passthrough beat=163 expected = 6c, actual =6c
[1725000] SCOREBOARD MATCH: bresp passthrough expected = 0, actual =0
[1725000] SCOREBOARD MATCH: response routed to correct master (write) expected = 1, actual =1
[1725000] [SCOREBOARD-M] mst_id=1 s_id=1 awaddr=16ed7ce8 awid=1111 awlen=163 awsize=0 awburst=1 wdata=[a02819c6f18b344b a515c25c1e03a3bd 3ad47ae0d305c964 c490fdaf38023e94 d605e251dafc94a6 ae025e0ae9a6c00b a1a8fe9f10da5d31 ebd6f1d7f2935bb9 dc3a1bc5f7aee0f0 88893e2119d94fe2 8c6cab9bfde31a64 f591fb55f4602ff9 e397fdbe8a6c760 e689e1c5fe1b3976 f27b696f9aa62b76 34cf2d7dc1bdd1a da37169080b4e94a 1b5b14c1e9d6d49c c5f2b1b6ccb28000 cd67694a1ea80798 87edc34a029c846 ecdc4846e8c27e0b 876a85a3ce718dea ee9b56303a43b191 a3062f9c8fe961d7 de5aefc1db779e77 15bb50082a70b540 ba5a1717ccf645f2 286de469b8c17fa4 e33234e418b506d9 e5ab4ccb3e293471 f6eab4151d8c4bfc 364152d50e193134 cc4265a5da1ce8fa f7a934f61bec9fa0 2a05d0d4c32d19ba 9d4a02b42dea87cb c9d7276bf6483679 b975503394f337aa c2ddbf75f3dcf83f ea252eb8d6bf52e8 ebb28a928cb4e6e0 8091df1fa39a7eeb fa59d1d32e904a08 bb4530e8eab70dd7 e518cc3e60c5c66 149ca66e3bd71008 a68e1ddf88ab5e96 eeb7bafccfe1d756 8bb8e75eb4dfaaa2 3d8b09398354616a d33638c13247053e e726afe0ac42c435 2f9725a0deef201f 9136255da4b1b919 d0f47d4f02cd5e61 e1bc7e80f85cd53e 9d0e8e57008ba2ef 3590150f2f2a3de eb4f791cee030ba6 ee8eae95e5157fd0 d80823ae885e0773 f661131af1e7afe5 d6fd2fb6c3579cca cbb5a43ee4efc1af d6d77195af055364 f25cf02fc216b758 a70679072dd4a14b dcd9f4af3e12946d 294bc5fdddea9c abb28be7cf36e4de 8d49794ba72fc4cc 250daf69088c8097 d7c365758d72c510 34a289ddd0c03b50 d94cbbe7e50cdec1 f27fa3d1d9b03946 aa7074963110215d 161d001ea7222dae 80d266f403bd307e 34cd51db889ca3ef 2fbed19e2b42db8b 2f000c09caea51f9 d386f5e8b0913892 dbd4141de3cd5de4 2eb7afdd8345c786 33d700198ad42026 eea17e0a823ea5c5 5846d4c8fab1436 1a7f345d9d592de7 1f97d3ad395b6d65 c906819b8920b267 2679e04f251c40f9 de77ae5ee385b5f8 eca66860c611b3fc eb2df4f5a77e2ff9 b03e5f2132048af d931fcabc9a5a353 f123d34cf7aa4e52 aca9701c45ff1a0 e0594f3fc27b93e f3d20790e3fc93ac 285c854cff29683f fb51217efe9c9e91 e299323d36621a3f b58b827eef23290e edbfc7a08af5b789 c157d1c8b0dca3fc 1fffcd0bd058f9dd db4eb167f6e35447 a7bff8430dbf94ab de188e889ca6832f 9389d776c7bfc54e d57f59f9b9673fef d60dc31f3b49cfba 830995083397e882 ecff2871e9979a95 a4e16a4fd888ef02 c20d784c30ceb90 2ca4862627eaff58 73ee5af91ffff5 3c2ceb86d185f075 f970efcd0c94c5de 85b4c5d3e8d171ac ba576221f9e4de27 8679a405c1e1b159 aab3230533c851ef adad30160c2e69d9 ce101b32e50a8527 18d2d7163426d41c c0553df5f8c33e38 ddcdc35fc680072c faa6db488e655927 8728975ff6a09a75 bd20a1a1bafc193d c9617265e4f65abe db96f53337c77cea f2c39627d08a09c4 3580648318b796d5 d07f13bfbc25088c caf1251911759b6 a9cef08bc342a9e6 ff67b273c22f76d4 d346d08afa4e044a 3d90ae310c16c4c4 ce463b98fd15c116 f763c5603cf860a4 c90f2568a18d0c22 9ea2cd38b4f47391 f1ecd43517556100 b8e26d2216069299 cafb062abafbf99d d2515a9dd7853a5b ed8bccf43ce7da60 f7e3d3fd0b33c7c0 e2b9021bb886d31e f56ead7eca352e9b d568f65bd044cf0f 88cba22ded52817c 3787b0173821f876 866c785fe3a4fac eb8cd1280cf0a672 c5129ee8913269b2 8f6cb95e2314813f ] wstrb=[6d b1 86 1f 99 c5 7e 6 76 4 25 f ca a3 15 40 a8 3b 50 72 de 65 b2 86 a0 2 f8 7f 68 ab 5 8 ad fe 87 15 a9 8d 1e 56 8b a5 6c 34 32 8a 8a bd 2f f6 f1 62 80 7c 1f b0 72 11 12 f3 8d 31 a3 ff 42 b5 f2 cf e6 95 cf 29 4a c1 f8 31 57 c7 5a a1 89 52 d2 e0 1a 2c 81 a3 7f 54 83 99 80 4 3c ff 58 bf 98 d9 c3 d4 d8 1c 93 71 f5 57 45 cd 73 d9 3e 68 30 84 35 a3 5d 74 b 8d f8 40 30 55 b4 3b e2 ac 7b 12 1 30 4d e3 dc c8 f5 de f8 42 c1 d5 b b7 b3 3 f9 74 d8 4 2b 8b 8 25 0 e0 29 2b 6c 31 50 6c ] bresp=0 bid=1111
[1725000] [SCOREBOARD-S] mst_id=1 s_id=1 awaddr=16ed7ce8 awid=1111 awlen=163 awsize=0 awburst=1 wdata=[a02819c6f18b344b a515c25c1e03a3bd 3ad47ae0d305c964 c490fdaf38023e94 d605e251dafc94a6 ae025e0ae9a6c00b a1a8fe9f10da5d31 ebd6f1d7f2935bb9 dc3a1bc5f7aee0f0 88893e2119d94fe2 8c6cab9bfde31a64 f591fb55f4602ff9 e397fdbe8a6c760 e689e1c5fe1b3976 f27b696f9aa62b76 34cf2d7dc1bdd1a da37169080b4e94a 1b5b14c1e9d6d49c c5f2b1b6ccb28000 cd67694a1ea80798 87edc34a029c846 ecdc4846e8c27e0b 876a85a3ce718dea ee9b56303a43b191 a3062f9c8fe961d7 de5aefc1db779e77 15bb50082a70b540 ba5a1717ccf645f2 286de469b8c17fa4 e33234e418b506d9 e5ab4ccb3e293471 f6eab4151d8c4bfc 364152d50e193134 cc4265a5da1ce8fa f7a934f61bec9fa0 2a05d0d4c32d19ba 9d4a02b42dea87cb c9d7276bf6483679 b975503394f337aa c2ddbf75f3dcf83f ea252eb8d6bf52e8 ebb28a928cb4e6e0 8091df1fa39a7eeb fa59d1d32e904a08 bb4530e8eab70dd7 e518cc3e60c5c66 149ca66e3bd71008 a68e1ddf88ab5e96 eeb7bafccfe1d756 8bb8e75eb4dfaaa2 3d8b09398354616a d33638c13247053e e726afe0ac42c435 2f9725a0deef201f 9136255da4b1b919 d0f47d4f02cd5e61 e1bc7e80f85cd53e 9d0e8e57008ba2ef 3590150f2f2a3de eb4f791cee030ba6 ee8eae95e5157fd0 d80823ae885e0773 f661131af1e7afe5 d6fd2fb6c3579cca cbb5a43ee4efc1af d6d77195af055364 f25cf02fc216b758 a70679072dd4a14b dcd9f4af3e12946d 294bc5fdddea9c abb28be7cf36e4de 8d49794ba72fc4cc 250daf69088c8097 d7c365758d72c510 34a289ddd0c03b50 d94cbbe7e50cdec1 f27fa3d1d9b03946 aa7074963110215d 161d001ea7222dae 80d266f403bd307e 34cd51db889ca3ef 2fbed19e2b42db8b 2f000c09caea51f9 d386f5e8b0913892 dbd4141de3cd5de4 2eb7afdd8345c786 33d700198ad42026 eea17e0a823ea5c5 5846d4c8fab1436 1a7f345d9d592de7 1f97d3ad395b6d65 c906819b8920b267 2679e04f251c40f9 de77ae5ee385b5f8 eca66860c611b3fc eb2df4f5a77e2ff9 b03e5f2132048af d931fcabc9a5a353 f123d34cf7aa4e52 aca9701c45ff1a0 e0594f3fc27b93e f3d20790e3fc93ac 285c854cff29683f fb51217efe9c9e91 e299323d36621a3f b58b827eef23290e edbfc7a08af5b789 c157d1c8b0dca3fc 1fffcd0bd058f9dd db4eb167f6e35447 a7bff8430dbf94ab de188e889ca6832f 9389d776c7bfc54e d57f59f9b9673fef d60dc31f3b49cfba 830995083397e882 ecff2871e9979a95 a4e16a4fd888ef02 c20d784c30ceb90 2ca4862627eaff58 73ee5af91ffff5 3c2ceb86d185f075 f970efcd0c94c5de 85b4c5d3e8d171ac ba576221f9e4de27 8679a405c1e1b159 aab3230533c851ef adad30160c2e69d9 ce101b32e50a8527 18d2d7163426d41c c0553df5f8c33e38 ddcdc35fc680072c faa6db488e655927 8728975ff6a09a75 bd20a1a1bafc193d c9617265e4f65abe db96f53337c77cea f2c39627d08a09c4 3580648318b796d5 d07f13bfbc25088c caf1251911759b6 a9cef08bc342a9e6 ff67b273c22f76d4 d346d08afa4e044a 3d90ae310c16c4c4 ce463b98fd15c116 f763c5603cf860a4 c90f2568a18d0c22 9ea2cd38b4f47391 f1ecd43517556100 b8e26d2216069299 cafb062abafbf99d d2515a9dd7853a5b ed8bccf43ce7da60 f7e3d3fd0b33c7c0 e2b9021bb886d31e f56ead7eca352e9b d568f65bd044cf0f 88cba22ded52817c 3787b0173821f876 866c785fe3a4fac eb8cd1280cf0a672 c5129ee8913269b2 8f6cb95e2314813f ] wstrb=[6d b1 86 1f 99 c5 7e 6 76 4 25 f ca a3 15 40 a8 3b 50 72 de 65 b2 86 a0 2 f8 7f 68 ab 5 8 ad fe 87 15 a9 8d 1e 56 8b a5 6c 34 32 8a 8a bd 2f f6 f1 62 80 7c 1f b0 72 11 12 f3 8d 31 a3 ff 42 b5 f2 cf e6 95 cf 29 4a c1 f8 31 57 c7 5a a1 89 52 d2 e0 1a 2c 81 a3 7f 54 83 99 80 4 3c ff 58 bf 98 d9 c3 d4 d8 1c 93 71 f5 57 45 cd 73 d9 3e 68 30 84 35 a3 5d 74 b 8d f8 40 30 55 b4 3b e2 ac 7b 12 1 30 4d e3 dc c8 f5 de f8 42 c1 d5 b b7 b3 3 f9 74 d8 4 2b 8b 8 25 0 e0 29 2b 6c 31 50 6c ] bresp=0 bid=11111
[1725000] SCOREBOARD: Transaction 2 received. pass=352 fail=0
[1725000] ALL PASS. Total transactions: 2
[1735000] S1 MEMORY WRITE beat=1 addr=16e2e919 data=a87dc40abaaa2845 id=00
[1735000] SLAVE 0 R_VALID_RDY Handshake beat=1 rlast=1
[1735000] [SLAVE MONITOR] READ mst_id=1 s_id=0 araddr=3d96768 arid=1 arlen=1 arsize=3 arburst=1 rid=[1111] rresp=[00] rdata=[baadf00d12345678baadf00d12345678]
[1735000] MASTER 0 W_VALID_RDY Handshake beat=1 wlast=0
[1745000] MASTER 0 W_VALID_RDY Handshake beat=2 wlast=0
[1745000] MASTER 1 R_VALID_RDY Handshake beat=0 rlast=0
[1745000] S1 MEMORY WRITE beat=2 addr=16e2e91a data=ca6b6424c1731f94 id=00
[1755000] S1 MEMORY WRITE beat=3 addr=16e2e91b data=86ab5973d427f6a5 id=00
[1755000] MASTER 1 R_VALID_RDY Handshake beat=1 rlast=1
[1755000] [MASTER MONITOR] READ mst_id=1 s_id=0 araddr=3d96768 arid=1 arlen=1 arsize=3 arburst=1 rid=[11] rresp=[00] rdata=[baadf00d12345678baadf00d12345678]
[1755000] MASTER 0 W_VALID_RDY Handshake beat=3 wlast=0
[1755000] [MASTER DRIVER] READ mst_id=1 s_id=0 araddr=3d96768 arid=1 arlen=1 arsize=3 arburst=1 rid=[11] rresp=[00] rdata=[baadf00d12345678baadf00d12345678]
[1755000] SCOREBOARD MATCH: decode_err expected = 0, actual =0
[1755000] SCOREBOARD MATCH: slave_id expected = 0, actual =0
[1755000] SCOREBOARD MATCH: araddr passthrough expected = 3d96768, actual =3d96768
[1755000] SCOREBOARD MATCH: arlen passthrough expected = 1, actual =1
[1755000] SCOREBOARD MATCH: arsize passthrough expected = 3, actual =3
[1755000] SCOREBOARD MATCH: arburst passthrough expected = 1, actual =1
[1755000] SCOREBOARD MATCH: rdata size check expected = 2, actual =2
[1755000] SCOREBOARD MATCH: rdata passthrough beat=0 expected = baadf00d12345678, actual =baadf00d12345678
[1755000] SCOREBOARD MATCH: rdata passthrough beat=1 expected = baadf00d12345678, actual =baadf00d12345678
[1755000] SCOREBOARD MATCH: rresp size check expected = 2, actual =2
[1755000] SCOREBOARD MATCH: rresp passthrough beat=0 expected = 0, actual =0
[1755000] SCOREBOARD MATCH: rresp passthrough beat=1 expected = 0, actual =0
[1755000] SCOREBOARD MATCH: response routed to correct master (read beat 0) expected = 1, actual =1
[1755000] SCOREBOARD MATCH: response routed to correct master (read beat 1) expected = 1, actual =1
[1755000] [SCOREBOARD-M] READ mst_id=1 s_id=0 araddr=3d96768 arid=1 arlen=1 arsize=3 arburst=1 rid=[11] rresp=[00] rdata=[baadf00d12345678baadf00d12345678]
[1755000] [SCOREBOARD-S] READ mst_id=1 s_id=0 araddr=3d96768 arid=1 arlen=1 arsize=3 arburst=1 rid=[1111] rresp=[00] rdata=[baadf00d12345678baadf00d12345678]
[1755000] SCOREBOARD: Transaction 3 received. pass=366 fail=0
[1755000] ALL PASS. Total transactions: 3
[1765000] MASTER 0 W_VALID_RDY Handshake beat=4 wlast=1
[1765000] S1 MEMORY WRITE beat=4 addr=16e2e91c data=8ed21eeab508fd25 id=00
[1775000] S1 MEMORY WRITE beat=5 addr=16e2e916 data=f67c1cb92f291d7e id=00
[1785000] S1 MEMORY WRITE beat=6 addr=16e2e917 data=03511423d93d830e id=00
[1795000] SLAVE1 sent B resp, id=0
[1795000] [SLAVE MONITOR] mst_id=0 s_id=1 awaddr=16e2e918 awid=0 awlen=6 awsize=0 awburst=2 wdata=[ea9d9901c53839df a87dc40abaaa2845 ca6b6424c1731f94 86ab5973d427f6a5 8ed21eeab508fd25 f67c1cb92f291d7e 3511423d93d830e ] wstrb=[2d 34 d ab ed 1c ce ] bresp=0 bid=0
[1805000] ARB MONITOR: slave=1 m0_req=0 m1_req=0 winner=0
[1805000] AXI S1_AWVALID_RDY HANDSHAKE
[1815000] S1 MEMORY WRITE beat=0 addr=1b513998 data=917d52a4a7ff1e8e id=09
[1815000] MASTER 0 B_VALID_RDY Handshake
[1815000] [MASTER MONITOR] mst_id=0 s_id=1 awaddr=16e2e918 awid=0 awlen=6 awsize=0 awburst=2 wdata=[ea9d9901c53839df a87dc40abaaa2845 ca6b6424c1731f94 86ab5973d427f6a5 8ed21eeab508fd25 f67c1cb92f291d7e 3511423d93d830e ] wstrb=[2d 34 d ab ed 1c ce ] bresp=0 bid=0
[1815000] MASTER 0 RECEIVED BRESP. BRESP=0
[1815000] [MASTER DRIVER] mst_id=0 s_id=0 awaddr=16e2e918 awid=0 awlen=6 awsize=0 awburst=2 wdata=[ea9d9901c53839df a87dc40abaaa2845 ca6b6424c1731f94 86ab5973d427f6a5 8ed21eeab508fd25 f67c1cb92f291d7e 3511423d93d830e ] wstrb=[2d 34 d ab ed 1c ce ] bresp=0 bid=0
[1815000] SCOREBOARD MATCH: decode_err expected = 0, actual =0
[1815000] SCOREBOARD MATCH: slave_id expected = 1, actual =1
[1815000] SCOREBOARD MATCH: awaddr passthrough expected = 16e2e918, actual =16e2e918
[1815000] SCOREBOARD MATCH: awlen passthrough expected = 6, actual =6
[1815000] SCOREBOARD MATCH: awsize passthrough expected = 0, actual =0
[1815000] SCOREBOARD MATCH: awburst passthrough expected = 2, actual =2
[1815000] SCOREBOARD MATCH: wdata size check expected = 7, actual =7
[1815000] SCOREBOARD MATCH: wdata passthrough beat=0 expected = ea9d9901c53839df, actual =ea9d9901c53839df
[1815000] SCOREBOARD MATCH: wdata passthrough beat=1 expected = a87dc40abaaa2845, actual =a87dc40abaaa2845
[1815000] SCOREBOARD MATCH: wdata passthrough beat=2 expected = ca6b6424c1731f94, actual =ca6b6424c1731f94
[1815000] SCOREBOARD MATCH: wdata passthrough beat=3 expected = 86ab5973d427f6a5, actual =86ab5973d427f6a5
[1815000] SCOREBOARD MATCH: wdata passthrough beat=4 expected = 8ed21eeab508fd25, actual =8ed21eeab508fd25
[1815000] SCOREBOARD MATCH: wdata passthrough beat=5 expected = f67c1cb92f291d7e, actual =f67c1cb92f291d7e
[1815000] SCOREBOARD MATCH: wdata passthrough beat=6 expected = 3511423d93d830e, actual =3511423d93d830e
[1815000] SCOREBOARD MATCH: wstrb size check expected = 7, actual =7
[1815000] SCOREBOARD MATCH: wstrb passthrough beat=0 expected = 2d, actual =2d
[1815000] SCOREBOARD MATCH: wstrb passthrough beat=1 expected = 34, actual =34
[1815000] SCOREBOARD MATCH: wstrb passthrough beat=2 expected = d, actual =d
[1815000] SCOREBOARD MATCH: wstrb passthrough beat=3 expected = ab, actual =ab
[1815000] SCOREBOARD MATCH: wstrb passthrough beat=4 expected = ed, actual =ed
[1815000] SCOREBOARD MATCH: wstrb passthrough beat=5 expected = 1c, actual =1c
[1815000] SCOREBOARD MATCH: wstrb passthrough beat=6 expected = ce, actual =ce
[1815000] SCOREBOARD MATCH: bresp passthrough expected = 0, actual =0
[1815000] SCOREBOARD MATCH: response routed to correct master (write) expected = 0, actual =0
[1815000] [SCOREBOARD-M] mst_id=0 s_id=1 awaddr=16e2e918 awid=0 awlen=6 awsize=0 awburst=2 wdata=[ea9d9901c53839df a87dc40abaaa2845 ca6b6424c1731f94 86ab5973d427f6a5 8ed21eeab508fd25 f67c1cb92f291d7e 3511423d93d830e ] wstrb=[2d 34 d ab ed 1c ce ] bresp=0 bid=0
[1815000] [SCOREBOARD-S] mst_id=0 s_id=1 awaddr=16e2e918 awid=0 awlen=6 awsize=0 awburst=2 wdata=[ea9d9901c53839df a87dc40abaaa2845 ca6b6424c1731f94 86ab5973d427f6a5 8ed21eeab508fd25 f67c1cb92f291d7e 3511423d93d830e ] wstrb=[2d 34 d ab ed 1c ce ] bresp=0 bid=0
[1815000] SCOREBOARD: Transaction 4 received. pass=390 fail=0
[1815000] ALL PASS. Total transactions: 4
[1825000] S1 MEMORY WRITE beat=1 addr=1b51399a data=e7268bc8f350b39a id=09
[1835000] S1 MEMORY WRITE beat=2 addr=1b51399c data=db8da07ee6a5eeae id=09
[1845000] S1 MEMORY WRITE beat=3 addr=1b51399e data=0ea50d3ddb0d182f id=09
[1855000] S1 MEMORY WRITE beat=4 addr=1b513996 data=ce5dcbc9ed0af322 id=09
[1865000] SLAVE1 sent B resp, id=9
[1875000] [SLAVE MONITOR] mst_id=0 s_id=1 awaddr=1b513998 awid=1001 awlen=4 awsize=1 awburst=2 wdata=[917d52a4a7ff1e8e e7268bc8f350b39a db8da07ee6a5eeae ea50d3ddb0d182f ce5dcbc9ed0af322 ] wstrb=[5 d1 47 34 e ] bresp=0 bid=1001
[1885000] MASTER 0 RECEIVED BRESP. BRESP=0
[1885000] [MASTER DRIVER] mst_id=0 s_id=0 awaddr=1b513998 awid=1001 awlen=4 awsize=1 awburst=2 wdata=[917d52a4a7ff1e8e e7268bc8f350b39a db8da07ee6a5eeae ea50d3ddb0d182f ce5dcbc9ed0af322 ] wstrb=[5 d1 47 34 e ] bresp=0 bid=1001
[1885000] MASTER 0 B_VALID_RDY Handshake
[1885000] [MASTER MONITOR] mst_id=0 s_id=1 awaddr=1b513998 awid=1001 awlen=4 awsize=1 awburst=2 wdata=[917d52a4a7ff1e8e e7268bc8f350b39a db8da07ee6a5eeae ea50d3ddb0d182f ce5dcbc9ed0af322 ] wstrb=[5 d1 47 34 e ] bresp=0 bid=1001
[1885000] SCOREBOARD MATCH: decode_err expected = 0, actual =0
[1885000] SCOREBOARD MATCH: slave_id expected = 1, actual =1
[1885000] SCOREBOARD MATCH: awaddr passthrough expected = 1b513998, actual =1b513998
[1885000] SCOREBOARD MATCH: awlen passthrough expected = 4, actual =4
[1885000] SCOREBOARD MATCH: awsize passthrough expected = 1, actual =1
[1885000] SCOREBOARD MATCH: awburst passthrough expected = 2, actual =2
[1885000] SCOREBOARD MATCH: wdata size check expected = 5, actual =5
[1885000] SCOREBOARD MATCH: wdata passthrough beat=0 expected = 917d52a4a7ff1e8e, actual =917d52a4a7ff1e8e
[1885000] SCOREBOARD MATCH: wdata passthrough beat=1 expected = e7268bc8f350b39a, actual =e7268bc8f350b39a
[1885000] SCOREBOARD MATCH: wdata passthrough beat=2 expected = db8da07ee6a5eeae, actual =db8da07ee6a5eeae
[1885000] SCOREBOARD MATCH: wdata passthrough beat=3 expected = ea50d3ddb0d182f, actual =ea50d3ddb0d182f
[1885000] SCOREBOARD MATCH: wdata passthrough beat=4 expected = ce5dcbc9ed0af322, actual =ce5dcbc9ed0af322
[1885000] SCOREBOARD MATCH: wstrb size check expected = 5, actual =5
[1885000] SCOREBOARD MATCH: wstrb passthrough beat=0 expected = 5, actual =5
[1885000] SCOREBOARD MATCH: wstrb passthrough beat=1 expected = d1, actual =d1
[1885000] SCOREBOARD MATCH: wstrb passthrough beat=2 expected = 47, actual =47
[1885000] SCOREBOARD MATCH: wstrb passthrough beat=3 expected = 34, actual =34
[1885000] SCOREBOARD MATCH: wstrb passthrough beat=4 expected = e, actual =e
[1885000] SCOREBOARD MATCH: bresp passthrough expected = 0, actual =0
[1885000] SCOREBOARD MATCH: response routed to correct master (write) expected = 0, actual =0
[1885000] [SCOREBOARD-M] mst_id=0 s_id=1 awaddr=1b513998 awid=1001 awlen=4 awsize=1 awburst=2 wdata=[917d52a4a7ff1e8e e7268bc8f350b39a db8da07ee6a5eeae ea50d3ddb0d182f ce5dcbc9ed0af322 ] wstrb=[5 d1 47 34 e ] bresp=0 bid=1001
[1885000] [SCOREBOARD-S] mst_id=0 s_id=1 awaddr=1b513998 awid=1001 awlen=4 awsize=1 awburst=2 wdata=[917d52a4a7ff1e8e e7268bc8f350b39a db8da07ee6a5eeae ea50d3ddb0d182f ce5dcbc9ed0af322 ] wstrb=[5 d1 47 34 e ] bresp=0 bid=1001
[1885000] SCOREBOARD: Transaction 5 received. pass=410 fail=0
[1885000] SCOREBOARD: Expected 5 transactions completed, PASS=410 FAIL=0
[1885000] ALL PASS. Total transactions: 5
[1885000] ALL TRANSACTIONS MONITORED
$finish called at time : 1905 ns : File "/home/nashita/Desktop/practice/axi_xbar/tb/top/axi_tb_top.sv" Line 220
exit
INFO: xsimkernel Simulation Memory Usage: 289464 KB (Peak: 337864 KB), Simulation CPU Usage: 1150 ms
INFO: [Common 17-206] Exiting xsim at Thu Sep 10 18:46:51 2026...
