#-----------------------------------------------------------
# xsim v2025.2 (64-bit)
# SW Build 6299465 on Fri Nov 14 12:34:56 MST 2025
# IP Build 6300035 on Fri Nov 14 10:48:45 MST 2025
# SharedData Build 6298862 on Thu Nov 13 04:50:51 MST 2025
# Start of session at: Thu Sep 10 18:42:45 2026
# Process ID         : 3666581
# Current directory  : /home/nashita/Desktop/practice/axi_xbar/sim
# Command line       : xsim -log regress_results/BT_run417.log -mode tcl -source {xsim.dir/tb_top_snap/xsim_script.tcl}
# Log file           : /home/nashita/Desktop/practice/axi_xbar/sim/regress_results/BT_run417.log
# Journal file       : /home/nashita/Desktop/practice/axi_xbar/sim/xsim.jou
# Running On         : vlsi-vivado
# Platform           : Ubuntu
# Operating System   : Ubuntu 24.04.4 LTS
# Processor Detail   : Intel(R) Core(TM) i5-10400 CPU @ 2.90GHz
# CPU Frequency      : 4166.984 MHz
# CPU Physical cores : 6
# CPU Logical cores  : 12
# Host memory        : 41875 MB
# Swap memory        : 27648 MB
# Total Virtual      : 69524 MB
# Available Virtual  : 62561 MB
#-----------------------------------------------------------
source xsim.dir/tb_top_snap/xsim_script.tcl
# xsim {tb_top_snap} -testplusarg BT -autoloadwcfg -runall -sv_seed 418
Time resolution is 1 ps
run -all
[0] RUNNING BASE TEST
[0] INSIDE THE BASE TEST CONSTRUCTOR
[0] ENV: before agent
[0] SLAVE CONSTRUCTED
[0] MASTER MONITOR CONSTRUCTED
[0] MASTER MONITOR CONSTRUCTED
[0] SLAVE MONITOR CONSTRUCTED
[0] SLAVE MONITOR CONSTRUCTED
[0] ARB MONITOR CONSTRUCTED
GENERATOR CONSTRUCTED
[0] ENV: after agent
[0] ENV: before scoreboard
[0] ENV: after scoreboard
[15000] [SEQUENCER] mst_id=0 s_id=0 awaddr=18c28050 awid=110 awlen=55 awsize=1 awburst=1 wdata=[3d24a4f7b6ce99d6 dd206ee01e8c176f e96c302ed940c572 100f5f49da8a93f3 f916ab62a690d525 ffd19a98ed2fce29 c7ba621ce282db91 8913b0b60fe0f9e1 fd10c80ac0d10d7f 2353e91088e54b4e 98c6452fc4cb2a26 859c37a5ac6799c6 354ce51595d70d39 daa23760a8f020b5 d557ba7cce132a44 e3ea377ee03e6f05 92e8fbb0aa49f91 d8b7c9d53e8c6ede 9ecadde3de864a37 e92ae9c8bca20153 fb2e7031a7f96d9e 867fb7d5c1e2b39d fe84b4f119f94e15 c1f2bbb3efaaa19d 318d553bf9b32522 93ac7337c8727389 b81d152630120a2c a9c52f4ed59f2eeb 1e11a274e9aa6a61 99bc748d3d71a286 1310d171d62eb79a 3fd921fcc381a3dc f34662312273e5 87512b7fd9959689 9d173a65140417d3 c5268bb8c72a4d7b 20bfe4059e0a80c7 b20e989acc77b737 13a204b3bdd71e6a dbe19f32f7352452 c3acdb8a3461e8b8 f23907228df037cc 5255c1fd74ee03d bb0c8f5ce1aa654 dc0ade21c8d237a9 202117e6fde9d017 cc04766ce1303a40 2a0271e92bd1e0db a9bbb0f2280f548d 93f8ecdca2389cf f5f56aaaf5c0275e 9dcf7beb334200b6 fd658a859fb11b9c 157142fba70f0ab8 da510b6ef35af52f 930c10cbb340bee6 ] wstrb=[f3 9f c6 22 d ad ee 1 4c b4 23 59 61 11 5a ad c6 7e 7 27 8f 61 d5 55 df dc 7d 6f 3d 52 c4 1d 2e 41 8c 6b 93 50 88 c1 92 14 2d 25 65 b5 e7 f7 ca 14 1c 2f c9 3 26 93 ] bresp=0 bid=0
[15000] [SEQUENCER] mst_id=0 s_id=0 awaddr=152dff50 awid=100 awlen=187 awsize=7 awburst=1 wdata=[1d660ba7f9b13df8 1e9be1b3f18ae4b4 ff4fbb9533ad0058 2d5e3e50b944909d 2acf75521cb5c73c d062c794cbfa2003 853eb0a02a1f30e7 c6d4f823fdc105e4 c9bb25e7b00e25f2 da2d56d91737bfb7 14f8c59bcef9d687 ff07fc7aa1024efc b83a0eb3deb3eb82 adadc209d9355353 fa37a250cd32d44e abe6bfd0acb5be83 5eb11d7b271b103 ffa48552d99481da 864a405d0022b427 b294652aab8b4522 851fc6fc8c355234 8c58065bb238ea7c ddc42f9f0b6a075a 979f598e3eec6b86 f1255602e2e3f69b ee4dfdf523f75fea e2e3cb70cee985a1 31cd7c3d05ed5784 29e4b76ed4092172 22f2a714a01b7a32 a608d1b60cc882de e0d1a450d4c02351 f4db9d83cfed8924 dcb60c0283c44b64 d8846eb51ae46f3a ead1f85e3d87b053 c14bfbb7cd600c39 e8447b73c7880461 50fb4b419d06a6d e73076a6d31673d1 9a9e7832c65bb06b e02c1ad8cf74f219 a28b65ea9fae2ce6 e609dd52c75c917e 96d183973d29de1d dcd80b03c635f82a d9289a9395ce982 f686c79fc2e1e855 917e080a4640d40 ddc0f6c2d35ed2a2 1640baf816aa6a29 bb0e7769d447be61 27a691041f589b78 360305a118cf6e2c ed172c8d3de74bfc dd3fe774f1117d0a 89e0eb3694bdbd91 d2a5098d1342ed15 84546a1ff6f817c4 8bb5d555afe4f101 c327de160e355556 52d6d1ade5adee3 8e3fcfe4c77c4836 d5b19d8c90e3426f ef3e2152d167adfb 18e3f631dadf0aa6 ebc24d15fd7df137 cee59f32ee9593bd c9749e63db006e68 d87e5f9fe7c99563 d65f2920b536eb78 903759e02763fed1 f2d94341fd3c783 d50ab2fbe8b5b97f 9019b850e58cbd54 56084d7e5420cdc cdf7c65b9f474c84 84d409d8da6b37d2 bfad44aede117eac fd58cb308a348eaf e49fc6820da50b0a ebb689b6022cd509 8c6163b8a44d0b30 b1f2163ae90f54e6 eb3c29eff1012a3a 154e356b9da89ff0 6b7f4d7f79d8da8 e89eb7e2c7404ba5 e4e8eb96f1f41ec6 e991ac6efdeced4d c52d38f3eba0e06d dd94ff33d2306451 d01d519e2a162489 15b704f6c726aba2 19570ff3954a8a91 bf60af1af34c0429 ba72afcbe9746191 febeec23d517b410 c863b83ad3c9bfbe 3d3e2150be1f9b3d 13374f4e82d66805 d6a027c43bfd0d73 fa1ca8b0db9b0788 de716f8d13de4914 cfdb56878d53f7fe e8eeff86b5119751 c8efe065c9f7ff37 d74bf736c7606f14 fc72066598cb36ec e2c33624c03af6bc 879b65d0c561e6cb de2d1db73a0f2d5a fa4a2416040d6c36 c96f5301c0f053db faff813501e589e7 5f2f61da79c70b8 e88cc494f549a54c f72f2f33cf62491e f6feb9d6e38c45c9 d8d5eb15fd222550 cc846e6edf8b7e6a c317c434d0051a48 cd273f98c3832844 230ea6af9bedaf49 ebf2c99299abae06 dd2ed64be6266ae3 82141a2cb91a092a d2c5b731003d7cfa e663e7ddee06e3be 2720ece92ff48d7c 30320a76e8780209 d67ee5c8f9e6a41a 29db31961695f253 ff0df45cfd9fd2b1 f78676cbda0d3c0c f0a32e5fd58cda24 d32cacd52161a861 fb6ee46defb122bb c53dfce0cab323a0 ec14cc01ec1212cc dbc33587986aa9b5 e31dcd56e783b06e d395c33aa1013267 396bdc1dcf329957 36b649c62f58f8c2 d05a2b291c89a973 ebbc42ca8a4c0d00 b9a505c289c60746 a64fb0b9a2728c90 2cbe999109ff30ec 93c53832120bf384 b47e8014e6639f53 f062d03f3a14e8ec cc20dc70e13d19a5 c7a0b8f904280872 3e3cf15e809f5c84 e1dc762ab8038938 bc2b91aa0a5dcdce 8afd2a52297d2f23 e180b85bfa688308 84c650d6ecd9a07c 9656cf9f1dac4a06 9814cd0e0fc37b29 fc9d1ba5f7d787fb 1583d2011cdb1de5 2c9e990e12f3eb45 acb7340ad989f0f ca73bcf4a93bb4b3 bc2f9ff8204f4541 cde7e450f7125602 204e0ab6c6fb1338 e74a5879185ba145 8f6df747dc7daaae 2378bde735323cca cd8dde0fafbc01fd c39acac8ac31660 bff5532adcfbd556 cb7d7542fb26a93 ba7580f38d833139 ea7f069018f18400 c8a3ee93fa6ad41e 87ee0557f736dde4 102861e483196f86 fd8443a4f26d0be7 e9a3e9cbd8cc5077 dbe5bffd057248fc f7df54e3f9cc4baf d2989c26d96a03a2 ] wstrb=[af 9e 24 5e 81 c6 85 30 64 a9 8f e5 6f 14 16 d3 bd a5 b8 2c b9 ce ff 76 73 b7 a2 2c 86 a1 a2 f9 58 44 26 de e5 c8 d8 3e d fe 1c f2 c6 f4 30 d3 f2 4d c6 b9 41 f6 8c 34 43 52 ed 85 49 79 b9 8c cc a6 11 15 1f ca a1 eb 70 b3 0 90 7d a2 7b ee 55 7c 7e d2 1e f9 c0 73 75 3e 45 93 38 6 6 ad 44 4c 41 7c 52 47 2a 96 93 6b 13 e5 b2 3d 7c 46 a8 8f 2b 5a cc a7 a0 74 36 cc ce 2 73 6f 76 aa 3b 45 ac ae b4 23 58 ef 68 5 9d 1c 28 f6 b 90 fb a8 ac 23 9e b7 b3 99 5f 5f bc fe 16 6f 97 75 ce 54 73 e4 c3 b 5a 92 5f cd 76 22 d8 d0 b4 37 9e 2b 5a 76 fb e ae 99 39 8 10 35 ] bresp=0 bid=0
[15000] [SEQUENCER] mst_id=0 s_id=0 awaddr=1b667888 awid=1101 awlen=101 awsize=6 awburst=1 wdata=[106740b2127a1162 1de6e073cc4fb12a 356f402e1a93132e 2d0d2490a4ab67e9 f0fb1913c5d680e0 e069940ecaf40503 ef9f6ceca66a5941 ec40da210d76b89e d86abda1e09a8600 8704df41ccaa6e2f da2126cdc80a2a8d a8a4b08df345b963 bff02792b28be46e fa960efc2fa98fcf 22ef49321a114e60 cc9d32cea33abf89 d2e44f58e2df70c4 fcf0bf24c73341ca ea6e0154f5d3988a d8b3094fc98df1f3 90c133bdbd5250ac 3325e937d5a3c873 9f31ba66fb2f3511 388185be0bd8f286 e17cbaf92ff2ee24 ab222335eba76ef5 f780617b00ae7560 30a16384e3a3a8f3 cf4b17e8d8fd1c74 d9ab91d4dbc386b9 3f672fadc6cb7963 1fc895d88a4cf558 e6107c128eb24795 d57dc0f9f97427ac 3c11d052577abbf b429f354f54656d1 eeba7e7de9d19917 f4944d689a7b44d feee0b1ef27b9b82 dc4d3499c373382a cd1aec78eda8899c e024251eeb96796f 2f09b19acc08f796 b9b181323c7159b8 a807d327fc249e12 c82d95a819d5a651 d6470009d71184c1 d33622d301df16db 1bb4bd2cfe4ed330 d56057f21b63b87c 1d42cf57f1fbbd35 f04a9065a8967ac5 c3fa334138f78c83 2af349b8c5aae857 ee41631de13d0298 9a348f1b9b3dda1d e0e8c275b23b965e 137898f7c527d8d3 e065b2f1cf2a2592 8165bbf0adad2812 f2d500e6c14e7566 10789af894de54e7 c28b7cfad33ab3d7 1489293d91de56e8 26bcabd035607de0 89b31b72501c435 b6e01b1de94828ca 1ea8a6aa1d245af4 c2261f29dd9cc6ed c6e4efb72743d861 c4683355f9063a46 d6a30134e58d9661 8cd16ec2068e527e ff948cc49d87f0eb 315874dd139a217 d7c7f495d6378df8 f3bf7ee48fe6f60f e1209827d75c815a ad940f52f6d50631 86bbfc40b8e88cbc 90450e16a1538e36 98289467e7dc9467 20c521243dd91d69 df2cab9f1ee490a8 86c1250fb10a2f3a eee34ca3f7554007 1639d0afa7864633 d890756ece0ff843 c565384a9cfaf5be c4813bf2c773c211 9583ba54db9f08f9 f899feb71d11b160 e4857371dae8f29e b687fb97bd1b3aa9 da2cec09fa092dc6 d4f220642f21fa4f ec3d34f83eb25f7b 38bb8d410b7a1bfc 3a9c164bc66a2102 51c807d8dadada5 9927c9a1a6d94b43 ed436c453dd80dbe ] wstrb=[ec 63 c2 30 5 80 75 f1 e4 38 21 e9 b8 97 da 9c cf fc 85 87 93 60 24 62 5c a9 e9 ef 9 d 51 65 b7 3a 54 c0 48 a5 26 ff e0 7a bf 28 20 e5 27 0 60 e6 28 80 cc 4f 80 2c 35 a8 ac 1 f7 2c 2d 2c d4 d9 2e cb 5 5b f7 d9 35 25 a4 3a 81 9c 14 b6 c1 b8 f0 42 54 4 f8 16 bd e9 58 11 ed 51 27 aa 3a 80 bc 27 d1 e3 ] bresp=0 bid=0
[15000] [SEQUENCER] mst_id=0 s_id=0 awaddr=129f5b68 awid=0 awlen=41 awsize=0 awburst=1 wdata=[e8064194e52a467a a91253beed074754 87a007befe243ff7 e34e8672cb4e4c6f b85593c3efa64952 edca894a8c60da30 d7af26a03ff59b82 af9be4d4d1190fbc dd79e9ec9004ba63 cffa55e59d666e1e ee7f7ddab529108c c52dcaf0ff963aba 9cfca8d8cbf967c7 81227853952820d5 94be5b8f0b7c26b3 d7758e7ac6504343 db78641931bb0468 3d372b1bd89806cd 1ee84a11f036bfa8 a1f1c41014acb995 ed44c062fa60ae2a ea976dd2df28ef2b f3d5a8c08c2d0a73 868db89d0c8931e3 ebb2210ee11a6923 ed477396f1252670 fdae5853df87c9cf c0a232f2f3d52c34 e4fa52a4e9607961 c8e84330ade9a688 a1bed2bce2a8aaf7 cc092458898a7622 37741cab86b92560 e961d05714f16789 9e7bddabd932ef67 dfec14c8356af4b0 ca5c5c39d5effa56 2f22e9bec94de51f feb8d9cfe8d839e4 3ec8343b0f0efe86 d85ce3a5c9153608 31ed6fededeb1df9 ] wstrb=[75 7f 28 7d 24 21 6a 99 a0 92 17 c4 b3 81 5e 53 14 75 18 c7 f6 76 1b a eb 33 d2 e1 a9 ed ec 94 20 be 75 c9 ab 61 5d cb 1f d2 ] bresp=0 bid=0
[15000] [SEQUENCER] READ mst_id=0 s_id=0 araddr=ae5120 arid=4 arlen=1 arsize=3 arburst=1 rid=[] rresp=[] rdata=[]
[15000] MASTER_DRIVER0 received transaction, op=AXI_WRITE
[35000] MASTER 0 AW_VALID_RDY Handshake
[45000] ARB MONITOR: slave=1 m0_req=1 m1_req=0 winner=0
[45000] AXI S1_AWVALID_RDY HANDSHAKE
[55000] MASTER 0 W_VALID_RDY Handshake beat=0 wlast=0
[65000] MASTER 0 W_VALID_RDY Handshake beat=1 wlast=0
[65000] S1 MEMORY WRITE beat=0 addr=18c28050 data=3d24a4f7b6ce99d6 id=06
[75000] S1 MEMORY WRITE beat=1 addr=18c28052 data=dd206ee01e8c176f id=06
[75000] MASTER 0 W_VALID_RDY Handshake beat=2 wlast=0
[85000] MASTER 0 W_VALID_RDY Handshake beat=3 wlast=0
[85000] S1 MEMORY WRITE beat=2 addr=18c28054 data=e96c302ed940c572 id=06
[95000] S1 MEMORY WRITE beat=3 addr=18c28056 data=100f5f49da8a93f3 id=06
[95000] MASTER 0 W_VALID_RDY Handshake beat=4 wlast=0
[105000] MASTER 0 W_VALID_RDY Handshake beat=5 wlast=0
[105000] S1 MEMORY WRITE beat=4 addr=18c28058 data=f916ab62a690d525 id=06
[115000] S1 MEMORY WRITE beat=5 addr=18c2805a data=ffd19a98ed2fce29 id=06
[115000] MASTER 0 W_VALID_RDY Handshake beat=6 wlast=0
[125000] MASTER 0 W_VALID_RDY Handshake beat=7 wlast=0
[125000] S1 MEMORY WRITE beat=6 addr=18c2805c data=c7ba621ce282db91 id=06
[135000] S1 MEMORY WRITE beat=7 addr=18c2805e data=8913b0b60fe0f9e1 id=06
[135000] MASTER 0 W_VALID_RDY Handshake beat=8 wlast=0
[145000] MASTER 0 W_VALID_RDY Handshake beat=9 wlast=0
[145000] S1 MEMORY WRITE beat=8 addr=18c28060 data=fd10c80ac0d10d7f id=06
[155000] S1 MEMORY WRITE beat=9 addr=18c28062 data=2353e91088e54b4e id=06
[155000] MASTER 0 W_VALID_RDY Handshake beat=10 wlast=0
[165000] MASTER 0 W_VALID_RDY Handshake beat=11 wlast=0
[165000] S1 MEMORY WRITE beat=10 addr=18c28064 data=98c6452fc4cb2a26 id=06
[175000] S1 MEMORY WRITE beat=11 addr=18c28066 data=859c37a5ac6799c6 id=06
[175000] MASTER 0 W_VALID_RDY Handshake beat=12 wlast=0
[185000] MASTER 0 W_VALID_RDY Handshake beat=13 wlast=0
[185000] S1 MEMORY WRITE beat=12 addr=18c28068 data=354ce51595d70d39 id=06
[195000] S1 MEMORY WRITE beat=13 addr=18c2806a data=daa23760a8f020b5 id=06
[195000] MASTER 0 W_VALID_RDY Handshake beat=14 wlast=0
[205000] MASTER 0 W_VALID_RDY Handshake beat=15 wlast=0
[205000] S1 MEMORY WRITE beat=14 addr=18c2806c data=d557ba7cce132a44 id=06
[215000] S1 MEMORY WRITE beat=15 addr=18c2806e data=e3ea377ee03e6f05 id=06
[215000] MASTER 0 W_VALID_RDY Handshake beat=16 wlast=0
[225000] MASTER 0 W_VALID_RDY Handshake beat=17 wlast=0
[225000] S1 MEMORY WRITE beat=16 addr=18c28070 data=092e8fbb0aa49f91 id=06
[235000] S1 MEMORY WRITE beat=17 addr=18c28072 data=d8b7c9d53e8c6ede id=06
[235000] MASTER 0 W_VALID_RDY Handshake beat=18 wlast=0
[245000] MASTER 0 W_VALID_RDY Handshake beat=19 wlast=0
[245000] S1 MEMORY WRITE beat=18 addr=18c28074 data=9ecadde3de864a37 id=06
[255000] S1 MEMORY WRITE beat=19 addr=18c28076 data=e92ae9c8bca20153 id=06
[255000] MASTER 0 W_VALID_RDY Handshake beat=20 wlast=0
[265000] MASTER 0 W_VALID_RDY Handshake beat=21 wlast=0
[265000] S1 MEMORY WRITE beat=20 addr=18c28078 data=fb2e7031a7f96d9e id=06
[275000] S1 MEMORY WRITE beat=21 addr=18c2807a data=867fb7d5c1e2b39d id=06
[275000] MASTER 0 W_VALID_RDY Handshake beat=22 wlast=0
[285000] MASTER 0 W_VALID_RDY Handshake beat=23 wlast=0
[285000] S1 MEMORY WRITE beat=22 addr=18c2807c data=fe84b4f119f94e15 id=06
[295000] S1 MEMORY WRITE beat=23 addr=18c2807e data=c1f2bbb3efaaa19d id=06
[295000] MASTER 0 W_VALID_RDY Handshake beat=24 wlast=0
[305000] MASTER 0 W_VALID_RDY Handshake beat=25 wlast=0
[305000] S1 MEMORY WRITE beat=24 addr=18c28080 data=318d553bf9b32522 id=06
[315000] S1 MEMORY WRITE beat=25 addr=18c28082 data=93ac7337c8727389 id=06
[315000] MASTER 0 W_VALID_RDY Handshake beat=26 wlast=0
[325000] MASTER 0 W_VALID_RDY Handshake beat=27 wlast=0
[325000] S1 MEMORY WRITE beat=26 addr=18c28084 data=b81d152630120a2c id=06
[335000] S1 MEMORY WRITE beat=27 addr=18c28086 data=a9c52f4ed59f2eeb id=06
[335000] MASTER 0 W_VALID_RDY Handshake beat=28 wlast=0
[345000] MASTER 0 W_VALID_RDY Handshake beat=29 wlast=0
[345000] S1 MEMORY WRITE beat=28 addr=18c28088 data=1e11a274e9aa6a61 id=06
[355000] S1 MEMORY WRITE beat=29 addr=18c2808a data=99bc748d3d71a286 id=06
[355000] MASTER 0 W_VALID_RDY Handshake beat=30 wlast=0
[365000] MASTER 0 W_VALID_RDY Handshake beat=31 wlast=0
[365000] S1 MEMORY WRITE beat=30 addr=18c2808c data=1310d171d62eb79a id=06
[375000] S1 MEMORY WRITE beat=31 addr=18c2808e data=3fd921fcc381a3dc id=06
[375000] MASTER 0 W_VALID_RDY Handshake beat=32 wlast=0
[385000] MASTER 0 W_VALID_RDY Handshake beat=33 wlast=0
[385000] S1 MEMORY WRITE beat=32 addr=18c28090 data=00f34662312273e5 id=06
[395000] S1 MEMORY WRITE beat=33 addr=18c28092 data=87512b7fd9959689 id=06
[395000] MASTER 0 W_VALID_RDY Handshake beat=34 wlast=0
[405000] MASTER 0 W_VALID_RDY Handshake beat=35 wlast=0
[405000] S1 MEMORY WRITE beat=34 addr=18c28094 data=9d173a65140417d3 id=06
[415000] S1 MEMORY WRITE beat=35 addr=18c28096 data=c5268bb8c72a4d7b id=06
[415000] MASTER 0 W_VALID_RDY Handshake beat=36 wlast=0
[425000] MASTER 0 W_VALID_RDY Handshake beat=37 wlast=0
[425000] S1 MEMORY WRITE beat=36 addr=18c28098 data=20bfe4059e0a80c7 id=06
[435000] S1 MEMORY WRITE beat=37 addr=18c2809a data=b20e989acc77b737 id=06
[435000] MASTER 0 W_VALID_RDY Handshake beat=38 wlast=0
[445000] MASTER 0 W_VALID_RDY Handshake beat=39 wlast=0
[445000] S1 MEMORY WRITE beat=38 addr=18c2809c data=13a204b3bdd71e6a id=06
[455000] S1 MEMORY WRITE beat=39 addr=18c2809e data=dbe19f32f7352452 id=06
[455000] MASTER 0 W_VALID_RDY Handshake beat=40 wlast=0
[465000] MASTER 0 W_VALID_RDY Handshake beat=41 wlast=0
[465000] S1 MEMORY WRITE beat=40 addr=18c280a0 data=c3acdb8a3461e8b8 id=06
[475000] S1 MEMORY WRITE beat=41 addr=18c280a2 data=f23907228df037cc id=06
[475000] MASTER 0 W_VALID_RDY Handshake beat=42 wlast=0
[485000] MASTER 0 W_VALID_RDY Handshake beat=43 wlast=0
[485000] S1 MEMORY WRITE beat=42 addr=18c280a4 data=05255c1fd74ee03d id=06
[495000] S1 MEMORY WRITE beat=43 addr=18c280a6 data=0bb0c8f5ce1aa654 id=06
[495000] MASTER 0 W_VALID_RDY Handshake beat=44 wlast=0
[505000] MASTER 0 W_VALID_RDY Handshake beat=45 wlast=0
[505000] S1 MEMORY WRITE beat=44 addr=18c280a8 data=dc0ade21c8d237a9 id=06
[515000] S1 MEMORY WRITE beat=45 addr=18c280aa data=202117e6fde9d017 id=06
[515000] MASTER 0 W_VALID_RDY Handshake beat=46 wlast=0
[525000] MASTER 0 W_VALID_RDY Handshake beat=47 wlast=0
[525000] S1 MEMORY WRITE beat=46 addr=18c280ac data=cc04766ce1303a40 id=06
[535000] S1 MEMORY WRITE beat=47 addr=18c280ae data=2a0271e92bd1e0db id=06
[535000] MASTER 0 W_VALID_RDY Handshake beat=48 wlast=0
[545000] MASTER 0 W_VALID_RDY Handshake beat=49 wlast=0
[545000] S1 MEMORY WRITE beat=48 addr=18c280b0 data=a9bbb0f2280f548d id=06
[555000] S1 MEMORY WRITE beat=49 addr=18c280b2 data=093f8ecdca2389cf id=06
[555000] MASTER 0 W_VALID_RDY Handshake beat=50 wlast=0
[565000] MASTER 0 W_VALID_RDY Handshake beat=51 wlast=0
[565000] S1 MEMORY WRITE beat=50 addr=18c280b4 data=f5f56aaaf5c0275e id=06
[575000] S1 MEMORY WRITE beat=51 addr=18c280b6 data=9dcf7beb334200b6 id=06
[575000] MASTER 0 W_VALID_RDY Handshake beat=52 wlast=0
[585000] MASTER 0 W_VALID_RDY Handshake beat=53 wlast=0
[585000] S1 MEMORY WRITE beat=52 addr=18c280b8 data=fd658a859fb11b9c id=06
[595000] S1 MEMORY WRITE beat=53 addr=18c280ba data=157142fba70f0ab8 id=06
[595000] MASTER 0 W_VALID_RDY Handshake beat=54 wlast=0
[605000] MASTER_DRIVER0 received transaction, op=AXI_WRITE
[605000] MASTER 0 W_VALID_RDY Handshake beat=55 wlast=1
[605000] S1 MEMORY WRITE beat=54 addr=18c280bc data=da510b6ef35af52f id=06
[615000] S1 MEMORY WRITE beat=55 addr=18c280be data=930c10cbb340bee6 id=06
[625000] MASTER 0 AW_VALID_RDY Handshake
[625000] SLAVE1 sent B resp, id=6
[635000] AXI S1_AWVALID_RDY HANDSHAKE
[635000] [SLAVE MONITOR] mst_id=0 s_id=1 awaddr=18c28050 awid=110 awlen=55 awsize=1 awburst=1 wdata=[3d24a4f7b6ce99d6 dd206ee01e8c176f e96c302ed940c572 100f5f49da8a93f3 f916ab62a690d525 ffd19a98ed2fce29 c7ba621ce282db91 8913b0b60fe0f9e1 fd10c80ac0d10d7f 2353e91088e54b4e 98c6452fc4cb2a26 859c37a5ac6799c6 354ce51595d70d39 daa23760a8f020b5 d557ba7cce132a44 e3ea377ee03e6f05 92e8fbb0aa49f91 d8b7c9d53e8c6ede 9ecadde3de864a37 e92ae9c8bca20153 fb2e7031a7f96d9e 867fb7d5c1e2b39d fe84b4f119f94e15 c1f2bbb3efaaa19d 318d553bf9b32522 93ac7337c8727389 b81d152630120a2c a9c52f4ed59f2eeb 1e11a274e9aa6a61 99bc748d3d71a286 1310d171d62eb79a 3fd921fcc381a3dc f34662312273e5 87512b7fd9959689 9d173a65140417d3 c5268bb8c72a4d7b 20bfe4059e0a80c7 b20e989acc77b737 13a204b3bdd71e6a dbe19f32f7352452 c3acdb8a3461e8b8 f23907228df037cc 5255c1fd74ee03d bb0c8f5ce1aa654 dc0ade21c8d237a9 202117e6fde9d017 cc04766ce1303a40 2a0271e92bd1e0db a9bbb0f2280f548d 93f8ecdca2389cf f5f56aaaf5c0275e 9dcf7beb334200b6 fd658a859fb11b9c 157142fba70f0ab8 da510b6ef35af52f 930c10cbb340bee6 ] wstrb=[f3 9f c6 22 d ad ee 1 4c b4 23 59 61 11 5a ad c6 7e 7 27 8f 61 d5 55 df dc 7d 6f 3d 52 c4 1d 2e 41 8c 6b 93 50 88 c1 92 14 2d 25 65 b5 e7 f7 ca 14 1c 2f c9 3 26 93 ] bresp=0 bid=110
[635000] ARB MONITOR: slave=1 m0_req=1 m1_req=0 winner=0
[645000] MASTER 0 RECEIVED BRESP. BRESP=0
[645000] [MASTER DRIVER] mst_id=0 s_id=0 awaddr=18c28050 awid=110 awlen=55 awsize=1 awburst=1 wdata=[3d24a4f7b6ce99d6 dd206ee01e8c176f e96c302ed940c572 100f5f49da8a93f3 f916ab62a690d525 ffd19a98ed2fce29 c7ba621ce282db91 8913b0b60fe0f9e1 fd10c80ac0d10d7f 2353e91088e54b4e 98c6452fc4cb2a26 859c37a5ac6799c6 354ce51595d70d39 daa23760a8f020b5 d557ba7cce132a44 e3ea377ee03e6f05 92e8fbb0aa49f91 d8b7c9d53e8c6ede 9ecadde3de864a37 e92ae9c8bca20153 fb2e7031a7f96d9e 867fb7d5c1e2b39d fe84b4f119f94e15 c1f2bbb3efaaa19d 318d553bf9b32522 93ac7337c8727389 b81d152630120a2c a9c52f4ed59f2eeb 1e11a274e9aa6a61 99bc748d3d71a286 1310d171d62eb79a 3fd921fcc381a3dc f34662312273e5 87512b7fd9959689 9d173a65140417d3 c5268bb8c72a4d7b 20bfe4059e0a80c7 b20e989acc77b737 13a204b3bdd71e6a dbe19f32f7352452 c3acdb8a3461e8b8 f23907228df037cc 5255c1fd74ee03d bb0c8f5ce1aa654 dc0ade21c8d237a9 202117e6fde9d017 cc04766ce1303a40 2a0271e92bd1e0db a9bbb0f2280f548d 93f8ecdca2389cf f5f56aaaf5c0275e 9dcf7beb334200b6 fd658a859fb11b9c 157142fba70f0ab8 da510b6ef35af52f 930c10cbb340bee6 ] wstrb=[f3 9f c6 22 d ad ee 1 4c b4 23 59 61 11 5a ad c6 7e 7 27 8f 61 d5 55 df dc 7d 6f 3d 52 c4 1d 2e 41 8c 6b 93 50 88 c1 92 14 2d 25 65 b5 e7 f7 ca 14 1c 2f c9 3 26 93 ] bresp=0 bid=110
[645000] MASTER 0 W_VALID_RDY Handshake beat=0 wlast=0
[645000] MASTER 0 B_VALID_RDY Handshake
[645000] [MASTER MONITOR] mst_id=0 s_id=1 awaddr=18c28050 awid=110 awlen=55 awsize=1 awburst=1 wdata=[3d24a4f7b6ce99d6 dd206ee01e8c176f e96c302ed940c572 100f5f49da8a93f3 f916ab62a690d525 ffd19a98ed2fce29 c7ba621ce282db91 8913b0b60fe0f9e1 fd10c80ac0d10d7f 2353e91088e54b4e 98c6452fc4cb2a26 859c37a5ac6799c6 354ce51595d70d39 daa23760a8f020b5 d557ba7cce132a44 e3ea377ee03e6f05 92e8fbb0aa49f91 d8b7c9d53e8c6ede 9ecadde3de864a37 e92ae9c8bca20153 fb2e7031a7f96d9e 867fb7d5c1e2b39d fe84b4f119f94e15 c1f2bbb3efaaa19d 318d553bf9b32522 93ac7337c8727389 b81d152630120a2c a9c52f4ed59f2eeb 1e11a274e9aa6a61 99bc748d3d71a286 1310d171d62eb79a 3fd921fcc381a3dc f34662312273e5 87512b7fd9959689 9d173a65140417d3 c5268bb8c72a4d7b 20bfe4059e0a80c7 b20e989acc77b737 13a204b3bdd71e6a dbe19f32f7352452 c3acdb8a3461e8b8 f23907228df037cc 5255c1fd74ee03d bb0c8f5ce1aa654 dc0ade21c8d237a9 202117e6fde9d017 cc04766ce1303a40 2a0271e92bd1e0db a9bbb0f2280f548d 93f8ecdca2389cf f5f56aaaf5c0275e 9dcf7beb334200b6 fd658a859fb11b9c 157142fba70f0ab8 da510b6ef35af52f 930c10cbb340bee6 ] wstrb=[f3 9f c6 22 d ad ee 1 4c b4 23 59 61 11 5a ad c6 7e 7 27 8f 61 d5 55 df dc 7d 6f 3d 52 c4 1d 2e 41 8c 6b 93 50 88 c1 92 14 2d 25 65 b5 e7 f7 ca 14 1c 2f c9 3 26 93 ] bresp=0 bid=110
[645000] SCOREBOARD MATCH: decode_err expected = 0, actual =0
[645000] SCOREBOARD MATCH: slave_id expected = 1, actual =1
[645000] SCOREBOARD MATCH: awaddr passthrough expected = 18c28050, actual =18c28050
[645000] SCOREBOARD MATCH: awlen passthrough expected = 55, actual =55
[645000] SCOREBOARD MATCH: awsize passthrough expected = 1, actual =1
[645000] SCOREBOARD MATCH: awburst passthrough expected = 1, actual =1
[645000] SCOREBOARD MATCH: wdata size check expected = 38, actual =38
[645000] SCOREBOARD MATCH: wdata passthrough beat=0 expected = 3d24a4f7b6ce99d6, actual =3d24a4f7b6ce99d6
[645000] SCOREBOARD MATCH: wdata passthrough beat=1 expected = dd206ee01e8c176f, actual =dd206ee01e8c176f
[645000] SCOREBOARD MATCH: wdata passthrough beat=2 expected = e96c302ed940c572, actual =e96c302ed940c572
[645000] SCOREBOARD MATCH: wdata passthrough beat=3 expected = 100f5f49da8a93f3, actual =100f5f49da8a93f3
[645000] SCOREBOARD MATCH: wdata passthrough beat=4 expected = f916ab62a690d525, actual =f916ab62a690d525
[645000] SCOREBOARD MATCH: wdata passthrough beat=5 expected = ffd19a98ed2fce29, actual =ffd19a98ed2fce29
[645000] SCOREBOARD MATCH: wdata passthrough beat=6 expected = c7ba621ce282db91, actual =c7ba621ce282db91
[645000] SCOREBOARD MATCH: wdata passthrough beat=7 expected = 8913b0b60fe0f9e1, actual =8913b0b60fe0f9e1
[645000] SCOREBOARD MATCH: wdata passthrough beat=8 expected = fd10c80ac0d10d7f, actual =fd10c80ac0d10d7f
[645000] SCOREBOARD MATCH: wdata passthrough beat=9 expected = 2353e91088e54b4e, actual =2353e91088e54b4e
[645000] SCOREBOARD MATCH: wdata passthrough beat=10 expected = 98c6452fc4cb2a26, actual =98c6452fc4cb2a26
[645000] SCOREBOARD MATCH: wdata passthrough beat=11 expected = 859c37a5ac6799c6, actual =859c37a5ac6799c6
[645000] SCOREBOARD MATCH: wdata passthrough beat=12 expected = 354ce51595d70d39, actual =354ce51595d70d39
[645000] SCOREBOARD MATCH: wdata passthrough beat=13 expected = daa23760a8f020b5, actual =daa23760a8f020b5
[645000] SCOREBOARD MATCH: wdata passthrough beat=14 expected = d557ba7cce132a44, actual =d557ba7cce132a44
[645000] SCOREBOARD MATCH: wdata passthrough beat=15 expected = e3ea377ee03e6f05, actual =e3ea377ee03e6f05
[645000] SCOREBOARD MATCH: wdata passthrough beat=16 expected = 92e8fbb0aa49f91, actual =92e8fbb0aa49f91
[645000] SCOREBOARD MATCH: wdata passthrough beat=17 expected = d8b7c9d53e8c6ede, actual =d8b7c9d53e8c6ede
[645000] SCOREBOARD MATCH: wdata passthrough beat=18 expected = 9ecadde3de864a37, actual =9ecadde3de864a37
[645000] SCOREBOARD MATCH: wdata passthrough beat=19 expected = e92ae9c8bca20153, actual =e92ae9c8bca20153
[645000] SCOREBOARD MATCH: wdata passthrough beat=20 expected = fb2e7031a7f96d9e, actual =fb2e7031a7f96d9e
[645000] SCOREBOARD MATCH: wdata passthrough beat=21 expected = 867fb7d5c1e2b39d, actual =867fb7d5c1e2b39d
[645000] SCOREBOARD MATCH: wdata passthrough beat=22 expected = fe84b4f119f94e15, actual =fe84b4f119f94e15
[645000] SCOREBOARD MATCH: wdata passthrough beat=23 expected = c1f2bbb3efaaa19d, actual =c1f2bbb3efaaa19d
[645000] SCOREBOARD MATCH: wdata passthrough beat=24 expected = 318d553bf9b32522, actual =318d553bf9b32522
[645000] SCOREBOARD MATCH: wdata passthrough beat=25 expected = 93ac7337c8727389, actual =93ac7337c8727389
[645000] SCOREBOARD MATCH: wdata passthrough beat=26 expected = b81d152630120a2c, actual =b81d152630120a2c
[645000] SCOREBOARD MATCH: wdata passthrough beat=27 expected = a9c52f4ed59f2eeb, actual =a9c52f4ed59f2eeb
[645000] SCOREBOARD MATCH: wdata passthrough beat=28 expected = 1e11a274e9aa6a61, actual =1e11a274e9aa6a61
[645000] SCOREBOARD MATCH: wdata passthrough beat=29 expected = 99bc748d3d71a286, actual =99bc748d3d71a286
[645000] SCOREBOARD MATCH: wdata passthrough beat=30 expected = 1310d171d62eb79a, actual =1310d171d62eb79a
[645000] SCOREBOARD MATCH: wdata passthrough beat=31 expected = 3fd921fcc381a3dc, actual =3fd921fcc381a3dc
[645000] SCOREBOARD MATCH: wdata passthrough beat=32 expected = f34662312273e5, actual =f34662312273e5
[645000] SCOREBOARD MATCH: wdata passthrough beat=33 expected = 87512b7fd9959689, actual =87512b7fd9959689
[645000] SCOREBOARD MATCH: wdata passthrough beat=34 expected = 9d173a65140417d3, actual =9d173a65140417d3
[645000] SCOREBOARD MATCH: wdata passthrough beat=35 expected = c5268bb8c72a4d7b, actual =c5268bb8c72a4d7b
[645000] SCOREBOARD MATCH: wdata passthrough beat=36 expected = 20bfe4059e0a80c7, actual =20bfe4059e0a80c7
[645000] SCOREBOARD MATCH: wdata passthrough beat=37 expected = b20e989acc77b737, actual =b20e989acc77b737
[645000] SCOREBOARD MATCH: wdata passthrough beat=38 expected = 13a204b3bdd71e6a, actual =13a204b3bdd71e6a
[645000] SCOREBOARD MATCH: wdata passthrough beat=39 expected = dbe19f32f7352452, actual =dbe19f32f7352452
[645000] SCOREBOARD MATCH: wdata passthrough beat=40 expected = c3acdb8a3461e8b8, actual =c3acdb8a3461e8b8
[645000] SCOREBOARD MATCH: wdata passthrough beat=41 expected = f23907228df037cc, actual =f23907228df037cc
[645000] SCOREBOARD MATCH: wdata passthrough beat=42 expected = 5255c1fd74ee03d, actual =5255c1fd74ee03d
[645000] SCOREBOARD MATCH: wdata passthrough beat=43 expected = bb0c8f5ce1aa654, actual =bb0c8f5ce1aa654
[645000] SCOREBOARD MATCH: wdata passthrough beat=44 expected = dc0ade21c8d237a9, actual =dc0ade21c8d237a9
[645000] SCOREBOARD MATCH: wdata passthrough beat=45 expected = 202117e6fde9d017, actual =202117e6fde9d017
[645000] SCOREBOARD MATCH: wdata passthrough beat=46 expected = cc04766ce1303a40, actual =cc04766ce1303a40
[645000] SCOREBOARD MATCH: wdata passthrough beat=47 expected = 2a0271e92bd1e0db, actual =2a0271e92bd1e0db
[645000] SCOREBOARD MATCH: wdata passthrough beat=48 expected = a9bbb0f2280f548d, actual =a9bbb0f2280f548d
[645000] SCOREBOARD MATCH: wdata passthrough beat=49 expected = 93f8ecdca2389cf, actual =93f8ecdca2389cf
[645000] SCOREBOARD MATCH: wdata passthrough beat=50 expected = f5f56aaaf5c0275e, actual =f5f56aaaf5c0275e
[645000] SCOREBOARD MATCH: wdata passthrough beat=51 expected = 9dcf7beb334200b6, actual =9dcf7beb334200b6
[645000] SCOREBOARD MATCH: wdata passthrough beat=52 expected = fd658a859fb11b9c, actual =fd658a859fb11b9c
[645000] SCOREBOARD MATCH: wdata passthrough beat=53 expected = 157142fba70f0ab8, actual =157142fba70f0ab8
[645000] SCOREBOARD MATCH: wdata passthrough beat=54 expected = da510b6ef35af52f, actual =da510b6ef35af52f
[645000] SCOREBOARD MATCH: wdata passthrough beat=55 expected = 930c10cbb340bee6, actual =930c10cbb340bee6
[645000] SCOREBOARD MATCH: wstrb size check expected = 38, actual =38
[645000] SCOREBOARD MATCH: wstrb passthrough beat=0 expected = f3, actual =f3
[645000] SCOREBOARD MATCH: wstrb passthrough beat=1 expected = 9f, actual =9f
[645000] SCOREBOARD MATCH: wstrb passthrough beat=2 expected = c6, actual =c6
[645000] SCOREBOARD MATCH: wstrb passthrough beat=3 expected = 22, actual =22
[645000] SCOREBOARD MATCH: wstrb passthrough beat=4 expected = d, actual =d
[645000] SCOREBOARD MATCH: wstrb passthrough beat=5 expected = ad, actual =ad
[645000] SCOREBOARD MATCH: wstrb passthrough beat=6 expected = ee, actual =ee
[645000] SCOREBOARD MATCH: wstrb passthrough beat=7 expected = 1, actual =1
[645000] SCOREBOARD MATCH: wstrb passthrough beat=8 expected = 4c, actual =4c
[645000] SCOREBOARD MATCH: wstrb passthrough beat=9 expected = b4, actual =b4
[645000] SCOREBOARD MATCH: wstrb passthrough beat=10 expected = 23, actual =23
[645000] SCOREBOARD MATCH: wstrb passthrough beat=11 expected = 59, actual =59
[645000] SCOREBOARD MATCH: wstrb passthrough beat=12 expected = 61, actual =61
[645000] SCOREBOARD MATCH: wstrb passthrough beat=13 expected = 11, actual =11
[645000] SCOREBOARD MATCH: wstrb passthrough beat=14 expected = 5a, actual =5a
[645000] SCOREBOARD MATCH: wstrb passthrough beat=15 expected = ad, actual =ad
[645000] SCOREBOARD MATCH: wstrb passthrough beat=16 expected = c6, actual =c6
[645000] SCOREBOARD MATCH: wstrb passthrough beat=17 expected = 7e, actual =7e
[645000] SCOREBOARD MATCH: wstrb passthrough beat=18 expected = 7, actual =7
[645000] SCOREBOARD MATCH: wstrb passthrough beat=19 expected = 27, actual =27
[645000] SCOREBOARD MATCH: wstrb passthrough beat=20 expected = 8f, actual =8f
[645000] SCOREBOARD MATCH: wstrb passthrough beat=21 expected = 61, actual =61
[645000] SCOREBOARD MATCH: wstrb passthrough beat=22 expected = d5, actual =d5
[645000] SCOREBOARD MATCH: wstrb passthrough beat=23 expected = 55, actual =55
[645000] SCOREBOARD MATCH: wstrb passthrough beat=24 expected = df, actual =df
[645000] SCOREBOARD MATCH: wstrb passthrough beat=25 expected = dc, actual =dc
[645000] SCOREBOARD MATCH: wstrb passthrough beat=26 expected = 7d, actual =7d
[645000] SCOREBOARD MATCH: wstrb passthrough beat=27 expected = 6f, actual =6f
[645000] SCOREBOARD MATCH: wstrb passthrough beat=28 expected = 3d, actual =3d
[645000] SCOREBOARD MATCH: wstrb passthrough beat=29 expected = 52, actual =52
[645000] SCOREBOARD MATCH: wstrb passthrough beat=30 expected = c4, actual =c4
[645000] SCOREBOARD MATCH: wstrb passthrough beat=31 expected = 1d, actual =1d
[645000] SCOREBOARD MATCH: wstrb passthrough beat=32 expected = 2e, actual =2e
[645000] SCOREBOARD MATCH: wstrb passthrough beat=33 expected = 41, actual =41
[645000] SCOREBOARD MATCH: wstrb passthrough beat=34 expected = 8c, actual =8c
[645000] SCOREBOARD MATCH: wstrb passthrough beat=35 expected = 6b, actual =6b
[645000] SCOREBOARD MATCH: wstrb passthrough beat=36 expected = 93, actual =93
[645000] SCOREBOARD MATCH: wstrb passthrough beat=37 expected = 50, actual =50
[645000] SCOREBOARD MATCH: wstrb passthrough beat=38 expected = 88, actual =88
[645000] SCOREBOARD MATCH: wstrb passthrough beat=39 expected = c1, actual =c1
[645000] SCOREBOARD MATCH: wstrb passthrough beat=40 expected = 92, actual =92
[645000] SCOREBOARD MATCH: wstrb passthrough beat=41 expected = 14, actual =14
[645000] SCOREBOARD MATCH: wstrb passthrough beat=42 expected = 2d, actual =2d
[645000] SCOREBOARD MATCH: wstrb passthrough beat=43 expected = 25, actual =25
[645000] SCOREBOARD MATCH: wstrb passthrough beat=44 expected = 65, actual =65
[645000] SCOREBOARD MATCH: wstrb passthrough beat=45 expected = b5, actual =b5
[645000] SCOREBOARD MATCH: wstrb passthrough beat=46 expected = e7, actual =e7
[645000] SCOREBOARD MATCH: wstrb passthrough beat=47 expected = f7, actual =f7
[645000] SCOREBOARD MATCH: wstrb passthrough beat=48 expected = ca, actual =ca
[645000] SCOREBOARD MATCH: wstrb passthrough beat=49 expected = 14, actual =14
[645000] SCOREBOARD MATCH: wstrb passthrough beat=50 expected = 1c, actual =1c
[645000] SCOREBOARD MATCH: wstrb passthrough beat=51 expected = 2f, actual =2f
[645000] SCOREBOARD MATCH: wstrb passthrough beat=52 expected = c9, actual =c9
[645000] SCOREBOARD MATCH: wstrb passthrough beat=53 expected = 3, actual =3
[645000] SCOREBOARD MATCH: wstrb passthrough beat=54 expected = 26, actual =26
[645000] SCOREBOARD MATCH: wstrb passthrough beat=55 expected = 93, actual =93
[645000] SCOREBOARD MATCH: bresp passthrough expected = 0, actual =0
[645000] SCOREBOARD MATCH: response routed to correct master (write) expected = 0, actual =0
[645000] [SCOREBOARD-M] mst_id=0 s_id=1 awaddr=18c28050 awid=110 awlen=55 awsize=1 awburst=1 wdata=[3d24a4f7b6ce99d6 dd206ee01e8c176f e96c302ed940c572 100f5f49da8a93f3 f916ab62a690d525 ffd19a98ed2fce29 c7ba621ce282db91 8913b0b60fe0f9e1 fd10c80ac0d10d7f 2353e91088e54b4e 98c6452fc4cb2a26 859c37a5ac6799c6 354ce51595d70d39 daa23760a8f020b5 d557ba7cce132a44 e3ea377ee03e6f05 92e8fbb0aa49f91 d8b7c9d53e8c6ede 9ecadde3de864a37 e92ae9c8bca20153 fb2e7031a7f96d9e 867fb7d5c1e2b39d fe84b4f119f94e15 c1f2bbb3efaaa19d 318d553bf9b32522 93ac7337c8727389 b81d152630120a2c a9c52f4ed59f2eeb 1e11a274e9aa6a61 99bc748d3d71a286 1310d171d62eb79a 3fd921fcc381a3dc f34662312273e5 87512b7fd9959689 9d173a65140417d3 c5268bb8c72a4d7b 20bfe4059e0a80c7 b20e989acc77b737 13a204b3bdd71e6a dbe19f32f7352452 c3acdb8a3461e8b8 f23907228df037cc 5255c1fd74ee03d bb0c8f5ce1aa654 dc0ade21c8d237a9 202117e6fde9d017 cc04766ce1303a40 2a0271e92bd1e0db a9bbb0f2280f548d 93f8ecdca2389cf f5f56aaaf5c0275e 9dcf7beb334200b6 fd658a859fb11b9c 157142fba70f0ab8 da510b6ef35af52f 930c10cbb340bee6 ] wstrb=[f3 9f c6 22 d ad ee 1 4c b4 23 59 61 11 5a ad c6 7e 7 27 8f 61 d5 55 df dc 7d 6f 3d 52 c4 1d 2e 41 8c 6b 93 50 88 c1 92 14 2d 25 65 b5 e7 f7 ca 14 1c 2f c9 3 26 93 ] bresp=0 bid=110
[645000] [SCOREBOARD-S] mst_id=0 s_id=1 awaddr=18c28050 awid=110 awlen=55 awsize=1 awburst=1 wdata=[3d24a4f7b6ce99d6 dd206ee01e8c176f e96c302ed940c572 100f5f49da8a93f3 f916ab62a690d525 ffd19a98ed2fce29 c7ba621ce282db91 8913b0b60fe0f9e1 fd10c80ac0d10d7f 2353e91088e54b4e 98c6452fc4cb2a26 859c37a5ac6799c6 354ce51595d70d39 daa23760a8f020b5 d557ba7cce132a44 e3ea377ee03e6f05 92e8fbb0aa49f91 d8b7c9d53e8c6ede 9ecadde3de864a37 e92ae9c8bca20153 fb2e7031a7f96d9e 867fb7d5c1e2b39d fe84b4f119f94e15 c1f2bbb3efaaa19d 318d553bf9b32522 93ac7337c8727389 b81d152630120a2c a9c52f4ed59f2eeb 1e11a274e9aa6a61 99bc748d3d71a286 1310d171d62eb79a 3fd921fcc381a3dc f34662312273e5 87512b7fd9959689 9d173a65140417d3 c5268bb8c72a4d7b 20bfe4059e0a80c7 b20e989acc77b737 13a204b3bdd71e6a dbe19f32f7352452 c3acdb8a3461e8b8 f23907228df037cc 5255c1fd74ee03d bb0c8f5ce1aa654 dc0ade21c8d237a9 202117e6fde9d017 cc04766ce1303a40 2a0271e92bd1e0db a9bbb0f2280f548d 93f8ecdca2389cf f5f56aaaf5c0275e 9dcf7beb334200b6 fd658a859fb11b9c 157142fba70f0ab8 da510b6ef35af52f 930c10cbb340bee6 ] wstrb=[f3 9f c6 22 d ad ee 1 4c b4 23 59 61 11 5a ad c6 7e 7 27 8f 61 d5 55 df dc 7d 6f 3d 52 c4 1d 2e 41 8c 6b 93 50 88 c1 92 14 2d 25 65 b5 e7 f7 ca 14 1c 2f c9 3 26 93 ] bresp=0 bid=110
[645000] SCOREBOARD: Transaction 1 received. pass=122 fail=0
[645000] ALL PASS. Total transactions: 1
[655000] S1 MEMORY WRITE beat=0 addr=152dff50 data=1d660ba7f9b13df8 id=04
[655000] MASTER 0 W_VALID_RDY Handshake beat=1 wlast=0
[665000] MASTER 0 W_VALID_RDY Handshake beat=2 wlast=0
[665000] S1 MEMORY WRITE beat=1 addr=152dffd0 data=1e9be1b3f18ae4b4 id=04
[675000] S1 MEMORY WRITE beat=2 addr=152e0050 data=ff4fbb9533ad0058 id=04
[675000] MASTER 0 W_VALID_RDY Handshake beat=3 wlast=0
[685000] MASTER 0 W_VALID_RDY Handshake beat=4 wlast=0
[685000] S1 MEMORY WRITE beat=3 addr=152e00d0 data=2d5e3e50b944909d id=04
[695000] S1 MEMORY WRITE beat=4 addr=152e0150 data=2acf75521cb5c73c id=04
[695000] MASTER 0 W_VALID_RDY Handshake beat=5 wlast=0
[705000] MASTER 0 W_VALID_RDY Handshake beat=6 wlast=0
[705000] S1 MEMORY WRITE beat=5 addr=152e01d0 data=d062c794cbfa2003 id=04
[715000] S1 MEMORY WRITE beat=6 addr=152e0250 data=853eb0a02a1f30e7 id=04
[715000] MASTER 0 W_VALID_RDY Handshake beat=7 wlast=0
[725000] MASTER 0 W_VALID_RDY Handshake beat=8 wlast=0
[725000] S1 MEMORY WRITE beat=7 addr=152e02d0 data=c6d4f823fdc105e4 id=04
[735000] S1 MEMORY WRITE beat=8 addr=152e0350 data=c9bb25e7b00e25f2 id=04
[735000] MASTER 0 W_VALID_RDY Handshake beat=9 wlast=0
[745000] MASTER 0 W_VALID_RDY Handshake beat=10 wlast=0
[745000] S1 MEMORY WRITE beat=9 addr=152e03d0 data=da2d56d91737bfb7 id=04
[755000] S1 MEMORY WRITE beat=10 addr=152e0450 data=14f8c59bcef9d687 id=04
[755000] MASTER 0 W_VALID_RDY Handshake beat=11 wlast=0
[765000] MASTER 0 W_VALID_RDY Handshake beat=12 wlast=0
[765000] S1 MEMORY WRITE beat=11 addr=152e04d0 data=ff07fc7aa1024efc id=04
[775000] S1 MEMORY WRITE beat=12 addr=152e0550 data=b83a0eb3deb3eb82 id=04
[775000] MASTER 0 W_VALID_RDY Handshake beat=13 wlast=0
[785000] MASTER 0 W_VALID_RDY Handshake beat=14 wlast=0
[785000] S1 MEMORY WRITE beat=13 addr=152e05d0 data=adadc209d9355353 id=04
[795000] S1 MEMORY WRITE beat=14 addr=152e0650 data=fa37a250cd32d44e id=04
[795000] MASTER 0 W_VALID_RDY Handshake beat=15 wlast=0
[805000] MASTER 0 W_VALID_RDY Handshake beat=16 wlast=0
[805000] S1 MEMORY WRITE beat=15 addr=152e06d0 data=abe6bfd0acb5be83 id=04
[815000] S1 MEMORY WRITE beat=16 addr=152e0750 data=05eb11d7b271b103 id=04
[815000] MASTER 0 W_VALID_RDY Handshake beat=17 wlast=0
[825000] MASTER 0 W_VALID_RDY Handshake beat=18 wlast=0
[825000] S1 MEMORY WRITE beat=17 addr=152e07d0 data=ffa48552d99481da id=04
[835000] S1 MEMORY WRITE beat=18 addr=152e0850 data=864a405d0022b427 id=04
[835000] MASTER 0 W_VALID_RDY Handshake beat=19 wlast=0
[845000] MASTER 0 W_VALID_RDY Handshake beat=20 wlast=0
[845000] S1 MEMORY WRITE beat=19 addr=152e08d0 data=b294652aab8b4522 id=04
[855000] S1 MEMORY WRITE beat=20 addr=152e0950 data=851fc6fc8c355234 id=04
[855000] MASTER 0 W_VALID_RDY Handshake beat=21 wlast=0
[865000] MASTER 0 W_VALID_RDY Handshake beat=22 wlast=0
[865000] S1 MEMORY WRITE beat=21 addr=152e09d0 data=8c58065bb238ea7c id=04
[875000] S1 MEMORY WRITE beat=22 addr=152e0a50 data=ddc42f9f0b6a075a id=04
[875000] MASTER 0 W_VALID_RDY Handshake beat=23 wlast=0
[885000] MASTER 0 W_VALID_RDY Handshake beat=24 wlast=0
[885000] S1 MEMORY WRITE beat=23 addr=152e0ad0 data=979f598e3eec6b86 id=04
[895000] S1 MEMORY WRITE beat=24 addr=152e0b50 data=f1255602e2e3f69b id=04
[895000] MASTER 0 W_VALID_RDY Handshake beat=25 wlast=0
[905000] MASTER 0 W_VALID_RDY Handshake beat=26 wlast=0
[905000] S1 MEMORY WRITE beat=25 addr=152e0bd0 data=ee4dfdf523f75fea id=04
[915000] S1 MEMORY WRITE beat=26 addr=152e0c50 data=e2e3cb70cee985a1 id=04
[915000] MASTER 0 W_VALID_RDY Handshake beat=27 wlast=0
[925000] MASTER 0 W_VALID_RDY Handshake beat=28 wlast=0
[925000] S1 MEMORY WRITE beat=27 addr=152e0cd0 data=31cd7c3d05ed5784 id=04
[935000] S1 MEMORY WRITE beat=28 addr=152e0d50 data=29e4b76ed4092172 id=04
[935000] MASTER 0 W_VALID_RDY Handshake beat=29 wlast=0
[945000] MASTER 0 W_VALID_RDY Handshake beat=30 wlast=0
[945000] S1 MEMORY WRITE beat=29 addr=152e0dd0 data=22f2a714a01b7a32 id=04
[955000] S1 MEMORY WRITE beat=30 addr=152e0e50 data=a608d1b60cc882de id=04
[955000] MASTER 0 W_VALID_RDY Handshake beat=31 wlast=0
[965000] MASTER 0 W_VALID_RDY Handshake beat=32 wlast=0
[965000] S1 MEMORY WRITE beat=31 addr=152e0ed0 data=e0d1a450d4c02351 id=04
[975000] S1 MEMORY WRITE beat=32 addr=152e0f50 data=f4db9d83cfed8924 id=04
[975000] MASTER 0 W_VALID_RDY Handshake beat=33 wlast=0
[985000] MASTER 0 W_VALID_RDY Handshake beat=34 wlast=0
[985000] S1 MEMORY WRITE beat=33 addr=152e0fd0 data=dcb60c0283c44b64 id=04
[995000] S1 MEMORY WRITE beat=34 addr=152e1050 data=d8846eb51ae46f3a id=04
[995000] MASTER 0 W_VALID_RDY Handshake beat=35 wlast=0
[1005000] MASTER 0 W_VALID_RDY Handshake beat=36 wlast=0
[1005000] S1 MEMORY WRITE beat=35 addr=152e10d0 data=ead1f85e3d87b053 id=04
[1015000] S1 MEMORY WRITE beat=36 addr=152e1150 data=c14bfbb7cd600c39 id=04
[1015000] MASTER 0 W_VALID_RDY Handshake beat=37 wlast=0
[1025000] MASTER 0 W_VALID_RDY Handshake beat=38 wlast=0
[1025000] S1 MEMORY WRITE beat=37 addr=152e11d0 data=e8447b73c7880461 id=04
[1035000] S1 MEMORY WRITE beat=38 addr=152e1250 data=050fb4b419d06a6d id=04
[1035000] MASTER 0 W_VALID_RDY Handshake beat=39 wlast=0
[1045000] MASTER 0 W_VALID_RDY Handshake beat=40 wlast=0
[1045000] S1 MEMORY WRITE beat=39 addr=152e12d0 data=e73076a6d31673d1 id=04
[1055000] S1 MEMORY WRITE beat=40 addr=152e1350 data=9a9e7832c65bb06b id=04
[1055000] MASTER 0 W_VALID_RDY Handshake beat=41 wlast=0
[1065000] MASTER 0 W_VALID_RDY Handshake beat=42 wlast=0
[1065000] S1 MEMORY WRITE beat=41 addr=152e13d0 data=e02c1ad8cf74f219 id=04
[1075000] S1 MEMORY WRITE beat=42 addr=152e1450 data=a28b65ea9fae2ce6 id=04
[1075000] MASTER 0 W_VALID_RDY Handshake beat=43 wlast=0
[1085000] MASTER 0 W_VALID_RDY Handshake beat=44 wlast=0
[1085000] S1 MEMORY WRITE beat=43 addr=152e14d0 data=e609dd52c75c917e id=04
[1095000] S1 MEMORY WRITE beat=44 addr=152e1550 data=96d183973d29de1d id=04
[1095000] MASTER 0 W_VALID_RDY Handshake beat=45 wlast=0
[1105000] MASTER 0 W_VALID_RDY Handshake beat=46 wlast=0
[1105000] S1 MEMORY WRITE beat=45 addr=152e15d0 data=dcd80b03c635f82a id=04
[1115000] S1 MEMORY WRITE beat=46 addr=152e1650 data=0d9289a9395ce982 id=04
[1115000] MASTER 0 W_VALID_RDY Handshake beat=47 wlast=0
[1125000] MASTER 0 W_VALID_RDY Handshake beat=48 wlast=0
[1125000] S1 MEMORY WRITE beat=47 addr=152e16d0 data=f686c79fc2e1e855 id=04
[1135000] S1 MEMORY WRITE beat=48 addr=152e1750 data=0917e080a4640d40 id=04
[1135000] MASTER 0 W_VALID_RDY Handshake beat=49 wlast=0
[1145000] MASTER 0 W_VALID_RDY Handshake beat=50 wlast=0
[1145000] S1 MEMORY WRITE beat=49 addr=152e17d0 data=ddc0f6c2d35ed2a2 id=04
[1155000] S1 MEMORY WRITE beat=50 addr=152e1850 data=1640baf816aa6a29 id=04
[1155000] MASTER 0 W_VALID_RDY Handshake beat=51 wlast=0
[1165000] MASTER 0 W_VALID_RDY Handshake beat=52 wlast=0
[1165000] S1 MEMORY WRITE beat=51 addr=152e18d0 data=bb0e7769d447be61 id=04
[1175000] S1 MEMORY WRITE beat=52 addr=152e1950 data=27a691041f589b78 id=04
[1175000] MASTER 0 W_VALID_RDY Handshake beat=53 wlast=0
[1185000] MASTER 0 W_VALID_RDY Handshake beat=54 wlast=0
[1185000] S1 MEMORY WRITE beat=53 addr=152e19d0 data=360305a118cf6e2c id=04
[1195000] S1 MEMORY WRITE beat=54 addr=152e1a50 data=ed172c8d3de74bfc id=04
[1195000] MASTER 0 W_VALID_RDY Handshake beat=55 wlast=0
[1205000] MASTER 0 W_VALID_RDY Handshake beat=56 wlast=0
[1205000] S1 MEMORY WRITE beat=55 addr=152e1ad0 data=dd3fe774f1117d0a id=04
[1215000] S1 MEMORY WRITE beat=56 addr=152e1b50 data=89e0eb3694bdbd91 id=04
[1215000] MASTER 0 W_VALID_RDY Handshake beat=57 wlast=0
[1225000] MASTER 0 W_VALID_RDY Handshake beat=58 wlast=0
[1225000] S1 MEMORY WRITE beat=57 addr=152e1bd0 data=d2a5098d1342ed15 id=04
[1235000] S1 MEMORY WRITE beat=58 addr=152e1c50 data=84546a1ff6f817c4 id=04
[1235000] MASTER 0 W_VALID_RDY Handshake beat=59 wlast=0
[1245000] MASTER 0 W_VALID_RDY Handshake beat=60 wlast=0
[1245000] S1 MEMORY WRITE beat=59 addr=152e1cd0 data=8bb5d555afe4f101 id=04
[1255000] S1 MEMORY WRITE beat=60 addr=152e1d50 data=c327de160e355556 id=04
[1255000] MASTER 0 W_VALID_RDY Handshake beat=61 wlast=0
[1265000] MASTER 0 W_VALID_RDY Handshake beat=62 wlast=0
[1265000] S1 MEMORY WRITE beat=61 addr=152e1dd0 data=052d6d1ade5adee3 id=04
[1275000] S1 MEMORY WRITE beat=62 addr=152e1e50 data=8e3fcfe4c77c4836 id=04
[1275000] MASTER 0 W_VALID_RDY Handshake beat=63 wlast=0
[1285000] MASTER 0 W_VALID_RDY Handshake beat=64 wlast=0
[1285000] S1 MEMORY WRITE beat=63 addr=152e1ed0 data=d5b19d8c90e3426f id=04
[1295000] S1 MEMORY WRITE beat=64 addr=152e1f50 data=ef3e2152d167adfb id=04
[1295000] MASTER 0 W_VALID_RDY Handshake beat=65 wlast=0
[1305000] MASTER 0 W_VALID_RDY Handshake beat=66 wlast=0
[1305000] S1 MEMORY WRITE beat=65 addr=152e1fd0 data=18e3f631dadf0aa6 id=04
[1315000] S1 MEMORY WRITE beat=66 addr=152e2050 data=ebc24d15fd7df137 id=04
[1315000] MASTER 0 W_VALID_RDY Handshake beat=67 wlast=0
[1325000] MASTER 0 W_VALID_RDY Handshake beat=68 wlast=0
[1325000] S1 MEMORY WRITE beat=67 addr=152e20d0 data=cee59f32ee9593bd id=04
[1335000] S1 MEMORY WRITE beat=68 addr=152e2150 data=c9749e63db006e68 id=04
[1335000] MASTER 0 W_VALID_RDY Handshake beat=69 wlast=0
[1345000] MASTER 0 W_VALID_RDY Handshake beat=70 wlast=0
[1345000] S1 MEMORY WRITE beat=69 addr=152e21d0 data=d87e5f9fe7c99563 id=04
[1355000] S1 MEMORY WRITE beat=70 addr=152e2250 data=d65f2920b536eb78 id=04
[1355000] MASTER 0 W_VALID_RDY Handshake beat=71 wlast=0
[1365000] MASTER 0 W_VALID_RDY Handshake beat=72 wlast=0
[1365000] S1 MEMORY WRITE beat=71 addr=152e22d0 data=903759e02763fed1 id=04
[1375000] S1 MEMORY WRITE beat=72 addr=152e2350 data=0f2d94341fd3c783 id=04
[1375000] MASTER 0 W_VALID_RDY Handshake beat=73 wlast=0
[1385000] MASTER 0 W_VALID_RDY Handshake beat=74 wlast=0
[1385000] S1 MEMORY WRITE beat=73 addr=152e23d0 data=d50ab2fbe8b5b97f id=04
[1395000] S1 MEMORY WRITE beat=74 addr=152e2450 data=9019b850e58cbd54 id=04
[1395000] MASTER 0 W_VALID_RDY Handshake beat=75 wlast=0
[1405000] MASTER 0 W_VALID_RDY Handshake beat=76 wlast=0
[1405000] S1 MEMORY WRITE beat=75 addr=152e24d0 data=056084d7e5420cdc id=04
[1415000] S1 MEMORY WRITE beat=76 addr=152e2550 data=cdf7c65b9f474c84 id=04
[1415000] MASTER 0 W_VALID_RDY Handshake beat=77 wlast=0
[1425000] MASTER 0 W_VALID_RDY Handshake beat=78 wlast=0
[1425000] S1 MEMORY WRITE beat=77 addr=152e25d0 data=84d409d8da6b37d2 id=04
[1435000] S1 MEMORY WRITE beat=78 addr=152e2650 data=bfad44aede117eac id=04
[1435000] MASTER 0 W_VALID_RDY Handshake beat=79 wlast=0
[1445000] MASTER 0 W_VALID_RDY Handshake beat=80 wlast=0
[1445000] S1 MEMORY WRITE beat=79 addr=152e26d0 data=fd58cb308a348eaf id=04
[1455000] S1 MEMORY WRITE beat=80 addr=152e2750 data=e49fc6820da50b0a id=04
[1455000] MASTER 0 W_VALID_RDY Handshake beat=81 wlast=0
[1465000] MASTER 0 W_VALID_RDY Handshake beat=82 wlast=0
[1465000] S1 MEMORY WRITE beat=81 addr=152e27d0 data=ebb689b6022cd509 id=04
[1475000] S1 MEMORY WRITE beat=82 addr=152e2850 data=8c6163b8a44d0b30 id=04
[1475000] MASTER 0 W_VALID_RDY Handshake beat=83 wlast=0
[1485000] MASTER 0 W_VALID_RDY Handshake beat=84 wlast=0
[1485000] S1 MEMORY WRITE beat=83 addr=152e28d0 data=b1f2163ae90f54e6 id=04
[1495000] S1 MEMORY WRITE beat=84 addr=152e2950 data=eb3c29eff1012a3a id=04
[1495000] MASTER 0 W_VALID_RDY Handshake beat=85 wlast=0
[1505000] MASTER 0 W_VALID_RDY Handshake beat=86 wlast=0
[1505000] S1 MEMORY WRITE beat=85 addr=152e29d0 data=154e356b9da89ff0 id=04
[1515000] S1 MEMORY WRITE beat=86 addr=152e2a50 data=06b7f4d7f79d8da8 id=04
[1515000] MASTER 0 W_VALID_RDY Handshake beat=87 wlast=0
[1525000] MASTER 0 W_VALID_RDY Handshake beat=88 wlast=0
[1525000] S1 MEMORY WRITE beat=87 addr=152e2ad0 data=e89eb7e2c7404ba5 id=04
[1535000] S1 MEMORY WRITE beat=88 addr=152e2b50 data=e4e8eb96f1f41ec6 id=04
[1535000] MASTER 0 W_VALID_RDY Handshake beat=89 wlast=0
[1545000] MASTER 0 W_VALID_RDY Handshake beat=90 wlast=0
[1545000] S1 MEMORY WRITE beat=89 addr=152e2bd0 data=e991ac6efdeced4d id=04
[1555000] S1 MEMORY WRITE beat=90 addr=152e2c50 data=c52d38f3eba0e06d id=04
[1555000] MASTER 0 W_VALID_RDY Handshake beat=91 wlast=0
[1565000] MASTER 0 W_VALID_RDY Handshake beat=92 wlast=0
[1565000] S1 MEMORY WRITE beat=91 addr=152e2cd0 data=dd94ff33d2306451 id=04
[1575000] S1 MEMORY WRITE beat=92 addr=152e2d50 data=d01d519e2a162489 id=04
[1575000] MASTER 0 W_VALID_RDY Handshake beat=93 wlast=0
[1585000] MASTER 0 W_VALID_RDY Handshake beat=94 wlast=0
[1585000] S1 MEMORY WRITE beat=93 addr=152e2dd0 data=15b704f6c726aba2 id=04
[1595000] S1 MEMORY WRITE beat=94 addr=152e2e50 data=19570ff3954a8a91 id=04
[1595000] MASTER 0 W_VALID_RDY Handshake beat=95 wlast=0
[1605000] MASTER 0 W_VALID_RDY Handshake beat=96 wlast=0
[1605000] S1 MEMORY WRITE beat=95 addr=152e2ed0 data=bf60af1af34c0429 id=04
[1615000] S1 MEMORY WRITE beat=96 addr=152e2f50 data=ba72afcbe9746191 id=04
[1615000] MASTER 0 W_VALID_RDY Handshake beat=97 wlast=0
[1625000] MASTER 0 W_VALID_RDY Handshake beat=98 wlast=0
[1625000] S1 MEMORY WRITE beat=97 addr=152e2fd0 data=febeec23d517b410 id=04
[1635000] S1 MEMORY WRITE beat=98 addr=152e3050 data=c863b83ad3c9bfbe id=04
[1635000] MASTER 0 W_VALID_RDY Handshake beat=99 wlast=0
[1645000] MASTER 0 W_VALID_RDY Handshake beat=100 wlast=0
[1645000] S1 MEMORY WRITE beat=99 addr=152e30d0 data=3d3e2150be1f9b3d id=04
[1655000] S1 MEMORY WRITE beat=100 addr=152e3150 data=13374f4e82d66805 id=04
[1655000] MASTER 0 W_VALID_RDY Handshake beat=101 wlast=0
[1665000] MASTER 0 W_VALID_RDY Handshake beat=102 wlast=0
[1665000] S1 MEMORY WRITE beat=101 addr=152e31d0 data=d6a027c43bfd0d73 id=04
[1675000] S1 MEMORY WRITE beat=102 addr=152e3250 data=fa1ca8b0db9b0788 id=04
[1675000] MASTER 0 W_VALID_RDY Handshake beat=103 wlast=0
[1685000] MASTER 0 W_VALID_RDY Handshake beat=104 wlast=0
[1685000] S1 MEMORY WRITE beat=103 addr=152e32d0 data=de716f8d13de4914 id=04
[1695000] S1 MEMORY WRITE beat=104 addr=152e3350 data=cfdb56878d53f7fe id=04
[1695000] MASTER 0 W_VALID_RDY Handshake beat=105 wlast=0
[1705000] MASTER 0 W_VALID_RDY Handshake beat=106 wlast=0
[1705000] S1 MEMORY WRITE beat=105 addr=152e33d0 data=e8eeff86b5119751 id=04
[1715000] S1 MEMORY WRITE beat=106 addr=152e3450 data=c8efe065c9f7ff37 id=04
[1715000] MASTER 0 W_VALID_RDY Handshake beat=107 wlast=0
[1725000] MASTER 0 W_VALID_RDY Handshake beat=108 wlast=0
[1725000] S1 MEMORY WRITE beat=107 addr=152e34d0 data=d74bf736c7606f14 id=04
[1735000] S1 MEMORY WRITE beat=108 addr=152e3550 data=fc72066598cb36ec id=04
[1735000] MASTER 0 W_VALID_RDY Handshake beat=109 wlast=0
[1745000] MASTER 0 W_VALID_RDY Handshake beat=110 wlast=0
[1745000] S1 MEMORY WRITE beat=109 addr=152e35d0 data=e2c33624c03af6bc id=04
[1755000] S1 MEMORY WRITE beat=110 addr=152e3650 data=879b65d0c561e6cb id=04
[1755000] MASTER 0 W_VALID_RDY Handshake beat=111 wlast=0
[1765000] MASTER 0 W_VALID_RDY Handshake beat=112 wlast=0
[1765000] S1 MEMORY WRITE beat=111 addr=152e36d0 data=de2d1db73a0f2d5a id=04
[1775000] S1 MEMORY WRITE beat=112 addr=152e3750 data=fa4a2416040d6c36 id=04
[1775000] MASTER 0 W_VALID_RDY Handshake beat=113 wlast=0
[1785000] MASTER 0 W_VALID_RDY Handshake beat=114 wlast=0
[1785000] S1 MEMORY WRITE beat=113 addr=152e37d0 data=c96f5301c0f053db id=04
[1795000] S1 MEMORY WRITE beat=114 addr=152e3850 data=faff813501e589e7 id=04
[1795000] MASTER 0 W_VALID_RDY Handshake beat=115 wlast=0
[1805000] MASTER 0 W_VALID_RDY Handshake beat=116 wlast=0
[1805000] S1 MEMORY WRITE beat=115 addr=152e38d0 data=05f2f61da79c70b8 id=04
[1815000] S1 MEMORY WRITE beat=116 addr=152e3950 data=e88cc494f549a54c id=04
[1815000] MASTER 0 W_VALID_RDY Handshake beat=117 wlast=0
[1825000] MASTER 0 W_VALID_RDY Handshake beat=118 wlast=0
[1825000] S1 MEMORY WRITE beat=117 addr=152e39d0 data=f72f2f33cf62491e id=04
[1835000] S1 MEMORY WRITE beat=118 addr=152e3a50 data=f6feb9d6e38c45c9 id=04
[1835000] MASTER 0 W_VALID_RDY Handshake beat=119 wlast=0
[1845000] MASTER 0 W_VALID_RDY Handshake beat=120 wlast=0
[1845000] S1 MEMORY WRITE beat=119 addr=152e3ad0 data=d8d5eb15fd222550 id=04
[1855000] S1 MEMORY WRITE beat=120 addr=152e3b50 data=cc846e6edf8b7e6a id=04
[1855000] MASTER 0 W_VALID_RDY Handshake beat=121 wlast=0
[1865000] MASTER 0 W_VALID_RDY Handshake beat=122 wlast=0
[1865000] S1 MEMORY WRITE beat=121 addr=152e3bd0 data=c317c434d0051a48 id=04
[1875000] S1 MEMORY WRITE beat=122 addr=152e3c50 data=cd273f98c3832844 id=04
[1875000] MASTER 0 W_VALID_RDY Handshake beat=123 wlast=0
[1885000] MASTER 0 W_VALID_RDY Handshake beat=124 wlast=0
[1885000] S1 MEMORY WRITE beat=123 addr=152e3cd0 data=230ea6af9bedaf49 id=04
[1895000] S1 MEMORY WRITE beat=124 addr=152e3d50 data=ebf2c99299abae06 id=04
[1895000] MASTER 0 W_VALID_RDY Handshake beat=125 wlast=0
[1905000] MASTER 0 W_VALID_RDY Handshake beat=126 wlast=0
[1905000] S1 MEMORY WRITE beat=125 addr=152e3dd0 data=dd2ed64be6266ae3 id=04
[1915000] S1 MEMORY WRITE beat=126 addr=152e3e50 data=82141a2cb91a092a id=04
[1915000] MASTER 0 W_VALID_RDY Handshake beat=127 wlast=0
[1925000] MASTER 0 W_VALID_RDY Handshake beat=128 wlast=0
[1925000] S1 MEMORY WRITE beat=127 addr=152e3ed0 data=d2c5b731003d7cfa id=04
[1935000] S1 MEMORY WRITE beat=128 addr=152e3f50 data=e663e7ddee06e3be id=04
[1935000] MASTER 0 W_VALID_RDY Handshake beat=129 wlast=0
[1945000] MASTER 0 W_VALID_RDY Handshake beat=130 wlast=0
[1945000] S1 MEMORY WRITE beat=129 addr=152e3fd0 data=2720ece92ff48d7c id=04
[1955000] S1 MEMORY WRITE beat=130 addr=152e4050 data=30320a76e8780209 id=04
[1955000] MASTER 0 W_VALID_RDY Handshake beat=131 wlast=0
[1965000] MASTER 0 W_VALID_RDY Handshake beat=132 wlast=0
[1965000] S1 MEMORY WRITE beat=131 addr=152e40d0 data=d67ee5c8f9e6a41a id=04
[1975000] S1 MEMORY WRITE beat=132 addr=152e4150 data=29db31961695f253 id=04
[1975000] MASTER 0 W_VALID_RDY Handshake beat=133 wlast=0
[1985000] MASTER 0 W_VALID_RDY Handshake beat=134 wlast=0
[1985000] S1 MEMORY WRITE beat=133 addr=152e41d0 data=ff0df45cfd9fd2b1 id=04
[1995000] S1 MEMORY WRITE beat=134 addr=152e4250 data=f78676cbda0d3c0c id=04
[1995000] MASTER 0 W_VALID_RDY Handshake beat=135 wlast=0
[2005000] MASTER 0 W_VALID_RDY Handshake beat=136 wlast=0
[2005000] S1 MEMORY WRITE beat=135 addr=152e42d0 data=f0a32e5fd58cda24 id=04
[2015000] S1 MEMORY WRITE beat=136 addr=152e4350 data=d32cacd52161a861 id=04
[2015000] MASTER 0 W_VALID_RDY Handshake beat=137 wlast=0
[2025000] MASTER 0 W_VALID_RDY Handshake beat=138 wlast=0
[2025000] S1 MEMORY WRITE beat=137 addr=152e43d0 data=fb6ee46defb122bb id=04
[2035000] S1 MEMORY WRITE beat=138 addr=152e4450 data=c53dfce0cab323a0 id=04
[2035000] MASTER 0 W_VALID_RDY Handshake beat=139 wlast=0
[2045000] MASTER 0 W_VALID_RDY Handshake beat=140 wlast=0
[2045000] S1 MEMORY WRITE beat=139 addr=152e44d0 data=ec14cc01ec1212cc id=04
[2055000] S1 MEMORY WRITE beat=140 addr=152e4550 data=dbc33587986aa9b5 id=04
[2055000] MASTER 0 W_VALID_RDY Handshake beat=141 wlast=0
[2065000] MASTER 0 W_VALID_RDY Handshake beat=142 wlast=0
[2065000] S1 MEMORY WRITE beat=141 addr=152e45d0 data=e31dcd56e783b06e id=04
[2075000] S1 MEMORY WRITE beat=142 addr=152e4650 data=d395c33aa1013267 id=04
[2075000] MASTER 0 W_VALID_RDY Handshake beat=143 wlast=0
[2085000] MASTER 0 W_VALID_RDY Handshake beat=144 wlast=0
[2085000] S1 MEMORY WRITE beat=143 addr=152e46d0 data=396bdc1dcf329957 id=04
[2095000] S1 MEMORY WRITE beat=144 addr=152e4750 data=36b649c62f58f8c2 id=04
[2095000] MASTER 0 W_VALID_RDY Handshake beat=145 wlast=0
[2105000] MASTER 0 W_VALID_RDY Handshake beat=146 wlast=0
[2105000] S1 MEMORY WRITE beat=145 addr=152e47d0 data=d05a2b291c89a973 id=04
[2115000] S1 MEMORY WRITE beat=146 addr=152e4850 data=ebbc42ca8a4c0d00 id=04
[2115000] MASTER 0 W_VALID_RDY Handshake beat=147 wlast=0
[2125000] MASTER 0 W_VALID_RDY Handshake beat=148 wlast=0
[2125000] S1 MEMORY WRITE beat=147 addr=152e48d0 data=b9a505c289c60746 id=04
[2135000] S1 MEMORY WRITE beat=148 addr=152e4950 data=a64fb0b9a2728c90 id=04
[2135000] MASTER 0 W_VALID_RDY Handshake beat=149 wlast=0
[2145000] MASTER 0 W_VALID_RDY Handshake beat=150 wlast=0
[2145000] S1 MEMORY WRITE beat=149 addr=152e49d0 data=2cbe999109ff30ec id=04
[2155000] S1 MEMORY WRITE beat=150 addr=152e4a50 data=93c53832120bf384 id=04
[2155000] MASTER 0 W_VALID_RDY Handshake beat=151 wlast=0
[2165000] MASTER 0 W_VALID_RDY Handshake beat=152 wlast=0
[2165000] S1 MEMORY WRITE beat=151 addr=152e4ad0 data=b47e8014e6639f53 id=04
[2175000] S1 MEMORY WRITE beat=152 addr=152e4b50 data=f062d03f3a14e8ec id=04
[2175000] MASTER 0 W_VALID_RDY Handshake beat=153 wlast=0
[2185000] MASTER 0 W_VALID_RDY Handshake beat=154 wlast=0
[2185000] S1 MEMORY WRITE beat=153 addr=152e4bd0 data=cc20dc70e13d19a5 id=04
[2195000] S1 MEMORY WRITE beat=154 addr=152e4c50 data=c7a0b8f904280872 id=04
[2195000] MASTER 0 W_VALID_RDY Handshake beat=155 wlast=0
[2205000] MASTER 0 W_VALID_RDY Handshake beat=156 wlast=0
[2205000] S1 MEMORY WRITE beat=155 addr=152e4cd0 data=3e3cf15e809f5c84 id=04
[2215000] S1 MEMORY WRITE beat=156 addr=152e4d50 data=e1dc762ab8038938 id=04
[2215000] MASTER 0 W_VALID_RDY Handshake beat=157 wlast=0
[2225000] MASTER 0 W_VALID_RDY Handshake beat=158 wlast=0
[2225000] S1 MEMORY WRITE beat=157 addr=152e4dd0 data=bc2b91aa0a5dcdce id=04
[2235000] S1 MEMORY WRITE beat=158 addr=152e4e50 data=8afd2a52297d2f23 id=04
[2235000] MASTER 0 W_VALID_RDY Handshake beat=159 wlast=0
[2245000] MASTER 0 W_VALID_RDY Handshake beat=160 wlast=0
[2245000] S1 MEMORY WRITE beat=159 addr=152e4ed0 data=e180b85bfa688308 id=04
[2255000] S1 MEMORY WRITE beat=160 addr=152e4f50 data=84c650d6ecd9a07c id=04
[2255000] MASTER 0 W_VALID_RDY Handshake beat=161 wlast=0
[2265000] MASTER 0 W_VALID_RDY Handshake beat=162 wlast=0
[2265000] S1 MEMORY WRITE beat=161 addr=152e4fd0 data=9656cf9f1dac4a06 id=04
[2275000] S1 MEMORY WRITE beat=162 addr=152e5050 data=9814cd0e0fc37b29 id=04
[2275000] MASTER 0 W_VALID_RDY Handshake beat=163 wlast=0
[2285000] MASTER 0 W_VALID_RDY Handshake beat=164 wlast=0
[2285000] S1 MEMORY WRITE beat=163 addr=152e50d0 data=fc9d1ba5f7d787fb id=04
[2295000] S1 MEMORY WRITE beat=164 addr=152e5150 data=1583d2011cdb1de5 id=04
[2295000] MASTER 0 W_VALID_RDY Handshake beat=165 wlast=0
[2305000] MASTER 0 W_VALID_RDY Handshake beat=166 wlast=0
[2305000] S1 MEMORY WRITE beat=165 addr=152e51d0 data=2c9e990e12f3eb45 id=04
[2315000] S1 MEMORY WRITE beat=166 addr=152e5250 data=0acb7340ad989f0f id=04
[2315000] MASTER 0 W_VALID_RDY Handshake beat=167 wlast=0
[2325000] MASTER 0 W_VALID_RDY Handshake beat=168 wlast=0
[2325000] S1 MEMORY WRITE beat=167 addr=152e52d0 data=ca73bcf4a93bb4b3 id=04
[2335000] S1 MEMORY WRITE beat=168 addr=152e5350 data=bc2f9ff8204f4541 id=04
[2335000] MASTER 0 W_VALID_RDY Handshake beat=169 wlast=0
[2345000] MASTER 0 W_VALID_RDY Handshake beat=170 wlast=0
[2345000] S1 MEMORY WRITE beat=169 addr=152e53d0 data=cde7e450f7125602 id=04
[2355000] S1 MEMORY WRITE beat=170 addr=152e5450 data=204e0ab6c6fb1338 id=04
[2355000] MASTER 0 W_VALID_RDY Handshake beat=171 wlast=0
[2365000] MASTER 0 W_VALID_RDY Handshake beat=172 wlast=0
[2365000] S1 MEMORY WRITE beat=171 addr=152e54d0 data=e74a5879185ba145 id=04
[2375000] S1 MEMORY WRITE beat=172 addr=152e5550 data=8f6df747dc7daaae id=04
[2375000] MASTER 0 W_VALID_RDY Handshake beat=173 wlast=0
[2385000] MASTER 0 W_VALID_RDY Handshake beat=174 wlast=0
[2385000] S1 MEMORY WRITE beat=173 addr=152e55d0 data=2378bde735323cca id=04
[2395000] S1 MEMORY WRITE beat=174 addr=152e5650 data=cd8dde0fafbc01fd id=04
[2395000] MASTER 0 W_VALID_RDY Handshake beat=175 wlast=0
[2405000] MASTER 0 W_VALID_RDY Handshake beat=176 wlast=0
[2405000] S1 MEMORY WRITE beat=175 addr=152e56d0 data=0c39acac8ac31660 id=04
[2415000] S1 MEMORY WRITE beat=176 addr=152e5750 data=bff5532adcfbd556 id=04
[2415000] MASTER 0 W_VALID_RDY Handshake beat=177 wlast=0
[2425000] MASTER 0 W_VALID_RDY Handshake beat=178 wlast=0
[2425000] S1 MEMORY WRITE beat=177 addr=152e57d0 data=0cb7d7542fb26a93 id=04
[2435000] S1 MEMORY WRITE beat=178 addr=152e5850 data=ba7580f38d833139 id=04
[2435000] MASTER 0 W_VALID_RDY Handshake beat=179 wlast=0
[2445000] MASTER 0 W_VALID_RDY Handshake beat=180 wlast=0
[2445000] S1 MEMORY WRITE beat=179 addr=152e58d0 data=ea7f069018f18400 id=04
[2455000] S1 MEMORY WRITE beat=180 addr=152e5950 data=c8a3ee93fa6ad41e id=04
[2455000] MASTER 0 W_VALID_RDY Handshake beat=181 wlast=0
[2465000] MASTER 0 W_VALID_RDY Handshake beat=182 wlast=0
[2465000] S1 MEMORY WRITE beat=181 addr=152e59d0 data=87ee0557f736dde4 id=04
[2475000] S1 MEMORY WRITE beat=182 addr=152e5a50 data=102861e483196f86 id=04
[2475000] MASTER 0 W_VALID_RDY Handshake beat=183 wlast=0
[2485000] MASTER 0 W_VALID_RDY Handshake beat=184 wlast=0
[2485000] S1 MEMORY WRITE beat=183 addr=152e5ad0 data=fd8443a4f26d0be7 id=04
[2495000] S1 MEMORY WRITE beat=184 addr=152e5b50 data=e9a3e9cbd8cc5077 id=04
[2495000] MASTER 0 W_VALID_RDY Handshake beat=185 wlast=0
[2505000] MASTER 0 W_VALID_RDY Handshake beat=186 wlast=0
[2505000] S1 MEMORY WRITE beat=185 addr=152e5bd0 data=dbe5bffd057248fc id=04
[2515000] S1 MEMORY WRITE beat=186 addr=152e5c50 data=f7df54e3f9cc4baf id=04
[2515000] MASTER 0 W_VALID_RDY Handshake beat=187 wlast=1
[2515000] MASTER_DRIVER0 received transaction, op=AXI_WRITE
[2525000] S1 MEMORY WRITE beat=187 addr=152e5cd0 data=d2989c26d96a03a2 id=04
[2535000] SLAVE1 sent B resp, id=4
[2535000] [SLAVE MONITOR] mst_id=0 s_id=1 awaddr=152dff50 awid=100 awlen=187 awsize=7 awburst=1 wdata=[1d660ba7f9b13df8 1e9be1b3f18ae4b4 ff4fbb9533ad0058 2d5e3e50b944909d 2acf75521cb5c73c d062c794cbfa2003 853eb0a02a1f30e7 c6d4f823fdc105e4 c9bb25e7b00e25f2 da2d56d91737bfb7 14f8c59bcef9d687 ff07fc7aa1024efc b83a0eb3deb3eb82 adadc209d9355353 fa37a250cd32d44e abe6bfd0acb5be83 5eb11d7b271b103 ffa48552d99481da 864a405d0022b427 b294652aab8b4522 851fc6fc8c355234 8c58065bb238ea7c ddc42f9f0b6a075a 979f598e3eec6b86 f1255602e2e3f69b ee4dfdf523f75fea e2e3cb70cee985a1 31cd7c3d05ed5784 29e4b76ed4092172 22f2a714a01b7a32 a608d1b60cc882de e0d1a450d4c02351 f4db9d83cfed8924 dcb60c0283c44b64 d8846eb51ae46f3a ead1f85e3d87b053 c14bfbb7cd600c39 e8447b73c7880461 50fb4b419d06a6d e73076a6d31673d1 9a9e7832c65bb06b e02c1ad8cf74f219 a28b65ea9fae2ce6 e609dd52c75c917e 96d183973d29de1d dcd80b03c635f82a d9289a9395ce982 f686c79fc2e1e855 917e080a4640d40 ddc0f6c2d35ed2a2 1640baf816aa6a29 bb0e7769d447be61 27a691041f589b78 360305a118cf6e2c ed172c8d3de74bfc dd3fe774f1117d0a 89e0eb3694bdbd91 d2a5098d1342ed15 84546a1ff6f817c4 8bb5d555afe4f101 c327de160e355556 52d6d1ade5adee3 8e3fcfe4c77c4836 d5b19d8c90e3426f ef3e2152d167adfb 18e3f631dadf0aa6 ebc24d15fd7df137 cee59f32ee9593bd c9749e63db006e68 d87e5f9fe7c99563 d65f2920b536eb78 903759e02763fed1 f2d94341fd3c783 d50ab2fbe8b5b97f 9019b850e58cbd54 56084d7e5420cdc cdf7c65b9f474c84 84d409d8da6b37d2 bfad44aede117eac fd58cb308a348eaf e49fc6820da50b0a ebb689b6022cd509 8c6163b8a44d0b30 b1f2163ae90f54e6 eb3c29eff1012a3a 154e356b9da89ff0 6b7f4d7f79d8da8 e89eb7e2c7404ba5 e4e8eb96f1f41ec6 e991ac6efdeced4d c52d38f3eba0e06d dd94ff33d2306451 d01d519e2a162489 15b704f6c726aba2 19570ff3954a8a91 bf60af1af34c0429 ba72afcbe9746191 febeec23d517b410 c863b83ad3c9bfbe 3d3e2150be1f9b3d 13374f4e82d66805 d6a027c43bfd0d73 fa1ca8b0db9b0788 de716f8d13de4914 cfdb56878d53f7fe e8eeff86b5119751 c8efe065c9f7ff37 d74bf736c7606f14 fc72066598cb36ec e2c33624c03af6bc 879b65d0c561e6cb de2d1db73a0f2d5a fa4a2416040d6c36 c96f5301c0f053db faff813501e589e7 5f2f61da79c70b8 e88cc494f549a54c f72f2f33cf62491e f6feb9d6e38c45c9 d8d5eb15fd222550 cc846e6edf8b7e6a c317c434d0051a48 cd273f98c3832844 230ea6af9bedaf49 ebf2c99299abae06 dd2ed64be6266ae3 82141a2cb91a092a d2c5b731003d7cfa e663e7ddee06e3be 2720ece92ff48d7c 30320a76e8780209 d67ee5c8f9e6a41a 29db31961695f253 ff0df45cfd9fd2b1 f78676cbda0d3c0c f0a32e5fd58cda24 d32cacd52161a861 fb6ee46defb122bb c53dfce0cab323a0 ec14cc01ec1212cc dbc33587986aa9b5 e31dcd56e783b06e d395c33aa1013267 396bdc1dcf329957 36b649c62f58f8c2 d05a2b291c89a973 ebbc42ca8a4c0d00 b9a505c289c60746 a64fb0b9a2728c90 2cbe999109ff30ec 93c53832120bf384 b47e8014e6639f53 f062d03f3a14e8ec cc20dc70e13d19a5 c7a0b8f904280872 3e3cf15e809f5c84 e1dc762ab8038938 bc2b91aa0a5dcdce 8afd2a52297d2f23 e180b85bfa688308 84c650d6ecd9a07c 9656cf9f1dac4a06 9814cd0e0fc37b29 fc9d1ba5f7d787fb 1583d2011cdb1de5 2c9e990e12f3eb45 acb7340ad989f0f ca73bcf4a93bb4b3 bc2f9ff8204f4541 cde7e450f7125602 204e0ab6c6fb1338 e74a5879185ba145 8f6df747dc7daaae 2378bde735323cca cd8dde0fafbc01fd c39acac8ac31660 bff5532adcfbd556 cb7d7542fb26a93 ba7580f38d833139 ea7f069018f18400 c8a3ee93fa6ad41e 87ee0557f736dde4 102861e483196f86 fd8443a4f26d0be7 e9a3e9cbd8cc5077 dbe5bffd057248fc f7df54e3f9cc4baf d2989c26d96a03a2 ] wstrb=[af 9e 24 5e 81 c6 85 30 64 a9 8f e5 6f 14 16 d3 bd a5 b8 2c b9 ce ff 76 73 b7 a2 2c 86 a1 a2 f9 58 44 26 de e5 c8 d8 3e d fe 1c f2 c6 f4 30 d3 f2 4d c6 b9 41 f6 8c 34 43 52 ed 85 49 79 b9 8c cc a6 11 15 1f ca a1 eb 70 b3 0 90 7d a2 7b ee 55 7c 7e d2 1e f9 c0 73 75 3e 45 93 38 6 6 ad 44 4c 41 7c 52 47 2a 96 93 6b 13 e5 b2 3d 7c 46 a8 8f 2b 5a cc a7 a0 74 36 cc ce 2 73 6f 76 aa 3b 45 ac ae b4 23 58 ef 68 5 9d 1c 28 f6 b 90 fb a8 ac 23 9e b7 b3 99 5f 5f bc fe 16 6f 97 75 ce 54 73 e4 c3 b 5a 92 5f cd 76 22 d8 d0 b4 37 9e 2b 5a 76 fb e ae 99 39 8 10 35 ] bresp=0 bid=100
[2535000] MASTER 0 AW_VALID_RDY Handshake
[2545000] ARB MONITOR: slave=1 m0_req=1 m1_req=0 winner=0
[2545000] AXI S1_AWVALID_RDY HANDSHAKE
[2555000] MASTER 0 W_VALID_RDY Handshake beat=0 wlast=0
[2555000] MASTER 0 B_VALID_RDY Handshake
[2555000] [MASTER MONITOR] mst_id=0 s_id=1 awaddr=152dff50 awid=100 awlen=187 awsize=7 awburst=1 wdata=[1d660ba7f9b13df8 1e9be1b3f18ae4b4 ff4fbb9533ad0058 2d5e3e50b944909d 2acf75521cb5c73c d062c794cbfa2003 853eb0a02a1f30e7 c6d4f823fdc105e4 c9bb25e7b00e25f2 da2d56d91737bfb7 14f8c59bcef9d687 ff07fc7aa1024efc b83a0eb3deb3eb82 adadc209d9355353 fa37a250cd32d44e abe6bfd0acb5be83 5eb11d7b271b103 ffa48552d99481da 864a405d0022b427 b294652aab8b4522 851fc6fc8c355234 8c58065bb238ea7c ddc42f9f0b6a075a 979f598e3eec6b86 f1255602e2e3f69b ee4dfdf523f75fea e2e3cb70cee985a1 31cd7c3d05ed5784 29e4b76ed4092172 22f2a714a01b7a32 a608d1b60cc882de e0d1a450d4c02351 f4db9d83cfed8924 dcb60c0283c44b64 d8846eb51ae46f3a ead1f85e3d87b053 c14bfbb7cd600c39 e8447b73c7880461 50fb4b419d06a6d e73076a6d31673d1 9a9e7832c65bb06b e02c1ad8cf74f219 a28b65ea9fae2ce6 e609dd52c75c917e 96d183973d29de1d dcd80b03c635f82a d9289a9395ce982 f686c79fc2e1e855 917e080a4640d40 ddc0f6c2d35ed2a2 1640baf816aa6a29 bb0e7769d447be61 27a691041f589b78 360305a118cf6e2c ed172c8d3de74bfc dd3fe774f1117d0a 89e0eb3694bdbd91 d2a5098d1342ed15 84546a1ff6f817c4 8bb5d555afe4f101 c327de160e355556 52d6d1ade5adee3 8e3fcfe4c77c4836 d5b19d8c90e3426f ef3e2152d167adfb 18e3f631dadf0aa6 ebc24d15fd7df137 cee59f32ee9593bd c9749e63db006e68 d87e5f9fe7c99563 d65f2920b536eb78 903759e02763fed1 f2d94341fd3c783 d50ab2fbe8b5b97f 9019b850e58cbd54 56084d7e5420cdc cdf7c65b9f474c84 84d409d8da6b37d2 bfad44aede117eac fd58cb308a348eaf e49fc6820da50b0a ebb689b6022cd509 8c6163b8a44d0b30 b1f2163ae90f54e6 eb3c29eff1012a3a 154e356b9da89ff0 6b7f4d7f79d8da8 e89eb7e2c7404ba5 e4e8eb96f1f41ec6 e991ac6efdeced4d c52d38f3eba0e06d dd94ff33d2306451 d01d519e2a162489 15b704f6c726aba2 19570ff3954a8a91 bf60af1af34c0429 ba72afcbe9746191 febeec23d517b410 c863b83ad3c9bfbe 3d3e2150be1f9b3d 13374f4e82d66805 d6a027c43bfd0d73 fa1ca8b0db9b0788 de716f8d13de4914 cfdb56878d53f7fe e8eeff86b5119751 c8efe065c9f7ff37 d74bf736c7606f14 fc72066598cb36ec e2c33624c03af6bc 879b65d0c561e6cb de2d1db73a0f2d5a fa4a2416040d6c36 c96f5301c0f053db faff813501e589e7 5f2f61da79c70b8 e88cc494f549a54c f72f2f33cf62491e f6feb9d6e38c45c9 d8d5eb15fd222550 cc846e6edf8b7e6a c317c434d0051a48 cd273f98c3832844 230ea6af9bedaf49 ebf2c99299abae06 dd2ed64be6266ae3 82141a2cb91a092a d2c5b731003d7cfa e663e7ddee06e3be 2720ece92ff48d7c 30320a76e8780209 d67ee5c8f9e6a41a 29db31961695f253 ff0df45cfd9fd2b1 f78676cbda0d3c0c f0a32e5fd58cda24 d32cacd52161a861 fb6ee46defb122bb c53dfce0cab323a0 ec14cc01ec1212cc dbc33587986aa9b5 e31dcd56e783b06e d395c33aa1013267 396bdc1dcf329957 36b649c62f58f8c2 d05a2b291c89a973 ebbc42ca8a4c0d00 b9a505c289c60746 a64fb0b9a2728c90 2cbe999109ff30ec 93c53832120bf384 b47e8014e6639f53 f062d03f3a14e8ec cc20dc70e13d19a5 c7a0b8f904280872 3e3cf15e809f5c84 e1dc762ab8038938 bc2b91aa0a5dcdce 8afd2a52297d2f23 e180b85bfa688308 84c650d6ecd9a07c 9656cf9f1dac4a06 9814cd0e0fc37b29 fc9d1ba5f7d787fb 1583d2011cdb1de5 2c9e990e12f3eb45 acb7340ad989f0f ca73bcf4a93bb4b3 bc2f9ff8204f4541 cde7e450f7125602 204e0ab6c6fb1338 e74a5879185ba145 8f6df747dc7daaae 2378bde735323cca cd8dde0fafbc01fd c39acac8ac31660 bff5532adcfbd556 cb7d7542fb26a93 ba7580f38d833139 ea7f069018f18400 c8a3ee93fa6ad41e 87ee0557f736dde4 102861e483196f86 fd8443a4f26d0be7 e9a3e9cbd8cc5077 dbe5bffd057248fc f7df54e3f9cc4baf d2989c26d96a03a2 ] wstrb=[af 9e 24 5e 81 c6 85 30 64 a9 8f e5 6f 14 16 d3 bd a5 b8 2c b9 ce ff 76 73 b7 a2 2c 86 a1 a2 f9 58 44 26 de e5 c8 d8 3e d fe 1c f2 c6 f4 30 d3 f2 4d c6 b9 41 f6 8c 34 43 52 ed 85 49 79 b9 8c cc a6 11 15 1f ca a1 eb 70 b3 0 90 7d a2 7b ee 55 7c 7e d2 1e f9 c0 73 75 3e 45 93 38 6 6 ad 44 4c 41 7c 52 47 2a 96 93 6b 13 e5 b2 3d 7c 46 a8 8f 2b 5a cc a7 a0 74 36 cc ce 2 73 6f 76 aa 3b 45 ac ae b4 23 58 ef 68 5 9d 1c 28 f6 b 90 fb a8 ac 23 9e b7 b3 99 5f 5f bc fe 16 6f 97 75 ce 54 73 e4 c3 b 5a 92 5f cd 76 22 d8 d0 b4 37 9e 2b 5a 76 fb e ae 99 39 8 10 35 ] bresp=0 bid=100
[2555000] MASTER 0 RECEIVED BRESP. BRESP=0
[2555000] [MASTER DRIVER] mst_id=0 s_id=0 awaddr=152dff50 awid=100 awlen=187 awsize=7 awburst=1 wdata=[1d660ba7f9b13df8 1e9be1b3f18ae4b4 ff4fbb9533ad0058 2d5e3e50b944909d 2acf75521cb5c73c d062c794cbfa2003 853eb0a02a1f30e7 c6d4f823fdc105e4 c9bb25e7b00e25f2 da2d56d91737bfb7 14f8c59bcef9d687 ff07fc7aa1024efc b83a0eb3deb3eb82 adadc209d9355353 fa37a250cd32d44e abe6bfd0acb5be83 5eb11d7b271b103 ffa48552d99481da 864a405d0022b427 b294652aab8b4522 851fc6fc8c355234 8c58065bb238ea7c ddc42f9f0b6a075a 979f598e3eec6b86 f1255602e2e3f69b ee4dfdf523f75fea e2e3cb70cee985a1 31cd7c3d05ed5784 29e4b76ed4092172 22f2a714a01b7a32 a608d1b60cc882de e0d1a450d4c02351 f4db9d83cfed8924 dcb60c0283c44b64 d8846eb51ae46f3a ead1f85e3d87b053 c14bfbb7cd600c39 e8447b73c7880461 50fb4b419d06a6d e73076a6d31673d1 9a9e7832c65bb06b e02c1ad8cf74f219 a28b65ea9fae2ce6 e609dd52c75c917e 96d183973d29de1d dcd80b03c635f82a d9289a9395ce982 f686c79fc2e1e855 917e080a4640d40 ddc0f6c2d35ed2a2 1640baf816aa6a29 bb0e7769d447be61 27a691041f589b78 360305a118cf6e2c ed172c8d3de74bfc dd3fe774f1117d0a 89e0eb3694bdbd91 d2a5098d1342ed15 84546a1ff6f817c4 8bb5d555afe4f101 c327de160e355556 52d6d1ade5adee3 8e3fcfe4c77c4836 d5b19d8c90e3426f ef3e2152d167adfb 18e3f631dadf0aa6 ebc24d15fd7df137 cee59f32ee9593bd c9749e63db006e68 d87e5f9fe7c99563 d65f2920b536eb78 903759e02763fed1 f2d94341fd3c783 d50ab2fbe8b5b97f 9019b850e58cbd54 56084d7e5420cdc cdf7c65b9f474c84 84d409d8da6b37d2 bfad44aede117eac fd58cb308a348eaf e49fc6820da50b0a ebb689b6022cd509 8c6163b8a44d0b30 b1f2163ae90f54e6 eb3c29eff1012a3a 154e356b9da89ff0 6b7f4d7f79d8da8 e89eb7e2c7404ba5 e4e8eb96f1f41ec6 e991ac6efdeced4d c52d38f3eba0e06d dd94ff33d2306451 d01d519e2a162489 15b704f6c726aba2 19570ff3954a8a91 bf60af1af34c0429 ba72afcbe9746191 febeec23d517b410 c863b83ad3c9bfbe 3d3e2150be1f9b3d 13374f4e82d66805 d6a027c43bfd0d73 fa1ca8b0db9b0788 de716f8d13de4914 cfdb56878d53f7fe e8eeff86b5119751 c8efe065c9f7ff37 d74bf736c7606f14 fc72066598cb36ec e2c33624c03af6bc 879b65d0c561e6cb de2d1db73a0f2d5a fa4a2416040d6c36 c96f5301c0f053db faff813501e589e7 5f2f61da79c70b8 e88cc494f549a54c f72f2f33cf62491e f6feb9d6e38c45c9 d8d5eb15fd222550 cc846e6edf8b7e6a c317c434d0051a48 cd273f98c3832844 230ea6af9bedaf49 ebf2c99299abae06 dd2ed64be6266ae3 82141a2cb91a092a d2c5b731003d7cfa e663e7ddee06e3be 2720ece92ff48d7c 30320a76e8780209 d67ee5c8f9e6a41a 29db31961695f253 ff0df45cfd9fd2b1 f78676cbda0d3c0c f0a32e5fd58cda24 d32cacd52161a861 fb6ee46defb122bb c53dfce0cab323a0 ec14cc01ec1212cc dbc33587986aa9b5 e31dcd56e783b06e d395c33aa1013267 396bdc1dcf329957 36b649c62f58f8c2 d05a2b291c89a973 ebbc42ca8a4c0d00 b9a505c289c60746 a64fb0b9a2728c90 2cbe999109ff30ec 93c53832120bf384 b47e8014e6639f53 f062d03f3a14e8ec cc20dc70e13d19a5 c7a0b8f904280872 3e3cf15e809f5c84 e1dc762ab8038938 bc2b91aa0a5dcdce 8afd2a52297d2f23 e180b85bfa688308 84c650d6ecd9a07c 9656cf9f1dac4a06 9814cd0e0fc37b29 fc9d1ba5f7d787fb 1583d2011cdb1de5 2c9e990e12f3eb45 acb7340ad989f0f ca73bcf4a93bb4b3 bc2f9ff8204f4541 cde7e450f7125602 204e0ab6c6fb1338 e74a5879185ba145 8f6df747dc7daaae 2378bde735323cca cd8dde0fafbc01fd c39acac8ac31660 bff5532adcfbd556 cb7d7542fb26a93 ba7580f38d833139 ea7f069018f18400 c8a3ee93fa6ad41e 87ee0557f736dde4 102861e483196f86 fd8443a4f26d0be7 e9a3e9cbd8cc5077 dbe5bffd057248fc f7df54e3f9cc4baf d2989c26d96a03a2 ] wstrb=[af 9e 24 5e 81 c6 85 30 64 a9 8f e5 6f 14 16 d3 bd a5 b8 2c b9 ce ff 76 73 b7 a2 2c 86 a1 a2 f9 58 44 26 de e5 c8 d8 3e d fe 1c f2 c6 f4 30 d3 f2 4d c6 b9 41 f6 8c 34 43 52 ed 85 49 79 b9 8c cc a6 11 15 1f ca a1 eb 70 b3 0 90 7d a2 7b ee 55 7c 7e d2 1e f9 c0 73 75 3e 45 93 38 6 6 ad 44 4c 41 7c 52 47 2a 96 93 6b 13 e5 b2 3d 7c 46 a8 8f 2b 5a cc a7 a0 74 36 cc ce 2 73 6f 76 aa 3b 45 ac ae b4 23 58 ef 68 5 9d 1c 28 f6 b 90 fb a8 ac 23 9e b7 b3 99 5f 5f bc fe 16 6f 97 75 ce 54 73 e4 c3 b 5a 92 5f cd 76 22 d8 d0 b4 37 9e 2b 5a 76 fb e ae 99 39 8 10 35 ] bresp=0 bid=100
[2555000] SCOREBOARD MATCH: decode_err expected = 0, actual =0
[2555000] SCOREBOARD MATCH: slave_id expected = 1, actual =1
[2555000] SCOREBOARD MATCH: awaddr passthrough expected = 152dff50, actual =152dff50
[2555000] SCOREBOARD MATCH: awlen passthrough expected = 187, actual =187
[2555000] SCOREBOARD MATCH: awsize passthrough expected = 7, actual =7
[2555000] SCOREBOARD MATCH: awburst passthrough expected = 1, actual =1
[2555000] SCOREBOARD MATCH: wdata size check expected = bc, actual =bc
[2555000] SCOREBOARD MATCH: wdata passthrough beat=0 expected = 1d660ba7f9b13df8, actual =1d660ba7f9b13df8
[2555000] SCOREBOARD MATCH: wdata passthrough beat=1 expected = 1e9be1b3f18ae4b4, actual =1e9be1b3f18ae4b4
[2555000] SCOREBOARD MATCH: wdata passthrough beat=2 expected = ff4fbb9533ad0058, actual =ff4fbb9533ad0058
[2555000] SCOREBOARD MATCH: wdata passthrough beat=3 expected = 2d5e3e50b944909d, actual =2d5e3e50b944909d
[2555000] SCOREBOARD MATCH: wdata passthrough beat=4 expected = 2acf75521cb5c73c, actual =2acf75521cb5c73c
[2555000] SCOREBOARD MATCH: wdata passthrough beat=5 expected = d062c794cbfa2003, actual =d062c794cbfa2003
[2555000] SCOREBOARD MATCH: wdata passthrough beat=6 expected = 853eb0a02a1f30e7, actual =853eb0a02a1f30e7
[2555000] SCOREBOARD MATCH: wdata passthrough beat=7 expected = c6d4f823fdc105e4, actual =c6d4f823fdc105e4
[2555000] SCOREBOARD MATCH: wdata passthrough beat=8 expected = c9bb25e7b00e25f2, actual =c9bb25e7b00e25f2
[2555000] SCOREBOARD MATCH: wdata passthrough beat=9 expected = da2d56d91737bfb7, actual =da2d56d91737bfb7
[2555000] SCOREBOARD MATCH: wdata passthrough beat=10 expected = 14f8c59bcef9d687, actual =14f8c59bcef9d687
[2555000] SCOREBOARD MATCH: wdata passthrough beat=11 expected = ff07fc7aa1024efc, actual =ff07fc7aa1024efc
[2555000] SCOREBOARD MATCH: wdata passthrough beat=12 expected = b83a0eb3deb3eb82, actual =b83a0eb3deb3eb82
[2555000] SCOREBOARD MATCH: wdata passthrough beat=13 expected = adadc209d9355353, actual =adadc209d9355353
[2555000] SCOREBOARD MATCH: wdata passthrough beat=14 expected = fa37a250cd32d44e, actual =fa37a250cd32d44e
[2555000] SCOREBOARD MATCH: wdata passthrough beat=15 expected = abe6bfd0acb5be83, actual =abe6bfd0acb5be83
[2555000] SCOREBOARD MATCH: wdata passthrough beat=16 expected = 5eb11d7b271b103, actual =5eb11d7b271b103
[2555000] SCOREBOARD MATCH: wdata passthrough beat=17 expected = ffa48552d99481da, actual =ffa48552d99481da
[2555000] SCOREBOARD MATCH: wdata passthrough beat=18 expected = 864a405d0022b427, actual =864a405d0022b427
[2555000] SCOREBOARD MATCH: wdata passthrough beat=19 expected = b294652aab8b4522, actual =b294652aab8b4522
[2555000] SCOREBOARD MATCH: wdata passthrough beat=20 expected = 851fc6fc8c355234, actual =851fc6fc8c355234
[2555000] SCOREBOARD MATCH: wdata passthrough beat=21 expected = 8c58065bb238ea7c, actual =8c58065bb238ea7c
[2555000] SCOREBOARD MATCH: wdata passthrough beat=22 expected = ddc42f9f0b6a075a, actual =ddc42f9f0b6a075a
[2555000] SCOREBOARD MATCH: wdata passthrough beat=23 expected = 979f598e3eec6b86, actual =979f598e3eec6b86
[2555000] SCOREBOARD MATCH: wdata passthrough beat=24 expected = f1255602e2e3f69b, actual =f1255602e2e3f69b
[2555000] SCOREBOARD MATCH: wdata passthrough beat=25 expected = ee4dfdf523f75fea, actual =ee4dfdf523f75fea
[2555000] SCOREBOARD MATCH: wdata passthrough beat=26 expected = e2e3cb70cee985a1, actual =e2e3cb70cee985a1
[2555000] SCOREBOARD MATCH: wdata passthrough beat=27 expected = 31cd7c3d05ed5784, actual =31cd7c3d05ed5784
[2555000] SCOREBOARD MATCH: wdata passthrough beat=28 expected = 29e4b76ed4092172, actual =29e4b76ed4092172
[2555000] SCOREBOARD MATCH: wdata passthrough beat=29 expected = 22f2a714a01b7a32, actual =22f2a714a01b7a32
[2555000] SCOREBOARD MATCH: wdata passthrough beat=30 expected = a608d1b60cc882de, actual =a608d1b60cc882de
[2555000] SCOREBOARD MATCH: wdata passthrough beat=31 expected = e0d1a450d4c02351, actual =e0d1a450d4c02351
[2555000] SCOREBOARD MATCH: wdata passthrough beat=32 expected = f4db9d83cfed8924, actual =f4db9d83cfed8924
[2555000] SCOREBOARD MATCH: wdata passthrough beat=33 expected = dcb60c0283c44b64, actual =dcb60c0283c44b64
[2555000] SCOREBOARD MATCH: wdata passthrough beat=34 expected = d8846eb51ae46f3a, actual =d8846eb51ae46f3a
[2555000] SCOREBOARD MATCH: wdata passthrough beat=35 expected = ead1f85e3d87b053, actual =ead1f85e3d87b053
[2555000] SCOREBOARD MATCH: wdata passthrough beat=36 expected = c14bfbb7cd600c39, actual =c14bfbb7cd600c39
[2555000] SCOREBOARD MATCH: wdata passthrough beat=37 expected = e8447b73c7880461, actual =e8447b73c7880461
[2555000] SCOREBOARD MATCH: wdata passthrough beat=38 expected = 50fb4b419d06a6d, actual =50fb4b419d06a6d
[2555000] SCOREBOARD MATCH: wdata passthrough beat=39 expected = e73076a6d31673d1, actual =e73076a6d31673d1
[2555000] SCOREBOARD MATCH: wdata passthrough beat=40 expected = 9a9e7832c65bb06b, actual =9a9e7832c65bb06b
[2555000] SCOREBOARD MATCH: wdata passthrough beat=41 expected = e02c1ad8cf74f219, actual =e02c1ad8cf74f219
[2555000] SCOREBOARD MATCH: wdata passthrough beat=42 expected = a28b65ea9fae2ce6, actual =a28b65ea9fae2ce6
[2555000] SCOREBOARD MATCH: wdata passthrough beat=43 expected = e609dd52c75c917e, actual =e609dd52c75c917e
[2555000] SCOREBOARD MATCH: wdata passthrough beat=44 expected = 96d183973d29de1d, actual =96d183973d29de1d
[2555000] SCOREBOARD MATCH: wdata passthrough beat=45 expected = dcd80b03c635f82a, actual =dcd80b03c635f82a
[2555000] SCOREBOARD MATCH: wdata passthrough beat=46 expected = d9289a9395ce982, actual =d9289a9395ce982
[2555000] SCOREBOARD MATCH: wdata passthrough beat=47 expected = f686c79fc2e1e855, actual =f686c79fc2e1e855
[2555000] SCOREBOARD MATCH: wdata passthrough beat=48 expected = 917e080a4640d40, actual =917e080a4640d40
[2555000] SCOREBOARD MATCH: wdata passthrough beat=49 expected = ddc0f6c2d35ed2a2, actual =ddc0f6c2d35ed2a2
[2555000] SCOREBOARD MATCH: wdata passthrough beat=50 expected = 1640baf816aa6a29, actual =1640baf816aa6a29
[2555000] SCOREBOARD MATCH: wdata passthrough beat=51 expected = bb0e7769d447be61, actual =bb0e7769d447be61
[2555000] SCOREBOARD MATCH: wdata passthrough beat=52 expected = 27a691041f589b78, actual =27a691041f589b78
[2555000] SCOREBOARD MATCH: wdata passthrough beat=53 expected = 360305a118cf6e2c, actual =360305a118cf6e2c
[2555000] SCOREBOARD MATCH: wdata passthrough beat=54 expected = ed172c8d3de74bfc, actual =ed172c8d3de74bfc
[2555000] SCOREBOARD MATCH: wdata passthrough beat=55 expected = dd3fe774f1117d0a, actual =dd3fe774f1117d0a
[2555000] SCOREBOARD MATCH: wdata passthrough beat=56 expected = 89e0eb3694bdbd91, actual =89e0eb3694bdbd91
[2555000] SCOREBOARD MATCH: wdata passthrough beat=57 expected = d2a5098d1342ed15, actual =d2a5098d1342ed15
[2555000] SCOREBOARD MATCH: wdata passthrough beat=58 expected = 84546a1ff6f817c4, actual =84546a1ff6f817c4
[2555000] SCOREBOARD MATCH: wdata passthrough beat=59 expected = 8bb5d555afe4f101, actual =8bb5d555afe4f101
[2555000] SCOREBOARD MATCH: wdata passthrough beat=60 expected = c327de160e355556, actual =c327de160e355556
[2555000] SCOREBOARD MATCH: wdata passthrough beat=61 expected = 52d6d1ade5adee3, actual =52d6d1ade5adee3
[2555000] SCOREBOARD MATCH: wdata passthrough beat=62 expected = 8e3fcfe4c77c4836, actual =8e3fcfe4c77c4836
[2555000] SCOREBOARD MATCH: wdata passthrough beat=63 expected = d5b19d8c90e3426f, actual =d5b19d8c90e3426f
[2555000] SCOREBOARD MATCH: wdata passthrough beat=64 expected = ef3e2152d167adfb, actual =ef3e2152d167adfb
[2555000] SCOREBOARD MATCH: wdata passthrough beat=65 expected = 18e3f631dadf0aa6, actual =18e3f631dadf0aa6
[2555000] SCOREBOARD MATCH: wdata passthrough beat=66 expected = ebc24d15fd7df137, actual =ebc24d15fd7df137
[2555000] SCOREBOARD MATCH: wdata passthrough beat=67 expected = cee59f32ee9593bd, actual =cee59f32ee9593bd
[2555000] SCOREBOARD MATCH: wdata passthrough beat=68 expected = c9749e63db006e68, actual =c9749e63db006e68
[2555000] SCOREBOARD MATCH: wdata passthrough beat=69 expected = d87e5f9fe7c99563, actual =d87e5f9fe7c99563
[2555000] SCOREBOARD MATCH: wdata passthrough beat=70 expected = d65f2920b536eb78, actual =d65f2920b536eb78
[2555000] SCOREBOARD MATCH: wdata passthrough beat=71 expected = 903759e02763fed1, actual =903759e02763fed1
[2555000] SCOREBOARD MATCH: wdata passthrough beat=72 expected = f2d94341fd3c783, actual =f2d94341fd3c783
[2555000] SCOREBOARD MATCH: wdata passthrough beat=73 expected = d50ab2fbe8b5b97f, actual =d50ab2fbe8b5b97f
[2555000] SCOREBOARD MATCH: wdata passthrough beat=74 expected = 9019b850e58cbd54, actual =9019b850e58cbd54
[2555000] SCOREBOARD MATCH: wdata passthrough beat=75 expected = 56084d7e5420cdc, actual =56084d7e5420cdc
[2555000] SCOREBOARD MATCH: wdata passthrough beat=76 expected = cdf7c65b9f474c84, actual =cdf7c65b9f474c84
[2555000] SCOREBOARD MATCH: wdata passthrough beat=77 expected = 84d409d8da6b37d2, actual =84d409d8da6b37d2
[2555000] SCOREBOARD MATCH: wdata passthrough beat=78 expected = bfad44aede117eac, actual =bfad44aede117eac
[2555000] SCOREBOARD MATCH: wdata passthrough beat=79 expected = fd58cb308a348eaf, actual =fd58cb308a348eaf
[2555000] SCOREBOARD MATCH: wdata passthrough beat=80 expected = e49fc6820da50b0a, actual =e49fc6820da50b0a
[2555000] SCOREBOARD MATCH: wdata passthrough beat=81 expected = ebb689b6022cd509, actual =ebb689b6022cd509
[2555000] SCOREBOARD MATCH: wdata passthrough beat=82 expected = 8c6163b8a44d0b30, actual =8c6163b8a44d0b30
[2555000] SCOREBOARD MATCH: wdata passthrough beat=83 expected = b1f2163ae90f54e6, actual =b1f2163ae90f54e6
[2555000] SCOREBOARD MATCH: wdata passthrough beat=84 expected = eb3c29eff1012a3a, actual =eb3c29eff1012a3a
[2555000] SCOREBOARD MATCH: wdata passthrough beat=85 expected = 154e356b9da89ff0, actual =154e356b9da89ff0
[2555000] SCOREBOARD MATCH: wdata passthrough beat=86 expected = 6b7f4d7f79d8da8, actual =6b7f4d7f79d8da8
[2555000] SCOREBOARD MATCH: wdata passthrough beat=87 expected = e89eb7e2c7404ba5, actual =e89eb7e2c7404ba5
[2555000] SCOREBOARD MATCH: wdata passthrough beat=88 expected = e4e8eb96f1f41ec6, actual =e4e8eb96f1f41ec6
[2555000] SCOREBOARD MATCH: wdata passthrough beat=89 expected = e991ac6efdeced4d, actual =e991ac6efdeced4d
[2555000] SCOREBOARD MATCH: wdata passthrough beat=90 expected = c52d38f3eba0e06d, actual =c52d38f3eba0e06d
[2555000] SCOREBOARD MATCH: wdata passthrough beat=91 expected = dd94ff33d2306451, actual =dd94ff33d2306451
[2555000] SCOREBOARD MATCH: wdata passthrough beat=92 expected = d01d519e2a162489, actual =d01d519e2a162489
[2555000] SCOREBOARD MATCH: wdata passthrough beat=93 expected = 15b704f6c726aba2, actual =15b704f6c726aba2
[2555000] SCOREBOARD MATCH: wdata passthrough beat=94 expected = 19570ff3954a8a91, actual =19570ff3954a8a91
[2555000] SCOREBOARD MATCH: wdata passthrough beat=95 expected = bf60af1af34c0429, actual =bf60af1af34c0429
[2555000] SCOREBOARD MATCH: wdata passthrough beat=96 expected = ba72afcbe9746191, actual =ba72afcbe9746191
[2555000] SCOREBOARD MATCH: wdata passthrough beat=97 expected = febeec23d517b410, actual =febeec23d517b410
[2555000] SCOREBOARD MATCH: wdata passthrough beat=98 expected = c863b83ad3c9bfbe, actual =c863b83ad3c9bfbe
[2555000] SCOREBOARD MATCH: wdata passthrough beat=99 expected = 3d3e2150be1f9b3d, actual =3d3e2150be1f9b3d
[2555000] SCOREBOARD MATCH: wdata passthrough beat=100 expected = 13374f4e82d66805, actual =13374f4e82d66805
[2555000] SCOREBOARD MATCH: wdata passthrough beat=101 expected = d6a027c43bfd0d73, actual =d6a027c43bfd0d73
[2555000] SCOREBOARD MATCH: wdata passthrough beat=102 expected = fa1ca8b0db9b0788, actual =fa1ca8b0db9b0788
[2555000] SCOREBOARD MATCH: wdata passthrough beat=103 expected = de716f8d13de4914, actual =de716f8d13de4914
[2555000] SCOREBOARD MATCH: wdata passthrough beat=104 expected = cfdb56878d53f7fe, actual =cfdb56878d53f7fe
[2555000] SCOREBOARD MATCH: wdata passthrough beat=105 expected = e8eeff86b5119751, actual =e8eeff86b5119751
[2555000] SCOREBOARD MATCH: wdata passthrough beat=106 expected = c8efe065c9f7ff37, actual =c8efe065c9f7ff37
[2555000] SCOREBOARD MATCH: wdata passthrough beat=107 expected = d74bf736c7606f14, actual =d74bf736c7606f14
[2555000] SCOREBOARD MATCH: wdata passthrough beat=108 expected = fc72066598cb36ec, actual =fc72066598cb36ec
[2555000] SCOREBOARD MATCH: wdata passthrough beat=109 expected = e2c33624c03af6bc, actual =e2c33624c03af6bc
[2555000] SCOREBOARD MATCH: wdata passthrough beat=110 expected = 879b65d0c561e6cb, actual =879b65d0c561e6cb
[2555000] SCOREBOARD MATCH: wdata passthrough beat=111 expected = de2d1db73a0f2d5a, actual =de2d1db73a0f2d5a
[2555000] SCOREBOARD MATCH: wdata passthrough beat=112 expected = fa4a2416040d6c36, actual =fa4a2416040d6c36
[2555000] SCOREBOARD MATCH: wdata passthrough beat=113 expected = c96f5301c0f053db, actual =c96f5301c0f053db
[2555000] SCOREBOARD MATCH: wdata passthrough beat=114 expected = faff813501e589e7, actual =faff813501e589e7
[2555000] SCOREBOARD MATCH: wdata passthrough beat=115 expected = 5f2f61da79c70b8, actual =5f2f61da79c70b8
[2555000] SCOREBOARD MATCH: wdata passthrough beat=116 expected = e88cc494f549a54c, actual =e88cc494f549a54c
[2555000] SCOREBOARD MATCH: wdata passthrough beat=117 expected = f72f2f33cf62491e, actual =f72f2f33cf62491e
[2555000] SCOREBOARD MATCH: wdata passthrough beat=118 expected = f6feb9d6e38c45c9, actual =f6feb9d6e38c45c9
[2555000] SCOREBOARD MATCH: wdata passthrough beat=119 expected = d8d5eb15fd222550, actual =d8d5eb15fd222550
[2555000] SCOREBOARD MATCH: wdata passthrough beat=120 expected = cc846e6edf8b7e6a, actual =cc846e6edf8b7e6a
[2555000] SCOREBOARD MATCH: wdata passthrough beat=121 expected = c317c434d0051a48, actual =c317c434d0051a48
[2555000] SCOREBOARD MATCH: wdata passthrough beat=122 expected = cd273f98c3832844, actual =cd273f98c3832844
[2555000] SCOREBOARD MATCH: wdata passthrough beat=123 expected = 230ea6af9bedaf49, actual =230ea6af9bedaf49
[2555000] SCOREBOARD MATCH: wdata passthrough beat=124 expected = ebf2c99299abae06, actual =ebf2c99299abae06
[2555000] SCOREBOARD MATCH: wdata passthrough beat=125 expected = dd2ed64be6266ae3, actual =dd2ed64be6266ae3
[2555000] SCOREBOARD MATCH: wdata passthrough beat=126 expected = 82141a2cb91a092a, actual =82141a2cb91a092a
[2555000] SCOREBOARD MATCH: wdata passthrough beat=127 expected = d2c5b731003d7cfa, actual =d2c5b731003d7cfa
[2555000] SCOREBOARD MATCH: wdata passthrough beat=128 expected = e663e7ddee06e3be, actual =e663e7ddee06e3be
[2555000] SCOREBOARD MATCH: wdata passthrough beat=129 expected = 2720ece92ff48d7c, actual =2720ece92ff48d7c
[2555000] SCOREBOARD MATCH: wdata passthrough beat=130 expected = 30320a76e8780209, actual =30320a76e8780209
[2555000] SCOREBOARD MATCH: wdata passthrough beat=131 expected = d67ee5c8f9e6a41a, actual =d67ee5c8f9e6a41a
[2555000] SCOREBOARD MATCH: wdata passthrough beat=132 expected = 29db31961695f253, actual =29db31961695f253
[2555000] SCOREBOARD MATCH: wdata passthrough beat=133 expected = ff0df45cfd9fd2b1, actual =ff0df45cfd9fd2b1
[2555000] SCOREBOARD MATCH: wdata passthrough beat=134 expected = f78676cbda0d3c0c, actual =f78676cbda0d3c0c
[2555000] SCOREBOARD MATCH: wdata passthrough beat=135 expected = f0a32e5fd58cda24, actual =f0a32e5fd58cda24
[2555000] SCOREBOARD MATCH: wdata passthrough beat=136 expected = d32cacd52161a861, actual =d32cacd52161a861
[2555000] SCOREBOARD MATCH: wdata passthrough beat=137 expected = fb6ee46defb122bb, actual =fb6ee46defb122bb
[2555000] SCOREBOARD MATCH: wdata passthrough beat=138 expected = c53dfce0cab323a0, actual =c53dfce0cab323a0
[2555000] SCOREBOARD MATCH: wdata passthrough beat=139 expected = ec14cc01ec1212cc, actual =ec14cc01ec1212cc
[2555000] SCOREBOARD MATCH: wdata passthrough beat=140 expected = dbc33587986aa9b5, actual =dbc33587986aa9b5
[2555000] SCOREBOARD MATCH: wdata passthrough beat=141 expected = e31dcd56e783b06e, actual =e31dcd56e783b06e
[2555000] SCOREBOARD MATCH: wdata passthrough beat=142 expected = d395c33aa1013267, actual =d395c33aa1013267
[2555000] SCOREBOARD MATCH: wdata passthrough beat=143 expected = 396bdc1dcf329957, actual =396bdc1dcf329957
[2555000] SCOREBOARD MATCH: wdata passthrough beat=144 expected = 36b649c62f58f8c2, actual =36b649c62f58f8c2
[2555000] SCOREBOARD MATCH: wdata passthrough beat=145 expected = d05a2b291c89a973, actual =d05a2b291c89a973
[2555000] SCOREBOARD MATCH: wdata passthrough beat=146 expected = ebbc42ca8a4c0d00, actual =ebbc42ca8a4c0d00
[2555000] SCOREBOARD MATCH: wdata passthrough beat=147 expected = b9a505c289c60746, actual =b9a505c289c60746
[2555000] SCOREBOARD MATCH: wdata passthrough beat=148 expected = a64fb0b9a2728c90, actual =a64fb0b9a2728c90
[2555000] SCOREBOARD MATCH: wdata passthrough beat=149 expected = 2cbe999109ff30ec, actual =2cbe999109ff30ec
[2555000] SCOREBOARD MATCH: wdata passthrough beat=150 expected = 93c53832120bf384, actual =93c53832120bf384
[2555000] SCOREBOARD MATCH: wdata passthrough beat=151 expected = b47e8014e6639f53, actual =b47e8014e6639f53
[2555000] SCOREBOARD MATCH: wdata passthrough beat=152 expected = f062d03f3a14e8ec, actual =f062d03f3a14e8ec
[2555000] SCOREBOARD MATCH: wdata passthrough beat=153 expected = cc20dc70e13d19a5, actual =cc20dc70e13d19a5
[2555000] SCOREBOARD MATCH: wdata passthrough beat=154 expected = c7a0b8f904280872, actual =c7a0b8f904280872
[2555000] SCOREBOARD MATCH: wdata passthrough beat=155 expected = 3e3cf15e809f5c84, actual =3e3cf15e809f5c84
[2555000] SCOREBOARD MATCH: wdata passthrough beat=156 expected = e1dc762ab8038938, actual =e1dc762ab8038938
[2555000] SCOREBOARD MATCH: wdata passthrough beat=157 expected = bc2b91aa0a5dcdce, actual =bc2b91aa0a5dcdce
[2555000] SCOREBOARD MATCH: wdata passthrough beat=158 expected = 8afd2a52297d2f23, actual =8afd2a52297d2f23
[2555000] SCOREBOARD MATCH: wdata passthrough beat=159 expected = e180b85bfa688308, actual =e180b85bfa688308
[2555000] SCOREBOARD MATCH: wdata passthrough beat=160 expected = 84c650d6ecd9a07c, actual =84c650d6ecd9a07c
[2555000] SCOREBOARD MATCH: wdata passthrough beat=161 expected = 9656cf9f1dac4a06, actual =9656cf9f1dac4a06
[2555000] SCOREBOARD MATCH: wdata passthrough beat=162 expected = 9814cd0e0fc37b29, actual =9814cd0e0fc37b29
[2555000] SCOREBOARD MATCH: wdata passthrough beat=163 expected = fc9d1ba5f7d787fb, actual =fc9d1ba5f7d787fb
[2555000] SCOREBOARD MATCH: wdata passthrough beat=164 expected = 1583d2011cdb1de5, actual =1583d2011cdb1de5
[2555000] SCOREBOARD MATCH: wdata passthrough beat=165 expected = 2c9e990e12f3eb45, actual =2c9e990e12f3eb45
[2555000] SCOREBOARD MATCH: wdata passthrough beat=166 expected = acb7340ad989f0f, actual =acb7340ad989f0f
[2555000] SCOREBOARD MATCH: wdata passthrough beat=167 expected = ca73bcf4a93bb4b3, actual =ca73bcf4a93bb4b3
[2555000] SCOREBOARD MATCH: wdata passthrough beat=168 expected = bc2f9ff8204f4541, actual =bc2f9ff8204f4541
[2555000] SCOREBOARD MATCH: wdata passthrough beat=169 expected = cde7e450f7125602, actual =cde7e450f7125602
[2555000] SCOREBOARD MATCH: wdata passthrough beat=170 expected = 204e0ab6c6fb1338, actual =204e0ab6c6fb1338
[2555000] SCOREBOARD MATCH: wdata passthrough beat=171 expected = e74a5879185ba145, actual =e74a5879185ba145
[2555000] SCOREBOARD MATCH: wdata passthrough beat=172 expected = 8f6df747dc7daaae, actual =8f6df747dc7daaae
[2555000] SCOREBOARD MATCH: wdata passthrough beat=173 expected = 2378bde735323cca, actual =2378bde735323cca
[2555000] SCOREBOARD MATCH: wdata passthrough beat=174 expected = cd8dde0fafbc01fd, actual =cd8dde0fafbc01fd
[2555000] SCOREBOARD MATCH: wdata passthrough beat=175 expected = c39acac8ac31660, actual =c39acac8ac31660
[2555000] SCOREBOARD MATCH: wdata passthrough beat=176 expected = bff5532adcfbd556, actual =bff5532adcfbd556
[2555000] SCOREBOARD MATCH: wdata passthrough beat=177 expected = cb7d7542fb26a93, actual =cb7d7542fb26a93
[2555000] SCOREBOARD MATCH: wdata passthrough beat=178 expected = ba7580f38d833139, actual =ba7580f38d833139
[2555000] SCOREBOARD MATCH: wdata passthrough beat=179 expected = ea7f069018f18400, actual =ea7f069018f18400
[2555000] SCOREBOARD MATCH: wdata passthrough beat=180 expected = c8a3ee93fa6ad41e, actual =c8a3ee93fa6ad41e
[2555000] SCOREBOARD MATCH: wdata passthrough beat=181 expected = 87ee0557f736dde4, actual =87ee0557f736dde4
[2555000] SCOREBOARD MATCH: wdata passthrough beat=182 expected = 102861e483196f86, actual =102861e483196f86
[2555000] SCOREBOARD MATCH: wdata passthrough beat=183 expected = fd8443a4f26d0be7, actual =fd8443a4f26d0be7
[2555000] SCOREBOARD MATCH: wdata passthrough beat=184 expected = e9a3e9cbd8cc5077, actual =e9a3e9cbd8cc5077
[2555000] SCOREBOARD MATCH: wdata passthrough beat=185 expected = dbe5bffd057248fc, actual =dbe5bffd057248fc
[2555000] SCOREBOARD MATCH: wdata passthrough beat=186 expected = f7df54e3f9cc4baf, actual =f7df54e3f9cc4baf
[2555000] SCOREBOARD MATCH: wdata passthrough beat=187 expected = d2989c26d96a03a2, actual =d2989c26d96a03a2
[2555000] SCOREBOARD MATCH: wstrb size check expected = bc, actual =bc
[2555000] SCOREBOARD MATCH: wstrb passthrough beat=0 expected = af, actual =af
[2555000] SCOREBOARD MATCH: wstrb passthrough beat=1 expected = 9e, actual =9e
[2555000] SCOREBOARD MATCH: wstrb passthrough beat=2 expected = 24, actual =24
[2555000] SCOREBOARD MATCH: wstrb passthrough beat=3 expected = 5e, actual =5e
[2555000] SCOREBOARD MATCH: wstrb passthrough beat=4 expected = 81, actual =81
[2555000] SCOREBOARD MATCH: wstrb passthrough beat=5 expected = c6, actual =c6
[2555000] SCOREBOARD MATCH: wstrb passthrough beat=6 expected = 85, actual =85
[2555000] SCOREBOARD MATCH: wstrb passthrough beat=7 expected = 30, actual =30
[2555000] SCOREBOARD MATCH: wstrb passthrough beat=8 expected = 64, actual =64
[2555000] SCOREBOARD MATCH: wstrb passthrough beat=9 expected = a9, actual =a9
[2555000] SCOREBOARD MATCH: wstrb passthrough beat=10 expected = 8f, actual =8f
[2555000] SCOREBOARD MATCH: wstrb passthrough beat=11 expected = e5, actual =e5
[2555000] SCOREBOARD MATCH: wstrb passthrough beat=12 expected = 6f, actual =6f
[2555000] SCOREBOARD MATCH: wstrb passthrough beat=13 expected = 14, actual =14
[2555000] SCOREBOARD MATCH: wstrb passthrough beat=14 expected = 16, actual =16
[2555000] SCOREBOARD MATCH: wstrb passthrough beat=15 expected = d3, actual =d3
[2555000] SCOREBOARD MATCH: wstrb passthrough beat=16 expected = bd, actual =bd
[2555000] SCOREBOARD MATCH: wstrb passthrough beat=17 expected = a5, actual =a5
[2555000] SCOREBOARD MATCH: wstrb passthrough beat=18 expected = b8, actual =b8
[2555000] SCOREBOARD MATCH: wstrb passthrough beat=19 expected = 2c, actual =2c
[2555000] SCOREBOARD MATCH: wstrb passthrough beat=20 expected = b9, actual =b9
[2555000] SCOREBOARD MATCH: wstrb passthrough beat=21 expected = ce, actual =ce
[2555000] SCOREBOARD MATCH: wstrb passthrough beat=22 expected = ff, actual =ff
[2555000] SCOREBOARD MATCH: wstrb passthrough beat=23 expected = 76, actual =76
[2555000] SCOREBOARD MATCH: wstrb passthrough beat=24 expected = 73, actual =73
[2555000] SCOREBOARD MATCH: wstrb passthrough beat=25 expected = b7, actual =b7
[2555000] SCOREBOARD MATCH: wstrb passthrough beat=26 expected = a2, actual =a2
[2555000] SCOREBOARD MATCH: wstrb passthrough beat=27 expected = 2c, actual =2c
[2555000] SCOREBOARD MATCH: wstrb passthrough beat=28 expected = 86, actual =86
[2555000] SCOREBOARD MATCH: wstrb passthrough beat=29 expected = a1, actual =a1
[2555000] SCOREBOARD MATCH: wstrb passthrough beat=30 expected = a2, actual =a2
[2555000] SCOREBOARD MATCH: wstrb passthrough beat=31 expected = f9, actual =f9
[2555000] SCOREBOARD MATCH: wstrb passthrough beat=32 expected = 58, actual =58
[2555000] SCOREBOARD MATCH: wstrb passthrough beat=33 expected = 44, actual =44
[2555000] SCOREBOARD MATCH: wstrb passthrough beat=34 expected = 26, actual =26
[2555000] SCOREBOARD MATCH: wstrb passthrough beat=35 expected = de, actual =de
[2555000] SCOREBOARD MATCH: wstrb passthrough beat=36 expected = e5, actual =e5
[2555000] SCOREBOARD MATCH: wstrb passthrough beat=37 expected = c8, actual =c8
[2555000] SCOREBOARD MATCH: wstrb passthrough beat=38 expected = d8, actual =d8
[2555000] SCOREBOARD MATCH: wstrb passthrough beat=39 expected = 3e, actual =3e
[2555000] SCOREBOARD MATCH: wstrb passthrough beat=40 expected = d, actual =d
[2555000] SCOREBOARD MATCH: wstrb passthrough beat=41 expected = fe, actual =fe
[2555000] SCOREBOARD MATCH: wstrb passthrough beat=42 expected = 1c, actual =1c
[2555000] SCOREBOARD MATCH: wstrb passthrough beat=43 expected = f2, actual =f2
[2555000] SCOREBOARD MATCH: wstrb passthrough beat=44 expected = c6, actual =c6
[2555000] SCOREBOARD MATCH: wstrb passthrough beat=45 expected = f4, actual =f4
[2555000] SCOREBOARD MATCH: wstrb passthrough beat=46 expected = 30, actual =30
[2555000] SCOREBOARD MATCH: wstrb passthrough beat=47 expected = d3, actual =d3
[2555000] SCOREBOARD MATCH: wstrb passthrough beat=48 expected = f2, actual =f2
[2555000] SCOREBOARD MATCH: wstrb passthrough beat=49 expected = 4d, actual =4d
[2555000] SCOREBOARD MATCH: wstrb passthrough beat=50 expected = c6, actual =c6
[2555000] SCOREBOARD MATCH: wstrb passthrough beat=51 expected = b9, actual =b9
[2555000] SCOREBOARD MATCH: wstrb passthrough beat=52 expected = 41, actual =41
[2555000] SCOREBOARD MATCH: wstrb passthrough beat=53 expected = f6, actual =f6
[2555000] SCOREBOARD MATCH: wstrb passthrough beat=54 expected = 8c, actual =8c
[2555000] SCOREBOARD MATCH: wstrb passthrough beat=55 expected = 34, actual =34
[2555000] SCOREBOARD MATCH: wstrb passthrough beat=56 expected = 43, actual =43
[2555000] SCOREBOARD MATCH: wstrb passthrough beat=57 expected = 52, actual =52
[2555000] SCOREBOARD MATCH: wstrb passthrough beat=58 expected = ed, actual =ed
[2555000] SCOREBOARD MATCH: wstrb passthrough beat=59 expected = 85, actual =85
[2555000] SCOREBOARD MATCH: wstrb passthrough beat=60 expected = 49, actual =49
[2555000] SCOREBOARD MATCH: wstrb passthrough beat=61 expected = 79, actual =79
[2555000] SCOREBOARD MATCH: wstrb passthrough beat=62 expected = b9, actual =b9
[2555000] SCOREBOARD MATCH: wstrb passthrough beat=63 expected = 8c, actual =8c
[2555000] SCOREBOARD MATCH: wstrb passthrough beat=64 expected = cc, actual =cc
[2555000] SCOREBOARD MATCH: wstrb passthrough beat=65 expected = a6, actual =a6
[2555000] SCOREBOARD MATCH: wstrb passthrough beat=66 expected = 11, actual =11
[2555000] SCOREBOARD MATCH: wstrb passthrough beat=67 expected = 15, actual =15
[2555000] SCOREBOARD MATCH: wstrb passthrough beat=68 expected = 1f, actual =1f
[2555000] SCOREBOARD MATCH: wstrb passthrough beat=69 expected = ca, actual =ca
[2555000] SCOREBOARD MATCH: wstrb passthrough beat=70 expected = a1, actual =a1
[2555000] SCOREBOARD MATCH: wstrb passthrough beat=71 expected = eb, actual =eb
[2555000] SCOREBOARD MATCH: wstrb passthrough beat=72 expected = 70, actual =70
[2555000] SCOREBOARD MATCH: wstrb passthrough beat=73 expected = b3, actual =b3
[2555000] SCOREBOARD MATCH: wstrb passthrough beat=74 expected = 0, actual =0
[2555000] SCOREBOARD MATCH: wstrb passthrough beat=75 expected = 90, actual =90
[2555000] SCOREBOARD MATCH: wstrb passthrough beat=76 expected = 7d, actual =7d
[2555000] SCOREBOARD MATCH: wstrb passthrough beat=77 expected = a2, actual =a2
[2555000] SCOREBOARD MATCH: wstrb passthrough beat=78 expected = 7b, actual =7b
[2555000] SCOREBOARD MATCH: wstrb passthrough beat=79 expected = ee, actual =ee
[2555000] SCOREBOARD MATCH: wstrb passthrough beat=80 expected = 55, actual =55
[2555000] SCOREBOARD MATCH: wstrb passthrough beat=81 expected = 7c, actual =7c
[2555000] SCOREBOARD MATCH: wstrb passthrough beat=82 expected = 7e, actual =7e
[2555000] SCOREBOARD MATCH: wstrb passthrough beat=83 expected = d2, actual =d2
[2555000] SCOREBOARD MATCH: wstrb passthrough beat=84 expected = 1e, actual =1e
[2555000] SCOREBOARD MATCH: wstrb passthrough beat=85 expected = f9, actual =f9
