#-----------------------------------------------------------
# xsim v2025.2 (64-bit)
# SW Build 6299465 on Fri Nov 14 12:34:56 MST 2025
# IP Build 6300035 on Fri Nov 14 10:48:45 MST 2025
# SharedData Build 6298862 on Thu Nov 13 04:50:51 MST 2025
# Start of session at: Fri Sep 11 11:46:00 2026
# Process ID         : 709945
# Current directory  : /home/nashita/Desktop/practice/axi_xbar/sim
# Command line       : xsim -log regress_results/BT_run102.log -mode tcl -source {xsim.dir/tb_top_snap/xsim_script.tcl}
# Log file           : /home/nashita/Desktop/practice/axi_xbar/sim/regress_results/BT_run102.log
# Journal file       : /home/nashita/Desktop/practice/axi_xbar/sim/xsim.jou
# Running On         : vlsi-vivado
# Platform           : Ubuntu
# Operating System   : Ubuntu 24.04.4 LTS
# Processor Detail   : Intel(R) Core(TM) i5-10400 CPU @ 2.90GHz
# CPU Frequency      : 3999.891 MHz
# CPU Physical cores : 6
# CPU Logical cores  : 12
# Host memory        : 41875 MB
# Swap memory        : 27648 MB
# Total Virtual      : 69524 MB
# Available Virtual  : 62743 MB
#-----------------------------------------------------------
source xsim.dir/tb_top_snap/xsim_script.tcl
# xsim {tb_top_snap} -testplusarg BT -autoloadwcfg -runall -sv_seed 103
Time resolution is 1 ps
run -all
[0] RUNNING BASE TEST
[0] INSIDE THE BASE TEST CONSTRUCTOR
[0] ENV: before agent
[0] SLAVE CONSTRUCTED
[0] MASTER MONITOR CONSTRUCTED
[0] MASTER MONITOR CONSTRUCTED
[0] SLAVE MONITOR CONSTRUCTED
[0] SLAVE MONITOR CONSTRUCTED
[0] ARB MONITOR CONSTRUCTED
GENERATOR CONSTRUCTED
[0] ENV: after agent
[0] ENV: before scoreboard
[0] ENV: after scoreboard
[15000] [SEQUENCER] READ mst_id=0 s_id=0 araddr=130f9e68 arid=0 arlen=1 arsize=3 arburst=1 rid=[] rresp=[] rdata=[]
[15000] [SEQUENCER] mst_id=0 s_id=0 awaddr=f3fd060 awid=100 awlen=14 awsize=3 awburst=2 wdata=[c080866e886f2699 8873a6cdca1cdc34 37397e0096fe71ce 1f6d9868a8736608 f290423cf7ba046e eb8763da7e13f35 d054a53ea9c9c03c 2183c4ab2e260ea5 d6074ddac2e4e77a ecaea7b7303c3ae8 de62498da65bf318 e940da930e326c62 3e6ea74ab4699767 dac58a80d5ef824a e421eeac1cd0f0d7 ] wstrb=[13 3e f6 5d be cd 9 d1 b ff 2e ca cc 37 9b ] bresp=0 bid=0
[15000] [SEQUENCER] READ mst_id=1 s_id=0 araddr=1fbf37a8 arid=0 arlen=1 arsize=3 arburst=1 rid=[] rresp=[] rdata=[]
[15000] [SEQUENCER] mst_id=1 s_id=0 awaddr=b8e8128 awid=1001 awlen=1 awsize=3 awburst=0 wdata=[1a1c9425d4dbd0fb 81bca3c8094ba536 ] wstrb=[81 3f ] bresp=0 bid=0
[15000] [SEQUENCER] READ mst_id=1 s_id=0 araddr=d679908 arid=2 arlen=1 arsize=3 arburst=1 rid=[] rresp=[] rdata=[]
[15000] MASTER_DRIVER0 received transaction, op=AXI_READ
[15000] MASTER_DRIVER1 received transaction, op=AXI_READ
[35000] MASTER_DRIVER0 received transaction, op=AXI_WRITE
[35000] MASTER_DRIVER1 received transaction, op=AXI_WRITE
[45000] ARB MONITOR: slave=1 m0_req=1 m1_req=1 winner=0
[45000] AXI S0_ARVALID_RDY HANDSHAKE
[45000] MEMORY READ MISS beat=0 addr=130f9e68 -> default data id=0
[45000] SCOREBOARD MATCH: arbitration winner (slave 1) expected = 0, actual =0
[55000] MEMORY READ MISS beat=1 addr=130f9e70 -> default data id=0
[55000] SLAVE 1 R_VALID_RDY Handshake beat=0 rlast=0
[55000] MASTER 1 AW_VALID_RDY Handshake
[55000] MASTER 0 AW_VALID_RDY Handshake
[65000] ARB MONITOR: slave=0 m0_req=1 m1_req=1 winner=0
[65000] SLAVE 1 R_VALID_RDY Handshake beat=1 rlast=1
[65000] [SLAVE MONITOR] READ mst_id=0 s_id=1 araddr=130f9e68 arid=0 arlen=1 arsize=3 arburst=1 rid=[00] rresp=[00] rdata=[baadf00d12345678baadf00d12345678]
[65000] AXI S0_AWVALID_RDY HANDSHAKE
[65000] SCOREBOARD MATCH: arbitration winner (slave 0) expected = 0, actual =0
[75000] AXI S0_ARVALID_RDY HANDSHAKE
[75000] MEMORY READ MISS beat=0 addr=1fbf37a8 -> default data id=16
[75000] ARB MONITOR: slave=1 m0_req=0 m1_req=1 winner=1
[75000] MASTER 1 W_VALID_RDY Handshake beat=0 wlast=0
[75000] MASTER 0 R_VALID_RDY Handshake beat=0 rlast=0
[75000] MASTER 0 W_VALID_RDY Handshake beat=0 wlast=0
[85000] MASTER_DRIVER1 received transaction, op=AXI_READ
[85000] [MASTER DRIVER] READ mst_id=0 s_id=0 araddr=130f9e68 arid=0 arlen=1 arsize=3 arburst=1 rid=[00] rresp=[00] rdata=[baadf00d12345678baadf00d12345678]
[85000] MASTER 0 W_VALID_RDY Handshake beat=1 wlast=0
[85000] MASTER 0 R_VALID_RDY Handshake beat=1 rlast=1
[85000] [MASTER MONITOR] READ mst_id=0 s_id=1 araddr=130f9e68 arid=0 arlen=1 arsize=3 arburst=1 rid=[00] rresp=[00] rdata=[baadf00d12345678baadf00d12345678]
[85000] MASTER 1 W_VALID_RDY Handshake beat=1 wlast=1
[85000] SLAVE 1 R_VALID_RDY Handshake beat=0 rlast=0
[85000] MEMORY READ MISS beat=1 addr=1fbf37b0 -> default data id=16
[85000] AXI S0_WVALID_RDY HANDSHAKE
[85000] S0 MEMORY WRITE beat=0 addr=0f3fd060 data=c080866e886f2699 id=04
[85000] SCOREBOARD MATCH: decode_err expected = 0, actual =0
[85000] SCOREBOARD MATCH: slave_id expected = 1, actual =1
[85000] SCOREBOARD MATCH: araddr passthrough expected = 130f9e68, actual =130f9e68
[85000] SCOREBOARD MATCH: arlen passthrough expected = 1, actual =1
[85000] SCOREBOARD MATCH: arsize passthrough expected = 3, actual =3
[85000] SCOREBOARD MATCH: arburst passthrough expected = 1, actual =1
[85000] SCOREBOARD MATCH: rdata size check expected = 2, actual =2
[85000] SCOREBOARD MATCH: rdata passthrough beat=0 expected = baadf00d12345678, actual =baadf00d12345678
[85000] SCOREBOARD MATCH: rdata passthrough beat=1 expected = baadf00d12345678, actual =baadf00d12345678
[85000] SCOREBOARD MATCH: rresp size check expected = 2, actual =2
[85000] SCOREBOARD MATCH: rresp passthrough beat=0 expected = 0, actual =0
[85000] SCOREBOARD MATCH: rresp passthrough beat=1 expected = 0, actual =0
[85000] SCOREBOARD MATCH: response routed to correct master (read beat 0) expected = 0, actual =0
[85000] SCOREBOARD MATCH: response routed to correct master (read beat 1) expected = 0, actual =0
[85000] [SCOREBOARD-M] READ mst_id=0 s_id=1 araddr=130f9e68 arid=0 arlen=1 arsize=3 arburst=1 rid=[00] rresp=[00] rdata=[baadf00d12345678baadf00d12345678]
[85000] [SCOREBOARD-S] READ mst_id=0 s_id=1 araddr=130f9e68 arid=0 arlen=1 arsize=3 arburst=1 rid=[00] rresp=[00] rdata=[baadf00d12345678baadf00d12345678]
[85000] SCOREBOARD: Transaction 1 received. pass=16 fail=0
[85000] ALL PASS. Total transactions: 1
[95000] AXI S0_WVALID_RDY HANDSHAKE
[95000] S0 MEMORY WRITE beat=1 addr=0f3fcff0 data=8873a6cdca1cdc34 id=04
[95000] SLAVE 1 R_VALID_RDY Handshake beat=1 rlast=1
[95000] [SLAVE MONITOR] READ mst_id=1 s_id=1 araddr=1fbf37a8 arid=0 arlen=1 arsize=3 arburst=1 rid=[1010] rresp=[00] rdata=[baadf00d12345678baadf00d12345678]
[95000] MASTER 0 W_VALID_RDY Handshake beat=2 wlast=0
[105000] MASTER 0 W_VALID_RDY Handshake beat=3 wlast=0
[105000] MASTER 1 R_VALID_RDY Handshake beat=0 rlast=0
[105000] AXI S0_WVALID_RDY HANDSHAKE
[105000] S0 MEMORY WRITE beat=2 addr=0f3fcff8 data=37397e0096fe71ce id=04
[115000] AXI S0_WVALID_RDY HANDSHAKE
[115000] S0 MEMORY WRITE beat=3 addr=0f3fd000 data=1f6d9868a8736608 id=04
[115000] AXI S0_ARVALID_RDY HANDSHAKE
[115000] MEMORY READ MISS beat=0 addr=d679908 -> default data id=18
[115000] ARB MONITOR: slave=0 m0_req=0 m1_req=1 winner=1
[115000] MASTER 1 R_VALID_RDY Handshake beat=1 rlast=1
[115000] [MASTER MONITOR] READ mst_id=1 s_id=1 araddr=1fbf37a8 arid=0 arlen=1 arsize=3 arburst=1 rid=[00] rresp=[00] rdata=[baadf00d12345678baadf00d12345678]
[115000] MASTER 0 W_VALID_RDY Handshake beat=4 wlast=0
[115000] [MASTER DRIVER] READ mst_id=1 s_id=0 araddr=1fbf37a8 arid=0 arlen=1 arsize=3 arburst=1 rid=[00] rresp=[00] rdata=[baadf00d12345678baadf00d12345678]
[115000] SCOREBOARD MATCH: decode_err expected = 0, actual =0
[115000] SCOREBOARD MATCH: slave_id expected = 1, actual =1
[115000] SCOREBOARD MATCH: araddr passthrough expected = 1fbf37a8, actual =1fbf37a8
[115000] SCOREBOARD MATCH: arlen passthrough expected = 1, actual =1
[115000] SCOREBOARD MATCH: arsize passthrough expected = 3, actual =3
[115000] SCOREBOARD MATCH: arburst passthrough expected = 1, actual =1
[115000] SCOREBOARD MATCH: rdata size check expected = 2, actual =2
[115000] SCOREBOARD MATCH: rdata passthrough beat=0 expected = baadf00d12345678, actual =baadf00d12345678
[115000] SCOREBOARD MATCH: rdata passthrough beat=1 expected = baadf00d12345678, actual =baadf00d12345678
[115000] SCOREBOARD MATCH: rresp size check expected = 2, actual =2
[115000] SCOREBOARD MATCH: rresp passthrough beat=0 expected = 0, actual =0
[115000] SCOREBOARD MATCH: rresp passthrough beat=1 expected = 0, actual =0
[115000] SCOREBOARD MATCH: response routed to correct master (read beat 0) expected = 1, actual =1
[115000] SCOREBOARD MATCH: response routed to correct master (read beat 1) expected = 1, actual =1
[115000] [SCOREBOARD-M] READ mst_id=1 s_id=1 araddr=1fbf37a8 arid=0 arlen=1 arsize=3 arburst=1 rid=[00] rresp=[00] rdata=[baadf00d12345678baadf00d12345678]
[115000] [SCOREBOARD-S] READ mst_id=1 s_id=1 araddr=1fbf37a8 arid=0 arlen=1 arsize=3 arburst=1 rid=[1010] rresp=[00] rdata=[baadf00d12345678baadf00d12345678]
[115000] SCOREBOARD: Transaction 2 received. pass=30 fail=0
[115000] ALL PASS. Total transactions: 2
[125000] MASTER 0 W_VALID_RDY Handshake beat=5 wlast=0
[125000] SLAVE 0 R_VALID_RDY Handshake beat=0 rlast=0
[125000] MEMORY READ MISS beat=1 addr=d679910 -> default data id=18
[125000] AXI S0_WVALID_RDY HANDSHAKE
[125000] S0 MEMORY WRITE beat=4 addr=0f3fd008 data=f290423cf7ba046e id=04
[135000] AXI S0_WVALID_RDY HANDSHAKE
[135000] S0 MEMORY WRITE beat=5 addr=0f3fd010 data=0eb8763da7e13f35 id=04
[135000] SLAVE 0 R_VALID_RDY Handshake beat=1 rlast=1
[135000] [SLAVE MONITOR] READ mst_id=1 s_id=0 araddr=d679908 arid=2 arlen=1 arsize=3 arburst=1 rid=[1212] rresp=[00] rdata=[baadf00d12345678baadf00d12345678]
[135000] MASTER 0 W_VALID_RDY Handshake beat=6 wlast=0
[145000] MASTER 0 W_VALID_RDY Handshake beat=7 wlast=0
[145000] MASTER 1 R_VALID_RDY Handshake beat=0 rlast=0
[145000] AXI S0_WVALID_RDY HANDSHAKE
[145000] S0 MEMORY WRITE beat=6 addr=0f3fd018 data=d054a53ea9c9c03c id=04
[155000] AXI S0_WVALID_RDY HANDSHAKE
[155000] S0 MEMORY WRITE beat=7 addr=0f3fd020 data=2183c4ab2e260ea5 id=04
[155000] MASTER 1 R_VALID_RDY Handshake beat=1 rlast=1
[155000] [MASTER MONITOR] READ mst_id=1 s_id=0 araddr=d679908 arid=2 arlen=1 arsize=3 arburst=1 rid=[22] rresp=[00] rdata=[baadf00d12345678baadf00d12345678]
[155000] MASTER 0 W_VALID_RDY Handshake beat=8 wlast=0
[155000] [MASTER DRIVER] READ mst_id=1 s_id=0 araddr=d679908 arid=2 arlen=1 arsize=3 arburst=1 rid=[22] rresp=[00] rdata=[baadf00d12345678baadf00d12345678]
[155000] SCOREBOARD MATCH: decode_err expected = 0, actual =0
[155000] SCOREBOARD MATCH: slave_id expected = 0, actual =0
[155000] SCOREBOARD MATCH: araddr passthrough expected = d679908, actual =d679908
[155000] SCOREBOARD MATCH: arlen passthrough expected = 1, actual =1
[155000] SCOREBOARD MATCH: arsize passthrough expected = 3, actual =3
[155000] SCOREBOARD MATCH: arburst passthrough expected = 1, actual =1
[155000] SCOREBOARD MATCH: rdata size check expected = 2, actual =2
[155000] SCOREBOARD MATCH: rdata passthrough beat=0 expected = baadf00d12345678, actual =baadf00d12345678
[155000] SCOREBOARD MATCH: rdata passthrough beat=1 expected = baadf00d12345678, actual =baadf00d12345678
[155000] SCOREBOARD MATCH: rresp size check expected = 2, actual =2
[155000] SCOREBOARD MATCH: rresp passthrough beat=0 expected = 0, actual =0
[155000] SCOREBOARD MATCH: rresp passthrough beat=1 expected = 0, actual =0
[155000] SCOREBOARD MATCH: response routed to correct master (read beat 0) expected = 1, actual =1
[155000] SCOREBOARD MATCH: response routed to correct master (read beat 1) expected = 1, actual =1
[155000] [SCOREBOARD-M] READ mst_id=1 s_id=0 araddr=d679908 arid=2 arlen=1 arsize=3 arburst=1 rid=[22] rresp=[00] rdata=[baadf00d12345678baadf00d12345678]
[155000] [SCOREBOARD-S] READ mst_id=1 s_id=0 araddr=d679908 arid=2 arlen=1 arsize=3 arburst=1 rid=[1212] rresp=[00] rdata=[baadf00d12345678baadf00d12345678]
[155000] SCOREBOARD: Transaction 3 received. pass=44 fail=0
[155000] ALL PASS. Total transactions: 3
[165000] MASTER 0 W_VALID_RDY Handshake beat=9 wlast=0
[165000] AXI S0_WVALID_RDY HANDSHAKE
[165000] S0 MEMORY WRITE beat=8 addr=0f3fd028 data=d6074ddac2e4e77a id=04
[175000] AXI S0_WVALID_RDY HANDSHAKE
[175000] S0 MEMORY WRITE beat=9 addr=0f3fd030 data=ecaea7b7303c3ae8 id=04
[175000] MASTER 0 W_VALID_RDY Handshake beat=10 wlast=0
[185000] MASTER 0 W_VALID_RDY Handshake beat=11 wlast=0
[185000] AXI S0_WVALID_RDY HANDSHAKE
[185000] S0 MEMORY WRITE beat=10 addr=0f3fd038 data=de62498da65bf318 id=04
[195000] AXI S0_WVALID_RDY HANDSHAKE
[195000] S0 MEMORY WRITE beat=11 addr=0f3fd040 data=e940da930e326c62 id=04
[195000] MASTER 0 W_VALID_RDY Handshake beat=12 wlast=0
[205000] MASTER 0 W_VALID_RDY Handshake beat=13 wlast=0
[205000] AXI S0_WVALID_RDY HANDSHAKE
[205000] S0 MEMORY WRITE beat=12 addr=0f3fd048 data=3e6ea74ab4699767 id=04
[215000] AXI S0_WVALID_RDY HANDSHAKE
[215000] S0 MEMORY WRITE beat=13 addr=0f3fd050 data=dac58a80d5ef824a id=04
[215000] MASTER 0 W_VALID_RDY Handshake beat=14 wlast=1
[225000] AXI S0_WVALID_RDY HANDSHAKE
[225000] S0 MEMORY WRITE beat=14 addr=0f3fd058 data=e421eeac1cd0f0d7 id=04
[235000] SLAVE0 sent B resp, id=4
[235000] [SLAVE MONITOR] mst_id=0 s_id=0 awaddr=f3fd060 awid=100 awlen=14 awsize=3 awburst=2 wdata=[c080866e886f2699 8873a6cdca1cdc34 37397e0096fe71ce 1f6d9868a8736608 f290423cf7ba046e eb8763da7e13f35 d054a53ea9c9c03c 2183c4ab2e260ea5 d6074ddac2e4e77a ecaea7b7303c3ae8 de62498da65bf318 e940da930e326c62 3e6ea74ab4699767 dac58a80d5ef824a e421eeac1cd0f0d7 ] wstrb=[13 3e f6 5d be cd 9 d1 b ff 2e ca cc 37 9b ] bresp=0 bid=100
[245000] ARB MONITOR: slave=0 m0_req=0 m1_req=1 winner=1
[245000] AXI S0_AWVALID_RDY HANDSHAKE
[255000] AXI S0_WVALID_RDY HANDSHAKE
[255000] S0 MEMORY WRITE beat=0 addr=0b8e8128 data=1a1c9425d4dbd0fb id=19
[255000] MASTER 0 B_VALID_RDY Handshake
[255000] [MASTER MONITOR] mst_id=0 s_id=0 awaddr=f3fd060 awid=100 awlen=14 awsize=3 awburst=2 wdata=[c080866e886f2699 8873a6cdca1cdc34 37397e0096fe71ce 1f6d9868a8736608 f290423cf7ba046e eb8763da7e13f35 d054a53ea9c9c03c 2183c4ab2e260ea5 d6074ddac2e4e77a ecaea7b7303c3ae8 de62498da65bf318 e940da930e326c62 3e6ea74ab4699767 dac58a80d5ef824a e421eeac1cd0f0d7 ] wstrb=[13 3e f6 5d be cd 9 d1 b ff 2e ca cc 37 9b ] bresp=0 bid=100
[255000] MASTER 0 RECEIVED BRESP. BRESP=0
[255000] [MASTER DRIVER] mst_id=0 s_id=0 awaddr=f3fd060 awid=100 awlen=14 awsize=3 awburst=2 wdata=[c080866e886f2699 8873a6cdca1cdc34 37397e0096fe71ce 1f6d9868a8736608 f290423cf7ba046e eb8763da7e13f35 d054a53ea9c9c03c 2183c4ab2e260ea5 d6074ddac2e4e77a ecaea7b7303c3ae8 de62498da65bf318 e940da930e326c62 3e6ea74ab4699767 dac58a80d5ef824a e421eeac1cd0f0d7 ] wstrb=[13 3e f6 5d be cd 9 d1 b ff 2e ca cc 37 9b ] bresp=0 bid=100
[255000] SCOREBOARD MATCH: decode_err expected = 0, actual =0
[255000] SCOREBOARD MATCH: slave_id expected = 0, actual =0
[255000] SCOREBOARD MATCH: awaddr passthrough expected = f3fd060, actual =f3fd060
[255000] SCOREBOARD MATCH: awlen passthrough expected = 14, actual =14
[255000] SCOREBOARD MATCH: awsize passthrough expected = 3, actual =3
[255000] SCOREBOARD MATCH: awburst passthrough expected = 2, actual =2
[255000] SCOREBOARD MATCH: wdata size check expected = f, actual =f
[255000] SCOREBOARD MATCH: wdata passthrough beat=0 expected = c080866e886f2699, actual =c080866e886f2699
[255000] SCOREBOARD MATCH: wdata passthrough beat=1 expected = 8873a6cdca1cdc34, actual =8873a6cdca1cdc34
[255000] SCOREBOARD MATCH: wdata passthrough beat=2 expected = 37397e0096fe71ce, actual =37397e0096fe71ce
[255000] SCOREBOARD MATCH: wdata passthrough beat=3 expected = 1f6d9868a8736608, actual =1f6d9868a8736608
[255000] SCOREBOARD MATCH: wdata passthrough beat=4 expected = f290423cf7ba046e, actual =f290423cf7ba046e
[255000] SCOREBOARD MATCH: wdata passthrough beat=5 expected = eb8763da7e13f35, actual =eb8763da7e13f35
[255000] SCOREBOARD MATCH: wdata passthrough beat=6 expected = d054a53ea9c9c03c, actual =d054a53ea9c9c03c
[255000] SCOREBOARD MATCH: wdata passthrough beat=7 expected = 2183c4ab2e260ea5, actual =2183c4ab2e260ea5
[255000] SCOREBOARD MATCH: wdata passthrough beat=8 expected = d6074ddac2e4e77a, actual =d6074ddac2e4e77a
[255000] SCOREBOARD MATCH: wdata passthrough beat=9 expected = ecaea7b7303c3ae8, actual =ecaea7b7303c3ae8
[255000] SCOREBOARD MATCH: wdata passthrough beat=10 expected = de62498da65bf318, actual =de62498da65bf318
[255000] SCOREBOARD MATCH: wdata passthrough beat=11 expected = e940da930e326c62, actual =e940da930e326c62
[255000] SCOREBOARD MATCH: wdata passthrough beat=12 expected = 3e6ea74ab4699767, actual =3e6ea74ab4699767
[255000] SCOREBOARD MATCH: wdata passthrough beat=13 expected = dac58a80d5ef824a, actual =dac58a80d5ef824a
[255000] SCOREBOARD MATCH: wdata passthrough beat=14 expected = e421eeac1cd0f0d7, actual =e421eeac1cd0f0d7
[255000] SCOREBOARD MATCH: wstrb size check expected = f, actual =f
[255000] SCOREBOARD MATCH: wstrb passthrough beat=0 expected = 13, actual =13
[255000] SCOREBOARD MATCH: wstrb passthrough beat=1 expected = 3e, actual =3e
[255000] SCOREBOARD MATCH: wstrb passthrough beat=2 expected = f6, actual =f6
[255000] SCOREBOARD MATCH: wstrb passthrough beat=3 expected = 5d, actual =5d
[255000] SCOREBOARD MATCH: wstrb passthrough beat=4 expected = be, actual =be
[255000] SCOREBOARD MATCH: wstrb passthrough beat=5 expected = cd, actual =cd
[255000] SCOREBOARD MATCH: wstrb passthrough beat=6 expected = 9, actual =9
[255000] SCOREBOARD MATCH: wstrb passthrough beat=7 expected = d1, actual =d1
[255000] SCOREBOARD MATCH: wstrb passthrough beat=8 expected = b, actual =b
[255000] SCOREBOARD MATCH: wstrb passthrough beat=9 expected = ff, actual =ff
[255000] SCOREBOARD MATCH: wstrb passthrough beat=10 expected = 2e, actual =2e
[255000] SCOREBOARD MATCH: wstrb passthrough beat=11 expected = ca, actual =ca
[255000] SCOREBOARD MATCH: wstrb passthrough beat=12 expected = cc, actual =cc
[255000] SCOREBOARD MATCH: wstrb passthrough beat=13 expected = 37, actual =37
[255000] SCOREBOARD MATCH: wstrb passthrough beat=14 expected = 9b, actual =9b
[255000] SCOREBOARD MATCH: bresp passthrough expected = 0, actual =0
[255000] SCOREBOARD MATCH: response routed to correct master (write) expected = 0, actual =0
[255000] [SCOREBOARD-M] mst_id=0 s_id=0 awaddr=f3fd060 awid=100 awlen=14 awsize=3 awburst=2 wdata=[c080866e886f2699 8873a6cdca1cdc34 37397e0096fe71ce 1f6d9868a8736608 f290423cf7ba046e eb8763da7e13f35 d054a53ea9c9c03c 2183c4ab2e260ea5 d6074ddac2e4e77a ecaea7b7303c3ae8 de62498da65bf318 e940da930e326c62 3e6ea74ab4699767 dac58a80d5ef824a e421eeac1cd0f0d7 ] wstrb=[13 3e f6 5d be cd 9 d1 b ff 2e ca cc 37 9b ] bresp=0 bid=100
[255000] [SCOREBOARD-S] mst_id=0 s_id=0 awaddr=f3fd060 awid=100 awlen=14 awsize=3 awburst=2 wdata=[c080866e886f2699 8873a6cdca1cdc34 37397e0096fe71ce 1f6d9868a8736608 f290423cf7ba046e eb8763da7e13f35 d054a53ea9c9c03c 2183c4ab2e260ea5 d6074ddac2e4e77a ecaea7b7303c3ae8 de62498da65bf318 e940da930e326c62 3e6ea74ab4699767 dac58a80d5ef824a e421eeac1cd0f0d7 ] wstrb=[13 3e f6 5d be cd 9 d1 b ff 2e ca cc 37 9b ] bresp=0 bid=100
[255000] SCOREBOARD: Transaction 4 received. pass=84 fail=0
[255000] ALL PASS. Total transactions: 4
[265000] AXI S0_WVALID_RDY HANDSHAKE
[265000] S0 MEMORY WRITE beat=1 addr=0b8e8128 data=81bca3c8094ba536 id=19
[275000] SLAVE0 sent B resp, id=9
[275000] [SLAVE MONITOR] mst_id=1 s_id=0 awaddr=b8e8128 awid=1001 awlen=1 awsize=3 awburst=0 wdata=[1a1c9425d4dbd0fb 81bca3c8094ba536 ] wstrb=[81 3f ] bresp=0 bid=11001
[295000] MASTER 1 B_VALID_RDY Handshake
[295000] [MASTER MONITOR] mst_id=1 s_id=0 awaddr=b8e8128 awid=1001 awlen=1 awsize=3 awburst=0 wdata=[1a1c9425d4dbd0fb 81bca3c8094ba536 ] wstrb=[81 3f ] bresp=0 bid=1001
[295000] MASTER 1 RECEIVED BRESP. BRESP=0
[295000] [MASTER DRIVER] mst_id=1 s_id=0 awaddr=b8e8128 awid=1001 awlen=1 awsize=3 awburst=0 wdata=[1a1c9425d4dbd0fb 81bca3c8094ba536 ] wstrb=[81 3f ] bresp=0 bid=1001
[295000] SCOREBOARD MATCH: decode_err expected = 0, actual =0
[295000] SCOREBOARD MATCH: slave_id expected = 0, actual =0
[295000] SCOREBOARD MATCH: awaddr passthrough expected = b8e8128, actual =b8e8128
[295000] SCOREBOARD MATCH: awlen passthrough expected = 1, actual =1
[295000] SCOREBOARD MATCH: awsize passthrough expected = 3, actual =3
[295000] SCOREBOARD MATCH: awburst passthrough expected = 0, actual =0
[295000] SCOREBOARD MATCH: wdata size check expected = 2, actual =2
[295000] SCOREBOARD MATCH: wdata passthrough beat=0 expected = 1a1c9425d4dbd0fb, actual =1a1c9425d4dbd0fb
[295000] SCOREBOARD MATCH: wdata passthrough beat=1 expected = 81bca3c8094ba536, actual =81bca3c8094ba536
[295000] SCOREBOARD MATCH: wstrb size check expected = 2, actual =2
[295000] SCOREBOARD MATCH: wstrb passthrough beat=0 expected = 81, actual =81
[295000] SCOREBOARD MATCH: wstrb passthrough beat=1 expected = 3f, actual =3f
[295000] SCOREBOARD MATCH: bresp passthrough expected = 0, actual =0
[295000] SCOREBOARD MATCH: response routed to correct master (write) expected = 1, actual =1
[295000] [SCOREBOARD-M] mst_id=1 s_id=0 awaddr=b8e8128 awid=1001 awlen=1 awsize=3 awburst=0 wdata=[1a1c9425d4dbd0fb 81bca3c8094ba536 ] wstrb=[81 3f ] bresp=0 bid=1001
[295000] [SCOREBOARD-S] mst_id=1 s_id=0 awaddr=b8e8128 awid=1001 awlen=1 awsize=3 awburst=0 wdata=[1a1c9425d4dbd0fb 81bca3c8094ba536 ] wstrb=[81 3f ] bresp=0 bid=11001
[295000] SCOREBOARD: Transaction 5 received. pass=98 fail=0
[295000] SCOREBOARD: Expected 5 transactions completed, PASS=98 FAIL=0
[295000] ALL PASS. Total transactions: 5
[295000] ALL TRANSACTIONS MONITORED
$finish called at time : 315 ns : File "/home/nashita/Desktop/practice/axi_xbar/tb/top/axi_tb_top.sv" Line 220
exit
INFO: xsimkernel Simulation Memory Usage: 289468 KB (Peak: 337868 KB), Simulation CPU Usage: 1180 ms
INFO: [Common 17-206] Exiting xsim at Fri Sep 11 11:46:03 2026...
