#-----------------------------------------------------------
# xsim v2025.2 (64-bit)
# SW Build 6299465 on Fri Nov 14 12:34:56 MST 2025
# IP Build 6300035 on Fri Nov 14 10:48:45 MST 2025
# SharedData Build 6298862 on Thu Nov 13 04:50:51 MST 2025
# Start of session at: Wed Sep  9 12:43:17 2026
# Process ID         : 1288166
# Current directory  : /home/nashita/Desktop/practice/axi_xbar/sim
# Command line       : xsim -log regress_results/BT_run9.log -mode tcl -source {xsim.dir/tb_top_snap/xsim_script.tcl}
# Log file           : /home/nashita/Desktop/practice/axi_xbar/sim/regress_results/BT_run9.log
# Journal file       : /home/nashita/Desktop/practice/axi_xbar/sim/xsim.jou
# Running On         : vlsi-vivado
# Platform           : Ubuntu
# Operating System   : Ubuntu 24.04.4 LTS
# Processor Detail   : Intel(R) Core(TM) i5-10400 CPU @ 2.90GHz
# CPU Frequency      : 800.000 MHz
# CPU Physical cores : 6
# CPU Logical cores  : 12
# Host memory        : 41875 MB
# Swap memory        : 27648 MB
# Total Virtual      : 69524 MB
# Available Virtual  : 62584 MB
#-----------------------------------------------------------
source xsim.dir/tb_top_snap/xsim_script.tcl
# xsim {tb_top_snap} -testplusarg BT -autoloadwcfg -runall -sv_seed 10
Time resolution is 1 ps
run -all
[0] RUNNING BASE TEST
[0] INSIDE THE BASE TEST CONSTRUCTOR
[0] ENV: before agent
[0] SLAVE CONSTRUCTED
[0] MASTER MONITOR CONSTRUCTED
[0] MASTER MONITOR CONSTRUCTED
[0] SLAVE MONITOR CONSTRUCTED
[0] SLAVE MONITOR CONSTRUCTED
[0] ARB MONITOR CONSTRUCTED
GENERATOR CONSTRUCTED
[0] ENV: after agent
[0] ENV: before scoreboard
[0] ENV: after scoreboard
[15000] [SEQUENCER] READ mst_id=0 s_id=0 araddr=177c5d00 arid=0 arlen=1 arsize=3 arburst=1 rid=[] rresp=[] rdata=[]
[15000] [SEQUENCER] READ mst_id=0 s_id=0 araddr=b7dcd00 arid=1 arlen=1 arsize=3 arburst=1 rid=[] rresp=[] rdata=[]
[15000] [SEQUENCER] READ mst_id=0 s_id=0 araddr=1ff1b9a8 arid=2 arlen=1 arsize=3 arburst=1 rid=[] rresp=[] rdata=[]
[15000] [SEQUENCER] READ mst_id=0 s_id=0 araddr=b4b3ae0 arid=3 arlen=1 arsize=3 arburst=1 rid=[] rresp=[] rdata=[]
[15000] [SEQUENCER] mst_id=0 s_id=0 awaddr=56eb4e8 awid=101 awlen=1 awsize=3 awburst=1 wdata=[] wstrb=[] bresp=0 bid=0
[15000] [SEQUENCER] READ mst_id=0 s_id=0 araddr=ccae8a0 arid=5 arlen=1 arsize=3 arburst=1 rid=[] rresp=[] rdata=[]
[15000] [SEQUENCER] mst_id=0 s_id=0 awaddr=6902510 awid=101 awlen=1 awsize=3 awburst=1 wdata=[] wstrb=[] bresp=0 bid=0
[15000] [SEQUENCER] mst_id=1 s_id=0 awaddr=17674588 awid=100 awlen=1 awsize=3 awburst=1 wdata=[] wstrb=[] bresp=0 bid=0
[15000] [SEQUENCER] mst_id=0 s_id=0 awaddr=b5294d0 awid=100 awlen=1 awsize=3 awburst=1 wdata=[] wstrb=[] bresp=0 bid=0
[15000] [SEQUENCER] mst_id=0 s_id=0 awaddr=12df0e88 awid=1000 awlen=1 awsize=3 awburst=1 wdata=[] wstrb=[] bresp=0 bid=0
[15000] MASTER_DRIVER0 received transaction, op=AXI_READ
[15000] MASTER_DRIVER1 received transaction, op=AXI_WRITE
[35000] MASTER 1 AW_VALID_RDY Handshake
[35000] MASTER_DRIVER0 received transaction, op=AXI_READ
[45000] ARB MONITOR: slave=1 m0_req=0 m1_req=1 winner=1
[45000] ARB MONITOR: slave=1 m0_req=1 m1_req=0 winner=0
[45000] AXI S0_ARVALID_RDY HANDSHAKE
[45000] MEMORY READ MISS beat=0 addr=177c5d00 -> default data id=0
[45000] AXI S1_AWVALID_RDY HANDSHAKE
[55000] MEMORY READ MISS beat=1 addr=177c5d08 -> default data id=0
[55000] SLAVE 1 R_VALID_RDY Handshake beat=0 rlast=0
[55000] MASTER 1 W_VALID_RDY Handshake beat=0 wlast=0
[55000] MASTER_DRIVER0 received transaction, op=AXI_READ
[65000] MASTER 1 W_VALID_RDY Handshake beat=1 wlast=1
[65000] ARB MONITOR: slave=0 m0_req=1 m1_req=0 winner=0
[65000] SLAVE 1 R_VALID_RDY Handshake beat=1 rlast=1
[65000] [SLAVE MONITOR] READ mst_id=0 s_id=1 araddr=177c5d00 arid=0 arlen=1 arsize=3 arburst=1 rid=[00] rresp=[00] rdata=[baadf00d12345678baadf00d12345678]
[65000] AXI S0_ARVALID_RDY HANDSHAKE
[65000] MEMORY READ MISS beat=0 addr=b7dcd00 -> default data id=1
[65000] S1 MEMORY WRITE beat=0 addr=17674588 data=0000000000000000 id=14
[75000] S1 MEMORY WRITE beat=1 addr=17674590 data=0000000000000000 id=14
[75000] MEMORY READ MISS beat=1 addr=b7dcd08 -> default data id=1
[75000] SLAVE 0 R_VALID_RDY Handshake beat=0 rlast=0
[75000] MASTER 0 R_VALID_RDY Handshake beat=0 rlast=0
[75000] MASTER_DRIVER0 received transaction, op=AXI_READ
[85000] [MASTER DRIVER] READ mst_id=0 s_id=0 araddr=177c5d00 arid=0 arlen=1 arsize=3 arburst=1 rid=[00] rresp=[00] rdata=[baadf00d12345678baadf00d12345678]
[85000] MASTER 0 R_VALID_RDY Handshake beat=1 rlast=1
[85000] [MASTER MONITOR] READ mst_id=0 s_id=1 araddr=177c5d00 arid=0 arlen=1 arsize=3 arburst=1 rid=[00] rresp=[00] rdata=[baadf00d12345678baadf00d12345678]
[85000] ARB MONITOR: slave=1 m0_req=1 m1_req=0 winner=0
[85000] SLAVE 0 R_VALID_RDY Handshake beat=1 rlast=1
[85000] [SLAVE MONITOR] READ mst_id=0 s_id=0 araddr=b7dcd00 arid=1 arlen=1 arsize=3 arburst=1 rid=[11] rresp=[00] rdata=[baadf00d12345678baadf00d12345678]
[85000] AXI S0_ARVALID_RDY HANDSHAKE
[85000] MEMORY READ MISS beat=0 addr=1ff1b9a8 -> default data id=2
[85000] SLAVE1 sent B resp, id=4
[85000] SCOREBOARD MATCH: decode_err expected = 0, actual =0
[85000] SCOREBOARD MATCH: slave_id expected = 1, actual =1
[85000] SCOREBOARD MATCH: araddr passthrough expected = 177c5d00, actual =177c5d00
[85000] SCOREBOARD MATCH: arlen passthrough expected = 1, actual =1
[85000] SCOREBOARD MATCH: arsize passthrough expected = 3, actual =3
[85000] SCOREBOARD MATCH: arburst passthrough expected = 1, actual =1
[85000] SCOREBOARD MATCH: rdata size check expected = 2, actual =2
[85000] SCOREBOARD MATCH: rdata passthrough beat=0 expected = baadf00d12345678, actual =baadf00d12345678
[85000] SCOREBOARD MATCH: rdata passthrough beat=1 expected = baadf00d12345678, actual =baadf00d12345678
[85000] SCOREBOARD MATCH: rresp size check expected = 2, actual =2
[85000] SCOREBOARD MATCH: rresp passthrough beat=0 expected = 0, actual =0
[85000] SCOREBOARD MATCH: rresp passthrough beat=1 expected = 0, actual =0
[85000] SCOREBOARD MATCH: response routed to correct master (read beat 0) expected = 0, actual =0
[85000] SCOREBOARD MATCH: response routed to correct master (read beat 1) expected = 0, actual =0
[85000] [SCOREBOARD-M] READ mst_id=0 s_id=1 araddr=177c5d00 arid=0 arlen=1 arsize=3 arburst=1 rid=[00] rresp=[00] rdata=[baadf00d12345678baadf00d12345678]
[85000] [SCOREBOARD-S] READ mst_id=0 s_id=1 araddr=177c5d00 arid=0 arlen=1 arsize=3 arburst=1 rid=[00] rresp=[00] rdata=[baadf00d12345678baadf00d12345678]
[85000] SCOREBOARD: Transaction 1 received. pass=14 fail=0
[85000] ALL PASS. Total transactions: 1
[95000] MEMORY READ MISS beat=1 addr=1ff1b9b0 -> default data id=2
[95000] [SLAVE MONITOR] mst_id=1 s_id=1 awaddr=17674588 awid=100 awlen=1 awsize=3 awburst=1 wdata=[0 0 ] wstrb=[0 0 ] bresp=0 bid=10100
[95000] SLAVE 1 R_VALID_RDY Handshake beat=0 rlast=0
[95000] MASTER_DRIVER0 received transaction, op=AXI_WRITE
[105000] MASTER 1 RECEIVED BRESP. BRESP=0
[105000] [MASTER DRIVER] mst_id=1 s_id=0 awaddr=17674588 awid=100 awlen=1 awsize=3 awburst=1 wdata=[] wstrb=[] bresp=0 bid=100
[105000] MASTER 0 R_VALID_RDY Handshake beat=0 rlast=0
[105000] MASTER 1 B_VALID_RDY Handshake
[105000] [MASTER MONITOR] mst_id=1 s_id=1 awaddr=17674588 awid=100 awlen=1 awsize=3 awburst=1 wdata=[0 0 ] wstrb=[0 0 ] bresp=0 bid=100
[105000] ARB MONITOR: slave=0 m0_req=1 m1_req=0 winner=0
[105000] SLAVE 1 R_VALID_RDY Handshake beat=1 rlast=1
[105000] [SLAVE MONITOR] READ mst_id=0 s_id=1 araddr=1ff1b9a8 arid=2 arlen=1 arsize=3 arburst=1 rid=[22] rresp=[00] rdata=[baadf00d12345678baadf00d12345678]
[105000] AXI S0_ARVALID_RDY HANDSHAKE
[105000] MEMORY READ MISS beat=0 addr=b4b3ae0 -> default data id=3
[105000] SCOREBOARD MATCH: decode_err expected = 0, actual =0
[105000] SCOREBOARD MATCH: slave_id expected = 1, actual =1
[105000] SCOREBOARD MATCH: awaddr passthrough expected = 17674588, actual =17674588
[105000] SCOREBOARD MATCH: awlen passthrough expected = 1, actual =1
[105000] SCOREBOARD MATCH: awsize passthrough expected = 3, actual =3
[105000] SCOREBOARD MATCH: awburst passthrough expected = 1, actual =1
[105000] SCOREBOARD MATCH: wdata size check expected = 2, actual =2
[105000] SCOREBOARD MATCH: wdata passthrough beat=0 expected = 0, actual =0
[105000] SCOREBOARD MATCH: wdata passthrough beat=1 expected = 0, actual =0
[105000] SCOREBOARD MATCH: wstrb size check expected = 2, actual =2
[105000] SCOREBOARD MATCH: wstrb passthrough beat=0 expected = 0, actual =0
[105000] SCOREBOARD MATCH: wstrb passthrough beat=1 expected = 0, actual =0
[105000] SCOREBOARD MATCH: bresp passthrough expected = 0, actual =0
[105000] SCOREBOARD MATCH: response routed to correct master (write) expected = 1, actual =1
[105000] [SCOREBOARD-M] mst_id=1 s_id=1 awaddr=17674588 awid=100 awlen=1 awsize=3 awburst=1 wdata=[0 0 ] wstrb=[0 0 ] bresp=0 bid=100
[105000] [SCOREBOARD-S] mst_id=1 s_id=1 awaddr=17674588 awid=100 awlen=1 awsize=3 awburst=1 wdata=[0 0 ] wstrb=[0 0 ] bresp=0 bid=10100
[105000] SCOREBOARD: Transaction 2 received. pass=28 fail=0
[105000] ALL PASS. Total transactions: 2
[115000] MEMORY READ MISS beat=1 addr=b4b3ae8 -> default data id=3
[115000] SLAVE 0 R_VALID_RDY Handshake beat=0 rlast=0
[115000] MASTER 0 R_VALID_RDY Handshake beat=1 rlast=1
[115000] [MASTER MONITOR] READ mst_id=0 s_id=0 araddr=b7dcd00 arid=1 arlen=1 arsize=3 arburst=1 rid=[11] rresp=[00] rdata=[baadf00d12345678baadf00d12345678]
[115000] MASTER 0 AW_VALID_RDY Handshake
[115000] [MASTER DRIVER] READ mst_id=0 s_id=0 araddr=b7dcd00 arid=1 arlen=1 arsize=3 arburst=1 rid=[11] rresp=[00] rdata=[baadf00d12345678baadf00d12345678]
[115000] SCOREBOARD MATCH: decode_err expected = 0, actual =0
[115000] SCOREBOARD MATCH: slave_id expected = 0, actual =0
[115000] SCOREBOARD MATCH: araddr passthrough expected = b7dcd00, actual =b7dcd00
[115000] SCOREBOARD MATCH: arlen passthrough expected = 1, actual =1
[115000] SCOREBOARD MATCH: arsize passthrough expected = 3, actual =3
[115000] SCOREBOARD MATCH: arburst passthrough expected = 1, actual =1
[115000] SCOREBOARD MATCH: rdata size check expected = 2, actual =2
[115000] SCOREBOARD MATCH: rdata passthrough beat=0 expected = baadf00d12345678, actual =baadf00d12345678
[115000] SCOREBOARD MATCH: rdata passthrough beat=1 expected = baadf00d12345678, actual =baadf00d12345678
[115000] SCOREBOARD MATCH: rresp size check expected = 2, actual =2
[115000] SCOREBOARD MATCH: rresp passthrough beat=0 expected = 0, actual =0
[115000] SCOREBOARD MATCH: rresp passthrough beat=1 expected = 0, actual =0
[115000] SCOREBOARD MATCH: response routed to correct master (read beat 0) expected = 0, actual =0
[115000] SCOREBOARD MATCH: response routed to correct master (read beat 1) expected = 0, actual =0
[115000] [SCOREBOARD-M] READ mst_id=0 s_id=0 araddr=b7dcd00 arid=1 arlen=1 arsize=3 arburst=1 rid=[11] rresp=[00] rdata=[baadf00d12345678baadf00d12345678]
[115000] [SCOREBOARD-S] READ mst_id=0 s_id=0 araddr=b7dcd00 arid=1 arlen=1 arsize=3 arburst=1 rid=[11] rresp=[00] rdata=[baadf00d12345678baadf00d12345678]
[115000] SCOREBOARD: Transaction 3 received. pass=42 fail=0
[115000] ALL PASS. Total transactions: 3
[125000] ARB MONITOR: slave=0 m0_req=1 m1_req=0 winner=0
[125000] SLAVE 0 R_VALID_RDY Handshake beat=1 rlast=1
[125000] [SLAVE MONITOR] READ mst_id=0 s_id=0 araddr=b4b3ae0 arid=3 arlen=1 arsize=3 arburst=1 rid=[33] rresp=[00] rdata=[baadf00d12345678baadf00d12345678]
[125000] AXI S0_AWVALID_RDY HANDSHAKE
[135000] MASTER 0 R_VALID_RDY Handshake beat=0 rlast=0
[135000] MASTER 0 W_VALID_RDY Handshake beat=0 wlast=0
[145000] [MASTER DRIVER] READ mst_id=0 s_id=0 araddr=b4b3ae0 arid=3 arlen=1 arsize=3 arburst=1 rid=[33] rresp=[00] rdata=[baadf00d12345678baadf00d12345678]
[145000] MASTER_DRIVER0 received transaction, op=AXI_READ
[145000] MASTER 0 W_VALID_RDY Handshake beat=1 wlast=1
[145000] MASTER 0 R_VALID_RDY Handshake beat=1 rlast=1
[145000] [MASTER MONITOR] READ mst_id=0 s_id=0 araddr=b4b3ae0 arid=3 arlen=1 arsize=3 arburst=1 rid=[33] rresp=[00] rdata=[baadf00d12345678baadf00d12345678]
[145000] AXI S0_WVALID_RDY HANDSHAKE
[145000] S0 MEMORY WRITE beat=0 addr=056eb4e8 data=0000000000000000 id=05
[145000] SCOREBOARD MATCH: decode_err expected = 0, actual =0
[145000] SCOREBOARD MATCH: slave_id expected = 0, actual =0
[145000] SCOREBOARD MATCH: araddr passthrough expected = b4b3ae0, actual =b4b3ae0
[145000] SCOREBOARD MATCH: arlen passthrough expected = 1, actual =1
[145000] SCOREBOARD MATCH: arsize passthrough expected = 3, actual =3
[145000] SCOREBOARD MATCH: arburst passthrough expected = 1, actual =1
[145000] SCOREBOARD MATCH: rdata size check expected = 2, actual =2
[145000] SCOREBOARD MATCH: rdata passthrough beat=0 expected = baadf00d12345678, actual =baadf00d12345678
[145000] SCOREBOARD MATCH: rdata passthrough beat=1 expected = baadf00d12345678, actual =baadf00d12345678
[145000] SCOREBOARD MATCH: rresp size check expected = 2, actual =2
[145000] SCOREBOARD MATCH: rresp passthrough beat=0 expected = 0, actual =0
[145000] SCOREBOARD MATCH: rresp passthrough beat=1 expected = 0, actual =0
[145000] SCOREBOARD MATCH: response routed to correct master (read beat 0) expected = 0, actual =0
[145000] SCOREBOARD MATCH: response routed to correct master (read beat 1) expected = 0, actual =0
[145000] [SCOREBOARD-M] READ mst_id=0 s_id=0 araddr=b4b3ae0 arid=3 arlen=1 arsize=3 arburst=1 rid=[33] rresp=[00] rdata=[baadf00d12345678baadf00d12345678]
[145000] [SCOREBOARD-S] READ mst_id=0 s_id=0 araddr=b4b3ae0 arid=3 arlen=1 arsize=3 arburst=1 rid=[33] rresp=[00] rdata=[baadf00d12345678baadf00d12345678]
[145000] SCOREBOARD: Transaction 4 received. pass=56 fail=0
[145000] ALL PASS. Total transactions: 4
[155000] AXI S0_WVALID_RDY HANDSHAKE
[155000] S0 MEMORY WRITE beat=1 addr=056eb4f0 data=0000000000000000 id=05
[165000] MASTER_DRIVER0 received transaction, op=AXI_WRITE
[165000] MASTER 0 R_VALID_RDY Handshake beat=0 rlast=0
[165000] SLAVE0 sent B resp, id=5
[175000] AXI S0_ARVALID_RDY HANDSHAKE
[175000] MEMORY READ MISS beat=0 addr=ccae8a0 -> default data id=5
[175000] [SLAVE MONITOR] mst_id=0 s_id=0 awaddr=56eb4e8 awid=101 awlen=1 awsize=3 awburst=1 wdata=[0 0 ] wstrb=[0 0 ] bresp=0 bid=101
[175000] ARB MONITOR: slave=0 m0_req=1 m1_req=0 winner=0
[175000] MASTER 0 R_VALID_RDY Handshake beat=1 rlast=1
[175000] [MASTER MONITOR] READ mst_id=0 s_id=1 araddr=1ff1b9a8 arid=2 arlen=1 arsize=3 arburst=1 rid=[22] rresp=[00] rdata=[baadf00d12345678baadf00d12345678]
[175000] [MASTER DRIVER] READ mst_id=0 s_id=0 araddr=1ff1b9a8 arid=2 arlen=1 arsize=3 arburst=1 rid=[22] rresp=[00] rdata=[baadf00d12345678baadf00d12345678]
[175000] SCOREBOARD MATCH: decode_err expected = 0, actual =0
[175000] SCOREBOARD MATCH: slave_id expected = 1, actual =1
[175000] SCOREBOARD MATCH: araddr passthrough expected = 1ff1b9a8, actual =1ff1b9a8
[175000] SCOREBOARD MATCH: arlen passthrough expected = 1, actual =1
[175000] SCOREBOARD MATCH: arsize passthrough expected = 3, actual =3
[175000] SCOREBOARD MATCH: arburst passthrough expected = 1, actual =1
[175000] SCOREBOARD MATCH: rdata size check expected = 2, actual =2
[175000] SCOREBOARD MATCH: rdata passthrough beat=0 expected = baadf00d12345678, actual =baadf00d12345678
[175000] SCOREBOARD MATCH: rdata passthrough beat=1 expected = baadf00d12345678, actual =baadf00d12345678
[175000] SCOREBOARD MATCH: rresp size check expected = 2, actual =2
[175000] SCOREBOARD MATCH: rresp passthrough beat=0 expected = 0, actual =0
[175000] SCOREBOARD MATCH: rresp passthrough beat=1 expected = 0, actual =0
[175000] SCOREBOARD MATCH: response routed to correct master (read beat 0) expected = 0, actual =0
[175000] SCOREBOARD MATCH: response routed to correct master (read beat 1) expected = 0, actual =0
[175000] [SCOREBOARD-M] READ mst_id=0 s_id=1 araddr=1ff1b9a8 arid=2 arlen=1 arsize=3 arburst=1 rid=[22] rresp=[00] rdata=[baadf00d12345678baadf00d12345678]
[175000] [SCOREBOARD-S] READ mst_id=0 s_id=1 araddr=1ff1b9a8 arid=2 arlen=1 arsize=3 arburst=1 rid=[22] rresp=[00] rdata=[baadf00d12345678baadf00d12345678]
[175000] SCOREBOARD: Transaction 5 received. pass=70 fail=0
[175000] ALL PASS. Total transactions: 5
[185000] MASTER 0 RECEIVED BRESP. BRESP=0
[185000] [MASTER DRIVER] mst_id=0 s_id=0 awaddr=56eb4e8 awid=101 awlen=1 awsize=3 awburst=1 wdata=[] wstrb=[] bresp=0 bid=101
[185000] MASTER 0 AW_VALID_RDY Handshake
[185000] MASTER 0 B_VALID_RDY Handshake
[185000] [MASTER MONITOR] mst_id=0 s_id=0 awaddr=56eb4e8 awid=101 awlen=1 awsize=3 awburst=1 wdata=[0 0 ] wstrb=[0 0 ] bresp=0 bid=101
[185000] SLAVE 0 R_VALID_RDY Handshake beat=0 rlast=0
[185000] MEMORY READ MISS beat=1 addr=ccae8a8 -> default data id=5
[185000] SCOREBOARD MATCH: decode_err expected = 0, actual =0
[185000] SCOREBOARD MATCH: slave_id expected = 0, actual =0
[185000] SCOREBOARD MATCH: awaddr passthrough expected = 56eb4e8, actual =56eb4e8
[185000] SCOREBOARD MATCH: awlen passthrough expected = 1, actual =1
[185000] SCOREBOARD MATCH: awsize passthrough expected = 3, actual =3
[185000] SCOREBOARD MATCH: awburst passthrough expected = 1, actual =1
[185000] SCOREBOARD MATCH: wdata size check expected = 2, actual =2
[185000] SCOREBOARD MATCH: wdata passthrough beat=0 expected = 0, actual =0
[185000] SCOREBOARD MATCH: wdata passthrough beat=1 expected = 0, actual =0
[185000] SCOREBOARD MATCH: wstrb size check expected = 2, actual =2
[185000] SCOREBOARD MATCH: wstrb passthrough beat=0 expected = 0, actual =0
[185000] SCOREBOARD MATCH: wstrb passthrough beat=1 expected = 0, actual =0
[185000] SCOREBOARD MATCH: bresp passthrough expected = 0, actual =0
[185000] SCOREBOARD MATCH: response routed to correct master (write) expected = 0, actual =0
[185000] [SCOREBOARD-M] mst_id=0 s_id=0 awaddr=56eb4e8 awid=101 awlen=1 awsize=3 awburst=1 wdata=[0 0 ] wstrb=[0 0 ] bresp=0 bid=101
[185000] [SCOREBOARD-S] mst_id=0 s_id=0 awaddr=56eb4e8 awid=101 awlen=1 awsize=3 awburst=1 wdata=[0 0 ] wstrb=[0 0 ] bresp=0 bid=101
[185000] SCOREBOARD: Transaction 6 received. pass=84 fail=0
[185000] ALL PASS. Total transactions: 6
[195000] AXI S0_AWVALID_RDY HANDSHAKE
[195000] SLAVE 0 R_VALID_RDY Handshake beat=1 rlast=1
[195000] [SLAVE MONITOR] READ mst_id=0 s_id=0 araddr=ccae8a0 arid=5 arlen=1 arsize=3 arburst=1 rid=[55] rresp=[00] rdata=[baadf00d12345678baadf00d12345678]
[195000] ARB MONITOR: slave=0 m0_req=1 m1_req=0 winner=0
[205000] MASTER 0 W_VALID_RDY Handshake beat=0 wlast=0
[205000] MASTER 0 R_VALID_RDY Handshake beat=0 rlast=0
[215000] AXI S0_WVALID_RDY HANDSHAKE
[215000] S0 MEMORY WRITE beat=0 addr=06902510 data=0000000000000000 id=05
[215000] MASTER 0 R_VALID_RDY Handshake beat=1 rlast=1
[215000] [MASTER MONITOR] READ mst_id=0 s_id=0 araddr=ccae8a0 arid=5 arlen=1 arsize=3 arburst=1 rid=[55] rresp=[00] rdata=[baadf00d12345678baadf00d12345678]
[215000] MASTER 0 W_VALID_RDY Handshake beat=1 wlast=1
[215000] [MASTER DRIVER] READ mst_id=0 s_id=0 araddr=ccae8a0 arid=5 arlen=1 arsize=3 arburst=1 rid=[55] rresp=[00] rdata=[baadf00d12345678baadf00d12345678]
[215000] MASTER_DRIVER0 received transaction, op=AXI_WRITE
[215000] SCOREBOARD MATCH: decode_err expected = 0, actual =0
[215000] SCOREBOARD MATCH: slave_id expected = 0, actual =0
[215000] SCOREBOARD MATCH: araddr passthrough expected = ccae8a0, actual =ccae8a0
[215000] SCOREBOARD MATCH: arlen passthrough expected = 1, actual =1
[215000] SCOREBOARD MATCH: arsize passthrough expected = 3, actual =3
[215000] SCOREBOARD MATCH: arburst passthrough expected = 1, actual =1
[215000] SCOREBOARD MATCH: rdata size check expected = 2, actual =2
[215000] SCOREBOARD MATCH: rdata passthrough beat=0 expected = baadf00d12345678, actual =baadf00d12345678
[215000] SCOREBOARD MATCH: rdata passthrough beat=1 expected = baadf00d12345678, actual =baadf00d12345678
[215000] SCOREBOARD MATCH: rresp size check expected = 2, actual =2
[215000] SCOREBOARD MATCH: rresp passthrough beat=0 expected = 0, actual =0
[215000] SCOREBOARD MATCH: rresp passthrough beat=1 expected = 0, actual =0
[215000] SCOREBOARD MATCH: response routed to correct master (read beat 0) expected = 0, actual =0
[215000] SCOREBOARD MATCH: response routed to correct master (read beat 1) expected = 0, actual =0
[215000] [SCOREBOARD-M] READ mst_id=0 s_id=0 araddr=ccae8a0 arid=5 arlen=1 arsize=3 arburst=1 rid=[55] rresp=[00] rdata=[baadf00d12345678baadf00d12345678]
[215000] [SCOREBOARD-S] READ mst_id=0 s_id=0 araddr=ccae8a0 arid=5 arlen=1 arsize=3 arburst=1 rid=[55] rresp=[00] rdata=[baadf00d12345678baadf00d12345678]
[215000] SCOREBOARD: Transaction 7 received. pass=98 fail=0
[215000] ALL PASS. Total transactions: 7
[225000] AXI S0_WVALID_RDY HANDSHAKE
[225000] S0 MEMORY WRITE beat=1 addr=06902518 data=0000000000000000 id=05
[235000] SLAVE0 sent B resp, id=5
[235000] [SLAVE MONITOR] mst_id=0 s_id=0 awaddr=6902510 awid=101 awlen=1 awsize=3 awburst=1 wdata=[0 0 ] wstrb=[0 0 ] bresp=0 bid=101
[235000] MASTER 0 AW_VALID_RDY Handshake
[245000] ARB MONITOR: slave=0 m0_req=1 m1_req=0 winner=0
[245000] AXI S0_AWVALID_RDY HANDSHAKE
[255000] MASTER 0 W_VALID_RDY Handshake beat=0 wlast=0
[255000] MASTER 0 B_VALID_RDY Handshake
[255000] [MASTER MONITOR] mst_id=0 s_id=0 awaddr=6902510 awid=101 awlen=1 awsize=3 awburst=1 wdata=[0 0 ] wstrb=[0 0 ] bresp=0 bid=101
[255000] MASTER 0 RECEIVED BRESP. BRESP=0
[255000] [MASTER DRIVER] mst_id=0 s_id=0 awaddr=6902510 awid=101 awlen=1 awsize=3 awburst=1 wdata=[] wstrb=[] bresp=0 bid=101
[255000] SCOREBOARD MATCH: decode_err expected = 0, actual =0
[255000] SCOREBOARD MATCH: slave_id expected = 0, actual =0
[255000] SCOREBOARD MATCH: awaddr passthrough expected = 6902510, actual =6902510
[255000] SCOREBOARD MATCH: awlen passthrough expected = 1, actual =1
[255000] SCOREBOARD MATCH: awsize passthrough expected = 3, actual =3
[255000] SCOREBOARD MATCH: awburst passthrough expected = 1, actual =1
[255000] SCOREBOARD MATCH: wdata size check expected = 2, actual =2
[255000] SCOREBOARD MATCH: wdata passthrough beat=0 expected = 0, actual =0
[255000] SCOREBOARD MATCH: wdata passthrough beat=1 expected = 0, actual =0
[255000] SCOREBOARD MATCH: wstrb size check expected = 2, actual =2
[255000] SCOREBOARD MATCH: wstrb passthrough beat=0 expected = 0, actual =0
[255000] SCOREBOARD MATCH: wstrb passthrough beat=1 expected = 0, actual =0
[255000] SCOREBOARD MATCH: bresp passthrough expected = 0, actual =0
[255000] SCOREBOARD MATCH: response routed to correct master (write) expected = 0, actual =0
[255000] [SCOREBOARD-M] mst_id=0 s_id=0 awaddr=6902510 awid=101 awlen=1 awsize=3 awburst=1 wdata=[0 0 ] wstrb=[0 0 ] bresp=0 bid=101
[255000] [SCOREBOARD-S] mst_id=0 s_id=0 awaddr=6902510 awid=101 awlen=1 awsize=3 awburst=1 wdata=[0 0 ] wstrb=[0 0 ] bresp=0 bid=101
[255000] SCOREBOARD: Transaction 8 received. pass=112 fail=0
[255000] ALL PASS. Total transactions: 8
[265000] MASTER_DRIVER0 received transaction, op=AXI_WRITE
[265000] MASTER 0 W_VALID_RDY Handshake beat=1 wlast=1
[265000] AXI S0_WVALID_RDY HANDSHAKE
[265000] S0 MEMORY WRITE beat=0 addr=0b5294d0 data=0000000000000000 id=04
[275000] AXI S0_WVALID_RDY HANDSHAKE
[275000] S0 MEMORY WRITE beat=1 addr=0b5294d8 data=0000000000000000 id=04
[285000] MASTER 0 AW_VALID_RDY Handshake
[285000] SLAVE0 sent B resp, id=4
[295000] AXI S1_AWVALID_RDY HANDSHAKE
[295000] [SLAVE MONITOR] mst_id=0 s_id=0 awaddr=b5294d0 awid=100 awlen=1 awsize=3 awburst=1 wdata=[0 0 ] wstrb=[0 0 ] bresp=0 bid=100
[295000] ARB MONITOR: slave=1 m0_req=1 m1_req=0 winner=0
[305000] MASTER 0 RECEIVED BRESP. BRESP=0
[305000] [MASTER DRIVER] mst_id=0 s_id=0 awaddr=b5294d0 awid=100 awlen=1 awsize=3 awburst=1 wdata=[] wstrb=[] bresp=0 bid=100
[305000] MASTER 0 W_VALID_RDY Handshake beat=0 wlast=0
[305000] MASTER 0 B_VALID_RDY Handshake
[305000] [MASTER MONITOR] mst_id=0 s_id=0 awaddr=b5294d0 awid=100 awlen=1 awsize=3 awburst=1 wdata=[0 0 ] wstrb=[0 0 ] bresp=0 bid=100
[305000] SCOREBOARD MATCH: decode_err expected = 0, actual =0
[305000] SCOREBOARD MATCH: slave_id expected = 0, actual =0
[305000] SCOREBOARD MATCH: awaddr passthrough expected = b5294d0, actual =b5294d0
[305000] SCOREBOARD MATCH: awlen passthrough expected = 1, actual =1
[305000] SCOREBOARD MATCH: awsize passthrough expected = 3, actual =3
[305000] SCOREBOARD MATCH: awburst passthrough expected = 1, actual =1
[305000] SCOREBOARD MATCH: wdata size check expected = 2, actual =2
[305000] SCOREBOARD MATCH: wdata passthrough beat=0 expected = 0, actual =0
[305000] SCOREBOARD MATCH: wdata passthrough beat=1 expected = 0, actual =0
[305000] SCOREBOARD MATCH: wstrb size check expected = 2, actual =2
[305000] SCOREBOARD MATCH: wstrb passthrough beat=0 expected = 0, actual =0
[305000] SCOREBOARD MATCH: wstrb passthrough beat=1 expected = 0, actual =0
[305000] SCOREBOARD MATCH: bresp passthrough expected = 0, actual =0
[305000] SCOREBOARD MATCH: response routed to correct master (write) expected = 0, actual =0
[305000] [SCOREBOARD-M] mst_id=0 s_id=0 awaddr=b5294d0 awid=100 awlen=1 awsize=3 awburst=1 wdata=[0 0 ] wstrb=[0 0 ] bresp=0 bid=100
[305000] [SCOREBOARD-S] mst_id=0 s_id=0 awaddr=b5294d0 awid=100 awlen=1 awsize=3 awburst=1 wdata=[0 0 ] wstrb=[0 0 ] bresp=0 bid=100
[305000] SCOREBOARD: Transaction 9 received. pass=126 fail=0
[305000] ALL PASS. Total transactions: 9
[315000] S1 MEMORY WRITE beat=0 addr=12df0e88 data=0000000000000000 id=08
[315000] MASTER 0 W_VALID_RDY Handshake beat=1 wlast=1
[325000] S1 MEMORY WRITE beat=1 addr=12df0e90 data=0000000000000000 id=08
[335000] SLAVE1 sent B resp, id=8
[335000] [SLAVE MONITOR] mst_id=0 s_id=1 awaddr=12df0e88 awid=1000 awlen=1 awsize=3 awburst=1 wdata=[0 0 ] wstrb=[0 0 ] bresp=0 bid=1000
[355000] MASTER 0 B_VALID_RDY Handshake
[355000] [MASTER MONITOR] mst_id=0 s_id=1 awaddr=12df0e88 awid=1000 awlen=1 awsize=3 awburst=1 wdata=[0 0 ] wstrb=[0 0 ] bresp=0 bid=1000
[355000] MASTER 0 RECEIVED BRESP. BRESP=0
[355000] [MASTER DRIVER] mst_id=0 s_id=0 awaddr=12df0e88 awid=1000 awlen=1 awsize=3 awburst=1 wdata=[] wstrb=[] bresp=0 bid=1000
[355000] SCOREBOARD MATCH: decode_err expected = 0, actual =0
[355000] SCOREBOARD MATCH: slave_id expected = 1, actual =1
[355000] SCOREBOARD MATCH: awaddr passthrough expected = 12df0e88, actual =12df0e88
[355000] SCOREBOARD MATCH: awlen passthrough expected = 1, actual =1
[355000] SCOREBOARD MATCH: awsize passthrough expected = 3, actual =3
[355000] SCOREBOARD MATCH: awburst passthrough expected = 1, actual =1
[355000] SCOREBOARD MATCH: wdata size check expected = 2, actual =2
[355000] SCOREBOARD MATCH: wdata passthrough beat=0 expected = 0, actual =0
[355000] SCOREBOARD MATCH: wdata passthrough beat=1 expected = 0, actual =0
[355000] SCOREBOARD MATCH: wstrb size check expected = 2, actual =2
[355000] SCOREBOARD MATCH: wstrb passthrough beat=0 expected = 0, actual =0
[355000] SCOREBOARD MATCH: wstrb passthrough beat=1 expected = 0, actual =0
[355000] SCOREBOARD MATCH: bresp passthrough expected = 0, actual =0
[355000] SCOREBOARD MATCH: response routed to correct master (write) expected = 0, actual =0
[355000] [SCOREBOARD-M] mst_id=0 s_id=1 awaddr=12df0e88 awid=1000 awlen=1 awsize=3 awburst=1 wdata=[0 0 ] wstrb=[0 0 ] bresp=0 bid=1000
[355000] [SCOREBOARD-S] mst_id=0 s_id=1 awaddr=12df0e88 awid=1000 awlen=1 awsize=3 awburst=1 wdata=[0 0 ] wstrb=[0 0 ] bresp=0 bid=1000
[355000] SCOREBOARD: Transaction 10 received. pass=140 fail=0
[355000] SCOREBOARD: Expected 10 transactions completed, PASS=140 FAIL=0
[355000] ALL PASS. Total transactions: 10
[355000] ALL TRANSACTIONS MONITORED
$finish called at time : 375 ns : File "/home/nashita/Desktop/practice/axi_xbar/tb/top/axi_tb_top.sv" Line 220
exit
INFO: xsimkernel Simulation Memory Usage: 289460 KB (Peak: 337860 KB), Simulation CPU Usage: 1150 ms
INFO: [Common 17-206] Exiting xsim at Wed Sep  9 12:43:21 2026...
