#-----------------------------------------------------------
# xsim v2025.2 (64-bit)
# SW Build 6299465 on Fri Nov 14 12:34:56 MST 2025
# IP Build 6300035 on Fri Nov 14 10:48:45 MST 2025
# SharedData Build 6298862 on Thu Nov 13 04:50:51 MST 2025
# Start of session at: Thu Sep 10 18:06:57 2026
# Process ID         : 3570680
# Current directory  : /home/nashita/Desktop/practice/axi_xbar/sim
# Command line       : xsim -log regress_results/BT_run61.log -mode tcl -source {xsim.dir/tb_top_snap/xsim_script.tcl}
# Log file           : /home/nashita/Desktop/practice/axi_xbar/sim/regress_results/BT_run61.log
# Journal file       : /home/nashita/Desktop/practice/axi_xbar/sim/xsim.jou
# Running On         : vlsi-vivado
# Platform           : Ubuntu
# Operating System   : Ubuntu 24.04.4 LTS
# Processor Detail   : Intel(R) Core(TM) i5-10400 CPU @ 2.90GHz
# CPU Frequency      : 4000.450 MHz
# CPU Physical cores : 6
# CPU Logical cores  : 12
# Host memory        : 41875 MB
# Swap memory        : 27648 MB
# Total Virtual      : 69524 MB
# Available Virtual  : 62643 MB
#-----------------------------------------------------------
source xsim.dir/tb_top_snap/xsim_script.tcl
# xsim {tb_top_snap} -testplusarg BT -autoloadwcfg -runall -sv_seed 62
Time resolution is 1 ps
run -all
[0] RUNNING BASE TEST
[0] INSIDE THE BASE TEST CONSTRUCTOR
[0] ENV: before agent
[0] SLAVE CONSTRUCTED
[0] MASTER MONITOR CONSTRUCTED
[0] MASTER MONITOR CONSTRUCTED
[0] SLAVE MONITOR CONSTRUCTED
[0] SLAVE MONITOR CONSTRUCTED
[0] ARB MONITOR CONSTRUCTED
GENERATOR CONSTRUCTED
[0] ENV: after agent
[0] ENV: before scoreboard
[0] ENV: after scoreboard
[15000] [SEQUENCER] mst_id=1 s_id=0 awaddr=335ca78 awid=1100 awlen=89 awsize=2 awburst=1 wdata=[f0068e8df455bd66 e1d2bde4073d813c e2bfe4951390260e 87e5e37419f49517 21321653d2c67322 e6569930e9b8a159 3ad367003f1fae8 d6b86e0aee3c7ca5 d7f51dfe24df4cc3 28d147ab3d0f073b 2b4b83e0dba2546e 81a131ff89b5b5 bc98bcf00340a1de dee2f64c2952e8dc a8dc9e91e7e440d0 eb24e2aedf64977d 8b78059e5755b82 cd599c52ca07d8fa a96c7077b1941eea 97097a6c387e7f01 828657fbb223f0d0 e3b80fbbe46316bf 1ce195c02bf2c873 de16b943fac18a27 df24a0e69f67edbb cb5ab62ec1cec8fe 3c905326fc0636a6 1b6e246229716f72 eb4038709bb4f40c 17bb2ab3e6c8da90 903a4a02a7d08b96 c3857fa333294f15 99f229a5fb7a8273 a34b0e09db40aa56 e69f96b2a2c73a8 25a6f61be6d08dac c2113802a85c2310 d28896b8c8f20424 2fc291d1d07b316d f8d7547ef82f8cd3 c12190f8f1d3c9d3 c24efb41cb5feb36 c38f780af0e422c9 e2b7ec9c3b264fbf 86863af504b10902 f5952bcba506e7dd e02d379cca15b2ff cec6bc01d84d1867 fd540045e6b37292 b0c92591c45be7cc 1ca90034dd8137e1 c434aa73ff8fe193 c3ebc95f19fd0079 f77e385af4fdd005 f48db198e094c993 fa91ca0c3bb2e2ce 30b0b2d3b8797af7 190e448bf2100267 2dc2e535253e646b ddb7df6293a00e97 85b010fede739808 3b1fc73f6c623ed a663285b372f633 91e68e3be169dbd5 d82fffc390164383 c38939b795988aae f7026684e2963248 f2ac75cbd56fc7f2 eb0852a1cf326647 31c8988fb635af82 ba57775e20ab925 313d1f6ca4750e5a daaabdddf6adca16 d8b8833be305b7fb 877ac655e6503552 dcfdff6809f5a2a7 ecfb5aa2e2258432 c875b98435b682a3 3fac254af47620f7 d69ba52aa573b8ec db2a3b8f2ca77fec a11da0e39f115eae c485179b9ad660d9 c77de0c5f7b9460d 16caa4bc9faf532a 3a85b404e89b81a9 e054c7b6db4fbc57 faff0f81820394c9 ea9f1672f71f6c72 d26f28c9b584c385 ] wstrb=[29 4f 4b 9b c1 d0 65 ea 1f b0 86 e1 80 eb cb a0 9b 51 81 1b 3c 4c bb d7 9e 3c f3 da 89 ae b2 27 eb a5 1 74 53 b3 9b 3e 58 9c b2 ac 50 4d ea a8 ea 9d 54 3a ea 3f e2 d4 dc 37 e c6 76 f1 9b 52 28 a9 18 9e 9a b3 f0 c2 5d 8 60 f7 bc 50 ba 19 59 1a 10 15 6b ca 2e c4 e5 3e ] bresp=0 bid=0
[15000] [SEQUENCER] READ mst_id=0 s_id=0 araddr=9cec4e8 arid=0 arlen=1 arsize=3 arburst=1 rid=[] rresp=[] rdata=[]
[15000] [SEQUENCER] READ mst_id=0 s_id=0 araddr=14bb0ff8 arid=1 arlen=1 arsize=3 arburst=1 rid=[] rresp=[] rdata=[]
[15000] [SEQUENCER] mst_id=0 s_id=0 awaddr=8708d10 awid=101 awlen=9 awsize=4 awburst=2 wdata=[90a6d1da34543a7 d487471e11c9334a c88009b12755e514 ca9b28bbeb24a484 fcedd7ced18a76ce f8e05be29f226fd9 a47145ec56de17f 96f8584dc37b849d e29df4778734ec2c cca2cdac8fd8b42f ] wstrb=[d5 cd f9 1 44 29 ad 19 f6 a7 ] bresp=0 bid=0
[15000] [SEQUENCER] mst_id=1 s_id=0 awaddr=3f4aef0 awid=1101 awlen=116 awsize=5 awburst=1 wdata=[a941af49003db52 a6f8c983e7f60ea9 925dc210ba196068 ca1d3bbbd94ca971 c142b81b9cf1dd04 d70b3d6df116053e ca62aeb0d3a07a2b f092573021287928 923e7e660ba566cb df45e0f6c79d949d e8c60dc5dca12d16 e84693e1cfd83826 9775ccc3fb048c2b d7a5b942c78c74d8 9764acfe803bda88 fb4066b4bfec4d23 8778c1fb2eda79c2 af16544ad2e61ff6 92d26d191edd6efa cdb7e8bcaa56bafe fd3cdaf41a4b2f15 39289e0ffcce3d06 2724f805100f480e 2a5a772306e086cb 83aec3d1a461d2f9 b4711b07e3831532 ea639bfdaad3bbd6 cf358ed0decb922a c24ea75cee125fce 18e61ba583a6a9d7 e2723c02acb24359 1ac4a328e81baa75 ebc2544ca4c0e35e d17326b833aabecd 1bc66942ce34904e f2f573adec37c9e0 1fe288ad8788bd8e d5bd4dddc4689a65 30a064453ba8f1ef c331af7dc8b2c18a d1b5befd082ecf2 c2bdee198eefd5a e1a1bee43dbbc034 e3ead26cf5d8e5e e84c8bb9eebd1ad3 ac78db071a6a8c07 e9c81a65c9ee4a9d 38ab6571bab7882d d5221434d214a61e 1c02f0bce5244078 1fdbc8a63eea2e9a 90fed4b8d4ae562d b9d296a5f4fddcda b3e80b74ad01c574 81b01ba1d9ae5f4b ceac3c26c4e6e02d f1e8a5a13b82b247 953111928294479a c77b27c7f398c143 2f1b738ae3dd4db8 e67195533963cd69 2cfc8eacc44c851c 2829d2d5adecbd1a e7508a83dc180236 a06487520e9b6828 bc882542944d192f f0651b65c88e5a27 d729c24f23d8afc6 b825c8f510c9a2b8 d957fcdf13b1e792 378a9758288ae45b 395487133081bf2f c433a6c1efb0604d 983b44a892ac83f2 c32e4321fbbe3e19 eb6e9e66d18fcbbb e43c4fae8761e9e2 832027fb03a9e30f d539aecaa76a92cf 2ecc7cb2ee8ec662 f238a971b975fe78 e0e09148b1eca4ad a07b6b0fc772583b e856b40fad0dfa c199b2a792b41480 da266cbce1c8e7fc f175f5f6e2151db7 f4c93237db0ec370 3cd7ab6cb30fa89d 9524c654ceef9ef3 a9fe62632e4da162 e15d49ff09edf88c d8dd977fe6d60dcf 9523af31f6821054 7008e002dbf9e3 e9b207b2f680f931 ed030985d94da05f dc299a42fed5b6e4 f556b015ed731265 c6c0b2c4c5dba1f5 c4b158d9e259b99a cfcccbff22ea4d07 e8c5eefc3a0808ee 1c61c288968d7ec3 b977cbca2d7747d5 e77f50c3ec2e8e87 82bc0d4aa23dbac6 cfb5029b03e1134b f00fa1d23c33d915 de7193dbb734535e bb1566a9f2cbaf1c aeff88312e269677 e55ae9d5ab25087b 1df0b7980d711c0d 3b97b2842070507f cb9558faccf03fc9 da615bd6a0f29c59 ] wstrb=[92 d8 5a 5c d3 b4 32 65 8c 8d c1 5f 41 f4 c5 cd 81 86 2d c2 7a f2 8f fb 78 bc bd f3 ae 4d ee 27 9 ac 1a b8 f9 8 df 2 b4 f9 ba ad 1 99 b0 b6 92 6a 63 94 4 13 4a 96 7e ad 2a 82 c1 74 18 3f 22 43 c1 e3 b7 d9 22 d9 1c e3 bc d4 bc de ad d9 c1 6a ad 7e 48 5a 57 a c4 4 88 d 5e df 17 23 e3 9f 30 41 7e 47 64 61 e6 94 a2 64 db 7 c5 c1 9b 67 25 77 6e ] bresp=0 bid=0
[15000] MASTER_DRIVER1 received transaction, op=AXI_WRITE
[15000] MASTER_DRIVER0 received transaction, op=AXI_READ
[35000] MASTER 1 AW_VALID_RDY Handshake
[35000] MASTER_DRIVER0 received transaction, op=AXI_READ
[45000] ARB MONITOR: slave=0 m0_req=0 m1_req=1 winner=1
[45000] ARB MONITOR: slave=0 m0_req=1 m1_req=0 winner=0
[45000] AXI S0_ARVALID_RDY HANDSHAKE
[45000] MEMORY READ MISS beat=0 addr=9cec4e8 -> default data id=0
[45000] AXI S0_AWVALID_RDY HANDSHAKE
[55000] MEMORY READ MISS beat=1 addr=9cec4f0 -> default data id=0
[55000] SLAVE 0 R_VALID_RDY Handshake beat=0 rlast=0
[55000] MASTER 1 W_VALID_RDY Handshake beat=0 wlast=0
[55000] MASTER_DRIVER0 received transaction, op=AXI_WRITE
[65000] MASTER 1 W_VALID_RDY Handshake beat=1 wlast=0
[65000] ARB MONITOR: slave=1 m0_req=1 m1_req=0 winner=0
[65000] SLAVE 0 R_VALID_RDY Handshake beat=1 rlast=1
[65000] [SLAVE MONITOR] READ mst_id=0 s_id=0 araddr=9cec4e8 arid=0 arlen=1 arsize=3 arburst=1 rid=[00] rresp=[00] rdata=[baadf00d12345678baadf00d12345678]
[65000] AXI S0_ARVALID_RDY HANDSHAKE
[65000] MEMORY READ MISS beat=0 addr=14bb0ff8 -> default data id=1
[65000] AXI S0_WVALID_RDY HANDSHAKE
[65000] S0 MEMORY WRITE beat=0 addr=0335ca78 data=f0068e8df455bd66 id=1c
[75000] AXI S0_WVALID_RDY HANDSHAKE
[75000] S0 MEMORY WRITE beat=1 addr=0335ca7c data=e1d2bde4073d813c id=1c
[75000] MEMORY READ MISS beat=1 addr=14bb1000 -> default data id=1
[75000] SLAVE 1 R_VALID_RDY Handshake beat=0 rlast=0
[75000] MASTER 1 W_VALID_RDY Handshake beat=2 wlast=0
[75000] MASTER 0 R_VALID_RDY Handshake beat=0 rlast=0
[75000] MASTER 0 AW_VALID_RDY Handshake
[85000] [MASTER DRIVER] READ mst_id=0 s_id=0 araddr=9cec4e8 arid=0 arlen=1 arsize=3 arburst=1 rid=[00] rresp=[00] rdata=[baadf00d12345678baadf00d12345678]
[85000] MASTER 0 R_VALID_RDY Handshake beat=1 rlast=1
[85000] [MASTER MONITOR] READ mst_id=0 s_id=0 araddr=9cec4e8 arid=0 arlen=1 arsize=3 arburst=1 rid=[00] rresp=[00] rdata=[baadf00d12345678baadf00d12345678]
[85000] MASTER 1 W_VALID_RDY Handshake beat=3 wlast=0
[85000] SLAVE 1 R_VALID_RDY Handshake beat=1 rlast=1
[85000] [SLAVE MONITOR] READ mst_id=0 s_id=1 araddr=14bb0ff8 arid=1 arlen=1 arsize=3 arburst=1 rid=[11] rresp=[00] rdata=[baadf00d12345678baadf00d12345678]
[85000] AXI S0_WVALID_RDY HANDSHAKE
[85000] S0 MEMORY WRITE beat=2 addr=0335ca80 data=e2bfe4951390260e id=1c
[85000] SCOREBOARD MATCH: decode_err expected = 0, actual =0
[85000] SCOREBOARD MATCH: slave_id expected = 0, actual =0
[85000] SCOREBOARD MATCH: araddr passthrough expected = 9cec4e8, actual =9cec4e8
[85000] SCOREBOARD MATCH: arlen passthrough expected = 1, actual =1
[85000] SCOREBOARD MATCH: arsize passthrough expected = 3, actual =3
[85000] SCOREBOARD MATCH: arburst passthrough expected = 1, actual =1
[85000] SCOREBOARD MATCH: rdata size check expected = 2, actual =2
[85000] SCOREBOARD MATCH: rdata passthrough beat=0 expected = baadf00d12345678, actual =baadf00d12345678
[85000] SCOREBOARD MATCH: rdata passthrough beat=1 expected = baadf00d12345678, actual =baadf00d12345678
[85000] SCOREBOARD MATCH: rresp size check expected = 2, actual =2
[85000] SCOREBOARD MATCH: rresp passthrough beat=0 expected = 0, actual =0
[85000] SCOREBOARD MATCH: rresp passthrough beat=1 expected = 0, actual =0
[85000] SCOREBOARD MATCH: response routed to correct master (read beat 0) expected = 0, actual =0
[85000] SCOREBOARD MATCH: response routed to correct master (read beat 1) expected = 0, actual =0
[85000] [SCOREBOARD-M] READ mst_id=0 s_id=0 araddr=9cec4e8 arid=0 arlen=1 arsize=3 arburst=1 rid=[00] rresp=[00] rdata=[baadf00d12345678baadf00d12345678]
[85000] [SCOREBOARD-S] READ mst_id=0 s_id=0 araddr=9cec4e8 arid=0 arlen=1 arsize=3 arburst=1 rid=[00] rresp=[00] rdata=[baadf00d12345678baadf00d12345678]
[85000] SCOREBOARD: Transaction 1 received. pass=14 fail=0
[85000] ALL PASS. Total transactions: 1
[95000] AXI S0_WVALID_RDY HANDSHAKE
[95000] S0 MEMORY WRITE beat=3 addr=0335ca84 data=87e5e37419f49517 id=1c
[95000] MASTER 1 W_VALID_RDY Handshake beat=4 wlast=0
[95000] MASTER 0 W_VALID_RDY Handshake beat=0 wlast=0
[105000] MASTER 0 W_VALID_RDY Handshake beat=1 wlast=0
[105000] MASTER 0 R_VALID_RDY Handshake beat=0 rlast=0
[105000] MASTER 1 W_VALID_RDY Handshake beat=5 wlast=0
[105000] AXI S0_WVALID_RDY HANDSHAKE
[105000] S0 MEMORY WRITE beat=4 addr=0335ca88 data=21321653d2c67322 id=1c
[115000] AXI S0_WVALID_RDY HANDSHAKE
[115000] S0 MEMORY WRITE beat=5 addr=0335ca8c data=e6569930e9b8a159 id=1c
[115000] MASTER 1 W_VALID_RDY Handshake beat=6 wlast=0
[115000] MASTER 0 R_VALID_RDY Handshake beat=1 rlast=1
[115000] [MASTER MONITOR] READ mst_id=0 s_id=1 araddr=14bb0ff8 arid=1 arlen=1 arsize=3 arburst=1 rid=[11] rresp=[00] rdata=[baadf00d12345678baadf00d12345678]
[115000] MASTER 0 W_VALID_RDY Handshake beat=2 wlast=0
[115000] [MASTER DRIVER] READ mst_id=0 s_id=0 araddr=14bb0ff8 arid=1 arlen=1 arsize=3 arburst=1 rid=[11] rresp=[00] rdata=[baadf00d12345678baadf00d12345678]
[115000] SCOREBOARD MATCH: decode_err expected = 0, actual =0
[115000] SCOREBOARD MATCH: slave_id expected = 1, actual =1
[115000] SCOREBOARD MATCH: araddr passthrough expected = 14bb0ff8, actual =14bb0ff8
[115000] SCOREBOARD MATCH: arlen passthrough expected = 1, actual =1
[115000] SCOREBOARD MATCH: arsize passthrough expected = 3, actual =3
[115000] SCOREBOARD MATCH: arburst passthrough expected = 1, actual =1
[115000] SCOREBOARD MATCH: rdata size check expected = 2, actual =2
[115000] SCOREBOARD MATCH: rdata passthrough beat=0 expected = baadf00d12345678, actual =baadf00d12345678
[115000] SCOREBOARD MATCH: rdata passthrough beat=1 expected = baadf00d12345678, actual =baadf00d12345678
[115000] SCOREBOARD MATCH: rresp size check expected = 2, actual =2
[115000] SCOREBOARD MATCH: rresp passthrough beat=0 expected = 0, actual =0
[115000] SCOREBOARD MATCH: rresp passthrough beat=1 expected = 0, actual =0
[115000] SCOREBOARD MATCH: response routed to correct master (read beat 0) expected = 0, actual =0
[115000] SCOREBOARD MATCH: response routed to correct master (read beat 1) expected = 0, actual =0
[115000] [SCOREBOARD-M] READ mst_id=0 s_id=1 araddr=14bb0ff8 arid=1 arlen=1 arsize=3 arburst=1 rid=[11] rresp=[00] rdata=[baadf00d12345678baadf00d12345678]
[115000] [SCOREBOARD-S] READ mst_id=0 s_id=1 araddr=14bb0ff8 arid=1 arlen=1 arsize=3 arburst=1 rid=[11] rresp=[00] rdata=[baadf00d12345678baadf00d12345678]
[115000] SCOREBOARD: Transaction 2 received. pass=28 fail=0
[115000] ALL PASS. Total transactions: 2
[125000] MASTER 0 W_VALID_RDY Handshake beat=3 wlast=0
[125000] MASTER 1 W_VALID_RDY Handshake beat=7 wlast=0
[125000] AXI S0_WVALID_RDY HANDSHAKE
[125000] S0 MEMORY WRITE beat=6 addr=0335ca90 data=03ad367003f1fae8 id=1c
[135000] AXI S0_WVALID_RDY HANDSHAKE
[135000] S0 MEMORY WRITE beat=7 addr=0335ca94 data=d6b86e0aee3c7ca5 id=1c
[135000] MASTER 1 W_VALID_RDY Handshake beat=8 wlast=0
[135000] MASTER 0 W_VALID_RDY Handshake beat=4 wlast=0
[145000] MASTER 0 W_VALID_RDY Handshake beat=5 wlast=0
[145000] MASTER 1 W_VALID_RDY Handshake beat=9 wlast=0
[145000] AXI S0_WVALID_RDY HANDSHAKE
[145000] S0 MEMORY WRITE beat=8 addr=0335ca98 data=d7f51dfe24df4cc3 id=1c
[155000] AXI S0_WVALID_RDY HANDSHAKE
[155000] S0 MEMORY WRITE beat=9 addr=0335ca9c data=28d147ab3d0f073b id=1c
[155000] MASTER 1 W_VALID_RDY Handshake beat=10 wlast=0
[155000] MASTER 0 W_VALID_RDY Handshake beat=6 wlast=0
[165000] MASTER 0 W_VALID_RDY Handshake beat=7 wlast=0
[165000] MASTER 1 W_VALID_RDY Handshake beat=11 wlast=0
[165000] AXI S0_WVALID_RDY HANDSHAKE
[165000] S0 MEMORY WRITE beat=10 addr=0335caa0 data=2b4b83e0dba2546e id=1c
[175000] AXI S0_WVALID_RDY HANDSHAKE
[175000] S0 MEMORY WRITE beat=11 addr=0335caa4 data=0081a131ff89b5b5 id=1c
[175000] MASTER 1 W_VALID_RDY Handshake beat=12 wlast=0
[185000] MASTER 1 W_VALID_RDY Handshake beat=13 wlast=0
[185000] AXI S0_WVALID_RDY HANDSHAKE
[185000] S0 MEMORY WRITE beat=12 addr=0335caa8 data=bc98bcf00340a1de id=1c
[195000] AXI S0_WVALID_RDY HANDSHAKE
[195000] S0 MEMORY WRITE beat=13 addr=0335caac data=dee2f64c2952e8dc id=1c
[195000] MASTER 1 W_VALID_RDY Handshake beat=14 wlast=0
[205000] MASTER 1 W_VALID_RDY Handshake beat=15 wlast=0
[205000] AXI S0_WVALID_RDY HANDSHAKE
[205000] S0 MEMORY WRITE beat=14 addr=0335cab0 data=a8dc9e91e7e440d0 id=1c
[215000] AXI S0_WVALID_RDY HANDSHAKE
[215000] S0 MEMORY WRITE beat=15 addr=0335cab4 data=eb24e2aedf64977d id=1c
[215000] MASTER 1 W_VALID_RDY Handshake beat=16 wlast=0
[225000] MASTER 1 W_VALID_RDY Handshake beat=17 wlast=0
[225000] AXI S0_WVALID_RDY HANDSHAKE
[225000] S0 MEMORY WRITE beat=16 addr=0335cab8 data=08b78059e5755b82 id=1c
[235000] AXI S0_WVALID_RDY HANDSHAKE
[235000] S0 MEMORY WRITE beat=17 addr=0335cabc data=cd599c52ca07d8fa id=1c
[235000] MASTER 1 W_VALID_RDY Handshake beat=18 wlast=0
[245000] MASTER 1 W_VALID_RDY Handshake beat=19 wlast=0
[245000] AXI S0_WVALID_RDY HANDSHAKE
[245000] S0 MEMORY WRITE beat=18 addr=0335cac0 data=a96c7077b1941eea id=1c
[255000] AXI S0_WVALID_RDY HANDSHAKE
[255000] S0 MEMORY WRITE beat=19 addr=0335cac4 data=97097a6c387e7f01 id=1c
[255000] MASTER 1 W_VALID_RDY Handshake beat=20 wlast=0
[265000] MASTER 1 W_VALID_RDY Handshake beat=21 wlast=0
[265000] AXI S0_WVALID_RDY HANDSHAKE
[265000] S0 MEMORY WRITE beat=20 addr=0335cac8 data=828657fbb223f0d0 id=1c
[275000] AXI S0_WVALID_RDY HANDSHAKE
[275000] S0 MEMORY WRITE beat=21 addr=0335cacc data=e3b80fbbe46316bf id=1c
[275000] MASTER 1 W_VALID_RDY Handshake beat=22 wlast=0
[285000] MASTER 1 W_VALID_RDY Handshake beat=23 wlast=0
[285000] AXI S0_WVALID_RDY HANDSHAKE
[285000] S0 MEMORY WRITE beat=22 addr=0335cad0 data=1ce195c02bf2c873 id=1c
[295000] AXI S0_WVALID_RDY HANDSHAKE
[295000] S0 MEMORY WRITE beat=23 addr=0335cad4 data=de16b943fac18a27 id=1c
[295000] MASTER 1 W_VALID_RDY Handshake beat=24 wlast=0
[305000] MASTER 1 W_VALID_RDY Handshake beat=25 wlast=0
[305000] AXI S0_WVALID_RDY HANDSHAKE
[305000] S0 MEMORY WRITE beat=24 addr=0335cad8 data=df24a0e69f67edbb id=1c
[315000] AXI S0_WVALID_RDY HANDSHAKE
[315000] S0 MEMORY WRITE beat=25 addr=0335cadc data=cb5ab62ec1cec8fe id=1c
[315000] MASTER 1 W_VALID_RDY Handshake beat=26 wlast=0
[325000] MASTER 1 W_VALID_RDY Handshake beat=27 wlast=0
[325000] AXI S0_WVALID_RDY HANDSHAKE
[325000] S0 MEMORY WRITE beat=26 addr=0335cae0 data=3c905326fc0636a6 id=1c
[335000] AXI S0_WVALID_RDY HANDSHAKE
[335000] S0 MEMORY WRITE beat=27 addr=0335cae4 data=1b6e246229716f72 id=1c
[335000] MASTER 1 W_VALID_RDY Handshake beat=28 wlast=0
[345000] MASTER 1 W_VALID_RDY Handshake beat=29 wlast=0
[345000] AXI S0_WVALID_RDY HANDSHAKE
[345000] S0 MEMORY WRITE beat=28 addr=0335cae8 data=eb4038709bb4f40c id=1c
[355000] AXI S0_WVALID_RDY HANDSHAKE
[355000] S0 MEMORY WRITE beat=29 addr=0335caec data=17bb2ab3e6c8da90 id=1c
[355000] MASTER 1 W_VALID_RDY Handshake beat=30 wlast=0
[365000] MASTER 1 W_VALID_RDY Handshake beat=31 wlast=0
[365000] AXI S0_WVALID_RDY HANDSHAKE
[365000] S0 MEMORY WRITE beat=30 addr=0335caf0 data=903a4a02a7d08b96 id=1c
[375000] AXI S0_WVALID_RDY HANDSHAKE
[375000] S0 MEMORY WRITE beat=31 addr=0335caf4 data=c3857fa333294f15 id=1c
[375000] MASTER 1 W_VALID_RDY Handshake beat=32 wlast=0
[385000] MASTER 1 W_VALID_RDY Handshake beat=33 wlast=0
[385000] AXI S0_WVALID_RDY HANDSHAKE
[385000] S0 MEMORY WRITE beat=32 addr=0335caf8 data=99f229a5fb7a8273 id=1c
[395000] AXI S0_WVALID_RDY HANDSHAKE
[395000] S0 MEMORY WRITE beat=33 addr=0335cafc data=a34b0e09db40aa56 id=1c
[395000] MASTER 1 W_VALID_RDY Handshake beat=34 wlast=0
[405000] MASTER 1 W_VALID_RDY Handshake beat=35 wlast=0
[405000] AXI S0_WVALID_RDY HANDSHAKE
[405000] S0 MEMORY WRITE beat=34 addr=0335cb00 data=0e69f96b2a2c73a8 id=1c
[415000] AXI S0_WVALID_RDY HANDSHAKE
[415000] S0 MEMORY WRITE beat=35 addr=0335cb04 data=25a6f61be6d08dac id=1c
[415000] MASTER 1 W_VALID_RDY Handshake beat=36 wlast=0
[425000] MASTER 1 W_VALID_RDY Handshake beat=37 wlast=0
[425000] AXI S0_WVALID_RDY HANDSHAKE
[425000] S0 MEMORY WRITE beat=36 addr=0335cb08 data=c2113802a85c2310 id=1c
[435000] AXI S0_WVALID_RDY HANDSHAKE
[435000] S0 MEMORY WRITE beat=37 addr=0335cb0c data=d28896b8c8f20424 id=1c
[435000] MASTER 1 W_VALID_RDY Handshake beat=38 wlast=0
[445000] MASTER 1 W_VALID_RDY Handshake beat=39 wlast=0
[445000] AXI S0_WVALID_RDY HANDSHAKE
[445000] S0 MEMORY WRITE beat=38 addr=0335cb10 data=2fc291d1d07b316d id=1c
[455000] AXI S0_WVALID_RDY HANDSHAKE
[455000] S0 MEMORY WRITE beat=39 addr=0335cb14 data=f8d7547ef82f8cd3 id=1c
[455000] MASTER 1 W_VALID_RDY Handshake beat=40 wlast=0
[465000] MASTER 1 W_VALID_RDY Handshake beat=41 wlast=0
[465000] AXI S0_WVALID_RDY HANDSHAKE
[465000] S0 MEMORY WRITE beat=40 addr=0335cb18 data=c12190f8f1d3c9d3 id=1c
[475000] AXI S0_WVALID_RDY HANDSHAKE
[475000] S0 MEMORY WRITE beat=41 addr=0335cb1c data=c24efb41cb5feb36 id=1c
[475000] MASTER 1 W_VALID_RDY Handshake beat=42 wlast=0
[485000] MASTER 1 W_VALID_RDY Handshake beat=43 wlast=0
[485000] AXI S0_WVALID_RDY HANDSHAKE
[485000] S0 MEMORY WRITE beat=42 addr=0335cb20 data=c38f780af0e422c9 id=1c
[495000] AXI S0_WVALID_RDY HANDSHAKE
[495000] S0 MEMORY WRITE beat=43 addr=0335cb24 data=e2b7ec9c3b264fbf id=1c
[495000] MASTER 1 W_VALID_RDY Handshake beat=44 wlast=0
[505000] MASTER 1 W_VALID_RDY Handshake beat=45 wlast=0
[505000] AXI S0_WVALID_RDY HANDSHAKE
[505000] S0 MEMORY WRITE beat=44 addr=0335cb28 data=86863af504b10902 id=1c
[515000] AXI S0_WVALID_RDY HANDSHAKE
[515000] S0 MEMORY WRITE beat=45 addr=0335cb2c data=f5952bcba506e7dd id=1c
[515000] MASTER 1 W_VALID_RDY Handshake beat=46 wlast=0
[525000] MASTER 1 W_VALID_RDY Handshake beat=47 wlast=0
[525000] AXI S0_WVALID_RDY HANDSHAKE
[525000] S0 MEMORY WRITE beat=46 addr=0335cb30 data=e02d379cca15b2ff id=1c
[535000] AXI S0_WVALID_RDY HANDSHAKE
[535000] S0 MEMORY WRITE beat=47 addr=0335cb34 data=cec6bc01d84d1867 id=1c
[535000] MASTER 1 W_VALID_RDY Handshake beat=48 wlast=0
[545000] MASTER 1 W_VALID_RDY Handshake beat=49 wlast=0
[545000] AXI S0_WVALID_RDY HANDSHAKE
[545000] S0 MEMORY WRITE beat=48 addr=0335cb38 data=fd540045e6b37292 id=1c
[555000] AXI S0_WVALID_RDY HANDSHAKE
[555000] S0 MEMORY WRITE beat=49 addr=0335cb3c data=b0c92591c45be7cc id=1c
[555000] MASTER 1 W_VALID_RDY Handshake beat=50 wlast=0
[565000] MASTER 1 W_VALID_RDY Handshake beat=51 wlast=0
[565000] AXI S0_WVALID_RDY HANDSHAKE
[565000] S0 MEMORY WRITE beat=50 addr=0335cb40 data=1ca90034dd8137e1 id=1c
[575000] AXI S0_WVALID_RDY HANDSHAKE
[575000] S0 MEMORY WRITE beat=51 addr=0335cb44 data=c434aa73ff8fe193 id=1c
[575000] MASTER 1 W_VALID_RDY Handshake beat=52 wlast=0
[585000] MASTER 1 W_VALID_RDY Handshake beat=53 wlast=0
[585000] AXI S0_WVALID_RDY HANDSHAKE
[585000] S0 MEMORY WRITE beat=52 addr=0335cb48 data=c3ebc95f19fd0079 id=1c
[595000] AXI S0_WVALID_RDY HANDSHAKE
[595000] S0 MEMORY WRITE beat=53 addr=0335cb4c data=f77e385af4fdd005 id=1c
[595000] MASTER 1 W_VALID_RDY Handshake beat=54 wlast=0
[605000] MASTER 1 W_VALID_RDY Handshake beat=55 wlast=0
[605000] AXI S0_WVALID_RDY HANDSHAKE
[605000] S0 MEMORY WRITE beat=54 addr=0335cb50 data=f48db198e094c993 id=1c
[615000] AXI S0_WVALID_RDY HANDSHAKE
[615000] S0 MEMORY WRITE beat=55 addr=0335cb54 data=fa91ca0c3bb2e2ce id=1c
[615000] MASTER 1 W_VALID_RDY Handshake beat=56 wlast=0
[625000] MASTER 1 W_VALID_RDY Handshake beat=57 wlast=0
[625000] AXI S0_WVALID_RDY HANDSHAKE
[625000] S0 MEMORY WRITE beat=56 addr=0335cb58 data=30b0b2d3b8797af7 id=1c
[635000] AXI S0_WVALID_RDY HANDSHAKE
[635000] S0 MEMORY WRITE beat=57 addr=0335cb5c data=190e448bf2100267 id=1c
[635000] MASTER 1 W_VALID_RDY Handshake beat=58 wlast=0
[645000] MASTER 1 W_VALID_RDY Handshake beat=59 wlast=0
[645000] AXI S0_WVALID_RDY HANDSHAKE
[645000] S0 MEMORY WRITE beat=58 addr=0335cb60 data=2dc2e535253e646b id=1c
[655000] AXI S0_WVALID_RDY HANDSHAKE
[655000] S0 MEMORY WRITE beat=59 addr=0335cb64 data=ddb7df6293a00e97 id=1c
[655000] MASTER 1 W_VALID_RDY Handshake beat=60 wlast=0
[665000] MASTER 1 W_VALID_RDY Handshake beat=61 wlast=0
[665000] AXI S0_WVALID_RDY HANDSHAKE
[665000] S0 MEMORY WRITE beat=60 addr=0335cb68 data=85b010fede739808 id=1c
[675000] AXI S0_WVALID_RDY HANDSHAKE
[675000] S0 MEMORY WRITE beat=61 addr=0335cb6c data=03b1fc73f6c623ed id=1c
[675000] MASTER 1 W_VALID_RDY Handshake beat=62 wlast=0
[685000] MASTER 1 W_VALID_RDY Handshake beat=63 wlast=0
[685000] AXI S0_WVALID_RDY HANDSHAKE
[685000] S0 MEMORY WRITE beat=62 addr=0335cb70 data=0a663285b372f633 id=1c
[695000] AXI S0_WVALID_RDY HANDSHAKE
[695000] S0 MEMORY WRITE beat=63 addr=0335cb74 data=91e68e3be169dbd5 id=1c
[695000] MASTER 1 W_VALID_RDY Handshake beat=64 wlast=0
[705000] MASTER 1 W_VALID_RDY Handshake beat=65 wlast=0
[705000] AXI S0_WVALID_RDY HANDSHAKE
[705000] S0 MEMORY WRITE beat=64 addr=0335cb78 data=d82fffc390164383 id=1c
[715000] AXI S0_WVALID_RDY HANDSHAKE
[715000] S0 MEMORY WRITE beat=65 addr=0335cb7c data=c38939b795988aae id=1c
[715000] MASTER 1 W_VALID_RDY Handshake beat=66 wlast=0
[725000] MASTER 1 W_VALID_RDY Handshake beat=67 wlast=0
[725000] AXI S0_WVALID_RDY HANDSHAKE
[725000] S0 MEMORY WRITE beat=66 addr=0335cb80 data=f7026684e2963248 id=1c
[735000] AXI S0_WVALID_RDY HANDSHAKE
[735000] S0 MEMORY WRITE beat=67 addr=0335cb84 data=f2ac75cbd56fc7f2 id=1c
[735000] MASTER 1 W_VALID_RDY Handshake beat=68 wlast=0
[745000] MASTER 1 W_VALID_RDY Handshake beat=69 wlast=0
[745000] AXI S0_WVALID_RDY HANDSHAKE
[745000] S0 MEMORY WRITE beat=68 addr=0335cb88 data=eb0852a1cf326647 id=1c
[755000] AXI S0_WVALID_RDY HANDSHAKE
[755000] S0 MEMORY WRITE beat=69 addr=0335cb8c data=31c8988fb635af82 id=1c
[755000] MASTER 1 W_VALID_RDY Handshake beat=70 wlast=0
[765000] MASTER 1 W_VALID_RDY Handshake beat=71 wlast=0
[765000] AXI S0_WVALID_RDY HANDSHAKE
[765000] S0 MEMORY WRITE beat=70 addr=0335cb90 data=0ba57775e20ab925 id=1c
[775000] AXI S0_WVALID_RDY HANDSHAKE
[775000] S0 MEMORY WRITE beat=71 addr=0335cb94 data=313d1f6ca4750e5a id=1c
[775000] MASTER 1 W_VALID_RDY Handshake beat=72 wlast=0
[785000] MASTER 1 W_VALID_RDY Handshake beat=73 wlast=0
[785000] AXI S0_WVALID_RDY HANDSHAKE
[785000] S0 MEMORY WRITE beat=72 addr=0335cb98 data=daaabdddf6adca16 id=1c
[795000] AXI S0_WVALID_RDY HANDSHAKE
[795000] S0 MEMORY WRITE beat=73 addr=0335cb9c data=d8b8833be305b7fb id=1c
[795000] MASTER 1 W_VALID_RDY Handshake beat=74 wlast=0
[805000] MASTER 1 W_VALID_RDY Handshake beat=75 wlast=0
[805000] AXI S0_WVALID_RDY HANDSHAKE
[805000] S0 MEMORY WRITE beat=74 addr=0335cba0 data=877ac655e6503552 id=1c
[815000] AXI S0_WVALID_RDY HANDSHAKE
[815000] S0 MEMORY WRITE beat=75 addr=0335cba4 data=dcfdff6809f5a2a7 id=1c
[815000] MASTER 1 W_VALID_RDY Handshake beat=76 wlast=0
[825000] MASTER 1 W_VALID_RDY Handshake beat=77 wlast=0
[825000] AXI S0_WVALID_RDY HANDSHAKE
[825000] S0 MEMORY WRITE beat=76 addr=0335cba8 data=ecfb5aa2e2258432 id=1c
[835000] AXI S0_WVALID_RDY HANDSHAKE
[835000] S0 MEMORY WRITE beat=77 addr=0335cbac data=c875b98435b682a3 id=1c
[835000] MASTER 1 W_VALID_RDY Handshake beat=78 wlast=0
[845000] MASTER 1 W_VALID_RDY Handshake beat=79 wlast=0
[845000] AXI S0_WVALID_RDY HANDSHAKE
[845000] S0 MEMORY WRITE beat=78 addr=0335cbb0 data=3fac254af47620f7 id=1c
[855000] AXI S0_WVALID_RDY HANDSHAKE
[855000] S0 MEMORY WRITE beat=79 addr=0335cbb4 data=d69ba52aa573b8ec id=1c
[855000] MASTER 1 W_VALID_RDY Handshake beat=80 wlast=0
[865000] MASTER 1 W_VALID_RDY Handshake beat=81 wlast=0
[865000] AXI S0_WVALID_RDY HANDSHAKE
[865000] S0 MEMORY WRITE beat=80 addr=0335cbb8 data=db2a3b8f2ca77fec id=1c
[875000] AXI S0_WVALID_RDY HANDSHAKE
[875000] S0 MEMORY WRITE beat=81 addr=0335cbbc data=a11da0e39f115eae id=1c
[875000] MASTER 1 W_VALID_RDY Handshake beat=82 wlast=0
[885000] MASTER 1 W_VALID_RDY Handshake beat=83 wlast=0
[885000] AXI S0_WVALID_RDY HANDSHAKE
[885000] S0 MEMORY WRITE beat=82 addr=0335cbc0 data=c485179b9ad660d9 id=1c
[895000] AXI S0_WVALID_RDY HANDSHAKE
[895000] S0 MEMORY WRITE beat=83 addr=0335cbc4 data=c77de0c5f7b9460d id=1c
[895000] MASTER 1 W_VALID_RDY Handshake beat=84 wlast=0
[905000] MASTER 1 W_VALID_RDY Handshake beat=85 wlast=0
[905000] AXI S0_WVALID_RDY HANDSHAKE
[905000] S0 MEMORY WRITE beat=84 addr=0335cbc8 data=16caa4bc9faf532a id=1c
[915000] AXI S0_WVALID_RDY HANDSHAKE
[915000] S0 MEMORY WRITE beat=85 addr=0335cbcc data=3a85b404e89b81a9 id=1c
[915000] MASTER 1 W_VALID_RDY Handshake beat=86 wlast=0
[925000] MASTER 1 W_VALID_RDY Handshake beat=87 wlast=0
[925000] AXI S0_WVALID_RDY HANDSHAKE
[925000] S0 MEMORY WRITE beat=86 addr=0335cbd0 data=e054c7b6db4fbc57 id=1c
[935000] AXI S0_WVALID_RDY HANDSHAKE
[935000] S0 MEMORY WRITE beat=87 addr=0335cbd4 data=faff0f81820394c9 id=1c
[935000] MASTER 1 W_VALID_RDY Handshake beat=88 wlast=0
[945000] MASTER_DRIVER1 received transaction, op=AXI_WRITE
[945000] MASTER 1 W_VALID_RDY Handshake beat=89 wlast=1
[945000] AXI S0_WVALID_RDY HANDSHAKE
[945000] S0 MEMORY WRITE beat=88 addr=0335cbd8 data=ea9f1672f71f6c72 id=1c
[955000] AXI S0_WVALID_RDY HANDSHAKE
[955000] S0 MEMORY WRITE beat=89 addr=0335cbdc data=d26f28c9b584c385 id=1c
[965000] MASTER 1 AW_VALID_RDY Handshake
[965000] SLAVE0 sent B resp, id=12
[975000] AXI S0_AWVALID_RDY HANDSHAKE
[975000] [SLAVE MONITOR] mst_id=1 s_id=0 awaddr=335ca78 awid=1100 awlen=89 awsize=2 awburst=1 wdata=[f0068e8df455bd66 e1d2bde4073d813c e2bfe4951390260e 87e5e37419f49517 21321653d2c67322 e6569930e9b8a159 3ad367003f1fae8 d6b86e0aee3c7ca5 d7f51dfe24df4cc3 28d147ab3d0f073b 2b4b83e0dba2546e 81a131ff89b5b5 bc98bcf00340a1de dee2f64c2952e8dc a8dc9e91e7e440d0 eb24e2aedf64977d 8b78059e5755b82 cd599c52ca07d8fa a96c7077b1941eea 97097a6c387e7f01 828657fbb223f0d0 e3b80fbbe46316bf 1ce195c02bf2c873 de16b943fac18a27 df24a0e69f67edbb cb5ab62ec1cec8fe 3c905326fc0636a6 1b6e246229716f72 eb4038709bb4f40c 17bb2ab3e6c8da90 903a4a02a7d08b96 c3857fa333294f15 99f229a5fb7a8273 a34b0e09db40aa56 e69f96b2a2c73a8 25a6f61be6d08dac c2113802a85c2310 d28896b8c8f20424 2fc291d1d07b316d f8d7547ef82f8cd3 c12190f8f1d3c9d3 c24efb41cb5feb36 c38f780af0e422c9 e2b7ec9c3b264fbf 86863af504b10902 f5952bcba506e7dd e02d379cca15b2ff cec6bc01d84d1867 fd540045e6b37292 b0c92591c45be7cc 1ca90034dd8137e1 c434aa73ff8fe193 c3ebc95f19fd0079 f77e385af4fdd005 f48db198e094c993 fa91ca0c3bb2e2ce 30b0b2d3b8797af7 190e448bf2100267 2dc2e535253e646b ddb7df6293a00e97 85b010fede739808 3b1fc73f6c623ed a663285b372f633 91e68e3be169dbd5 d82fffc390164383 c38939b795988aae f7026684e2963248 f2ac75cbd56fc7f2 eb0852a1cf326647 31c8988fb635af82 ba57775e20ab925 313d1f6ca4750e5a daaabdddf6adca16 d8b8833be305b7fb 877ac655e6503552 dcfdff6809f5a2a7 ecfb5aa2e2258432 c875b98435b682a3 3fac254af47620f7 d69ba52aa573b8ec db2a3b8f2ca77fec a11da0e39f115eae c485179b9ad660d9 c77de0c5f7b9460d 16caa4bc9faf532a 3a85b404e89b81a9 e054c7b6db4fbc57 faff0f81820394c9 ea9f1672f71f6c72 d26f28c9b584c385 ] wstrb=[29 4f 4b 9b c1 d0 65 ea 1f b0 86 e1 80 eb cb a0 9b 51 81 1b 3c 4c bb d7 9e 3c f3 da 89 ae b2 27 eb a5 1 74 53 b3 9b 3e 58 9c b2 ac 50 4d ea a8 ea 9d 54 3a ea 3f e2 d4 dc 37 e c6 76 f1 9b 52 28 a9 18 9e 9a b3 f0 c2 5d 8 60 f7 bc 50 ba 19 59 1a 10 15 6b ca 2e c4 e5 3e ] bresp=0 bid=11100
[975000] ARB MONITOR: slave=0 m0_req=1 m1_req=1 winner=0
[975000] SCOREBOARD MATCH: arbitration winner (slave 0) expected = 0, actual =0
[985000] MASTER 1 RECEIVED BRESP. BRESP=0
[985000] [MASTER DRIVER] mst_id=1 s_id=0 awaddr=335ca78 awid=1100 awlen=89 awsize=2 awburst=1 wdata=[f0068e8df455bd66 e1d2bde4073d813c e2bfe4951390260e 87e5e37419f49517 21321653d2c67322 e6569930e9b8a159 3ad367003f1fae8 d6b86e0aee3c7ca5 d7f51dfe24df4cc3 28d147ab3d0f073b 2b4b83e0dba2546e 81a131ff89b5b5 bc98bcf00340a1de dee2f64c2952e8dc a8dc9e91e7e440d0 eb24e2aedf64977d 8b78059e5755b82 cd599c52ca07d8fa a96c7077b1941eea 97097a6c387e7f01 828657fbb223f0d0 e3b80fbbe46316bf 1ce195c02bf2c873 de16b943fac18a27 df24a0e69f67edbb cb5ab62ec1cec8fe 3c905326fc0636a6 1b6e246229716f72 eb4038709bb4f40c 17bb2ab3e6c8da90 903a4a02a7d08b96 c3857fa333294f15 99f229a5fb7a8273 a34b0e09db40aa56 e69f96b2a2c73a8 25a6f61be6d08dac c2113802a85c2310 d28896b8c8f20424 2fc291d1d07b316d f8d7547ef82f8cd3 c12190f8f1d3c9d3 c24efb41cb5feb36 c38f780af0e422c9 e2b7ec9c3b264fbf 86863af504b10902 f5952bcba506e7dd e02d379cca15b2ff cec6bc01d84d1867 fd540045e6b37292 b0c92591c45be7cc 1ca90034dd8137e1 c434aa73ff8fe193 c3ebc95f19fd0079 f77e385af4fdd005 f48db198e094c993 fa91ca0c3bb2e2ce 30b0b2d3b8797af7 190e448bf2100267 2dc2e535253e646b ddb7df6293a00e97 85b010fede739808 3b1fc73f6c623ed a663285b372f633 91e68e3be169dbd5 d82fffc390164383 c38939b795988aae f7026684e2963248 f2ac75cbd56fc7f2 eb0852a1cf326647 31c8988fb635af82 ba57775e20ab925 313d1f6ca4750e5a daaabdddf6adca16 d8b8833be305b7fb 877ac655e6503552 dcfdff6809f5a2a7 ecfb5aa2e2258432 c875b98435b682a3 3fac254af47620f7 d69ba52aa573b8ec db2a3b8f2ca77fec a11da0e39f115eae c485179b9ad660d9 c77de0c5f7b9460d 16caa4bc9faf532a 3a85b404e89b81a9 e054c7b6db4fbc57 faff0f81820394c9 ea9f1672f71f6c72 d26f28c9b584c385 ] wstrb=[29 4f 4b 9b c1 d0 65 ea 1f b0 86 e1 80 eb cb a0 9b 51 81 1b 3c 4c bb d7 9e 3c f3 da 89 ae b2 27 eb a5 1 74 53 b3 9b 3e 58 9c b2 ac 50 4d ea a8 ea 9d 54 3a ea 3f e2 d4 dc 37 e c6 76 f1 9b 52 28 a9 18 9e 9a b3 f0 c2 5d 8 60 f7 bc 50 ba 19 59 1a 10 15 6b ca 2e c4 e5 3e ] bresp=0 bid=1100
[985000] MASTER 1 W_VALID_RDY Handshake beat=0 wlast=0
[985000] MASTER 1 B_VALID_RDY Handshake
[985000] [MASTER MONITOR] mst_id=1 s_id=0 awaddr=335ca78 awid=1100 awlen=89 awsize=2 awburst=1 wdata=[f0068e8df455bd66 e1d2bde4073d813c e2bfe4951390260e 87e5e37419f49517 21321653d2c67322 e6569930e9b8a159 3ad367003f1fae8 d6b86e0aee3c7ca5 d7f51dfe24df4cc3 28d147ab3d0f073b 2b4b83e0dba2546e 81a131ff89b5b5 bc98bcf00340a1de dee2f64c2952e8dc a8dc9e91e7e440d0 eb24e2aedf64977d 8b78059e5755b82 cd599c52ca07d8fa a96c7077b1941eea 97097a6c387e7f01 828657fbb223f0d0 e3b80fbbe46316bf 1ce195c02bf2c873 de16b943fac18a27 df24a0e69f67edbb cb5ab62ec1cec8fe 3c905326fc0636a6 1b6e246229716f72 eb4038709bb4f40c 17bb2ab3e6c8da90 903a4a02a7d08b96 c3857fa333294f15 99f229a5fb7a8273 a34b0e09db40aa56 e69f96b2a2c73a8 25a6f61be6d08dac c2113802a85c2310 d28896b8c8f20424 2fc291d1d07b316d f8d7547ef82f8cd3 c12190f8f1d3c9d3 c24efb41cb5feb36 c38f780af0e422c9 e2b7ec9c3b264fbf 86863af504b10902 f5952bcba506e7dd e02d379cca15b2ff cec6bc01d84d1867 fd540045e6b37292 b0c92591c45be7cc 1ca90034dd8137e1 c434aa73ff8fe193 c3ebc95f19fd0079 f77e385af4fdd005 f48db198e094c993 fa91ca0c3bb2e2ce 30b0b2d3b8797af7 190e448bf2100267 2dc2e535253e646b ddb7df6293a00e97 85b010fede739808 3b1fc73f6c623ed a663285b372f633 91e68e3be169dbd5 d82fffc390164383 c38939b795988aae f7026684e2963248 f2ac75cbd56fc7f2 eb0852a1cf326647 31c8988fb635af82 ba57775e20ab925 313d1f6ca4750e5a daaabdddf6adca16 d8b8833be305b7fb 877ac655e6503552 dcfdff6809f5a2a7 ecfb5aa2e2258432 c875b98435b682a3 3fac254af47620f7 d69ba52aa573b8ec db2a3b8f2ca77fec a11da0e39f115eae c485179b9ad660d9 c77de0c5f7b9460d 16caa4bc9faf532a 3a85b404e89b81a9 e054c7b6db4fbc57 faff0f81820394c9 ea9f1672f71f6c72 d26f28c9b584c385 ] wstrb=[29 4f 4b 9b c1 d0 65 ea 1f b0 86 e1 80 eb cb a0 9b 51 81 1b 3c 4c bb d7 9e 3c f3 da 89 ae b2 27 eb a5 1 74 53 b3 9b 3e 58 9c b2 ac 50 4d ea a8 ea 9d 54 3a ea 3f e2 d4 dc 37 e c6 76 f1 9b 52 28 a9 18 9e 9a b3 f0 c2 5d 8 60 f7 bc 50 ba 19 59 1a 10 15 6b ca 2e c4 e5 3e ] bresp=0 bid=1100
[985000] AXI S0_WVALID_RDY HANDSHAKE
[985000] S0 MEMORY WRITE beat=0 addr=08708d10 data=090a6d1da34543a7 id=05
[985000] SCOREBOARD MATCH: decode_err expected = 0, actual =0
[985000] SCOREBOARD MATCH: slave_id expected = 0, actual =0
[985000] SCOREBOARD MATCH: awaddr passthrough expected = 335ca78, actual =335ca78
[985000] SCOREBOARD MATCH: awlen passthrough expected = 89, actual =89
[985000] SCOREBOARD MATCH: awsize passthrough expected = 2, actual =2
[985000] SCOREBOARD MATCH: awburst passthrough expected = 1, actual =1
[985000] SCOREBOARD MATCH: wdata size check expected = 5a, actual =5a
[985000] SCOREBOARD MATCH: wdata passthrough beat=0 expected = f0068e8df455bd66, actual =f0068e8df455bd66
[985000] SCOREBOARD MATCH: wdata passthrough beat=1 expected = e1d2bde4073d813c, actual =e1d2bde4073d813c
[985000] SCOREBOARD MATCH: wdata passthrough beat=2 expected = e2bfe4951390260e, actual =e2bfe4951390260e
[985000] SCOREBOARD MATCH: wdata passthrough beat=3 expected = 87e5e37419f49517, actual =87e5e37419f49517
[985000] SCOREBOARD MATCH: wdata passthrough beat=4 expected = 21321653d2c67322, actual =21321653d2c67322
[985000] SCOREBOARD MATCH: wdata passthrough beat=5 expected = e6569930e9b8a159, actual =e6569930e9b8a159
[985000] SCOREBOARD MATCH: wdata passthrough beat=6 expected = 3ad367003f1fae8, actual =3ad367003f1fae8
[985000] SCOREBOARD MATCH: wdata passthrough beat=7 expected = d6b86e0aee3c7ca5, actual =d6b86e0aee3c7ca5
[985000] SCOREBOARD MATCH: wdata passthrough beat=8 expected = d7f51dfe24df4cc3, actual =d7f51dfe24df4cc3
[985000] SCOREBOARD MATCH: wdata passthrough beat=9 expected = 28d147ab3d0f073b, actual =28d147ab3d0f073b
[985000] SCOREBOARD MATCH: wdata passthrough beat=10 expected = 2b4b83e0dba2546e, actual =2b4b83e0dba2546e
[985000] SCOREBOARD MATCH: wdata passthrough beat=11 expected = 81a131ff89b5b5, actual =81a131ff89b5b5
[985000] SCOREBOARD MATCH: wdata passthrough beat=12 expected = bc98bcf00340a1de, actual =bc98bcf00340a1de
[985000] SCOREBOARD MATCH: wdata passthrough beat=13 expected = dee2f64c2952e8dc, actual =dee2f64c2952e8dc
[985000] SCOREBOARD MATCH: wdata passthrough beat=14 expected = a8dc9e91e7e440d0, actual =a8dc9e91e7e440d0
[985000] SCOREBOARD MATCH: wdata passthrough beat=15 expected = eb24e2aedf64977d, actual =eb24e2aedf64977d
[985000] SCOREBOARD MATCH: wdata passthrough beat=16 expected = 8b78059e5755b82, actual =8b78059e5755b82
[985000] SCOREBOARD MATCH: wdata passthrough beat=17 expected = cd599c52ca07d8fa, actual =cd599c52ca07d8fa
[985000] SCOREBOARD MATCH: wdata passthrough beat=18 expected = a96c7077b1941eea, actual =a96c7077b1941eea
[985000] SCOREBOARD MATCH: wdata passthrough beat=19 expected = 97097a6c387e7f01, actual =97097a6c387e7f01
[985000] SCOREBOARD MATCH: wdata passthrough beat=20 expected = 828657fbb223f0d0, actual =828657fbb223f0d0
[985000] SCOREBOARD MATCH: wdata passthrough beat=21 expected = e3b80fbbe46316bf, actual =e3b80fbbe46316bf
[985000] SCOREBOARD MATCH: wdata passthrough beat=22 expected = 1ce195c02bf2c873, actual =1ce195c02bf2c873
[985000] SCOREBOARD MATCH: wdata passthrough beat=23 expected = de16b943fac18a27, actual =de16b943fac18a27
[985000] SCOREBOARD MATCH: wdata passthrough beat=24 expected = df24a0e69f67edbb, actual =df24a0e69f67edbb
[985000] SCOREBOARD MATCH: wdata passthrough beat=25 expected = cb5ab62ec1cec8fe, actual =cb5ab62ec1cec8fe
[985000] SCOREBOARD MATCH: wdata passthrough beat=26 expected = 3c905326fc0636a6, actual =3c905326fc0636a6
[985000] SCOREBOARD MATCH: wdata passthrough beat=27 expected = 1b6e246229716f72, actual =1b6e246229716f72
[985000] SCOREBOARD MATCH: wdata passthrough beat=28 expected = eb4038709bb4f40c, actual =eb4038709bb4f40c
[985000] SCOREBOARD MATCH: wdata passthrough beat=29 expected = 17bb2ab3e6c8da90, actual =17bb2ab3e6c8da90
[985000] SCOREBOARD MATCH: wdata passthrough beat=30 expected = 903a4a02a7d08b96, actual =903a4a02a7d08b96
[985000] SCOREBOARD MATCH: wdata passthrough beat=31 expected = c3857fa333294f15, actual =c3857fa333294f15
[985000] SCOREBOARD MATCH: wdata passthrough beat=32 expected = 99f229a5fb7a8273, actual =99f229a5fb7a8273
[985000] SCOREBOARD MATCH: wdata passthrough beat=33 expected = a34b0e09db40aa56, actual =a34b0e09db40aa56
[985000] SCOREBOARD MATCH: wdata passthrough beat=34 expected = e69f96b2a2c73a8, actual =e69f96b2a2c73a8
[985000] SCOREBOARD MATCH: wdata passthrough beat=35 expected = 25a6f61be6d08dac, actual =25a6f61be6d08dac
[985000] SCOREBOARD MATCH: wdata passthrough beat=36 expected = c2113802a85c2310, actual =c2113802a85c2310
[985000] SCOREBOARD MATCH: wdata passthrough beat=37 expected = d28896b8c8f20424, actual =d28896b8c8f20424
[985000] SCOREBOARD MATCH: wdata passthrough beat=38 expected = 2fc291d1d07b316d, actual =2fc291d1d07b316d
[985000] SCOREBOARD MATCH: wdata passthrough beat=39 expected = f8d7547ef82f8cd3, actual =f8d7547ef82f8cd3
[985000] SCOREBOARD MATCH: wdata passthrough beat=40 expected = c12190f8f1d3c9d3, actual =c12190f8f1d3c9d3
[985000] SCOREBOARD MATCH: wdata passthrough beat=41 expected = c24efb41cb5feb36, actual =c24efb41cb5feb36
[985000] SCOREBOARD MATCH: wdata passthrough beat=42 expected = c38f780af0e422c9, actual =c38f780af0e422c9
[985000] SCOREBOARD MATCH: wdata passthrough beat=43 expected = e2b7ec9c3b264fbf, actual =e2b7ec9c3b264fbf
[985000] SCOREBOARD MATCH: wdata passthrough beat=44 expected = 86863af504b10902, actual =86863af504b10902
[985000] SCOREBOARD MATCH: wdata passthrough beat=45 expected = f5952bcba506e7dd, actual =f5952bcba506e7dd
[985000] SCOREBOARD MATCH: wdata passthrough beat=46 expected = e02d379cca15b2ff, actual =e02d379cca15b2ff
[985000] SCOREBOARD MATCH: wdata passthrough beat=47 expected = cec6bc01d84d1867, actual =cec6bc01d84d1867
[985000] SCOREBOARD MATCH: wdata passthrough beat=48 expected = fd540045e6b37292, actual =fd540045e6b37292
[985000] SCOREBOARD MATCH: wdata passthrough beat=49 expected = b0c92591c45be7cc, actual =b0c92591c45be7cc
[985000] SCOREBOARD MATCH: wdata passthrough beat=50 expected = 1ca90034dd8137e1, actual =1ca90034dd8137e1
[985000] SCOREBOARD MATCH: wdata passthrough beat=51 expected = c434aa73ff8fe193, actual =c434aa73ff8fe193
[985000] SCOREBOARD MATCH: wdata passthrough beat=52 expected = c3ebc95f19fd0079, actual =c3ebc95f19fd0079
[985000] SCOREBOARD MATCH: wdata passthrough beat=53 expected = f77e385af4fdd005, actual =f77e385af4fdd005
[985000] SCOREBOARD MATCH: wdata passthrough beat=54 expected = f48db198e094c993, actual =f48db198e094c993
[985000] SCOREBOARD MATCH: wdata passthrough beat=55 expected = fa91ca0c3bb2e2ce, actual =fa91ca0c3bb2e2ce
[985000] SCOREBOARD MATCH: wdata passthrough beat=56 expected = 30b0b2d3b8797af7, actual =30b0b2d3b8797af7
[985000] SCOREBOARD MATCH: wdata passthrough beat=57 expected = 190e448bf2100267, actual =190e448bf2100267
[985000] SCOREBOARD MATCH: wdata passthrough beat=58 expected = 2dc2e535253e646b, actual =2dc2e535253e646b
[985000] SCOREBOARD MATCH: wdata passthrough beat=59 expected = ddb7df6293a00e97, actual =ddb7df6293a00e97
[985000] SCOREBOARD MATCH: wdata passthrough beat=60 expected = 85b010fede739808, actual =85b010fede739808
[985000] SCOREBOARD MATCH: wdata passthrough beat=61 expected = 3b1fc73f6c623ed, actual =3b1fc73f6c623ed
[985000] SCOREBOARD MATCH: wdata passthrough beat=62 expected = a663285b372f633, actual =a663285b372f633
[985000] SCOREBOARD MATCH: wdata passthrough beat=63 expected = 91e68e3be169dbd5, actual =91e68e3be169dbd5
[985000] SCOREBOARD MATCH: wdata passthrough beat=64 expected = d82fffc390164383, actual =d82fffc390164383
[985000] SCOREBOARD MATCH: wdata passthrough beat=65 expected = c38939b795988aae, actual =c38939b795988aae
[985000] SCOREBOARD MATCH: wdata passthrough beat=66 expected = f7026684e2963248, actual =f7026684e2963248
[985000] SCOREBOARD MATCH: wdata passthrough beat=67 expected = f2ac75cbd56fc7f2, actual =f2ac75cbd56fc7f2
[985000] SCOREBOARD MATCH: wdata passthrough beat=68 expected = eb0852a1cf326647, actual =eb0852a1cf326647
[985000] SCOREBOARD MATCH: wdata passthrough beat=69 expected = 31c8988fb635af82, actual =31c8988fb635af82
[985000] SCOREBOARD MATCH: wdata passthrough beat=70 expected = ba57775e20ab925, actual =ba57775e20ab925
[985000] SCOREBOARD MATCH: wdata passthrough beat=71 expected = 313d1f6ca4750e5a, actual =313d1f6ca4750e5a
[985000] SCOREBOARD MATCH: wdata passthrough beat=72 expected = daaabdddf6adca16, actual =daaabdddf6adca16
[985000] SCOREBOARD MATCH: wdata passthrough beat=73 expected = d8b8833be305b7fb, actual =d8b8833be305b7fb
[985000] SCOREBOARD MATCH: wdata passthrough beat=74 expected = 877ac655e6503552, actual =877ac655e6503552
[985000] SCOREBOARD MATCH: wdata passthrough beat=75 expected = dcfdff6809f5a2a7, actual =dcfdff6809f5a2a7
[985000] SCOREBOARD MATCH: wdata passthrough beat=76 expected = ecfb5aa2e2258432, actual =ecfb5aa2e2258432
[985000] SCOREBOARD MATCH: wdata passthrough beat=77 expected = c875b98435b682a3, actual =c875b98435b682a3
[985000] SCOREBOARD MATCH: wdata passthrough beat=78 expected = 3fac254af47620f7, actual =3fac254af47620f7
[985000] SCOREBOARD MATCH: wdata passthrough beat=79 expected = d69ba52aa573b8ec, actual =d69ba52aa573b8ec
[985000] SCOREBOARD MATCH: wdata passthrough beat=80 expected = db2a3b8f2ca77fec, actual =db2a3b8f2ca77fec
[985000] SCOREBOARD MATCH: wdata passthrough beat=81 expected = a11da0e39f115eae, actual =a11da0e39f115eae
[985000] SCOREBOARD MATCH: wdata passthrough beat=82 expected = c485179b9ad660d9, actual =c485179b9ad660d9
[985000] SCOREBOARD MATCH: wdata passthrough beat=83 expected = c77de0c5f7b9460d, actual =c77de0c5f7b9460d
[985000] SCOREBOARD MATCH: wdata passthrough beat=84 expected = 16caa4bc9faf532a, actual =16caa4bc9faf532a
[985000] SCOREBOARD MATCH: wdata passthrough beat=85 expected = 3a85b404e89b81a9, actual =3a85b404e89b81a9
[985000] SCOREBOARD MATCH: wdata passthrough beat=86 expected = e054c7b6db4fbc57, actual =e054c7b6db4fbc57
[985000] SCOREBOARD MATCH: wdata passthrough beat=87 expected = faff0f81820394c9, actual =faff0f81820394c9
[985000] SCOREBOARD MATCH: wdata passthrough beat=88 expected = ea9f1672f71f6c72, actual =ea9f1672f71f6c72
[985000] SCOREBOARD MATCH: wdata passthrough beat=89 expected = d26f28c9b584c385, actual =d26f28c9b584c385
[985000] SCOREBOARD MATCH: wstrb size check expected = 5a, actual =5a
[985000] SCOREBOARD MATCH: wstrb passthrough beat=0 expected = 29, actual =29
[985000] SCOREBOARD MATCH: wstrb passthrough beat=1 expected = 4f, actual =4f
[985000] SCOREBOARD MATCH: wstrb passthrough beat=2 expected = 4b, actual =4b
[985000] SCOREBOARD MATCH: wstrb passthrough beat=3 expected = 9b, actual =9b
[985000] SCOREBOARD MATCH: wstrb passthrough beat=4 expected = c1, actual =c1
[985000] SCOREBOARD MATCH: wstrb passthrough beat=5 expected = d0, actual =d0
[985000] SCOREBOARD MATCH: wstrb passthrough beat=6 expected = 65, actual =65
[985000] SCOREBOARD MATCH: wstrb passthrough beat=7 expected = ea, actual =ea
[985000] SCOREBOARD MATCH: wstrb passthrough beat=8 expected = 1f, actual =1f
[985000] SCOREBOARD MATCH: wstrb passthrough beat=9 expected = b0, actual =b0
[985000] SCOREBOARD MATCH: wstrb passthrough beat=10 expected = 86, actual =86
[985000] SCOREBOARD MATCH: wstrb passthrough beat=11 expected = e1, actual =e1
[985000] SCOREBOARD MATCH: wstrb passthrough beat=12 expected = 80, actual =80
[985000] SCOREBOARD MATCH: wstrb passthrough beat=13 expected = eb, actual =eb
[985000] SCOREBOARD MATCH: wstrb passthrough beat=14 expected = cb, actual =cb
[985000] SCOREBOARD MATCH: wstrb passthrough beat=15 expected = a0, actual =a0
[985000] SCOREBOARD MATCH: wstrb passthrough beat=16 expected = 9b, actual =9b
[985000] SCOREBOARD MATCH: wstrb passthrough beat=17 expected = 51, actual =51
[985000] SCOREBOARD MATCH: wstrb passthrough beat=18 expected = 81, actual =81
[985000] SCOREBOARD MATCH: wstrb passthrough beat=19 expected = 1b, actual =1b
[985000] SCOREBOARD MATCH: wstrb passthrough beat=20 expected = 3c, actual =3c
[985000] SCOREBOARD MATCH: wstrb passthrough beat=21 expected = 4c, actual =4c
[985000] SCOREBOARD MATCH: wstrb passthrough beat=22 expected = bb, actual =bb
[985000] SCOREBOARD MATCH: wstrb passthrough beat=23 expected = d7, actual =d7
[985000] SCOREBOARD MATCH: wstrb passthrough beat=24 expected = 9e, actual =9e
[985000] SCOREBOARD MATCH: wstrb passthrough beat=25 expected = 3c, actual =3c
[985000] SCOREBOARD MATCH: wstrb passthrough beat=26 expected = f3, actual =f3
[985000] SCOREBOARD MATCH: wstrb passthrough beat=27 expected = da, actual =da
[985000] SCOREBOARD MATCH: wstrb passthrough beat=28 expected = 89, actual =89
[985000] SCOREBOARD MATCH: wstrb passthrough beat=29 expected = ae, actual =ae
[985000] SCOREBOARD MATCH: wstrb passthrough beat=30 expected = b2, actual =b2
[985000] SCOREBOARD MATCH: wstrb passthrough beat=31 expected = 27, actual =27
[985000] SCOREBOARD MATCH: wstrb passthrough beat=32 expected = eb, actual =eb
[985000] SCOREBOARD MATCH: wstrb passthrough beat=33 expected = a5, actual =a5
[985000] SCOREBOARD MATCH: wstrb passthrough beat=34 expected = 1, actual =1
[985000] SCOREBOARD MATCH: wstrb passthrough beat=35 expected = 74, actual =74
[985000] SCOREBOARD MATCH: wstrb passthrough beat=36 expected = 53, actual =53
[985000] SCOREBOARD MATCH: wstrb passthrough beat=37 expected = b3, actual =b3
[985000] SCOREBOARD MATCH: wstrb passthrough beat=38 expected = 9b, actual =9b
[985000] SCOREBOARD MATCH: wstrb passthrough beat=39 expected = 3e, actual =3e
[985000] SCOREBOARD MATCH: wstrb passthrough beat=40 expected = 58, actual =58
[985000] SCOREBOARD MATCH: wstrb passthrough beat=41 expected = 9c, actual =9c
[985000] SCOREBOARD MATCH: wstrb passthrough beat=42 expected = b2, actual =b2
[985000] SCOREBOARD MATCH: wstrb passthrough beat=43 expected = ac, actual =ac
[985000] SCOREBOARD MATCH: wstrb passthrough beat=44 expected = 50, actual =50
[985000] SCOREBOARD MATCH: wstrb passthrough beat=45 expected = 4d, actual =4d
[985000] SCOREBOARD MATCH: wstrb passthrough beat=46 expected = ea, actual =ea
[985000] SCOREBOARD MATCH: wstrb passthrough beat=47 expected = a8, actual =a8
[985000] SCOREBOARD MATCH: wstrb passthrough beat=48 expected = ea, actual =ea
[985000] SCOREBOARD MATCH: wstrb passthrough beat=49 expected = 9d, actual =9d
[985000] SCOREBOARD MATCH: wstrb passthrough beat=50 expected = 54, actual =54
[985000] SCOREBOARD MATCH: wstrb passthrough beat=51 expected = 3a, actual =3a
[985000] SCOREBOARD MATCH: wstrb passthrough beat=52 expected = ea, actual =ea
[985000] SCOREBOARD MATCH: wstrb passthrough beat=53 expected = 3f, actual =3f
[985000] SCOREBOARD MATCH: wstrb passthrough beat=54 expected = e2, actual =e2
[985000] SCOREBOARD MATCH: wstrb passthrough beat=55 expected = d4, actual =d4
[985000] SCOREBOARD MATCH: wstrb passthrough beat=56 expected = dc, actual =dc
[985000] SCOREBOARD MATCH: wstrb passthrough beat=57 expected = 37, actual =37
[985000] SCOREBOARD MATCH: wstrb passthrough beat=58 expected = e, actual =e
[985000] SCOREBOARD MATCH: wstrb passthrough beat=59 expected = c6, actual =c6
[985000] SCOREBOARD MATCH: wstrb passthrough beat=60 expected = 76, actual =76
[985000] SCOREBOARD MATCH: wstrb passthrough beat=61 expected = f1, actual =f1
[985000] SCOREBOARD MATCH: wstrb passthrough beat=62 expected = 9b, actual =9b
[985000] SCOREBOARD MATCH: wstrb passthrough beat=63 expected = 52, actual =52
[985000] SCOREBOARD MATCH: wstrb passthrough beat=64 expected = 28, actual =28
[985000] SCOREBOARD MATCH: wstrb passthrough beat=65 expected = a9, actual =a9
[985000] SCOREBOARD MATCH: wstrb passthrough beat=66 expected = 18, actual =18
[985000] SCOREBOARD MATCH: wstrb passthrough beat=67 expected = 9e, actual =9e
[985000] SCOREBOARD MATCH: wstrb passthrough beat=68 expected = 9a, actual =9a
[985000] SCOREBOARD MATCH: wstrb passthrough beat=69 expected = b3, actual =b3
[985000] SCOREBOARD MATCH: wstrb passthrough beat=70 expected = f0, actual =f0
[985000] SCOREBOARD MATCH: wstrb passthrough beat=71 expected = c2, actual =c2
[985000] SCOREBOARD MATCH: wstrb passthrough beat=72 expected = 5d, actual =5d
[985000] SCOREBOARD MATCH: wstrb passthrough beat=73 expected = 8, actual =8
[985000] SCOREBOARD MATCH: wstrb passthrough beat=74 expected = 60, actual =60
[985000] SCOREBOARD MATCH: wstrb passthrough beat=75 expected = f7, actual =f7
[985000] SCOREBOARD MATCH: wstrb passthrough beat=76 expected = bc, actual =bc
[985000] SCOREBOARD MATCH: wstrb passthrough beat=77 expected = 50, actual =50
[985000] SCOREBOARD MATCH: wstrb passthrough beat=78 expected = ba, actual =ba
[985000] SCOREBOARD MATCH: wstrb passthrough beat=79 expected = 19, actual =19
[985000] SCOREBOARD MATCH: wstrb passthrough beat=80 expected = 59, actual =59
[985000] SCOREBOARD MATCH: wstrb passthrough beat=81 expected = 1a, actual =1a
[985000] SCOREBOARD MATCH: wstrb passthrough beat=82 expected = 10, actual =10
[985000] SCOREBOARD MATCH: wstrb passthrough beat=83 expected = 15, actual =15
[985000] SCOREBOARD MATCH: wstrb passthrough beat=84 expected = 6b, actual =6b
[985000] SCOREBOARD MATCH: wstrb passthrough beat=85 expected = ca, actual =ca
[985000] SCOREBOARD MATCH: wstrb passthrough beat=86 expected = 2e, actual =2e
[985000] SCOREBOARD MATCH: wstrb passthrough beat=87 expected = c4, actual =c4
[985000] SCOREBOARD MATCH: wstrb passthrough beat=88 expected = e5, actual =e5
[985000] SCOREBOARD MATCH: wstrb passthrough beat=89 expected = 3e, actual =3e
[985000] SCOREBOARD MATCH: bresp passthrough expected = 0, actual =0
[985000] SCOREBOARD MATCH: response routed to correct master (write) expected = 1, actual =1
[985000] [SCOREBOARD-M] mst_id=1 s_id=0 awaddr=335ca78 awid=1100 awlen=89 awsize=2 awburst=1 wdata=[f0068e8df455bd66 e1d2bde4073d813c e2bfe4951390260e 87e5e37419f49517 21321653d2c67322 e6569930e9b8a159 3ad367003f1fae8 d6b86e0aee3c7ca5 d7f51dfe24df4cc3 28d147ab3d0f073b 2b4b83e0dba2546e 81a131ff89b5b5 bc98bcf00340a1de dee2f64c2952e8dc a8dc9e91e7e440d0 eb24e2aedf64977d 8b78059e5755b82 cd599c52ca07d8fa a96c7077b1941eea 97097a6c387e7f01 828657fbb223f0d0 e3b80fbbe46316bf 1ce195c02bf2c873 de16b943fac18a27 df24a0e69f67edbb cb5ab62ec1cec8fe 3c905326fc0636a6 1b6e246229716f72 eb4038709bb4f40c 17bb2ab3e6c8da90 903a4a02a7d08b96 c3857fa333294f15 99f229a5fb7a8273 a34b0e09db40aa56 e69f96b2a2c73a8 25a6f61be6d08dac c2113802a85c2310 d28896b8c8f20424 2fc291d1d07b316d f8d7547ef82f8cd3 c12190f8f1d3c9d3 c24efb41cb5feb36 c38f780af0e422c9 e2b7ec9c3b264fbf 86863af504b10902 f5952bcba506e7dd e02d379cca15b2ff cec6bc01d84d1867 fd540045e6b37292 b0c92591c45be7cc 1ca90034dd8137e1 c434aa73ff8fe193 c3ebc95f19fd0079 f77e385af4fdd005 f48db198e094c993 fa91ca0c3bb2e2ce 30b0b2d3b8797af7 190e448bf2100267 2dc2e535253e646b ddb7df6293a00e97 85b010fede739808 3b1fc73f6c623ed a663285b372f633 91e68e3be169dbd5 d82fffc390164383 c38939b795988aae f7026684e2963248 f2ac75cbd56fc7f2 eb0852a1cf326647 31c8988fb635af82 ba57775e20ab925 313d1f6ca4750e5a daaabdddf6adca16 d8b8833be305b7fb 877ac655e6503552 dcfdff6809f5a2a7 ecfb5aa2e2258432 c875b98435b682a3 3fac254af47620f7 d69ba52aa573b8ec db2a3b8f2ca77fec a11da0e39f115eae c485179b9ad660d9 c77de0c5f7b9460d 16caa4bc9faf532a 3a85b404e89b81a9 e054c7b6db4fbc57 faff0f81820394c9 ea9f1672f71f6c72 d26f28c9b584c385 ] wstrb=[29 4f 4b 9b c1 d0 65 ea 1f b0 86 e1 80 eb cb a0 9b 51 81 1b 3c 4c bb d7 9e 3c f3 da 89 ae b2 27 eb a5 1 74 53 b3 9b 3e 58 9c b2 ac 50 4d ea a8 ea 9d 54 3a ea 3f e2 d4 dc 37 e c6 76 f1 9b 52 28 a9 18 9e 9a b3 f0 c2 5d 8 60 f7 bc 50 ba 19 59 1a 10 15 6b ca 2e c4 e5 3e ] bresp=0 bid=1100
[985000] [SCOREBOARD-S] mst_id=1 s_id=0 awaddr=335ca78 awid=1100 awlen=89 awsize=2 awburst=1 wdata=[f0068e8df455bd66 e1d2bde4073d813c e2bfe4951390260e 87e5e37419f49517 21321653d2c67322 e6569930e9b8a159 3ad367003f1fae8 d6b86e0aee3c7ca5 d7f51dfe24df4cc3 28d147ab3d0f073b 2b4b83e0dba2546e 81a131ff89b5b5 bc98bcf00340a1de dee2f64c2952e8dc a8dc9e91e7e440d0 eb24e2aedf64977d 8b78059e5755b82 cd599c52ca07d8fa a96c7077b1941eea 97097a6c387e7f01 828657fbb223f0d0 e3b80fbbe46316bf 1ce195c02bf2c873 de16b943fac18a27 df24a0e69f67edbb cb5ab62ec1cec8fe 3c905326fc0636a6 1b6e246229716f72 eb4038709bb4f40c 17bb2ab3e6c8da90 903a4a02a7d08b96 c3857fa333294f15 99f229a5fb7a8273 a34b0e09db40aa56 e69f96b2a2c73a8 25a6f61be6d08dac c2113802a85c2310 d28896b8c8f20424 2fc291d1d07b316d f8d7547ef82f8cd3 c12190f8f1d3c9d3 c24efb41cb5feb36 c38f780af0e422c9 e2b7ec9c3b264fbf 86863af504b10902 f5952bcba506e7dd e02d379cca15b2ff cec6bc01d84d1867 fd540045e6b37292 b0c92591c45be7cc 1ca90034dd8137e1 c434aa73ff8fe193 c3ebc95f19fd0079 f77e385af4fdd005 f48db198e094c993 fa91ca0c3bb2e2ce 30b0b2d3b8797af7 190e448bf2100267 2dc2e535253e646b ddb7df6293a00e97 85b010fede739808 3b1fc73f6c623ed a663285b372f633 91e68e3be169dbd5 d82fffc390164383 c38939b795988aae f7026684e2963248 f2ac75cbd56fc7f2 eb0852a1cf326647 31c8988fb635af82 ba57775e20ab925 313d1f6ca4750e5a daaabdddf6adca16 d8b8833be305b7fb 877ac655e6503552 dcfdff6809f5a2a7 ecfb5aa2e2258432 c875b98435b682a3 3fac254af47620f7 d69ba52aa573b8ec db2a3b8f2ca77fec a11da0e39f115eae c485179b9ad660d9 c77de0c5f7b9460d 16caa4bc9faf532a 3a85b404e89b81a9 e054c7b6db4fbc57 faff0f81820394c9 ea9f1672f71f6c72 d26f28c9b584c385 ] wstrb=[29 4f 4b 9b c1 d0 65 ea 1f b0 86 e1 80 eb cb a0 9b 51 81 1b 3c 4c bb d7 9e 3c f3 da 89 ae b2 27 eb a5 1 74 53 b3 9b 3e 58 9c b2 ac 50 4d ea a8 ea 9d 54 3a ea 3f e2 d4 dc 37 e c6 76 f1 9b 52 28 a9 18 9e 9a b3 f0 c2 5d 8 60 f7 bc 50 ba 19 59 1a 10 15 6b ca 2e c4 e5 3e ] bresp=0 bid=11100
[985000] SCOREBOARD: Transaction 3 received. pass=219 fail=0
[985000] ALL PASS. Total transactions: 3
[995000] AXI S0_WVALID_RDY HANDSHAKE
[995000] S0 MEMORY WRITE beat=1 addr=08708d20 data=d487471e11c9334a id=05
[995000] MASTER 1 W_VALID_RDY Handshake beat=1 wlast=0
[995000] MASTER 0 W_VALID_RDY Handshake beat=8 wlast=0
[1005000] MASTER 0 W_VALID_RDY Handshake beat=9 wlast=1
[1005000] MASTER 1 W_VALID_RDY Handshake beat=2 wlast=0
[1005000] AXI S0_WVALID_RDY HANDSHAKE
[1005000] S0 MEMORY WRITE beat=2 addr=08708d30 data=c88009b12755e514 id=05
[1015000] AXI S0_WVALID_RDY HANDSHAKE
[1015000] S0 MEMORY WRITE beat=3 addr=08708ca0 data=ca9b28bbeb24a484 id=05
[1015000] MASTER 1 W_VALID_RDY Handshake beat=3 wlast=0
[1025000] MASTER 1 W_VALID_RDY Handshake beat=4 wlast=0
[1025000] AXI S0_WVALID_RDY HANDSHAKE
[1025000] S0 MEMORY WRITE beat=4 addr=08708cb0 data=fcedd7ced18a76ce id=05
[1035000] AXI S0_WVALID_RDY HANDSHAKE
[1035000] S0 MEMORY WRITE beat=5 addr=08708cc0 data=f8e05be29f226fd9 id=05
[1035000] MASTER 1 W_VALID_RDY Handshake beat=5 wlast=0
[1045000] MASTER 1 W_VALID_RDY Handshake beat=6 wlast=0
[1045000] AXI S0_WVALID_RDY HANDSHAKE
[1045000] S0 MEMORY WRITE beat=6 addr=08708cd0 data=0a47145ec56de17f id=05
[1055000] AXI S0_WVALID_RDY HANDSHAKE
[1055000] S0 MEMORY WRITE beat=7 addr=08708ce0 data=96f8584dc37b849d id=05
[1055000] MASTER 1 W_VALID_RDY Handshake beat=7 wlast=0
[1065000] AXI S0_WVALID_RDY HANDSHAKE
[1065000] S0 MEMORY WRITE beat=8 addr=08708cf0 data=e29df4778734ec2c id=05
[1075000] AXI S0_WVALID_RDY HANDSHAKE
[1075000] S0 MEMORY WRITE beat=9 addr=08708d00 data=cca2cdac8fd8b42f id=05
[1085000] SLAVE0 sent B resp, id=5
[1095000] AXI S0_AWVALID_RDY HANDSHAKE
[1095000] [SLAVE MONITOR] mst_id=0 s_id=0 awaddr=8708d10 awid=101 awlen=9 awsize=4 awburst=2 wdata=[90a6d1da34543a7 d487471e11c9334a c88009b12755e514 ca9b28bbeb24a484 fcedd7ced18a76ce f8e05be29f226fd9 a47145ec56de17f 96f8584dc37b849d e29df4778734ec2c cca2cdac8fd8b42f ] wstrb=[d5 cd f9 1 44 29 ad 19 f6 a7 ] bresp=0 bid=101
[1095000] ARB MONITOR: slave=0 m0_req=0 m1_req=1 winner=1
[1105000] MASTER 0 RECEIVED BRESP. BRESP=0
[1105000] [MASTER DRIVER] mst_id=0 s_id=0 awaddr=8708d10 awid=101 awlen=9 awsize=4 awburst=2 wdata=[90a6d1da34543a7 d487471e11c9334a c88009b12755e514 ca9b28bbeb24a484 fcedd7ced18a76ce f8e05be29f226fd9 a47145ec56de17f 96f8584dc37b849d e29df4778734ec2c cca2cdac8fd8b42f ] wstrb=[d5 cd f9 1 44 29 ad 19 f6 a7 ] bresp=0 bid=101
[1105000] MASTER 0 B_VALID_RDY Handshake
[1105000] [MASTER MONITOR] mst_id=0 s_id=0 awaddr=8708d10 awid=101 awlen=9 awsize=4 awburst=2 wdata=[90a6d1da34543a7 d487471e11c9334a c88009b12755e514 ca9b28bbeb24a484 fcedd7ced18a76ce f8e05be29f226fd9 a47145ec56de17f 96f8584dc37b849d e29df4778734ec2c cca2cdac8fd8b42f ] wstrb=[d5 cd f9 1 44 29 ad 19 f6 a7 ] bresp=0 bid=101
[1105000] AXI S0_WVALID_RDY HANDSHAKE
[1105000] S0 MEMORY WRITE beat=0 addr=03f4aef0 data=0a941af49003db52 id=1d
[1105000] SCOREBOARD MATCH: decode_err expected = 0, actual =0
[1105000] SCOREBOARD MATCH: slave_id expected = 0, actual =0
[1105000] SCOREBOARD MATCH: awaddr passthrough expected = 8708d10, actual =8708d10
[1105000] SCOREBOARD MATCH: awlen passthrough expected = 9, actual =9
[1105000] SCOREBOARD MATCH: awsize passthrough expected = 4, actual =4
[1105000] SCOREBOARD MATCH: awburst passthrough expected = 2, actual =2
[1105000] SCOREBOARD MATCH: wdata size check expected = a, actual =a
[1105000] SCOREBOARD MATCH: wdata passthrough beat=0 expected = 90a6d1da34543a7, actual =90a6d1da34543a7
[1105000] SCOREBOARD MATCH: wdata passthrough beat=1 expected = d487471e11c9334a, actual =d487471e11c9334a
[1105000] SCOREBOARD MATCH: wdata passthrough beat=2 expected = c88009b12755e514, actual =c88009b12755e514
[1105000] SCOREBOARD MATCH: wdata passthrough beat=3 expected = ca9b28bbeb24a484, actual =ca9b28bbeb24a484
[1105000] SCOREBOARD MATCH: wdata passthrough beat=4 expected = fcedd7ced18a76ce, actual =fcedd7ced18a76ce
[1105000] SCOREBOARD MATCH: wdata passthrough beat=5 expected = f8e05be29f226fd9, actual =f8e05be29f226fd9
[1105000] SCOREBOARD MATCH: wdata passthrough beat=6 expected = a47145ec56de17f, actual =a47145ec56de17f
[1105000] SCOREBOARD MATCH: wdata passthrough beat=7 expected = 96f8584dc37b849d, actual =96f8584dc37b849d
[1105000] SCOREBOARD MATCH: wdata passthrough beat=8 expected = e29df4778734ec2c, actual =e29df4778734ec2c
[1105000] SCOREBOARD MATCH: wdata passthrough beat=9 expected = cca2cdac8fd8b42f, actual =cca2cdac8fd8b42f
[1105000] SCOREBOARD MATCH: wstrb size check expected = a, actual =a
[1105000] SCOREBOARD MATCH: wstrb passthrough beat=0 expected = d5, actual =d5
[1105000] SCOREBOARD MATCH: wstrb passthrough beat=1 expected = cd, actual =cd
[1105000] SCOREBOARD MATCH: wstrb passthrough beat=2 expected = f9, actual =f9
[1105000] SCOREBOARD MATCH: wstrb passthrough beat=3 expected = 1, actual =1
[1105000] SCOREBOARD MATCH: wstrb passthrough beat=4 expected = 44, actual =44
[1105000] SCOREBOARD MATCH: wstrb passthrough beat=5 expected = 29, actual =29
[1105000] SCOREBOARD MATCH: wstrb passthrough beat=6 expected = ad, actual =ad
[1105000] SCOREBOARD MATCH: wstrb passthrough beat=7 expected = 19, actual =19
[1105000] SCOREBOARD MATCH: wstrb passthrough beat=8 expected = f6, actual =f6
[1105000] SCOREBOARD MATCH: wstrb passthrough beat=9 expected = a7, actual =a7
[1105000] SCOREBOARD MATCH: bresp passthrough expected = 0, actual =0
[1105000] SCOREBOARD MATCH: response routed to correct master (write) expected = 0, actual =0
[1105000] [SCOREBOARD-M] mst_id=0 s_id=0 awaddr=8708d10 awid=101 awlen=9 awsize=4 awburst=2 wdata=[90a6d1da34543a7 d487471e11c9334a c88009b12755e514 ca9b28bbeb24a484 fcedd7ced18a76ce f8e05be29f226fd9 a47145ec56de17f 96f8584dc37b849d e29df4778734ec2c cca2cdac8fd8b42f ] wstrb=[d5 cd f9 1 44 29 ad 19 f6 a7 ] bresp=0 bid=101
[1105000] [SCOREBOARD-S] mst_id=0 s_id=0 awaddr=8708d10 awid=101 awlen=9 awsize=4 awburst=2 wdata=[90a6d1da34543a7 d487471e11c9334a c88009b12755e514 ca9b28bbeb24a484 fcedd7ced18a76ce f8e05be29f226fd9 a47145ec56de17f 96f8584dc37b849d e29df4778734ec2c cca2cdac8fd8b42f ] wstrb=[d5 cd f9 1 44 29 ad 19 f6 a7 ] bresp=0 bid=101
[1105000] SCOREBOARD: Transaction 4 received. pass=249 fail=0
[1105000] ALL PASS. Total transactions: 4
[1115000] AXI S0_WVALID_RDY HANDSHAKE
[1115000] S0 MEMORY WRITE beat=1 addr=03f4af10 data=a6f8c983e7f60ea9 id=1d
[1115000] MASTER 1 W_VALID_RDY Handshake beat=8 wlast=0
[1125000] MASTER 1 W_VALID_RDY Handshake beat=9 wlast=0
[1125000] AXI S0_WVALID_RDY HANDSHAKE
[1125000] S0 MEMORY WRITE beat=2 addr=03f4af30 data=925dc210ba196068 id=1d
[1135000] AXI S0_WVALID_RDY HANDSHAKE
[1135000] S0 MEMORY WRITE beat=3 addr=03f4af50 data=ca1d3bbbd94ca971 id=1d
[1135000] MASTER 1 W_VALID_RDY Handshake beat=10 wlast=0
[1145000] MASTER 1 W_VALID_RDY Handshake beat=11 wlast=0
[1145000] AXI S0_WVALID_RDY HANDSHAKE
[1145000] S0 MEMORY WRITE beat=4 addr=03f4af70 data=c142b81b9cf1dd04 id=1d
[1155000] AXI S0_WVALID_RDY HANDSHAKE
[1155000] S0 MEMORY WRITE beat=5 addr=03f4af90 data=d70b3d6df116053e id=1d
[1155000] MASTER 1 W_VALID_RDY Handshake beat=12 wlast=0
[1165000] MASTER 1 W_VALID_RDY Handshake beat=13 wlast=0
[1165000] AXI S0_WVALID_RDY HANDSHAKE
[1165000] S0 MEMORY WRITE beat=6 addr=03f4afb0 data=ca62aeb0d3a07a2b id=1d
[1175000] AXI S0_WVALID_RDY HANDSHAKE
[1175000] S0 MEMORY WRITE beat=7 addr=03f4afd0 data=f092573021287928 id=1d
[1175000] MASTER 1 W_VALID_RDY Handshake beat=14 wlast=0
[1185000] MASTER 1 W_VALID_RDY Handshake beat=15 wlast=0
[1185000] AXI S0_WVALID_RDY HANDSHAKE
[1185000] S0 MEMORY WRITE beat=8 addr=03f4aff0 data=923e7e660ba566cb id=1d
[1195000] AXI S0_WVALID_RDY HANDSHAKE
[1195000] S0 MEMORY WRITE beat=9 addr=03f4b010 data=df45e0f6c79d949d id=1d
[1195000] MASTER 1 W_VALID_RDY Handshake beat=16 wlast=0
[1205000] MASTER 1 W_VALID_RDY Handshake beat=17 wlast=0
[1205000] AXI S0_WVALID_RDY HANDSHAKE
[1205000] S0 MEMORY WRITE beat=10 addr=03f4b030 data=e8c60dc5dca12d16 id=1d
[1215000] AXI S0_WVALID_RDY HANDSHAKE
[1215000] S0 MEMORY WRITE beat=11 addr=03f4b050 data=e84693e1cfd83826 id=1d
[1215000] MASTER 1 W_VALID_RDY Handshake beat=18 wlast=0
[1225000] MASTER 1 W_VALID_RDY Handshake beat=19 wlast=0
[1225000] AXI S0_WVALID_RDY HANDSHAKE
[1225000] S0 MEMORY WRITE beat=12 addr=03f4b070 data=9775ccc3fb048c2b id=1d
[1235000] AXI S0_WVALID_RDY HANDSHAKE
[1235000] S0 MEMORY WRITE beat=13 addr=03f4b090 data=d7a5b942c78c74d8 id=1d
[1235000] MASTER 1 W_VALID_RDY Handshake beat=20 wlast=0
[1245000] MASTER 1 W_VALID_RDY Handshake beat=21 wlast=0
[1245000] AXI S0_WVALID_RDY HANDSHAKE
[1245000] S0 MEMORY WRITE beat=14 addr=03f4b0b0 data=9764acfe803bda88 id=1d
[1255000] AXI S0_WVALID_RDY HANDSHAKE
[1255000] S0 MEMORY WRITE beat=15 addr=03f4b0d0 data=fb4066b4bfec4d23 id=1d
[1255000] MASTER 1 W_VALID_RDY Handshake beat=22 wlast=0
[1265000] MASTER 1 W_VALID_RDY Handshake beat=23 wlast=0
[1265000] AXI S0_WVALID_RDY HANDSHAKE
[1265000] S0 MEMORY WRITE beat=16 addr=03f4b0f0 data=8778c1fb2eda79c2 id=1d
[1275000] AXI S0_WVALID_RDY HANDSHAKE
[1275000] S0 MEMORY WRITE beat=17 addr=03f4b110 data=af16544ad2e61ff6 id=1d
[1275000] MASTER 1 W_VALID_RDY Handshake beat=24 wlast=0
[1285000] MASTER 1 W_VALID_RDY Handshake beat=25 wlast=0
[1285000] AXI S0_WVALID_RDY HANDSHAKE
[1285000] S0 MEMORY WRITE beat=18 addr=03f4b130 data=92d26d191edd6efa id=1d
[1295000] AXI S0_WVALID_RDY HANDSHAKE
[1295000] S0 MEMORY WRITE beat=19 addr=03f4b150 data=cdb7e8bcaa56bafe id=1d
[1295000] MASTER 1 W_VALID_RDY Handshake beat=26 wlast=0
[1305000] MASTER 1 W_VALID_RDY Handshake beat=27 wlast=0
[1305000] AXI S0_WVALID_RDY HANDSHAKE
[1305000] S0 MEMORY WRITE beat=20 addr=03f4b170 data=fd3cdaf41a4b2f15 id=1d
[1315000] AXI S0_WVALID_RDY HANDSHAKE
[1315000] S0 MEMORY WRITE beat=21 addr=03f4b190 data=39289e0ffcce3d06 id=1d
[1315000] MASTER 1 W_VALID_RDY Handshake beat=28 wlast=0
[1325000] MASTER 1 W_VALID_RDY Handshake beat=29 wlast=0
[1325000] AXI S0_WVALID_RDY HANDSHAKE
[1325000] S0 MEMORY WRITE beat=22 addr=03f4b1b0 data=2724f805100f480e id=1d
[1335000] AXI S0_WVALID_RDY HANDSHAKE
[1335000] S0 MEMORY WRITE beat=23 addr=03f4b1d0 data=2a5a772306e086cb id=1d
[1335000] MASTER 1 W_VALID_RDY Handshake beat=30 wlast=0
[1345000] MASTER 1 W_VALID_RDY Handshake beat=31 wlast=0
[1345000] AXI S0_WVALID_RDY HANDSHAKE
[1345000] S0 MEMORY WRITE beat=24 addr=03f4b1f0 data=83aec3d1a461d2f9 id=1d
[1355000] AXI S0_WVALID_RDY HANDSHAKE
[1355000] S0 MEMORY WRITE beat=25 addr=03f4b210 data=b4711b07e3831532 id=1d
[1355000] MASTER 1 W_VALID_RDY Handshake beat=32 wlast=0
[1365000] MASTER 1 W_VALID_RDY Handshake beat=33 wlast=0
[1365000] AXI S0_WVALID_RDY HANDSHAKE
[1365000] S0 MEMORY WRITE beat=26 addr=03f4b230 data=ea639bfdaad3bbd6 id=1d
[1375000] AXI S0_WVALID_RDY HANDSHAKE
[1375000] S0 MEMORY WRITE beat=27 addr=03f4b250 data=cf358ed0decb922a id=1d
[1375000] MASTER 1 W_VALID_RDY Handshake beat=34 wlast=0
[1385000] MASTER 1 W_VALID_RDY Handshake beat=35 wlast=0
[1385000] AXI S0_WVALID_RDY HANDSHAKE
[1385000] S0 MEMORY WRITE beat=28 addr=03f4b270 data=c24ea75cee125fce id=1d
[1395000] AXI S0_WVALID_RDY HANDSHAKE
[1395000] S0 MEMORY WRITE beat=29 addr=03f4b290 data=18e61ba583a6a9d7 id=1d
[1395000] MASTER 1 W_VALID_RDY Handshake beat=36 wlast=0
[1405000] MASTER 1 W_VALID_RDY Handshake beat=37 wlast=0
[1405000] AXI S0_WVALID_RDY HANDSHAKE
[1405000] S0 MEMORY WRITE beat=30 addr=03f4b2b0 data=e2723c02acb24359 id=1d
[1415000] AXI S0_WVALID_RDY HANDSHAKE
[1415000] S0 MEMORY WRITE beat=31 addr=03f4b2d0 data=1ac4a328e81baa75 id=1d
[1415000] MASTER 1 W_VALID_RDY Handshake beat=38 wlast=0
[1425000] MASTER 1 W_VALID_RDY Handshake beat=39 wlast=0
[1425000] AXI S0_WVALID_RDY HANDSHAKE
[1425000] S0 MEMORY WRITE beat=32 addr=03f4b2f0 data=ebc2544ca4c0e35e id=1d
[1435000] AXI S0_WVALID_RDY HANDSHAKE
[1435000] S0 MEMORY WRITE beat=33 addr=03f4b310 data=d17326b833aabecd id=1d
[1435000] MASTER 1 W_VALID_RDY Handshake beat=40 wlast=0
[1445000] MASTER 1 W_VALID_RDY Handshake beat=41 wlast=0
[1445000] AXI S0_WVALID_RDY HANDSHAKE
[1445000] S0 MEMORY WRITE beat=34 addr=03f4b330 data=1bc66942ce34904e id=1d
[1455000] AXI S0_WVALID_RDY HANDSHAKE
[1455000] S0 MEMORY WRITE beat=35 addr=03f4b350 data=f2f573adec37c9e0 id=1d
[1455000] MASTER 1 W_VALID_RDY Handshake beat=42 wlast=0
[1465000] MASTER 1 W_VALID_RDY Handshake beat=43 wlast=0
[1465000] AXI S0_WVALID_RDY HANDSHAKE
[1465000] S0 MEMORY WRITE beat=36 addr=03f4b370 data=1fe288ad8788bd8e id=1d
[1475000] AXI S0_WVALID_RDY HANDSHAKE
[1475000] S0 MEMORY WRITE beat=37 addr=03f4b390 data=d5bd4dddc4689a65 id=1d
[1475000] MASTER 1 W_VALID_RDY Handshake beat=44 wlast=0
[1485000] MASTER 1 W_VALID_RDY Handshake beat=45 wlast=0
[1485000] AXI S0_WVALID_RDY HANDSHAKE
[1485000] S0 MEMORY WRITE beat=38 addr=03f4b3b0 data=30a064453ba8f1ef id=1d
[1495000] AXI S0_WVALID_RDY HANDSHAKE
[1495000] S0 MEMORY WRITE beat=39 addr=03f4b3d0 data=c331af7dc8b2c18a id=1d
[1495000] MASTER 1 W_VALID_RDY Handshake beat=46 wlast=0
[1505000] MASTER 1 W_VALID_RDY Handshake beat=47 wlast=0
[1505000] AXI S0_WVALID_RDY HANDSHAKE
[1505000] S0 MEMORY WRITE beat=40 addr=03f4b3f0 data=0d1b5befd082ecf2 id=1d
[1515000] AXI S0_WVALID_RDY HANDSHAKE
[1515000] S0 MEMORY WRITE beat=41 addr=03f4b410 data=0c2bdee198eefd5a id=1d
[1515000] MASTER 1 W_VALID_RDY Handshake beat=48 wlast=0
[1525000] MASTER 1 W_VALID_RDY Handshake beat=49 wlast=0
[1525000] AXI S0_WVALID_RDY HANDSHAKE
[1525000] S0 MEMORY WRITE beat=42 addr=03f4b430 data=e1a1bee43dbbc034 id=1d
[1535000] AXI S0_WVALID_RDY HANDSHAKE
[1535000] S0 MEMORY WRITE beat=43 addr=03f4b450 data=0e3ead26cf5d8e5e id=1d
[1535000] MASTER 1 W_VALID_RDY Handshake beat=50 wlast=0
[1545000] MASTER 1 W_VALID_RDY Handshake beat=51 wlast=0
[1545000] AXI S0_WVALID_RDY HANDSHAKE
[1545000] S0 MEMORY WRITE beat=44 addr=03f4b470 data=e84c8bb9eebd1ad3 id=1d
[1555000] AXI S0_WVALID_RDY HANDSHAKE
[1555000] S0 MEMORY WRITE beat=45 addr=03f4b490 data=ac78db071a6a8c07 id=1d
[1555000] MASTER 1 W_VALID_RDY Handshake beat=52 wlast=0
[1565000] MASTER 1 W_VALID_RDY Handshake beat=53 wlast=0
[1565000] AXI S0_WVALID_RDY HANDSHAKE
[1565000] S0 MEMORY WRITE beat=46 addr=03f4b4b0 data=e9c81a65c9ee4a9d id=1d
[1575000] AXI S0_WVALID_RDY HANDSHAKE
[1575000] S0 MEMORY WRITE beat=47 addr=03f4b4d0 data=38ab6571bab7882d id=1d
[1575000] MASTER 1 W_VALID_RDY Handshake beat=54 wlast=0
[1585000] MASTER 1 W_VALID_RDY Handshake beat=55 wlast=0
[1585000] AXI S0_WVALID_RDY HANDSHAKE
[1585000] S0 MEMORY WRITE beat=48 addr=03f4b4f0 data=d5221434d214a61e id=1d
[1595000] AXI S0_WVALID_RDY HANDSHAKE
[1595000] S0 MEMORY WRITE beat=49 addr=03f4b510 data=1c02f0bce5244078 id=1d
[1595000] MASTER 1 W_VALID_RDY Handshake beat=56 wlast=0
[1605000] MASTER 1 W_VALID_RDY Handshake beat=57 wlast=0
[1605000] AXI S0_WVALID_RDY HANDSHAKE
[1605000] S0 MEMORY WRITE beat=50 addr=03f4b530 data=1fdbc8a63eea2e9a id=1d
[1615000] AXI S0_WVALID_RDY HANDSHAKE
[1615000] S0 MEMORY WRITE beat=51 addr=03f4b550 data=90fed4b8d4ae562d id=1d
[1615000] MASTER 1 W_VALID_RDY Handshake beat=58 wlast=0
[1625000] MASTER 1 W_VALID_RDY Handshake beat=59 wlast=0
[1625000] AXI S0_WVALID_RDY HANDSHAKE
[1625000] S0 MEMORY WRITE beat=52 addr=03f4b570 data=b9d296a5f4fddcda id=1d
[1635000] AXI S0_WVALID_RDY HANDSHAKE
[1635000] S0 MEMORY WRITE beat=53 addr=03f4b590 data=b3e80b74ad01c574 id=1d
[1635000] MASTER 1 W_VALID_RDY Handshake beat=60 wlast=0
[1645000] MASTER 1 W_VALID_RDY Handshake beat=61 wlast=0
[1645000] AXI S0_WVALID_RDY HANDSHAKE
[1645000] S0 MEMORY WRITE beat=54 addr=03f4b5b0 data=81b01ba1d9ae5f4b id=1d
[1655000] AXI S0_WVALID_RDY HANDSHAKE
[1655000] S0 MEMORY WRITE beat=55 addr=03f4b5d0 data=ceac3c26c4e6e02d id=1d
[1655000] MASTER 1 W_VALID_RDY Handshake beat=62 wlast=0
[1665000] MASTER 1 W_VALID_RDY Handshake beat=63 wlast=0
[1665000] AXI S0_WVALID_RDY HANDSHAKE
[1665000] S0 MEMORY WRITE beat=56 addr=03f4b5f0 data=f1e8a5a13b82b247 id=1d
[1675000] AXI S0_WVALID_RDY HANDSHAKE
[1675000] S0 MEMORY WRITE beat=57 addr=03f4b610 data=953111928294479a id=1d
[1675000] MASTER 1 W_VALID_RDY Handshake beat=64 wlast=0
[1685000] MASTER 1 W_VALID_RDY Handshake beat=65 wlast=0
[1685000] AXI S0_WVALID_RDY HANDSHAKE
[1685000] S0 MEMORY WRITE beat=58 addr=03f4b630 data=c77b27c7f398c143 id=1d
[1695000] AXI S0_WVALID_RDY HANDSHAKE
[1695000] S0 MEMORY WRITE beat=59 addr=03f4b650 data=2f1b738ae3dd4db8 id=1d
[1695000] MASTER 1 W_VALID_RDY Handshake beat=66 wlast=0
[1705000] MASTER 1 W_VALID_RDY Handshake beat=67 wlast=0
[1705000] AXI S0_WVALID_RDY HANDSHAKE
[1705000] S0 MEMORY WRITE beat=60 addr=03f4b670 data=e67195533963cd69 id=1d
[1715000] AXI S0_WVALID_RDY HANDSHAKE
[1715000] S0 MEMORY WRITE beat=61 addr=03f4b690 data=2cfc8eacc44c851c id=1d
[1715000] MASTER 1 W_VALID_RDY Handshake beat=68 wlast=0
[1725000] MASTER 1 W_VALID_RDY Handshake beat=69 wlast=0
[1725000] AXI S0_WVALID_RDY HANDSHAKE
[1725000] S0 MEMORY WRITE beat=62 addr=03f4b6b0 data=2829d2d5adecbd1a id=1d
[1735000] AXI S0_WVALID_RDY HANDSHAKE
[1735000] S0 MEMORY WRITE beat=63 addr=03f4b6d0 data=e7508a83dc180236 id=1d
[1735000] MASTER 1 W_VALID_RDY Handshake beat=70 wlast=0
[1745000] MASTER 1 W_VALID_RDY Handshake beat=71 wlast=0
[1745000] AXI S0_WVALID_RDY HANDSHAKE
[1745000] S0 MEMORY WRITE beat=64 addr=03f4b6f0 data=a06487520e9b6828 id=1d
[1755000] AXI S0_WVALID_RDY HANDSHAKE
[1755000] S0 MEMORY WRITE beat=65 addr=03f4b710 data=bc882542944d192f id=1d
[1755000] MASTER 1 W_VALID_RDY Handshake beat=72 wlast=0
[1765000] MASTER 1 W_VALID_RDY Handshake beat=73 wlast=0
[1765000] AXI S0_WVALID_RDY HANDSHAKE
[1765000] S0 MEMORY WRITE beat=66 addr=03f4b730 data=f0651b65c88e5a27 id=1d
[1775000] AXI S0_WVALID_RDY HANDSHAKE
[1775000] S0 MEMORY WRITE beat=67 addr=03f4b750 data=d729c24f23d8afc6 id=1d
[1775000] MASTER 1 W_VALID_RDY Handshake beat=74 wlast=0
[1785000] MASTER 1 W_VALID_RDY Handshake beat=75 wlast=0
[1785000] AXI S0_WVALID_RDY HANDSHAKE
[1785000] S0 MEMORY WRITE beat=68 addr=03f4b770 data=b825c8f510c9a2b8 id=1d
[1795000] AXI S0_WVALID_RDY HANDSHAKE
[1795000] S0 MEMORY WRITE beat=69 addr=03f4b790 data=d957fcdf13b1e792 id=1d
[1795000] MASTER 1 W_VALID_RDY Handshake beat=76 wlast=0
[1805000] MASTER 1 W_VALID_RDY Handshake beat=77 wlast=0
[1805000] AXI S0_WVALID_RDY HANDSHAKE
[1805000] S0 MEMORY WRITE beat=70 addr=03f4b7b0 data=378a9758288ae45b id=1d
[1815000] AXI S0_WVALID_RDY HANDSHAKE
[1815000] S0 MEMORY WRITE beat=71 addr=03f4b7d0 data=395487133081bf2f id=1d
[1815000] MASTER 1 W_VALID_RDY Handshake beat=78 wlast=0
[1825000] MASTER 1 W_VALID_RDY Handshake beat=79 wlast=0
[1825000] AXI S0_WVALID_RDY HANDSHAKE
[1825000] S0 MEMORY WRITE beat=72 addr=03f4b7f0 data=c433a6c1efb0604d id=1d
[1835000] AXI S0_WVALID_RDY HANDSHAKE
[1835000] S0 MEMORY WRITE beat=73 addr=03f4b810 data=983b44a892ac83f2 id=1d
[1835000] MASTER 1 W_VALID_RDY Handshake beat=80 wlast=0
[1845000] MASTER 1 W_VALID_RDY Handshake beat=81 wlast=0
[1845000] AXI S0_WVALID_RDY HANDSHAKE
[1845000] S0 MEMORY WRITE beat=74 addr=03f4b830 data=c32e4321fbbe3e19 id=1d
[1855000] AXI S0_WVALID_RDY HANDSHAKE
[1855000] S0 MEMORY WRITE beat=75 addr=03f4b850 data=eb6e9e66d18fcbbb id=1d
[1855000] MASTER 1 W_VALID_RDY Handshake beat=82 wlast=0
[1865000] MASTER 1 W_VALID_RDY Handshake beat=83 wlast=0
[1865000] AXI S0_WVALID_RDY HANDSHAKE
[1865000] S0 MEMORY WRITE beat=76 addr=03f4b870 data=e43c4fae8761e9e2 id=1d
[1875000] AXI S0_WVALID_RDY HANDSHAKE
[1875000] S0 MEMORY WRITE beat=77 addr=03f4b890 data=832027fb03a9e30f id=1d
[1875000] MASTER 1 W_VALID_RDY Handshake beat=84 wlast=0
[1885000] MASTER 1 W_VALID_RDY Handshake beat=85 wlast=0
[1885000] AXI S0_WVALID_RDY HANDSHAKE
[1885000] S0 MEMORY WRITE beat=78 addr=03f4b8b0 data=d539aecaa76a92cf id=1d
[1895000] AXI S0_WVALID_RDY HANDSHAKE
[1895000] S0 MEMORY WRITE beat=79 addr=03f4b8d0 data=2ecc7cb2ee8ec662 id=1d
[1895000] MASTER 1 W_VALID_RDY Handshake beat=86 wlast=0
[1905000] MASTER 1 W_VALID_RDY Handshake beat=87 wlast=0
[1905000] AXI S0_WVALID_RDY HANDSHAKE
[1905000] S0 MEMORY WRITE beat=80 addr=03f4b8f0 data=f238a971b975fe78 id=1d
[1915000] AXI S0_WVALID_RDY HANDSHAKE
[1915000] S0 MEMORY WRITE beat=81 addr=03f4b910 data=e0e09148b1eca4ad id=1d
[1915000] MASTER 1 W_VALID_RDY Handshake beat=88 wlast=0
[1925000] MASTER 1 W_VALID_RDY Handshake beat=89 wlast=0
[1925000] AXI S0_WVALID_RDY HANDSHAKE
[1925000] S0 MEMORY WRITE beat=82 addr=03f4b930 data=a07b6b0fc772583b id=1d
[1935000] AXI S0_WVALID_RDY HANDSHAKE
[1935000] S0 MEMORY WRITE beat=83 addr=03f4b950 data=00e856b40fad0dfa id=1d
[1935000] MASTER 1 W_VALID_RDY Handshake beat=90 wlast=0
[1945000] MASTER 1 W_VALID_RDY Handshake beat=91 wlast=0
[1945000] AXI S0_WVALID_RDY HANDSHAKE
[1945000] S0 MEMORY WRITE beat=84 addr=03f4b970 data=c199b2a792b41480 id=1d
[1955000] AXI S0_WVALID_RDY HANDSHAKE
[1955000] S0 MEMORY WRITE beat=85 addr=03f4b990 data=da266cbce1c8e7fc id=1d
[1955000] MASTER 1 W_VALID_RDY Handshake beat=92 wlast=0
[1965000] MASTER 1 W_VALID_RDY Handshake beat=93 wlast=0
[1965000] AXI S0_WVALID_RDY HANDSHAKE
[1965000] S0 MEMORY WRITE beat=86 addr=03f4b9b0 data=f175f5f6e2151db7 id=1d
[1975000] AXI S0_WVALID_RDY HANDSHAKE
[1975000] S0 MEMORY WRITE beat=87 addr=03f4b9d0 data=f4c93237db0ec370 id=1d
[1975000] MASTER 1 W_VALID_RDY Handshake beat=94 wlast=0
[1985000] MASTER 1 W_VALID_RDY Handshake beat=95 wlast=0
[1985000] AXI S0_WVALID_RDY HANDSHAKE
[1985000] S0 MEMORY WRITE beat=88 addr=03f4b9f0 data=3cd7ab6cb30fa89d id=1d
[1995000] AXI S0_WVALID_RDY HANDSHAKE
[1995000] S0 MEMORY WRITE beat=89 addr=03f4ba10 data=9524c654ceef9ef3 id=1d
[1995000] MASTER 1 W_VALID_RDY Handshake beat=96 wlast=0
[2005000] MASTER 1 W_VALID_RDY Handshake beat=97 wlast=0
[2005000] AXI S0_WVALID_RDY HANDSHAKE
[2005000] S0 MEMORY WRITE beat=90 addr=03f4ba30 data=a9fe62632e4da162 id=1d
[2015000] AXI S0_WVALID_RDY HANDSHAKE
[2015000] S0 MEMORY WRITE beat=91 addr=03f4ba50 data=e15d49ff09edf88c id=1d
[2015000] MASTER 1 W_VALID_RDY Handshake beat=98 wlast=0
[2025000] MASTER 1 W_VALID_RDY Handshake beat=99 wlast=0
[2025000] AXI S0_WVALID_RDY HANDSHAKE
[2025000] S0 MEMORY WRITE beat=92 addr=03f4ba70 data=d8dd977fe6d60dcf id=1d
[2035000] AXI S0_WVALID_RDY HANDSHAKE
[2035000] S0 MEMORY WRITE beat=93 addr=03f4ba90 data=9523af31f6821054 id=1d
[2035000] MASTER 1 W_VALID_RDY Handshake beat=100 wlast=0
[2045000] MASTER 1 W_VALID_RDY Handshake beat=101 wlast=0
[2045000] AXI S0_WVALID_RDY HANDSHAKE
[2045000] S0 MEMORY WRITE beat=94 addr=03f4bab0 data=007008e002dbf9e3 id=1d
[2055000] AXI S0_WVALID_RDY HANDSHAKE
[2055000] S0 MEMORY WRITE beat=95 addr=03f4bad0 data=e9b207b2f680f931 id=1d
[2055000] MASTER 1 W_VALID_RDY Handshake beat=102 wlast=0
[2065000] MASTER 1 W_VALID_RDY Handshake beat=103 wlast=0
[2065000] AXI S0_WVALID_RDY HANDSHAKE
[2065000] S0 MEMORY WRITE beat=96 addr=03f4baf0 data=ed030985d94da05f id=1d
[2075000] AXI S0_WVALID_RDY HANDSHAKE
[2075000] S0 MEMORY WRITE beat=97 addr=03f4bb10 data=dc299a42fed5b6e4 id=1d
[2075000] MASTER 1 W_VALID_RDY Handshake beat=104 wlast=0
[2085000] MASTER 1 W_VALID_RDY Handshake beat=105 wlast=0
[2085000] AXI S0_WVALID_RDY HANDSHAKE
[2085000] S0 MEMORY WRITE beat=98 addr=03f4bb30 data=f556b015ed731265 id=1d
[2095000] AXI S0_WVALID_RDY HANDSHAKE
[2095000] S0 MEMORY WRITE beat=99 addr=03f4bb50 data=c6c0b2c4c5dba1f5 id=1d
[2095000] MASTER 1 W_VALID_RDY Handshake beat=106 wlast=0
[2105000] MASTER 1 W_VALID_RDY Handshake beat=107 wlast=0
[2105000] AXI S0_WVALID_RDY HANDSHAKE
[2105000] S0 MEMORY WRITE beat=100 addr=03f4bb70 data=c4b158d9e259b99a id=1d
[2115000] AXI S0_WVALID_RDY HANDSHAKE
[2115000] S0 MEMORY WRITE beat=101 addr=03f4bb90 data=cfcccbff22ea4d07 id=1d
[2115000] MASTER 1 W_VALID_RDY Handshake beat=108 wlast=0
[2125000] MASTER 1 W_VALID_RDY Handshake beat=109 wlast=0
[2125000] AXI S0_WVALID_RDY HANDSHAKE
[2125000] S0 MEMORY WRITE beat=102 addr=03f4bbb0 data=e8c5eefc3a0808ee id=1d
[2135000] AXI S0_WVALID_RDY HANDSHAKE
[2135000] S0 MEMORY WRITE beat=103 addr=03f4bbd0 data=1c61c288968d7ec3 id=1d
[2135000] MASTER 1 W_VALID_RDY Handshake beat=110 wlast=0
[2145000] MASTER 1 W_VALID_RDY Handshake beat=111 wlast=0
[2145000] AXI S0_WVALID_RDY HANDSHAKE
[2145000] S0 MEMORY WRITE beat=104 addr=03f4bbf0 data=b977cbca2d7747d5 id=1d
[2155000] AXI S0_WVALID_RDY HANDSHAKE
[2155000] S0 MEMORY WRITE beat=105 addr=03f4bc10 data=e77f50c3ec2e8e87 id=1d
[2155000] MASTER 1 W_VALID_RDY Handshake beat=112 wlast=0
[2165000] MASTER 1 W_VALID_RDY Handshake beat=113 wlast=0
[2165000] AXI S0_WVALID_RDY HANDSHAKE
[2165000] S0 MEMORY WRITE beat=106 addr=03f4bc30 data=82bc0d4aa23dbac6 id=1d
[2175000] AXI S0_WVALID_RDY HANDSHAKE
[2175000] S0 MEMORY WRITE beat=107 addr=03f4bc50 data=cfb5029b03e1134b id=1d
[2175000] MASTER 1 W_VALID_RDY Handshake beat=114 wlast=0
[2185000] MASTER 1 W_VALID_RDY Handshake beat=115 wlast=0
[2185000] AXI S0_WVALID_RDY HANDSHAKE
[2185000] S0 MEMORY WRITE beat=108 addr=03f4bc70 data=f00fa1d23c33d915 id=1d
[2195000] AXI S0_WVALID_RDY HANDSHAKE
[2195000] S0 MEMORY WRITE beat=109 addr=03f4bc90 data=de7193dbb734535e id=1d
[2195000] MASTER 1 W_VALID_RDY Handshake beat=116 wlast=1
[2205000] AXI S0_WVALID_RDY HANDSHAKE
[2205000] S0 MEMORY WRITE beat=110 addr=03f4bcb0 data=bb1566a9f2cbaf1c id=1d
[2215000] AXI S0_WVALID_RDY HANDSHAKE
[2215000] S0 MEMORY WRITE beat=111 addr=03f4bcd0 data=aeff88312e269677 id=1d
[2225000] AXI S0_WVALID_RDY HANDSHAKE
[2225000] S0 MEMORY WRITE beat=112 addr=03f4bcf0 data=e55ae9d5ab25087b id=1d
[2235000] AXI S0_WVALID_RDY HANDSHAKE
[2235000] S0 MEMORY WRITE beat=113 addr=03f4bd10 data=1df0b7980d711c0d id=1d
[2245000] AXI S0_WVALID_RDY HANDSHAKE
[2245000] S0 MEMORY WRITE beat=114 addr=03f4bd30 data=3b97b2842070507f id=1d
[2255000] AXI S0_WVALID_RDY HANDSHAKE
[2255000] S0 MEMORY WRITE beat=115 addr=03f4bd50 data=cb9558faccf03fc9 id=1d
[2265000] AXI S0_WVALID_RDY HANDSHAKE
[2265000] S0 MEMORY WRITE beat=116 addr=03f4bd70 data=da615bd6a0f29c59 id=1d
[2275000] SLAVE0 sent B resp, id=13
[2275000] [SLAVE MONITOR] mst_id=1 s_id=0 awaddr=3f4aef0 awid=1101 awlen=116 awsize=5 awburst=1 wdata=[a941af49003db52 a6f8c983e7f60ea9 925dc210ba196068 ca1d3bbbd94ca971 c142b81b9cf1dd04 d70b3d6df116053e ca62aeb0d3a07a2b f092573021287928 923e7e660ba566cb df45e0f6c79d949d e8c60dc5dca12d16 e84693e1cfd83826 9775ccc3fb048c2b d7a5b942c78c74d8 9764acfe803bda88 fb4066b4bfec4d23 8778c1fb2eda79c2 af16544ad2e61ff6 92d26d191edd6efa cdb7e8bcaa56bafe fd3cdaf41a4b2f15 39289e0ffcce3d06 2724f805100f480e 2a5a772306e086cb 83aec3d1a461d2f9 b4711b07e3831532 ea639bfdaad3bbd6 cf358ed0decb922a c24ea75cee125fce 18e61ba583a6a9d7 e2723c02acb24359 1ac4a328e81baa75 ebc2544ca4c0e35e d17326b833aabecd 1bc66942ce34904e f2f573adec37c9e0 1fe288ad8788bd8e d5bd4dddc4689a65 30a064453ba8f1ef c331af7dc8b2c18a d1b5befd082ecf2 c2bdee198eefd5a e1a1bee43dbbc034 e3ead26cf5d8e5e e84c8bb9eebd1ad3 ac78db071a6a8c07 e9c81a65c9ee4a9d 38ab6571bab7882d d5221434d214a61e 1c02f0bce5244078 1fdbc8a63eea2e9a 90fed4b8d4ae562d b9d296a5f4fddcda b3e80b74ad01c574 81b01ba1d9ae5f4b ceac3c26c4e6e02d f1e8a5a13b82b247 953111928294479a c77b27c7f398c143 2f1b738ae3dd4db8 e67195533963cd69 2cfc8eacc44c851c 2829d2d5adecbd1a e7508a83dc180236 a06487520e9b6828 bc882542944d192f f0651b65c88e5a27 d729c24f23d8afc6 b825c8f510c9a2b8 d957fcdf13b1e792 378a9758288ae45b 395487133081bf2f c433a6c1efb0604d 983b44a892ac83f2 c32e4321fbbe3e19 eb6e9e66d18fcbbb e43c4fae8761e9e2 832027fb03a9e30f d539aecaa76a92cf 2ecc7cb2ee8ec662 f238a971b975fe78 e0e09148b1eca4ad a07b6b0fc772583b e856b40fad0dfa c199b2a792b41480 da266cbce1c8e7fc f175f5f6e2151db7 f4c93237db0ec370 3cd7ab6cb30fa89d 9524c654ceef9ef3 a9fe62632e4da162 e15d49ff09edf88c d8dd977fe6d60dcf 9523af31f6821054 7008e002dbf9e3 e9b207b2f680f931 ed030985d94da05f dc299a42fed5b6e4 f556b015ed731265 c6c0b2c4c5dba1f5 c4b158d9e259b99a cfcccbff22ea4d07 e8c5eefc3a0808ee 1c61c288968d7ec3 b977cbca2d7747d5 e77f50c3ec2e8e87 82bc0d4aa23dbac6 cfb5029b03e1134b f00fa1d23c33d915 de7193dbb734535e bb1566a9f2cbaf1c aeff88312e269677 e55ae9d5ab25087b 1df0b7980d711c0d 3b97b2842070507f cb9558faccf03fc9 da615bd6a0f29c59 ] wstrb=[92 d8 5a 5c d3 b4 32 65 8c 8d c1 5f 41 f4 c5 cd 81 86 2d c2 7a f2 8f fb 78 bc bd f3 ae 4d ee 27 9 ac 1a b8 f9 8 df 2 b4 f9 ba ad 1 99 b0 b6 92 6a 63 94 4 13 4a 96 7e ad 2a 82 c1 74 18 3f 22 43 c1 e3 b7 d9 22 d9 1c e3 bc d4 bc de ad d9 c1 6a ad 7e 48 5a 57 a c4 4 88 d 5e df 17 23 e3 9f 30 41 7e 47 64 61 e6 94 a2 64 db 7 c5 c1 9b 67 25 77 6e ] bresp=0 bid=11101
[2295000] MASTER 1 B_VALID_RDY Handshake
[2295000] [MASTER MONITOR] mst_id=1 s_id=0 awaddr=3f4aef0 awid=1101 awlen=116 awsize=5 awburst=1 wdata=[a941af49003db52 a6f8c983e7f60ea9 925dc210ba196068 ca1d3bbbd94ca971 c142b81b9cf1dd04 d70b3d6df116053e ca62aeb0d3a07a2b f092573021287928 923e7e660ba566cb df45e0f6c79d949d e8c60dc5dca12d16 e84693e1cfd83826 9775ccc3fb048c2b d7a5b942c78c74d8 9764acfe803bda88 fb4066b4bfec4d23 8778c1fb2eda79c2 af16544ad2e61ff6 92d26d191edd6efa cdb7e8bcaa56bafe fd3cdaf41a4b2f15 39289e0ffcce3d06 2724f805100f480e 2a5a772306e086cb 83aec3d1a461d2f9 b4711b07e3831532 ea639bfdaad3bbd6 cf358ed0decb922a c24ea75cee125fce 18e61ba583a6a9d7 e2723c02acb24359 1ac4a328e81baa75 ebc2544ca4c0e35e d17326b833aabecd 1bc66942ce34904e f2f573adec37c9e0 1fe288ad8788bd8e d5bd4dddc4689a65 30a064453ba8f1ef c331af7dc8b2c18a d1b5befd082ecf2 c2bdee198eefd5a e1a1bee43dbbc034 e3ead26cf5d8e5e e84c8bb9eebd1ad3 ac78db071a6a8c07 e9c81a65c9ee4a9d 38ab6571bab7882d d5221434d214a61e 1c02f0bce5244078 1fdbc8a63eea2e9a 90fed4b8d4ae562d b9d296a5f4fddcda b3e80b74ad01c574 81b01ba1d9ae5f4b ceac3c26c4e6e02d f1e8a5a13b82b247 953111928294479a c77b27c7f398c143 2f1b738ae3dd4db8 e67195533963cd69 2cfc8eacc44c851c 2829d2d5adecbd1a e7508a83dc180236 a06487520e9b6828 bc882542944d192f f0651b65c88e5a27 d729c24f23d8afc6 b825c8f510c9a2b8 d957fcdf13b1e792 378a9758288ae45b 395487133081bf2f c433a6c1efb0604d 983b44a892ac83f2 c32e4321fbbe3e19 eb6e9e66d18fcbbb e43c4fae8761e9e2 832027fb03a9e30f d539aecaa76a92cf 2ecc7cb2ee8ec662 f238a971b975fe78 e0e09148b1eca4ad a07b6b0fc772583b e856b40fad0dfa c199b2a792b41480 da266cbce1c8e7fc f175f5f6e2151db7 f4c93237db0ec370 3cd7ab6cb30fa89d 9524c654ceef9ef3 a9fe62632e4da162 e15d49ff09edf88c d8dd977fe6d60dcf 9523af31f6821054 7008e002dbf9e3 e9b207b2f680f931 ed030985d94da05f dc299a42fed5b6e4 f556b015ed731265 c6c0b2c4c5dba1f5 c4b158d9e259b99a cfcccbff22ea4d07 e8c5eefc3a0808ee 1c61c288968d7ec3 b977cbca2d7747d5 e77f50c3ec2e8e87 82bc0d4aa23dbac6 cfb5029b03e1134b f00fa1d23c33d915 de7193dbb734535e bb1566a9f2cbaf1c aeff88312e269677 e55ae9d5ab25087b 1df0b7980d711c0d 3b97b2842070507f cb9558faccf03fc9 da615bd6a0f29c59 ] wstrb=[92 d8 5a 5c d3 b4 32 65 8c 8d c1 5f 41 f4 c5 cd 81 86 2d c2 7a f2 8f fb 78 bc bd f3 ae 4d ee 27 9 ac 1a b8 f9 8 df 2 b4 f9 ba ad 1 99 b0 b6 92 6a 63 94 4 13 4a 96 7e ad 2a 82 c1 74 18 3f 22 43 c1 e3 b7 d9 22 d9 1c e3 bc d4 bc de ad d9 c1 6a ad 7e 48 5a 57 a c4 4 88 d 5e df 17 23 e3 9f 30 41 7e 47 64 61 e6 94 a2 64 db 7 c5 c1 9b 67 25 77 6e ] bresp=0 bid=1101
[2295000] MASTER 1 RECEIVED BRESP. BRESP=0
[2295000] [MASTER DRIVER] mst_id=1 s_id=0 awaddr=3f4aef0 awid=1101 awlen=116 awsize=5 awburst=1 wdata=[a941af49003db52 a6f8c983e7f60ea9 925dc210ba196068 ca1d3bbbd94ca971 c142b81b9cf1dd04 d70b3d6df116053e ca62aeb0d3a07a2b f092573021287928 923e7e660ba566cb df45e0f6c79d949d e8c60dc5dca12d16 e84693e1cfd83826 9775ccc3fb048c2b d7a5b942c78c74d8 9764acfe803bda88 fb4066b4bfec4d23 8778c1fb2eda79c2 af16544ad2e61ff6 92d26d191edd6efa cdb7e8bcaa56bafe fd3cdaf41a4b2f15 39289e0ffcce3d06 2724f805100f480e 2a5a772306e086cb 83aec3d1a461d2f9 b4711b07e3831532 ea639bfdaad3bbd6 cf358ed0decb922a c24ea75cee125fce 18e61ba583a6a9d7 e2723c02acb24359 1ac4a328e81baa75 ebc2544ca4c0e35e d17326b833aabecd 1bc66942ce34904e f2f573adec37c9e0 1fe288ad8788bd8e d5bd4dddc4689a65 30a064453ba8f1ef c331af7dc8b2c18a d1b5befd082ecf2 c2bdee198eefd5a e1a1bee43dbbc034 e3ead26cf5d8e5e e84c8bb9eebd1ad3 ac78db071a6a8c07 e9c81a65c9ee4a9d 38ab6571bab7882d d5221434d214a61e 1c02f0bce5244078 1fdbc8a63eea2e9a 90fed4b8d4ae562d b9d296a5f4fddcda b3e80b74ad01c574 81b01ba1d9ae5f4b ceac3c26c4e6e02d f1e8a5a13b82b247 953111928294479a c77b27c7f398c143 2f1b738ae3dd4db8 e67195533963cd69 2cfc8eacc44c851c 2829d2d5adecbd1a e7508a83dc180236 a06487520e9b6828 bc882542944d192f f0651b65c88e5a27 d729c24f23d8afc6 b825c8f510c9a2b8 d957fcdf13b1e792 378a9758288ae45b 395487133081bf2f c433a6c1efb0604d 983b44a892ac83f2 c32e4321fbbe3e19 eb6e9e66d18fcbbb e43c4fae8761e9e2 832027fb03a9e30f d539aecaa76a92cf 2ecc7cb2ee8ec662 f238a971b975fe78 e0e09148b1eca4ad a07b6b0fc772583b e856b40fad0dfa c199b2a792b41480 da266cbce1c8e7fc f175f5f6e2151db7 f4c93237db0ec370 3cd7ab6cb30fa89d 9524c654ceef9ef3 a9fe62632e4da162 e15d49ff09edf88c d8dd977fe6d60dcf 9523af31f6821054 7008e002dbf9e3 e9b207b2f680f931 ed030985d94da05f dc299a42fed5b6e4 f556b015ed731265 c6c0b2c4c5dba1f5 c4b158d9e259b99a cfcccbff22ea4d07 e8c5eefc3a0808ee 1c61c288968d7ec3 b977cbca2d7747d5 e77f50c3ec2e8e87 82bc0d4aa23dbac6 cfb5029b03e1134b f00fa1d23c33d915 de7193dbb734535e bb1566a9f2cbaf1c aeff88312e269677 e55ae9d5ab25087b 1df0b7980d711c0d 3b97b2842070507f cb9558faccf03fc9 da615bd6a0f29c59 ] wstrb=[92 d8 5a 5c d3 b4 32 65 8c 8d c1 5f 41 f4 c5 cd 81 86 2d c2 7a f2 8f fb 78 bc bd f3 ae 4d ee 27 9 ac 1a b8 f9 8 df 2 b4 f9 ba ad 1 99 b0 b6 92 6a 63 94 4 13 4a 96 7e ad 2a 82 c1 74 18 3f 22 43 c1 e3 b7 d9 22 d9 1c e3 bc d4 bc de ad d9 c1 6a ad 7e 48 5a 57 a c4 4 88 d 5e df 17 23 e3 9f 30 41 7e 47 64 61 e6 94 a2 64 db 7 c5 c1 9b 67 25 77 6e ] bresp=0 bid=1101
[2295000] SCOREBOARD MATCH: decode_err expected = 0, actual =0
[2295000] SCOREBOARD MATCH: slave_id expected = 0, actual =0
[2295000] SCOREBOARD MATCH: awaddr passthrough expected = 3f4aef0, actual =3f4aef0
[2295000] SCOREBOARD MATCH: awlen passthrough expected = 116, actual =116
[2295000] SCOREBOARD MATCH: awsize passthrough expected = 5, actual =5
[2295000] SCOREBOARD MATCH: awburst passthrough expected = 1, actual =1
[2295000] SCOREBOARD MATCH: wdata size check expected = 75, actual =75
[2295000] SCOREBOARD MATCH: wdata passthrough beat=0 expected = a941af49003db52, actual =a941af49003db52
[2295000] SCOREBOARD MATCH: wdata passthrough beat=1 expected = a6f8c983e7f60ea9, actual =a6f8c983e7f60ea9
[2295000] SCOREBOARD MATCH: wdata passthrough beat=2 expected = 925dc210ba196068, actual =925dc210ba196068
[2295000] SCOREBOARD MATCH: wdata passthrough beat=3 expected = ca1d3bbbd94ca971, actual =ca1d3bbbd94ca971
[2295000] SCOREBOARD MATCH: wdata passthrough beat=4 expected = c142b81b9cf1dd04, actual =c142b81b9cf1dd04
[2295000] SCOREBOARD MATCH: wdata passthrough beat=5 expected = d70b3d6df116053e, actual =d70b3d6df116053e
[2295000] SCOREBOARD MATCH: wdata passthrough beat=6 expected = ca62aeb0d3a07a2b, actual =ca62aeb0d3a07a2b
[2295000] SCOREBOARD MATCH: wdata passthrough beat=7 expected = f092573021287928, actual =f092573021287928
[2295000] SCOREBOARD MATCH: wdata passthrough beat=8 expected = 923e7e660ba566cb, actual =923e7e660ba566cb
[2295000] SCOREBOARD MATCH: wdata passthrough beat=9 expected = df45e0f6c79d949d, actual =df45e0f6c79d949d
[2295000] SCOREBOARD MATCH: wdata passthrough beat=10 expected = e8c60dc5dca12d16, actual =e8c60dc5dca12d16
[2295000] SCOREBOARD MATCH: wdata passthrough beat=11 expected = e84693e1cfd83826, actual =e84693e1cfd83826
[2295000] SCOREBOARD MATCH: wdata passthrough beat=12 expected = 9775ccc3fb048c2b, actual =9775ccc3fb048c2b
[2295000] SCOREBOARD MATCH: wdata passthrough beat=13 expected = d7a5b942c78c74d8, actual =d7a5b942c78c74d8
[2295000] SCOREBOARD MATCH: wdata passthrough beat=14 expected = 9764acfe803bda88, actual =9764acfe803bda88
[2295000] SCOREBOARD MATCH: wdata passthrough beat=15 expected = fb4066b4bfec4d23, actual =fb4066b4bfec4d23
[2295000] SCOREBOARD MATCH: wdata passthrough beat=16 expected = 8778c1fb2eda79c2, actual =8778c1fb2eda79c2
[2295000] SCOREBOARD MATCH: wdata passthrough beat=17 expected = af16544ad2e61ff6, actual =af16544ad2e61ff6
[2295000] SCOREBOARD MATCH: wdata passthrough beat=18 expected = 92d26d191edd6efa, actual =92d26d191edd6efa
[2295000] SCOREBOARD MATCH: wdata passthrough beat=19 expected = cdb7e8bcaa56bafe, actual =cdb7e8bcaa56bafe
[2295000] SCOREBOARD MATCH: wdata passthrough beat=20 expected = fd3cdaf41a4b2f15, actual =fd3cdaf41a4b2f15
[2295000] SCOREBOARD MATCH: wdata passthrough beat=21 expected = 39289e0ffcce3d06, actual =39289e0ffcce3d06
[2295000] SCOREBOARD MATCH: wdata passthrough beat=22 expected = 2724f805100f480e, actual =2724f805100f480e
[2295000] SCOREBOARD MATCH: wdata passthrough beat=23 expected = 2a5a772306e086cb, actual =2a5a772306e086cb
[2295000] SCOREBOARD MATCH: wdata passthrough beat=24 expected = 83aec3d1a461d2f9, actual =83aec3d1a461d2f9
[2295000] SCOREBOARD MATCH: wdata passthrough beat=25 expected = b4711b07e3831532, actual =b4711b07e3831532
[2295000] SCOREBOARD MATCH: wdata passthrough beat=26 expected = ea639bfdaad3bbd6, actual =ea639bfdaad3bbd6
[2295000] SCOREBOARD MATCH: wdata passthrough beat=27 expected = cf358ed0decb922a, actual =cf358ed0decb922a
[2295000] SCOREBOARD MATCH: wdata passthrough beat=28 expected = c24ea75cee125fce, actual =c24ea75cee125fce
[2295000] SCOREBOARD MATCH: wdata passthrough beat=29 expected = 18e61ba583a6a9d7, actual =18e61ba583a6a9d7
[2295000] SCOREBOARD MATCH: wdata passthrough beat=30 expected = e2723c02acb24359, actual =e2723c02acb24359
[2295000] SCOREBOARD MATCH: wdata passthrough beat=31 expected = 1ac4a328e81baa75, actual =1ac4a328e81baa75
[2295000] SCOREBOARD MATCH: wdata passthrough beat=32 expected = ebc2544ca4c0e35e, actual =ebc2544ca4c0e35e
[2295000] SCOREBOARD MATCH: wdata passthrough beat=33 expected = d17326b833aabecd, actual =d17326b833aabecd
[2295000] SCOREBOARD MATCH: wdata passthrough beat=34 expected = 1bc66942ce34904e, actual =1bc66942ce34904e
[2295000] SCOREBOARD MATCH: wdata passthrough beat=35 expected = f2f573adec37c9e0, actual =f2f573adec37c9e0
[2295000] SCOREBOARD MATCH: wdata passthrough beat=36 expected = 1fe288ad8788bd8e, actual =1fe288ad8788bd8e
[2295000] SCOREBOARD MATCH: wdata passthrough beat=37 expected = d5bd4dddc4689a65, actual =d5bd4dddc4689a65
[2295000] SCOREBOARD MATCH: wdata passthrough beat=38 expected = 30a064453ba8f1ef, actual =30a064453ba8f1ef
[2295000] SCOREBOARD MATCH: wdata passthrough beat=39 expected = c331af7dc8b2c18a, actual =c331af7dc8b2c18a
[2295000] SCOREBOARD MATCH: wdata passthrough beat=40 expected = d1b5befd082ecf2, actual =d1b5befd082ecf2
[2295000] SCOREBOARD MATCH: wdata passthrough beat=41 expected = c2bdee198eefd5a, actual =c2bdee198eefd5a
[2295000] SCOREBOARD MATCH: wdata passthrough beat=42 expected = e1a1bee43dbbc034, actual =e1a1bee43dbbc034
[2295000] SCOREBOARD MATCH: wdata passthrough beat=43 expected = e3ead26cf5d8e5e, actual =e3ead26cf5d8e5e
[2295000] SCOREBOARD MATCH: wdata passthrough beat=44 expected = e84c8bb9eebd1ad3, actual =e84c8bb9eebd1ad3
[2295000] SCOREBOARD MATCH: wdata passthrough beat=45 expected = ac78db071a6a8c07, actual =ac78db071a6a8c07
[2295000] SCOREBOARD MATCH: wdata passthrough beat=46 expected = e9c81a65c9ee4a9d, actual =e9c81a65c9ee4a9d
[2295000] SCOREBOARD MATCH: wdata passthrough beat=47 expected = 38ab6571bab7882d, actual =38ab6571bab7882d
[2295000] SCOREBOARD MATCH: wdata passthrough beat=48 expected = d5221434d214a61e, actual =d5221434d214a61e
[2295000] SCOREBOARD MATCH: wdata passthrough beat=49 expected = 1c02f0bce5244078, actual =1c02f0bce5244078
[2295000] SCOREBOARD MATCH: wdata passthrough beat=50 expected = 1fdbc8a63eea2e9a, actual =1fdbc8a63eea2e9a
[2295000] SCOREBOARD MATCH: wdata passthrough beat=51 expected = 90fed4b8d4ae562d, actual =90fed4b8d4ae562d
[2295000] SCOREBOARD MATCH: wdata passthrough beat=52 expected = b9d296a5f4fddcda, actual =b9d296a5f4fddcda
[2295000] SCOREBOARD MATCH: wdata passthrough beat=53 expected = b3e80b74ad01c574, actual =b3e80b74ad01c574
[2295000] SCOREBOARD MATCH: wdata passthrough beat=54 expected = 81b01ba1d9ae5f4b, actual =81b01ba1d9ae5f4b
[2295000] SCOREBOARD MATCH: wdata passthrough beat=55 expected = ceac3c26c4e6e02d, actual =ceac3c26c4e6e02d
[2295000] SCOREBOARD MATCH: wdata passthrough beat=56 expected = f1e8a5a13b82b247, actual =f1e8a5a13b82b247
[2295000] SCOREBOARD MATCH: wdata passthrough beat=57 expected = 953111928294479a, actual =953111928294479a
[2295000] SCOREBOARD MATCH: wdata passthrough beat=58 expected = c77b27c7f398c143, actual =c77b27c7f398c143
[2295000] SCOREBOARD MATCH: wdata passthrough beat=59 expected = 2f1b738ae3dd4db8, actual =2f1b738ae3dd4db8
[2295000] SCOREBOARD MATCH: wdata passthrough beat=60 expected = e67195533963cd69, actual =e67195533963cd69
[2295000] SCOREBOARD MATCH: wdata passthrough beat=61 expected = 2cfc8eacc44c851c, actual =2cfc8eacc44c851c
[2295000] SCOREBOARD MATCH: wdata passthrough beat=62 expected = 2829d2d5adecbd1a, actual =2829d2d5adecbd1a
[2295000] SCOREBOARD MATCH: wdata passthrough beat=63 expected = e7508a83dc180236, actual =e7508a83dc180236
[2295000] SCOREBOARD MATCH: wdata passthrough beat=64 expected = a06487520e9b6828, actual =a06487520e9b6828
[2295000] SCOREBOARD MATCH: wdata passthrough beat=65 expected = bc882542944d192f, actual =bc882542944d192f
[2295000] SCOREBOARD MATCH: wdata passthrough beat=66 expected = f0651b65c88e5a27, actual =f0651b65c88e5a27
[2295000] SCOREBOARD MATCH: wdata passthrough beat=67 expected = d729c24f23d8afc6, actual =d729c24f23d8afc6
[2295000] SCOREBOARD MATCH: wdata passthrough beat=68 expected = b825c8f510c9a2b8, actual =b825c8f510c9a2b8
[2295000] SCOREBOARD MATCH: wdata passthrough beat=69 expected = d957fcdf13b1e792, actual =d957fcdf13b1e792
[2295000] SCOREBOARD MATCH: wdata passthrough beat=70 expected = 378a9758288ae45b, actual =378a9758288ae45b
[2295000] SCOREBOARD MATCH: wdata passthrough beat=71 expected = 395487133081bf2f, actual =395487133081bf2f
[2295000] SCOREBOARD MATCH: wdata passthrough beat=72 expected = c433a6c1efb0604d, actual =c433a6c1efb0604d
[2295000] SCOREBOARD MATCH: wdata passthrough beat=73 expected = 983b44a892ac83f2, actual =983b44a892ac83f2
[2295000] SCOREBOARD MATCH: wdata passthrough beat=74 expected = c32e4321fbbe3e19, actual =c32e4321fbbe3e19
[2295000] SCOREBOARD MATCH: wdata passthrough beat=75 expected = eb6e9e66d18fcbbb, actual =eb6e9e66d18fcbbb
[2295000] SCOREBOARD MATCH: wdata passthrough beat=76 expected = e43c4fae8761e9e2, actual =e43c4fae8761e9e2
[2295000] SCOREBOARD MATCH: wdata passthrough beat=77 expected = 832027fb03a9e30f, actual =832027fb03a9e30f
[2295000] SCOREBOARD MATCH: wdata passthrough beat=78 expected = d539aecaa76a92cf, actual =d539aecaa76a92cf
[2295000] SCOREBOARD MATCH: wdata passthrough beat=79 expected = 2ecc7cb2ee8ec662, actual =2ecc7cb2ee8ec662
[2295000] SCOREBOARD MATCH: wdata passthrough beat=80 expected = f238a971b975fe78, actual =f238a971b975fe78
[2295000] SCOREBOARD MATCH: wdata passthrough beat=81 expected = e0e09148b1eca4ad, actual =e0e09148b1eca4ad
[2295000] SCOREBOARD MATCH: wdata passthrough beat=82 expected = a07b6b0fc772583b, actual =a07b6b0fc772583b
[2295000] SCOREBOARD MATCH: wdata passthrough beat=83 expected = e856b40fad0dfa, actual =e856b40fad0dfa
[2295000] SCOREBOARD MATCH: wdata passthrough beat=84 expected = c199b2a792b41480, actual =c199b2a792b41480
[2295000] SCOREBOARD MATCH: wdata passthrough beat=85 expected = da266cbce1c8e7fc, actual =da266cbce1c8e7fc
[2295000] SCOREBOARD MATCH: wdata passthrough beat=86 expected = f175f5f6e2151db7, actual =f175f5f6e2151db7
[2295000] SCOREBOARD MATCH: wdata passthrough beat=87 expected = f4c93237db0ec370, actual =f4c93237db0ec370
[2295000] SCOREBOARD MATCH: wdata passthrough beat=88 expected = 3cd7ab6cb30fa89d, actual =3cd7ab6cb30fa89d
[2295000] SCOREBOARD MATCH: wdata passthrough beat=89 expected = 9524c654ceef9ef3, actual =9524c654ceef9ef3
[2295000] SCOREBOARD MATCH: wdata passthrough beat=90 expected = a9fe62632e4da162, actual =a9fe62632e4da162
[2295000] SCOREBOARD MATCH: wdata passthrough beat=91 expected = e15d49ff09edf88c, actual =e15d49ff09edf88c
[2295000] SCOREBOARD MATCH: wdata passthrough beat=92 expected = d8dd977fe6d60dcf, actual =d8dd977fe6d60dcf
[2295000] SCOREBOARD MATCH: wdata passthrough beat=93 expected = 9523af31f6821054, actual =9523af31f6821054
[2295000] SCOREBOARD MATCH: wdata passthrough beat=94 expected = 7008e002dbf9e3, actual =7008e002dbf9e3
[2295000] SCOREBOARD MATCH: wdata passthrough beat=95 expected = e9b207b2f680f931, actual =e9b207b2f680f931
[2295000] SCOREBOARD MATCH: wdata passthrough beat=96 expected = ed030985d94da05f, actual =ed030985d94da05f
[2295000] SCOREBOARD MATCH: wdata passthrough beat=97 expected = dc299a42fed5b6e4, actual =dc299a42fed5b6e4
[2295000] SCOREBOARD MATCH: wdata passthrough beat=98 expected = f556b015ed731265, actual =f556b015ed731265
[2295000] SCOREBOARD MATCH: wdata passthrough beat=99 expected = c6c0b2c4c5dba1f5, actual =c6c0b2c4c5dba1f5
[2295000] SCOREBOARD MATCH: wdata passthrough beat=100 expected = c4b158d9e259b99a, actual =c4b158d9e259b99a
[2295000] SCOREBOARD MATCH: wdata passthrough beat=101 expected = cfcccbff22ea4d07, actual =cfcccbff22ea4d07
[2295000] SCOREBOARD MATCH: wdata passthrough beat=102 expected = e8c5eefc3a0808ee, actual =e8c5eefc3a0808ee
[2295000] SCOREBOARD MATCH: wdata passthrough beat=103 expected = 1c61c288968d7ec3, actual =1c61c288968d7ec3
[2295000] SCOREBOARD MATCH: wdata passthrough beat=104 expected = b977cbca2d7747d5, actual =b977cbca2d7747d5
[2295000] SCOREBOARD MATCH: wdata passthrough beat=105 expected = e77f50c3ec2e8e87, actual =e77f50c3ec2e8e87
