#-----------------------------------------------------------
# xsim v2025.2 (64-bit)
# SW Build 6299465 on Fri Nov 14 12:34:56 MST 2025
# IP Build 6300035 on Fri Nov 14 10:48:45 MST 2025
# SharedData Build 6298862 on Thu Nov 13 04:50:51 MST 2025
# Start of session at: Thu Sep 10 18:25:06 2026
# Process ID         : 3619183
# Current directory  : /home/nashita/Desktop/practice/axi_xbar/sim
# Command line       : xsim -log regress_results/BT_run190.log -mode tcl -source {xsim.dir/tb_top_snap/xsim_script.tcl}
# Log file           : /home/nashita/Desktop/practice/axi_xbar/sim/regress_results/BT_run190.log
# Journal file       : /home/nashita/Desktop/practice/axi_xbar/sim/xsim.jou
# Running On         : vlsi-vivado
# Platform           : Ubuntu
# Operating System   : Ubuntu 24.04.4 LTS
# Processor Detail   : Intel(R) Core(TM) i5-10400 CPU @ 2.90GHz
# CPU Frequency      : 3999.953 MHz
# CPU Physical cores : 6
# CPU Logical cores  : 12
# Host memory        : 41875 MB
# Swap memory        : 27648 MB
# Total Virtual      : 69524 MB
# Available Virtual  : 62880 MB
#-----------------------------------------------------------
source xsim.dir/tb_top_snap/xsim_script.tcl
# xsim {tb_top_snap} -testplusarg BT -autoloadwcfg -runall -sv_seed 191
Time resolution is 1 ps
run -all
[0] RUNNING BASE TEST
[0] INSIDE THE BASE TEST CONSTRUCTOR
[0] ENV: before agent
[0] SLAVE CONSTRUCTED
[0] MASTER MONITOR CONSTRUCTED
[0] MASTER MONITOR CONSTRUCTED
[0] SLAVE MONITOR CONSTRUCTED
[0] SLAVE MONITOR CONSTRUCTED
[0] ARB MONITOR CONSTRUCTED
GENERATOR CONSTRUCTED
[0] ENV: after agent
[0] ENV: before scoreboard
[0] ENV: after scoreboard
[15000] [SEQUENCER] READ mst_id=1 s_id=0 araddr=120e6e50 arid=0 arlen=1 arsize=3 arburst=1 rid=[] rresp=[] rdata=[]
[15000] [SEQUENCER] READ mst_id=1 s_id=0 araddr=e7354a0 arid=1 arlen=1 arsize=3 arburst=1 rid=[] rresp=[] rdata=[]
[15000] [SEQUENCER] mst_id=0 s_id=0 awaddr=cc0e1a8 awid=1001 awlen=1 awsize=7 awburst=0 wdata=[efd1464086bc0438 85a05327bb1f08ef ] wstrb=[bf a6 ] bresp=0 bid=0
[15000] [SEQUENCER] READ mst_id=0 s_id=0 araddr=1a966af8 arid=1 arlen=1 arsize=3 arburst=1 rid=[] rresp=[] rdata=[]
[15000] [SEQUENCER] mst_id=1 s_id=0 awaddr=139fd0e0 awid=1110 awlen=139 awsize=3 awburst=1 wdata=[deac6eb2deaf1841 7c7c26e08c5891d ce262ac0d06e183e 2f1d307fcb7cdf05 d44268222cd29973 fd40b1b136e4f2ed 261d1f2a26892e2 cf3b2c552c5de230 e342d51dd6a43a14 f90cccf6cc7bde06 f8d9c036e5a4a70f 3c48e123c847f94c 94c3d752dc1c9553 c1c13c62b555ae19 fd9da7650d9d9789 e9ba2cdcfe0a1d85 335fcb9f12617eb8 1fff16412b7b693f a98586c4b0fd7304 c35ef1bc89b9431d b534ac5cdce55263 de2c568e35e07fd ed174b1bdeba3321 bb9f8584d141b724 349fbf22a24bf777 81062a98c9824aec 1ac4021121b70a3d c40301b43ca5b01d 8627fb09cf63c133 f11acb70c5092c4d 1aedc6aa0ebfd1a f04fbe4db51dcd24 fa26f97187d6d773 28c2d48ee16a89bd 168856e2fbd5d5db 3acad4f991292db fa7d1c9990af5053 c85262f2c6f81dd c58214b81105737b a1b4c3ce1031d37e 3ca1555bbfff3151 d104a4ccae39e9fd be6bbd7b82236a13 c2229b65f2b9689b a0f35298fb0d12d6 fd307cea93274031 85e0a8ccdf5f1014 da6c22ea3f53184f d27a588026d3fb65 6330b79d79c9fd4 96efb823d85b014d ff2efcb2e09f2e63 383bce38e96a10a4 c1c511f10562082b e601368ecf2b865b b89596ffc0f40ea3 c65616ce9e3d04c6 ed688b22fa5aa8f0 bb4eb793ac574d5c ca945223a5fe2221 2058cb1281a4ce61 2dfc1bbe37fcdd45 ddfaff66dba782a5 dd4c5107f8906de1 308d4b26fe53ca78 d9fb4d1e0b486cc5 3d8daa68e884a8c cdc150537479e25 c2900aea346625cc c2ee7058e6d76223 1e1f0048c668e590 facf0b5ccfca855d b6a1e780e0af0b32 2717f0c2bdbd7bb4 d880112d4c0e7c8 b56ff2fa21e6fc1e dfa477d2c429e892 18ead05bdc87e3bc fe6edfdaed2c78e4 31566177ce5ac355 2ae2a712de1357ad cb3fd091ca4131d2 989bf527a95186ec 8764de99fc963208 c6d763dac37e9c39 ecd02326d2a4af2b cf3ae133df735902 a2f1f53bf43501bf c6d9b0ea1612450e f5859e108fc21861 3f71a211614921e 2c26d72c9877934b 2839abadcad0cb0b e0e55d2921ac753c ba2408872c30c5ce f70190d98d0c3455 aeb8a991e25db434 8e8e7a02d7e6ee03 e4f32258e8dcb219 cb3a664d05900adc dd76f8df13abcbea fc887e03d9c8e050 df58eb2cc26a1b37 d615e721c7c2e450 a18bc4a03ccfe40b ff39ff42d29e6524 1a61497580e4afcc bdb493d7d54fe664 a7ee4b88bbed0e15 3cd1bde23cee931a 123e797ec24f94fd fe3ca313fa8651b9 b774e4d3ba2cc506 fc7c5a043b0e60f5 b594b2aec9b35e51 3e02358fab8fd17 35c75e0ced099782 b6bcf5d3005c7d5c fb157a73eb5c10ba d865a83cba9d192b baf9968730dcd87f 9c38e9390f229e10 c9bfb73bb60f10fa e6ebe979f49e9176 3c12f8604b94dc3 bac85ebd0324d2b3 f7c36429cd80e6c1 d23a348421b44837 24d91aeafb8493af c9057a700d029342 2eb6db791c9c7f13 182112c21b3faef5 28424237d38ff663 f02c7576e1268d32 fc663c27d6f91db0 2a891413084d8838 e974156aa4a87e5e fba19c0e1ab58989 230311c1e5da5192 8a82cff0a62ab021 ] wstrb=[2b aa ff bd 6b 20 ae 97 cb ad 54 36 cd 2 cd 98 af 22 cf 7d 24 9c 15 d4 be e4 51 e3 81 66 b7 3f 4b 8 22 cc 6e d9 b b9 e1 2e 85 50 7 91 9 e9 bf 8f 39 c6 20 42 af df d1 e8 a5 f1 2b 55 d0 fc 3d 76 ee 68 cb be 65 8 34 53 71 ff 11 d6 8 46 29 79 45 3a 4f 4d 80 78 c6 c6 b2 15 13 33 8d da f9 40 ef c 73 7d e6 6c bd d6 78 30 53 5f 9c 10 35 14 40 88 73 dc 98 a8 f0 d8 30 64 b4 c8 c a4 a0 3d 8 54 5 15 f9 a6 52 1 fa 57 ] bresp=0 bid=0
[15000] MASTER_DRIVER1 received transaction, op=AXI_READ
[15000] MASTER_DRIVER0 received transaction, op=AXI_WRITE
[35000] MASTER 0 AW_VALID_RDY Handshake
[35000] MASTER_DRIVER1 received transaction, op=AXI_READ
[45000] ARB MONITOR: slave=0 m0_req=1 m1_req=0 winner=0
[45000] ARB MONITOR: slave=1 m0_req=0 m1_req=1 winner=1
[45000] AXI S0_ARVALID_RDY HANDSHAKE
[45000] MEMORY READ MISS beat=0 addr=120e6e50 -> default data id=16
[45000] AXI S0_AWVALID_RDY HANDSHAKE
[55000] MEMORY READ MISS beat=1 addr=120e6e58 -> default data id=16
[55000] SLAVE 1 R_VALID_RDY Handshake beat=0 rlast=0
[55000] MASTER 0 W_VALID_RDY Handshake beat=0 wlast=0
[55000] MASTER_DRIVER1 received transaction, op=AXI_WRITE
[65000] MASTER_DRIVER0 received transaction, op=AXI_READ
[65000] MASTER 0 W_VALID_RDY Handshake beat=1 wlast=1
[65000] ARB MONITOR: slave=0 m0_req=0 m1_req=1 winner=1
[65000] SLAVE 1 R_VALID_RDY Handshake beat=1 rlast=1
[65000] [SLAVE MONITOR] READ mst_id=1 s_id=1 araddr=120e6e50 arid=0 arlen=1 arsize=3 arburst=1 rid=[1010] rresp=[00] rdata=[baadf00d12345678baadf00d12345678]
[65000] AXI S0_ARVALID_RDY HANDSHAKE
[65000] MEMORY READ MISS beat=0 addr=e7354a0 -> default data id=17
[65000] AXI S0_WVALID_RDY HANDSHAKE
[65000] S0 MEMORY WRITE beat=0 addr=0cc0e1a8 data=efd1464086bc0438 id=09
[75000] AXI S0_WVALID_RDY HANDSHAKE
[75000] S0 MEMORY WRITE beat=1 addr=0cc0e1a8 data=85a05327bb1f08ef id=09
[75000] MEMORY READ MISS beat=1 addr=e7354a8 -> default data id=17
[75000] SLAVE 0 R_VALID_RDY Handshake beat=0 rlast=0
[75000] MASTER 1 R_VALID_RDY Handshake beat=0 rlast=0
[75000] MASTER 1 AW_VALID_RDY Handshake
[85000] [MASTER DRIVER] READ mst_id=1 s_id=0 araddr=120e6e50 arid=0 arlen=1 arsize=3 arburst=1 rid=[00] rresp=[00] rdata=[baadf00d12345678baadf00d12345678]
[85000] MASTER 1 R_VALID_RDY Handshake beat=1 rlast=1
[85000] [MASTER MONITOR] READ mst_id=1 s_id=1 araddr=120e6e50 arid=0 arlen=1 arsize=3 arburst=1 rid=[00] rresp=[00] rdata=[baadf00d12345678baadf00d12345678]
[85000] ARB MONITOR: slave=1 m0_req=0 m1_req=1 winner=1
[85000] SLAVE 0 R_VALID_RDY Handshake beat=1 rlast=1
[85000] [SLAVE MONITOR] READ mst_id=1 s_id=0 araddr=e7354a0 arid=1 arlen=1 arsize=3 arburst=1 rid=[1111] rresp=[00] rdata=[baadf00d12345678baadf00d12345678]
[85000] AXI S1_AWVALID_RDY HANDSHAKE
[85000] SLAVE0 sent B resp, id=9
[85000] SCOREBOARD MATCH: decode_err expected = 0, actual =0
[85000] SCOREBOARD MATCH: slave_id expected = 1, actual =1
[85000] SCOREBOARD MATCH: araddr passthrough expected = 120e6e50, actual =120e6e50
[85000] SCOREBOARD MATCH: arlen passthrough expected = 1, actual =1
[85000] SCOREBOARD MATCH: arsize passthrough expected = 3, actual =3
[85000] SCOREBOARD MATCH: arburst passthrough expected = 1, actual =1
[85000] SCOREBOARD MATCH: rdata size check expected = 2, actual =2
[85000] SCOREBOARD MATCH: rdata passthrough beat=0 expected = baadf00d12345678, actual =baadf00d12345678
[85000] SCOREBOARD MATCH: rdata passthrough beat=1 expected = baadf00d12345678, actual =baadf00d12345678
[85000] SCOREBOARD MATCH: rresp size check expected = 2, actual =2
[85000] SCOREBOARD MATCH: rresp passthrough beat=0 expected = 0, actual =0
[85000] SCOREBOARD MATCH: rresp passthrough beat=1 expected = 0, actual =0
[85000] SCOREBOARD MATCH: response routed to correct master (read beat 0) expected = 1, actual =1
[85000] SCOREBOARD MATCH: response routed to correct master (read beat 1) expected = 1, actual =1
[85000] [SCOREBOARD-M] READ mst_id=1 s_id=1 araddr=120e6e50 arid=0 arlen=1 arsize=3 arburst=1 rid=[00] rresp=[00] rdata=[baadf00d12345678baadf00d12345678]
[85000] [SCOREBOARD-S] READ mst_id=1 s_id=1 araddr=120e6e50 arid=0 arlen=1 arsize=3 arburst=1 rid=[1010] rresp=[00] rdata=[baadf00d12345678baadf00d12345678]
[85000] SCOREBOARD: Transaction 1 received. pass=14 fail=0
[85000] ALL PASS. Total transactions: 1
[95000] AXI S0_ARVALID_RDY HANDSHAKE
[95000] MEMORY READ MISS beat=0 addr=1a966af8 -> default data id=1
[95000] [SLAVE MONITOR] mst_id=0 s_id=0 awaddr=cc0e1a8 awid=1001 awlen=1 awsize=7 awburst=0 wdata=[efd1464086bc0438 85a05327bb1f08ef ] wstrb=[bf a6 ] bresp=0 bid=1001
[95000] ARB MONITOR: slave=1 m0_req=1 m1_req=0 winner=0
[95000] MASTER 1 W_VALID_RDY Handshake beat=0 wlast=0
[105000] MASTER 0 RECEIVED BRESP. BRESP=0
[105000] [MASTER DRIVER] mst_id=0 s_id=0 awaddr=cc0e1a8 awid=1001 awlen=1 awsize=7 awburst=0 wdata=[efd1464086bc0438 85a05327bb1f08ef ] wstrb=[bf a6 ] bresp=0 bid=1001
[105000] MASTER 0 B_VALID_RDY Handshake
[105000] [MASTER MONITOR] mst_id=0 s_id=0 awaddr=cc0e1a8 awid=1001 awlen=1 awsize=7 awburst=0 wdata=[efd1464086bc0438 85a05327bb1f08ef ] wstrb=[bf a6 ] bresp=0 bid=1001
[105000] MASTER 1 W_VALID_RDY Handshake beat=1 wlast=0
[105000] MASTER 1 R_VALID_RDY Handshake beat=0 rlast=0
[105000] SLAVE 1 R_VALID_RDY Handshake beat=0 rlast=0
[105000] MEMORY READ MISS beat=1 addr=1a966b00 -> default data id=1
[105000] S1 MEMORY WRITE beat=0 addr=139fd0e0 data=deac6eb2deaf1841 id=1e
[105000] SCOREBOARD MATCH: decode_err expected = 0, actual =0
[105000] SCOREBOARD MATCH: slave_id expected = 0, actual =0
[105000] SCOREBOARD MATCH: awaddr passthrough expected = cc0e1a8, actual =cc0e1a8
[105000] SCOREBOARD MATCH: awlen passthrough expected = 1, actual =1
[105000] SCOREBOARD MATCH: awsize passthrough expected = 7, actual =7
[105000] SCOREBOARD MATCH: awburst passthrough expected = 0, actual =0
[105000] SCOREBOARD MATCH: wdata size check expected = 2, actual =2
[105000] SCOREBOARD MATCH: wdata passthrough beat=0 expected = efd1464086bc0438, actual =efd1464086bc0438
[105000] SCOREBOARD MATCH: wdata passthrough beat=1 expected = 85a05327bb1f08ef, actual =85a05327bb1f08ef
[105000] SCOREBOARD MATCH: wstrb size check expected = 2, actual =2
[105000] SCOREBOARD MATCH: wstrb passthrough beat=0 expected = bf, actual =bf
[105000] SCOREBOARD MATCH: wstrb passthrough beat=1 expected = a6, actual =a6
[105000] SCOREBOARD MATCH: bresp passthrough expected = 0, actual =0
[105000] SCOREBOARD MATCH: response routed to correct master (write) expected = 0, actual =0
[105000] [SCOREBOARD-M] mst_id=0 s_id=0 awaddr=cc0e1a8 awid=1001 awlen=1 awsize=7 awburst=0 wdata=[efd1464086bc0438 85a05327bb1f08ef ] wstrb=[bf a6 ] bresp=0 bid=1001
[105000] [SCOREBOARD-S] mst_id=0 s_id=0 awaddr=cc0e1a8 awid=1001 awlen=1 awsize=7 awburst=0 wdata=[efd1464086bc0438 85a05327bb1f08ef ] wstrb=[bf a6 ] bresp=0 bid=1001
[105000] SCOREBOARD: Transaction 2 received. pass=28 fail=0
[105000] ALL PASS. Total transactions: 2
[115000] S1 MEMORY WRITE beat=1 addr=139fd0e8 data=07c7c26e08c5891d id=1e
[115000] SLAVE 1 R_VALID_RDY Handshake beat=1 rlast=1
[115000] [SLAVE MONITOR] READ mst_id=0 s_id=1 araddr=1a966af8 arid=1 arlen=1 arsize=3 arburst=1 rid=[11] rresp=[00] rdata=[baadf00d12345678baadf00d12345678]
[115000] MASTER 1 R_VALID_RDY Handshake beat=1 rlast=1
[115000] [MASTER MONITOR] READ mst_id=1 s_id=0 araddr=e7354a0 arid=1 arlen=1 arsize=3 arburst=1 rid=[11] rresp=[00] rdata=[baadf00d12345678baadf00d12345678]
[115000] MASTER 1 W_VALID_RDY Handshake beat=2 wlast=0
[115000] [MASTER DRIVER] READ mst_id=1 s_id=0 araddr=e7354a0 arid=1 arlen=1 arsize=3 arburst=1 rid=[11] rresp=[00] rdata=[baadf00d12345678baadf00d12345678]
[115000] SCOREBOARD MATCH: decode_err expected = 0, actual =0
[115000] SCOREBOARD MATCH: slave_id expected = 0, actual =0
[115000] SCOREBOARD MATCH: araddr passthrough expected = e7354a0, actual =e7354a0
[115000] SCOREBOARD MATCH: arlen passthrough expected = 1, actual =1
[115000] SCOREBOARD MATCH: arsize passthrough expected = 3, actual =3
[115000] SCOREBOARD MATCH: arburst passthrough expected = 1, actual =1
[115000] SCOREBOARD MATCH: rdata size check expected = 2, actual =2
[115000] SCOREBOARD MATCH: rdata passthrough beat=0 expected = baadf00d12345678, actual =baadf00d12345678
[115000] SCOREBOARD MATCH: rdata passthrough beat=1 expected = baadf00d12345678, actual =baadf00d12345678
[115000] SCOREBOARD MATCH: rresp size check expected = 2, actual =2
[115000] SCOREBOARD MATCH: rresp passthrough beat=0 expected = 0, actual =0
[115000] SCOREBOARD MATCH: rresp passthrough beat=1 expected = 0, actual =0
[115000] SCOREBOARD MATCH: response routed to correct master (read beat 0) expected = 1, actual =1
[115000] SCOREBOARD MATCH: response routed to correct master (read beat 1) expected = 1, actual =1
[115000] [SCOREBOARD-M] READ mst_id=1 s_id=0 araddr=e7354a0 arid=1 arlen=1 arsize=3 arburst=1 rid=[11] rresp=[00] rdata=[baadf00d12345678baadf00d12345678]
[115000] [SCOREBOARD-S] READ mst_id=1 s_id=0 araddr=e7354a0 arid=1 arlen=1 arsize=3 arburst=1 rid=[1111] rresp=[00] rdata=[baadf00d12345678baadf00d12345678]
[115000] SCOREBOARD: Transaction 3 received. pass=42 fail=0
[115000] ALL PASS. Total transactions: 3
[125000] MASTER 0 R_VALID_RDY Handshake beat=0 rlast=0
[125000] MASTER 1 W_VALID_RDY Handshake beat=3 wlast=0
[125000] S1 MEMORY WRITE beat=2 addr=139fd0f0 data=ce262ac0d06e183e id=1e
[135000] S1 MEMORY WRITE beat=3 addr=139fd0f8 data=2f1d307fcb7cdf05 id=1e
[135000] MASTER 1 W_VALID_RDY Handshake beat=4 wlast=0
[135000] MASTER 0 R_VALID_RDY Handshake beat=1 rlast=1
[135000] [MASTER MONITOR] READ mst_id=0 s_id=1 araddr=1a966af8 arid=1 arlen=1 arsize=3 arburst=1 rid=[11] rresp=[00] rdata=[baadf00d12345678baadf00d12345678]
[135000] [MASTER DRIVER] READ mst_id=0 s_id=0 araddr=1a966af8 arid=1 arlen=1 arsize=3 arburst=1 rid=[11] rresp=[00] rdata=[baadf00d12345678baadf00d12345678]
[135000] SCOREBOARD MATCH: decode_err expected = 0, actual =0
[135000] SCOREBOARD MATCH: slave_id expected = 1, actual =1
[135000] SCOREBOARD MATCH: araddr passthrough expected = 1a966af8, actual =1a966af8
[135000] SCOREBOARD MATCH: arlen passthrough expected = 1, actual =1
[135000] SCOREBOARD MATCH: arsize passthrough expected = 3, actual =3
[135000] SCOREBOARD MATCH: arburst passthrough expected = 1, actual =1
[135000] SCOREBOARD MATCH: rdata size check expected = 2, actual =2
[135000] SCOREBOARD MATCH: rdata passthrough beat=0 expected = baadf00d12345678, actual =baadf00d12345678
[135000] SCOREBOARD MATCH: rdata passthrough beat=1 expected = baadf00d12345678, actual =baadf00d12345678
[135000] SCOREBOARD MATCH: rresp size check expected = 2, actual =2
[135000] SCOREBOARD MATCH: rresp passthrough beat=0 expected = 0, actual =0
[135000] SCOREBOARD MATCH: rresp passthrough beat=1 expected = 0, actual =0
[135000] SCOREBOARD MATCH: response routed to correct master (read beat 0) expected = 0, actual =0
[135000] SCOREBOARD MATCH: response routed to correct master (read beat 1) expected = 0, actual =0
[135000] [SCOREBOARD-M] READ mst_id=0 s_id=1 araddr=1a966af8 arid=1 arlen=1 arsize=3 arburst=1 rid=[11] rresp=[00] rdata=[baadf00d12345678baadf00d12345678]
[135000] [SCOREBOARD-S] READ mst_id=0 s_id=1 araddr=1a966af8 arid=1 arlen=1 arsize=3 arburst=1 rid=[11] rresp=[00] rdata=[baadf00d12345678baadf00d12345678]
[135000] SCOREBOARD: Transaction 4 received. pass=56 fail=0
[135000] ALL PASS. Total transactions: 4
[145000] MASTER 1 W_VALID_RDY Handshake beat=5 wlast=0
[145000] S1 MEMORY WRITE beat=4 addr=139fd100 data=d44268222cd29973 id=1e
[155000] S1 MEMORY WRITE beat=5 addr=139fd108 data=fd40b1b136e4f2ed id=1e
[155000] MASTER 1 W_VALID_RDY Handshake beat=6 wlast=0
[165000] MASTER 1 W_VALID_RDY Handshake beat=7 wlast=0
[165000] S1 MEMORY WRITE beat=6 addr=139fd110 data=0261d1f2a26892e2 id=1e
[175000] S1 MEMORY WRITE beat=7 addr=139fd118 data=cf3b2c552c5de230 id=1e
[175000] MASTER 1 W_VALID_RDY Handshake beat=8 wlast=0
[185000] MASTER 1 W_VALID_RDY Handshake beat=9 wlast=0
[185000] S1 MEMORY WRITE beat=8 addr=139fd120 data=e342d51dd6a43a14 id=1e
[195000] S1 MEMORY WRITE beat=9 addr=139fd128 data=f90cccf6cc7bde06 id=1e
[195000] MASTER 1 W_VALID_RDY Handshake beat=10 wlast=0
[205000] MASTER 1 W_VALID_RDY Handshake beat=11 wlast=0
[205000] S1 MEMORY WRITE beat=10 addr=139fd130 data=f8d9c036e5a4a70f id=1e
[215000] S1 MEMORY WRITE beat=11 addr=139fd138 data=3c48e123c847f94c id=1e
[215000] MASTER 1 W_VALID_RDY Handshake beat=12 wlast=0
[225000] MASTER 1 W_VALID_RDY Handshake beat=13 wlast=0
[225000] S1 MEMORY WRITE beat=12 addr=139fd140 data=94c3d752dc1c9553 id=1e
[235000] S1 MEMORY WRITE beat=13 addr=139fd148 data=c1c13c62b555ae19 id=1e
[235000] MASTER 1 W_VALID_RDY Handshake beat=14 wlast=0
[245000] MASTER 1 W_VALID_RDY Handshake beat=15 wlast=0
[245000] S1 MEMORY WRITE beat=14 addr=139fd150 data=fd9da7650d9d9789 id=1e
[255000] S1 MEMORY WRITE beat=15 addr=139fd158 data=e9ba2cdcfe0a1d85 id=1e
[255000] MASTER 1 W_VALID_RDY Handshake beat=16 wlast=0
[265000] MASTER 1 W_VALID_RDY Handshake beat=17 wlast=0
[265000] S1 MEMORY WRITE beat=16 addr=139fd160 data=335fcb9f12617eb8 id=1e
[275000] S1 MEMORY WRITE beat=17 addr=139fd168 data=1fff16412b7b693f id=1e
[275000] MASTER 1 W_VALID_RDY Handshake beat=18 wlast=0
[285000] MASTER 1 W_VALID_RDY Handshake beat=19 wlast=0
[285000] S1 MEMORY WRITE beat=18 addr=139fd170 data=a98586c4b0fd7304 id=1e
[295000] S1 MEMORY WRITE beat=19 addr=139fd178 data=c35ef1bc89b9431d id=1e
[295000] MASTER 1 W_VALID_RDY Handshake beat=20 wlast=0
[305000] MASTER 1 W_VALID_RDY Handshake beat=21 wlast=0
[305000] S1 MEMORY WRITE beat=20 addr=139fd180 data=b534ac5cdce55263 id=1e
[315000] S1 MEMORY WRITE beat=21 addr=139fd188 data=0de2c568e35e07fd id=1e
[315000] MASTER 1 W_VALID_RDY Handshake beat=22 wlast=0
[325000] MASTER 1 W_VALID_RDY Handshake beat=23 wlast=0
[325000] S1 MEMORY WRITE beat=22 addr=139fd190 data=ed174b1bdeba3321 id=1e
[335000] S1 MEMORY WRITE beat=23 addr=139fd198 data=bb9f8584d141b724 id=1e
[335000] MASTER 1 W_VALID_RDY Handshake beat=24 wlast=0
[345000] MASTER 1 W_VALID_RDY Handshake beat=25 wlast=0
[345000] S1 MEMORY WRITE beat=24 addr=139fd1a0 data=349fbf22a24bf777 id=1e
[355000] S1 MEMORY WRITE beat=25 addr=139fd1a8 data=81062a98c9824aec id=1e
[355000] MASTER 1 W_VALID_RDY Handshake beat=26 wlast=0
[365000] MASTER 1 W_VALID_RDY Handshake beat=27 wlast=0
[365000] S1 MEMORY WRITE beat=26 addr=139fd1b0 data=1ac4021121b70a3d id=1e
[375000] S1 MEMORY WRITE beat=27 addr=139fd1b8 data=c40301b43ca5b01d id=1e
[375000] MASTER 1 W_VALID_RDY Handshake beat=28 wlast=0
[385000] MASTER 1 W_VALID_RDY Handshake beat=29 wlast=0
[385000] S1 MEMORY WRITE beat=28 addr=139fd1c0 data=8627fb09cf63c133 id=1e
[395000] S1 MEMORY WRITE beat=29 addr=139fd1c8 data=f11acb70c5092c4d id=1e
[395000] MASTER 1 W_VALID_RDY Handshake beat=30 wlast=0
[405000] MASTER 1 W_VALID_RDY Handshake beat=31 wlast=0
[405000] S1 MEMORY WRITE beat=30 addr=139fd1d0 data=01aedc6aa0ebfd1a id=1e
[415000] S1 MEMORY WRITE beat=31 addr=139fd1d8 data=f04fbe4db51dcd24 id=1e
[415000] MASTER 1 W_VALID_RDY Handshake beat=32 wlast=0
[425000] MASTER 1 W_VALID_RDY Handshake beat=33 wlast=0
[425000] S1 MEMORY WRITE beat=32 addr=139fd1e0 data=fa26f97187d6d773 id=1e
[435000] S1 MEMORY WRITE beat=33 addr=139fd1e8 data=28c2d48ee16a89bd id=1e
[435000] MASTER 1 W_VALID_RDY Handshake beat=34 wlast=0
[445000] MASTER 1 W_VALID_RDY Handshake beat=35 wlast=0
[445000] S1 MEMORY WRITE beat=34 addr=139fd1f0 data=168856e2fbd5d5db id=1e
[455000] S1 MEMORY WRITE beat=35 addr=139fd1f8 data=03acad4f991292db id=1e
[455000] MASTER 1 W_VALID_RDY Handshake beat=36 wlast=0
[465000] MASTER 1 W_VALID_RDY Handshake beat=37 wlast=0
[465000] S1 MEMORY WRITE beat=36 addr=139fd200 data=fa7d1c9990af5053 id=1e
[475000] S1 MEMORY WRITE beat=37 addr=139fd208 data=0c85262f2c6f81dd id=1e
[475000] MASTER 1 W_VALID_RDY Handshake beat=38 wlast=0
[485000] MASTER 1 W_VALID_RDY Handshake beat=39 wlast=0
[485000] S1 MEMORY WRITE beat=38 addr=139fd210 data=c58214b81105737b id=1e
[495000] S1 MEMORY WRITE beat=39 addr=139fd218 data=a1b4c3ce1031d37e id=1e
[495000] MASTER 1 W_VALID_RDY Handshake beat=40 wlast=0
[505000] MASTER 1 W_VALID_RDY Handshake beat=41 wlast=0
[505000] S1 MEMORY WRITE beat=40 addr=139fd220 data=3ca1555bbfff3151 id=1e
[515000] S1 MEMORY WRITE beat=41 addr=139fd228 data=d104a4ccae39e9fd id=1e
[515000] MASTER 1 W_VALID_RDY Handshake beat=42 wlast=0
[525000] MASTER 1 W_VALID_RDY Handshake beat=43 wlast=0
[525000] S1 MEMORY WRITE beat=42 addr=139fd230 data=be6bbd7b82236a13 id=1e
[535000] S1 MEMORY WRITE beat=43 addr=139fd238 data=c2229b65f2b9689b id=1e
[535000] MASTER 1 W_VALID_RDY Handshake beat=44 wlast=0
[545000] MASTER 1 W_VALID_RDY Handshake beat=45 wlast=0
[545000] S1 MEMORY WRITE beat=44 addr=139fd240 data=a0f35298fb0d12d6 id=1e
[555000] S1 MEMORY WRITE beat=45 addr=139fd248 data=fd307cea93274031 id=1e
[555000] MASTER 1 W_VALID_RDY Handshake beat=46 wlast=0
[565000] MASTER 1 W_VALID_RDY Handshake beat=47 wlast=0
[565000] S1 MEMORY WRITE beat=46 addr=139fd250 data=85e0a8ccdf5f1014 id=1e
[575000] S1 MEMORY WRITE beat=47 addr=139fd258 data=da6c22ea3f53184f id=1e
[575000] MASTER 1 W_VALID_RDY Handshake beat=48 wlast=0
[585000] MASTER 1 W_VALID_RDY Handshake beat=49 wlast=0
[585000] S1 MEMORY WRITE beat=48 addr=139fd260 data=d27a588026d3fb65 id=1e
[595000] S1 MEMORY WRITE beat=49 addr=139fd268 data=06330b79d79c9fd4 id=1e
[595000] MASTER 1 W_VALID_RDY Handshake beat=50 wlast=0
[605000] MASTER 1 W_VALID_RDY Handshake beat=51 wlast=0
[605000] S1 MEMORY WRITE beat=50 addr=139fd270 data=96efb823d85b014d id=1e
[615000] S1 MEMORY WRITE beat=51 addr=139fd278 data=ff2efcb2e09f2e63 id=1e
[615000] MASTER 1 W_VALID_RDY Handshake beat=52 wlast=0
[625000] MASTER 1 W_VALID_RDY Handshake beat=53 wlast=0
[625000] S1 MEMORY WRITE beat=52 addr=139fd280 data=383bce38e96a10a4 id=1e
[635000] S1 MEMORY WRITE beat=53 addr=139fd288 data=c1c511f10562082b id=1e
[635000] MASTER 1 W_VALID_RDY Handshake beat=54 wlast=0
[645000] MASTER 1 W_VALID_RDY Handshake beat=55 wlast=0
[645000] S1 MEMORY WRITE beat=54 addr=139fd290 data=e601368ecf2b865b id=1e
[655000] S1 MEMORY WRITE beat=55 addr=139fd298 data=b89596ffc0f40ea3 id=1e
[655000] MASTER 1 W_VALID_RDY Handshake beat=56 wlast=0
[665000] MASTER 1 W_VALID_RDY Handshake beat=57 wlast=0
[665000] S1 MEMORY WRITE beat=56 addr=139fd2a0 data=c65616ce9e3d04c6 id=1e
[675000] S1 MEMORY WRITE beat=57 addr=139fd2a8 data=ed688b22fa5aa8f0 id=1e
[675000] MASTER 1 W_VALID_RDY Handshake beat=58 wlast=0
[685000] MASTER 1 W_VALID_RDY Handshake beat=59 wlast=0
[685000] S1 MEMORY WRITE beat=58 addr=139fd2b0 data=bb4eb793ac574d5c id=1e
[695000] S1 MEMORY WRITE beat=59 addr=139fd2b8 data=ca945223a5fe2221 id=1e
[695000] MASTER 1 W_VALID_RDY Handshake beat=60 wlast=0
[705000] MASTER 1 W_VALID_RDY Handshake beat=61 wlast=0
[705000] S1 MEMORY WRITE beat=60 addr=139fd2c0 data=2058cb1281a4ce61 id=1e
[715000] S1 MEMORY WRITE beat=61 addr=139fd2c8 data=2dfc1bbe37fcdd45 id=1e
[715000] MASTER 1 W_VALID_RDY Handshake beat=62 wlast=0
[725000] MASTER 1 W_VALID_RDY Handshake beat=63 wlast=0
[725000] S1 MEMORY WRITE beat=62 addr=139fd2d0 data=ddfaff66dba782a5 id=1e
[735000] S1 MEMORY WRITE beat=63 addr=139fd2d8 data=dd4c5107f8906de1 id=1e
[735000] MASTER 1 W_VALID_RDY Handshake beat=64 wlast=0
[745000] MASTER 1 W_VALID_RDY Handshake beat=65 wlast=0
[745000] S1 MEMORY WRITE beat=64 addr=139fd2e0 data=308d4b26fe53ca78 id=1e
[755000] S1 MEMORY WRITE beat=65 addr=139fd2e8 data=d9fb4d1e0b486cc5 id=1e
[755000] MASTER 1 W_VALID_RDY Handshake beat=66 wlast=0
[765000] MASTER 1 W_VALID_RDY Handshake beat=67 wlast=0
[765000] S1 MEMORY WRITE beat=66 addr=139fd2f0 data=03d8daa68e884a8c id=1e
[775000] S1 MEMORY WRITE beat=67 addr=139fd2f8 data=0cdc150537479e25 id=1e
[775000] MASTER 1 W_VALID_RDY Handshake beat=68 wlast=0
[785000] MASTER 1 W_VALID_RDY Handshake beat=69 wlast=0
[785000] S1 MEMORY WRITE beat=68 addr=139fd300 data=c2900aea346625cc id=1e
[795000] S1 MEMORY WRITE beat=69 addr=139fd308 data=c2ee7058e6d76223 id=1e
[795000] MASTER 1 W_VALID_RDY Handshake beat=70 wlast=0
[805000] MASTER 1 W_VALID_RDY Handshake beat=71 wlast=0
[805000] S1 MEMORY WRITE beat=70 addr=139fd310 data=1e1f0048c668e590 id=1e
[815000] S1 MEMORY WRITE beat=71 addr=139fd318 data=facf0b5ccfca855d id=1e
[815000] MASTER 1 W_VALID_RDY Handshake beat=72 wlast=0
[825000] MASTER 1 W_VALID_RDY Handshake beat=73 wlast=0
[825000] S1 MEMORY WRITE beat=72 addr=139fd320 data=b6a1e780e0af0b32 id=1e
[835000] S1 MEMORY WRITE beat=73 addr=139fd328 data=2717f0c2bdbd7bb4 id=1e
[835000] MASTER 1 W_VALID_RDY Handshake beat=74 wlast=0
[845000] MASTER 1 W_VALID_RDY Handshake beat=75 wlast=0
[845000] S1 MEMORY WRITE beat=74 addr=139fd330 data=0d880112d4c0e7c8 id=1e
[855000] S1 MEMORY WRITE beat=75 addr=139fd338 data=b56ff2fa21e6fc1e id=1e
[855000] MASTER 1 W_VALID_RDY Handshake beat=76 wlast=0
[865000] MASTER 1 W_VALID_RDY Handshake beat=77 wlast=0
[865000] S1 MEMORY WRITE beat=76 addr=139fd340 data=dfa477d2c429e892 id=1e
[875000] S1 MEMORY WRITE beat=77 addr=139fd348 data=18ead05bdc87e3bc id=1e
[875000] MASTER 1 W_VALID_RDY Handshake beat=78 wlast=0
[885000] MASTER 1 W_VALID_RDY Handshake beat=79 wlast=0
[885000] S1 MEMORY WRITE beat=78 addr=139fd350 data=fe6edfdaed2c78e4 id=1e
[895000] S1 MEMORY WRITE beat=79 addr=139fd358 data=31566177ce5ac355 id=1e
[895000] MASTER 1 W_VALID_RDY Handshake beat=80 wlast=0
[905000] MASTER 1 W_VALID_RDY Handshake beat=81 wlast=0
[905000] S1 MEMORY WRITE beat=80 addr=139fd360 data=2ae2a712de1357ad id=1e
[915000] S1 MEMORY WRITE beat=81 addr=139fd368 data=cb3fd091ca4131d2 id=1e
[915000] MASTER 1 W_VALID_RDY Handshake beat=82 wlast=0
[925000] MASTER 1 W_VALID_RDY Handshake beat=83 wlast=0
[925000] S1 MEMORY WRITE beat=82 addr=139fd370 data=989bf527a95186ec id=1e
[935000] S1 MEMORY WRITE beat=83 addr=139fd378 data=8764de99fc963208 id=1e
[935000] MASTER 1 W_VALID_RDY Handshake beat=84 wlast=0
[945000] MASTER 1 W_VALID_RDY Handshake beat=85 wlast=0
[945000] S1 MEMORY WRITE beat=84 addr=139fd380 data=c6d763dac37e9c39 id=1e
[955000] S1 MEMORY WRITE beat=85 addr=139fd388 data=ecd02326d2a4af2b id=1e
[955000] MASTER 1 W_VALID_RDY Handshake beat=86 wlast=0
[965000] MASTER 1 W_VALID_RDY Handshake beat=87 wlast=0
[965000] S1 MEMORY WRITE beat=86 addr=139fd390 data=cf3ae133df735902 id=1e
[975000] S1 MEMORY WRITE beat=87 addr=139fd398 data=a2f1f53bf43501bf id=1e
[975000] MASTER 1 W_VALID_RDY Handshake beat=88 wlast=0
[985000] MASTER 1 W_VALID_RDY Handshake beat=89 wlast=0
[985000] S1 MEMORY WRITE beat=88 addr=139fd3a0 data=c6d9b0ea1612450e id=1e
[995000] S1 MEMORY WRITE beat=89 addr=139fd3a8 data=f5859e108fc21861 id=1e
[995000] MASTER 1 W_VALID_RDY Handshake beat=90 wlast=0
[1005000] MASTER 1 W_VALID_RDY Handshake beat=91 wlast=0
[1005000] S1 MEMORY WRITE beat=90 addr=139fd3b0 data=03f71a211614921e id=1e
[1015000] S1 MEMORY WRITE beat=91 addr=139fd3b8 data=2c26d72c9877934b id=1e
[1015000] MASTER 1 W_VALID_RDY Handshake beat=92 wlast=0
[1025000] MASTER 1 W_VALID_RDY Handshake beat=93 wlast=0
[1025000] S1 MEMORY WRITE beat=92 addr=139fd3c0 data=2839abadcad0cb0b id=1e
[1035000] S1 MEMORY WRITE beat=93 addr=139fd3c8 data=e0e55d2921ac753c id=1e
[1035000] MASTER 1 W_VALID_RDY Handshake beat=94 wlast=0
[1045000] MASTER 1 W_VALID_RDY Handshake beat=95 wlast=0
[1045000] S1 MEMORY WRITE beat=94 addr=139fd3d0 data=ba2408872c30c5ce id=1e
[1055000] S1 MEMORY WRITE beat=95 addr=139fd3d8 data=f70190d98d0c3455 id=1e
[1055000] MASTER 1 W_VALID_RDY Handshake beat=96 wlast=0
[1065000] MASTER 1 W_VALID_RDY Handshake beat=97 wlast=0
[1065000] S1 MEMORY WRITE beat=96 addr=139fd3e0 data=aeb8a991e25db434 id=1e
[1075000] S1 MEMORY WRITE beat=97 addr=139fd3e8 data=8e8e7a02d7e6ee03 id=1e
[1075000] MASTER 1 W_VALID_RDY Handshake beat=98 wlast=0
[1085000] MASTER 1 W_VALID_RDY Handshake beat=99 wlast=0
[1085000] S1 MEMORY WRITE beat=98 addr=139fd3f0 data=e4f32258e8dcb219 id=1e
[1095000] S1 MEMORY WRITE beat=99 addr=139fd3f8 data=cb3a664d05900adc id=1e
[1095000] MASTER 1 W_VALID_RDY Handshake beat=100 wlast=0
[1105000] MASTER 1 W_VALID_RDY Handshake beat=101 wlast=0
[1105000] S1 MEMORY WRITE beat=100 addr=139fd400 data=dd76f8df13abcbea id=1e
[1115000] S1 MEMORY WRITE beat=101 addr=139fd408 data=fc887e03d9c8e050 id=1e
[1115000] MASTER 1 W_VALID_RDY Handshake beat=102 wlast=0
[1125000] MASTER 1 W_VALID_RDY Handshake beat=103 wlast=0
[1125000] S1 MEMORY WRITE beat=102 addr=139fd410 data=df58eb2cc26a1b37 id=1e
[1135000] S1 MEMORY WRITE beat=103 addr=139fd418 data=d615e721c7c2e450 id=1e
[1135000] MASTER 1 W_VALID_RDY Handshake beat=104 wlast=0
[1145000] MASTER 1 W_VALID_RDY Handshake beat=105 wlast=0
[1145000] S1 MEMORY WRITE beat=104 addr=139fd420 data=a18bc4a03ccfe40b id=1e
[1155000] S1 MEMORY WRITE beat=105 addr=139fd428 data=ff39ff42d29e6524 id=1e
[1155000] MASTER 1 W_VALID_RDY Handshake beat=106 wlast=0
[1165000] MASTER 1 W_VALID_RDY Handshake beat=107 wlast=0
[1165000] S1 MEMORY WRITE beat=106 addr=139fd430 data=1a61497580e4afcc id=1e
[1175000] S1 MEMORY WRITE beat=107 addr=139fd438 data=bdb493d7d54fe664 id=1e
[1175000] MASTER 1 W_VALID_RDY Handshake beat=108 wlast=0
[1185000] MASTER 1 W_VALID_RDY Handshake beat=109 wlast=0
[1185000] S1 MEMORY WRITE beat=108 addr=139fd440 data=a7ee4b88bbed0e15 id=1e
[1195000] S1 MEMORY WRITE beat=109 addr=139fd448 data=3cd1bde23cee931a id=1e
[1195000] MASTER 1 W_VALID_RDY Handshake beat=110 wlast=0
[1205000] MASTER 1 W_VALID_RDY Handshake beat=111 wlast=0
[1205000] S1 MEMORY WRITE beat=110 addr=139fd450 data=123e797ec24f94fd id=1e
[1215000] S1 MEMORY WRITE beat=111 addr=139fd458 data=fe3ca313fa8651b9 id=1e
[1215000] MASTER 1 W_VALID_RDY Handshake beat=112 wlast=0
[1225000] MASTER 1 W_VALID_RDY Handshake beat=113 wlast=0
[1225000] S1 MEMORY WRITE beat=112 addr=139fd460 data=b774e4d3ba2cc506 id=1e
[1235000] S1 MEMORY WRITE beat=113 addr=139fd468 data=fc7c5a043b0e60f5 id=1e
[1235000] MASTER 1 W_VALID_RDY Handshake beat=114 wlast=0
[1245000] MASTER 1 W_VALID_RDY Handshake beat=115 wlast=0
[1245000] S1 MEMORY WRITE beat=114 addr=139fd470 data=b594b2aec9b35e51 id=1e
[1255000] S1 MEMORY WRITE beat=115 addr=139fd478 data=03e02358fab8fd17 id=1e
[1255000] MASTER 1 W_VALID_RDY Handshake beat=116 wlast=0
[1265000] MASTER 1 W_VALID_RDY Handshake beat=117 wlast=0
[1265000] S1 MEMORY WRITE beat=116 addr=139fd480 data=35c75e0ced099782 id=1e
[1275000] S1 MEMORY WRITE beat=117 addr=139fd488 data=b6bcf5d3005c7d5c id=1e
[1275000] MASTER 1 W_VALID_RDY Handshake beat=118 wlast=0
[1285000] MASTER 1 W_VALID_RDY Handshake beat=119 wlast=0
[1285000] S1 MEMORY WRITE beat=118 addr=139fd490 data=fb157a73eb5c10ba id=1e
[1295000] S1 MEMORY WRITE beat=119 addr=139fd498 data=d865a83cba9d192b id=1e
[1295000] MASTER 1 W_VALID_RDY Handshake beat=120 wlast=0
[1305000] MASTER 1 W_VALID_RDY Handshake beat=121 wlast=0
[1305000] S1 MEMORY WRITE beat=120 addr=139fd4a0 data=baf9968730dcd87f id=1e
[1315000] S1 MEMORY WRITE beat=121 addr=139fd4a8 data=9c38e9390f229e10 id=1e
[1315000] MASTER 1 W_VALID_RDY Handshake beat=122 wlast=0
[1325000] MASTER 1 W_VALID_RDY Handshake beat=123 wlast=0
[1325000] S1 MEMORY WRITE beat=122 addr=139fd4b0 data=c9bfb73bb60f10fa id=1e
[1335000] S1 MEMORY WRITE beat=123 addr=139fd4b8 data=e6ebe979f49e9176 id=1e
[1335000] MASTER 1 W_VALID_RDY Handshake beat=124 wlast=0
[1345000] MASTER 1 W_VALID_RDY Handshake beat=125 wlast=0
[1345000] S1 MEMORY WRITE beat=124 addr=139fd4c0 data=03c12f8604b94dc3 id=1e
[1355000] S1 MEMORY WRITE beat=125 addr=139fd4c8 data=bac85ebd0324d2b3 id=1e
[1355000] MASTER 1 W_VALID_RDY Handshake beat=126 wlast=0
[1365000] MASTER 1 W_VALID_RDY Handshake beat=127 wlast=0
[1365000] S1 MEMORY WRITE beat=126 addr=139fd4d0 data=f7c36429cd80e6c1 id=1e
[1375000] S1 MEMORY WRITE beat=127 addr=139fd4d8 data=d23a348421b44837 id=1e
[1375000] MASTER 1 W_VALID_RDY Handshake beat=128 wlast=0
[1385000] MASTER 1 W_VALID_RDY Handshake beat=129 wlast=0
[1385000] S1 MEMORY WRITE beat=128 addr=139fd4e0 data=24d91aeafb8493af id=1e
[1395000] S1 MEMORY WRITE beat=129 addr=139fd4e8 data=c9057a700d029342 id=1e
[1395000] MASTER 1 W_VALID_RDY Handshake beat=130 wlast=0
[1405000] MASTER 1 W_VALID_RDY Handshake beat=131 wlast=0
[1405000] S1 MEMORY WRITE beat=130 addr=139fd4f0 data=2eb6db791c9c7f13 id=1e
[1415000] S1 MEMORY WRITE beat=131 addr=139fd4f8 data=182112c21b3faef5 id=1e
[1415000] MASTER 1 W_VALID_RDY Handshake beat=132 wlast=0
[1425000] MASTER 1 W_VALID_RDY Handshake beat=133 wlast=0
[1425000] S1 MEMORY WRITE beat=132 addr=139fd500 data=28424237d38ff663 id=1e
[1435000] S1 MEMORY WRITE beat=133 addr=139fd508 data=f02c7576e1268d32 id=1e
[1435000] MASTER 1 W_VALID_RDY Handshake beat=134 wlast=0
[1445000] MASTER 1 W_VALID_RDY Handshake beat=135 wlast=0
[1445000] S1 MEMORY WRITE beat=134 addr=139fd510 data=fc663c27d6f91db0 id=1e
[1455000] S1 MEMORY WRITE beat=135 addr=139fd518 data=2a891413084d8838 id=1e
[1455000] MASTER 1 W_VALID_RDY Handshake beat=136 wlast=0
[1465000] MASTER 1 W_VALID_RDY Handshake beat=137 wlast=0
[1465000] S1 MEMORY WRITE beat=136 addr=139fd520 data=e974156aa4a87e5e id=1e
[1475000] S1 MEMORY WRITE beat=137 addr=139fd528 data=fba19c0e1ab58989 id=1e
[1475000] MASTER 1 W_VALID_RDY Handshake beat=138 wlast=0
[1485000] MASTER 1 W_VALID_RDY Handshake beat=139 wlast=1
[1485000] S1 MEMORY WRITE beat=138 addr=139fd530 data=230311c1e5da5192 id=1e
[1495000] S1 MEMORY WRITE beat=139 addr=139fd538 data=8a82cff0a62ab021 id=1e
[1505000] SLAVE1 sent B resp, id=14
[1515000] [SLAVE MONITOR] mst_id=1 s_id=1 awaddr=139fd0e0 awid=1110 awlen=139 awsize=3 awburst=1 wdata=[deac6eb2deaf1841 7c7c26e08c5891d ce262ac0d06e183e 2f1d307fcb7cdf05 d44268222cd29973 fd40b1b136e4f2ed 261d1f2a26892e2 cf3b2c552c5de230 e342d51dd6a43a14 f90cccf6cc7bde06 f8d9c036e5a4a70f 3c48e123c847f94c 94c3d752dc1c9553 c1c13c62b555ae19 fd9da7650d9d9789 e9ba2cdcfe0a1d85 335fcb9f12617eb8 1fff16412b7b693f a98586c4b0fd7304 c35ef1bc89b9431d b534ac5cdce55263 de2c568e35e07fd ed174b1bdeba3321 bb9f8584d141b724 349fbf22a24bf777 81062a98c9824aec 1ac4021121b70a3d c40301b43ca5b01d 8627fb09cf63c133 f11acb70c5092c4d 1aedc6aa0ebfd1a f04fbe4db51dcd24 fa26f97187d6d773 28c2d48ee16a89bd 168856e2fbd5d5db 3acad4f991292db fa7d1c9990af5053 c85262f2c6f81dd c58214b81105737b a1b4c3ce1031d37e 3ca1555bbfff3151 d104a4ccae39e9fd be6bbd7b82236a13 c2229b65f2b9689b a0f35298fb0d12d6 fd307cea93274031 85e0a8ccdf5f1014 da6c22ea3f53184f d27a588026d3fb65 6330b79d79c9fd4 96efb823d85b014d ff2efcb2e09f2e63 383bce38e96a10a4 c1c511f10562082b e601368ecf2b865b b89596ffc0f40ea3 c65616ce9e3d04c6 ed688b22fa5aa8f0 bb4eb793ac574d5c ca945223a5fe2221 2058cb1281a4ce61 2dfc1bbe37fcdd45 ddfaff66dba782a5 dd4c5107f8906de1 308d4b26fe53ca78 d9fb4d1e0b486cc5 3d8daa68e884a8c cdc150537479e25 c2900aea346625cc c2ee7058e6d76223 1e1f0048c668e590 facf0b5ccfca855d b6a1e780e0af0b32 2717f0c2bdbd7bb4 d880112d4c0e7c8 b56ff2fa21e6fc1e dfa477d2c429e892 18ead05bdc87e3bc fe6edfdaed2c78e4 31566177ce5ac355 2ae2a712de1357ad cb3fd091ca4131d2 989bf527a95186ec 8764de99fc963208 c6d763dac37e9c39 ecd02326d2a4af2b cf3ae133df735902 a2f1f53bf43501bf c6d9b0ea1612450e f5859e108fc21861 3f71a211614921e 2c26d72c9877934b 2839abadcad0cb0b e0e55d2921ac753c ba2408872c30c5ce f70190d98d0c3455 aeb8a991e25db434 8e8e7a02d7e6ee03 e4f32258e8dcb219 cb3a664d05900adc dd76f8df13abcbea fc887e03d9c8e050 df58eb2cc26a1b37 d615e721c7c2e450 a18bc4a03ccfe40b ff39ff42d29e6524 1a61497580e4afcc bdb493d7d54fe664 a7ee4b88bbed0e15 3cd1bde23cee931a 123e797ec24f94fd fe3ca313fa8651b9 b774e4d3ba2cc506 fc7c5a043b0e60f5 b594b2aec9b35e51 3e02358fab8fd17 35c75e0ced099782 b6bcf5d3005c7d5c fb157a73eb5c10ba d865a83cba9d192b baf9968730dcd87f 9c38e9390f229e10 c9bfb73bb60f10fa e6ebe979f49e9176 3c12f8604b94dc3 bac85ebd0324d2b3 f7c36429cd80e6c1 d23a348421b44837 24d91aeafb8493af c9057a700d029342 2eb6db791c9c7f13 182112c21b3faef5 28424237d38ff663 f02c7576e1268d32 fc663c27d6f91db0 2a891413084d8838 e974156aa4a87e5e fba19c0e1ab58989 230311c1e5da5192 8a82cff0a62ab021 ] wstrb=[2b aa ff bd 6b 20 ae 97 cb ad 54 36 cd 2 cd 98 af 22 cf 7d 24 9c 15 d4 be e4 51 e3 81 66 b7 3f 4b 8 22 cc 6e d9 b b9 e1 2e 85 50 7 91 9 e9 bf 8f 39 c6 20 42 af df d1 e8 a5 f1 2b 55 d0 fc 3d 76 ee 68 cb be 65 8 34 53 71 ff 11 d6 8 46 29 79 45 3a 4f 4d 80 78 c6 c6 b2 15 13 33 8d da f9 40 ef c 73 7d e6 6c bd d6 78 30 53 5f 9c 10 35 14 40 88 73 dc 98 a8 f0 d8 30 64 b4 c8 c a4 a0 3d 8 54 5 15 f9 a6 52 1 fa 57 ] bresp=0 bid=11110
[1525000] MASTER 1 RECEIVED BRESP. BRESP=0
[1525000] [MASTER DRIVER] mst_id=1 s_id=0 awaddr=139fd0e0 awid=1110 awlen=139 awsize=3 awburst=1 wdata=[deac6eb2deaf1841 7c7c26e08c5891d ce262ac0d06e183e 2f1d307fcb7cdf05 d44268222cd29973 fd40b1b136e4f2ed 261d1f2a26892e2 cf3b2c552c5de230 e342d51dd6a43a14 f90cccf6cc7bde06 f8d9c036e5a4a70f 3c48e123c847f94c 94c3d752dc1c9553 c1c13c62b555ae19 fd9da7650d9d9789 e9ba2cdcfe0a1d85 335fcb9f12617eb8 1fff16412b7b693f a98586c4b0fd7304 c35ef1bc89b9431d b534ac5cdce55263 de2c568e35e07fd ed174b1bdeba3321 bb9f8584d141b724 349fbf22a24bf777 81062a98c9824aec 1ac4021121b70a3d c40301b43ca5b01d 8627fb09cf63c133 f11acb70c5092c4d 1aedc6aa0ebfd1a f04fbe4db51dcd24 fa26f97187d6d773 28c2d48ee16a89bd 168856e2fbd5d5db 3acad4f991292db fa7d1c9990af5053 c85262f2c6f81dd c58214b81105737b a1b4c3ce1031d37e 3ca1555bbfff3151 d104a4ccae39e9fd be6bbd7b82236a13 c2229b65f2b9689b a0f35298fb0d12d6 fd307cea93274031 85e0a8ccdf5f1014 da6c22ea3f53184f d27a588026d3fb65 6330b79d79c9fd4 96efb823d85b014d ff2efcb2e09f2e63 383bce38e96a10a4 c1c511f10562082b e601368ecf2b865b b89596ffc0f40ea3 c65616ce9e3d04c6 ed688b22fa5aa8f0 bb4eb793ac574d5c ca945223a5fe2221 2058cb1281a4ce61 2dfc1bbe37fcdd45 ddfaff66dba782a5 dd4c5107f8906de1 308d4b26fe53ca78 d9fb4d1e0b486cc5 3d8daa68e884a8c cdc150537479e25 c2900aea346625cc c2ee7058e6d76223 1e1f0048c668e590 facf0b5ccfca855d b6a1e780e0af0b32 2717f0c2bdbd7bb4 d880112d4c0e7c8 b56ff2fa21e6fc1e dfa477d2c429e892 18ead05bdc87e3bc fe6edfdaed2c78e4 31566177ce5ac355 2ae2a712de1357ad cb3fd091ca4131d2 989bf527a95186ec 8764de99fc963208 c6d763dac37e9c39 ecd02326d2a4af2b cf3ae133df735902 a2f1f53bf43501bf c6d9b0ea1612450e f5859e108fc21861 3f71a211614921e 2c26d72c9877934b 2839abadcad0cb0b e0e55d2921ac753c ba2408872c30c5ce f70190d98d0c3455 aeb8a991e25db434 8e8e7a02d7e6ee03 e4f32258e8dcb219 cb3a664d05900adc dd76f8df13abcbea fc887e03d9c8e050 df58eb2cc26a1b37 d615e721c7c2e450 a18bc4a03ccfe40b ff39ff42d29e6524 1a61497580e4afcc bdb493d7d54fe664 a7ee4b88bbed0e15 3cd1bde23cee931a 123e797ec24f94fd fe3ca313fa8651b9 b774e4d3ba2cc506 fc7c5a043b0e60f5 b594b2aec9b35e51 3e02358fab8fd17 35c75e0ced099782 b6bcf5d3005c7d5c fb157a73eb5c10ba d865a83cba9d192b baf9968730dcd87f 9c38e9390f229e10 c9bfb73bb60f10fa e6ebe979f49e9176 3c12f8604b94dc3 bac85ebd0324d2b3 f7c36429cd80e6c1 d23a348421b44837 24d91aeafb8493af c9057a700d029342 2eb6db791c9c7f13 182112c21b3faef5 28424237d38ff663 f02c7576e1268d32 fc663c27d6f91db0 2a891413084d8838 e974156aa4a87e5e fba19c0e1ab58989 230311c1e5da5192 8a82cff0a62ab021 ] wstrb=[2b aa ff bd 6b 20 ae 97 cb ad 54 36 cd 2 cd 98 af 22 cf 7d 24 9c 15 d4 be e4 51 e3 81 66 b7 3f 4b 8 22 cc 6e d9 b b9 e1 2e 85 50 7 91 9 e9 bf 8f 39 c6 20 42 af df d1 e8 a5 f1 2b 55 d0 fc 3d 76 ee 68 cb be 65 8 34 53 71 ff 11 d6 8 46 29 79 45 3a 4f 4d 80 78 c6 c6 b2 15 13 33 8d da f9 40 ef c 73 7d e6 6c bd d6 78 30 53 5f 9c 10 35 14 40 88 73 dc 98 a8 f0 d8 30 64 b4 c8 c a4 a0 3d 8 54 5 15 f9 a6 52 1 fa 57 ] bresp=0 bid=1110
[1525000] MASTER 1 B_VALID_RDY Handshake
[1525000] [MASTER MONITOR] mst_id=1 s_id=1 awaddr=139fd0e0 awid=1110 awlen=139 awsize=3 awburst=1 wdata=[deac6eb2deaf1841 7c7c26e08c5891d ce262ac0d06e183e 2f1d307fcb7cdf05 d44268222cd29973 fd40b1b136e4f2ed 261d1f2a26892e2 cf3b2c552c5de230 e342d51dd6a43a14 f90cccf6cc7bde06 f8d9c036e5a4a70f 3c48e123c847f94c 94c3d752dc1c9553 c1c13c62b555ae19 fd9da7650d9d9789 e9ba2cdcfe0a1d85 335fcb9f12617eb8 1fff16412b7b693f a98586c4b0fd7304 c35ef1bc89b9431d b534ac5cdce55263 de2c568e35e07fd ed174b1bdeba3321 bb9f8584d141b724 349fbf22a24bf777 81062a98c9824aec 1ac4021121b70a3d c40301b43ca5b01d 8627fb09cf63c133 f11acb70c5092c4d 1aedc6aa0ebfd1a f04fbe4db51dcd24 fa26f97187d6d773 28c2d48ee16a89bd 168856e2fbd5d5db 3acad4f991292db fa7d1c9990af5053 c85262f2c6f81dd c58214b81105737b a1b4c3ce1031d37e 3ca1555bbfff3151 d104a4ccae39e9fd be6bbd7b82236a13 c2229b65f2b9689b a0f35298fb0d12d6 fd307cea93274031 85e0a8ccdf5f1014 da6c22ea3f53184f d27a588026d3fb65 6330b79d79c9fd4 96efb823d85b014d ff2efcb2e09f2e63 383bce38e96a10a4 c1c511f10562082b e601368ecf2b865b b89596ffc0f40ea3 c65616ce9e3d04c6 ed688b22fa5aa8f0 bb4eb793ac574d5c ca945223a5fe2221 2058cb1281a4ce61 2dfc1bbe37fcdd45 ddfaff66dba782a5 dd4c5107f8906de1 308d4b26fe53ca78 d9fb4d1e0b486cc5 3d8daa68e884a8c cdc150537479e25 c2900aea346625cc c2ee7058e6d76223 1e1f0048c668e590 facf0b5ccfca855d b6a1e780e0af0b32 2717f0c2bdbd7bb4 d880112d4c0e7c8 b56ff2fa21e6fc1e dfa477d2c429e892 18ead05bdc87e3bc fe6edfdaed2c78e4 31566177ce5ac355 2ae2a712de1357ad cb3fd091ca4131d2 989bf527a95186ec 8764de99fc963208 c6d763dac37e9c39 ecd02326d2a4af2b cf3ae133df735902 a2f1f53bf43501bf c6d9b0ea1612450e f5859e108fc21861 3f71a211614921e 2c26d72c9877934b 2839abadcad0cb0b e0e55d2921ac753c ba2408872c30c5ce f70190d98d0c3455 aeb8a991e25db434 8e8e7a02d7e6ee03 e4f32258e8dcb219 cb3a664d05900adc dd76f8df13abcbea fc887e03d9c8e050 df58eb2cc26a1b37 d615e721c7c2e450 a18bc4a03ccfe40b ff39ff42d29e6524 1a61497580e4afcc bdb493d7d54fe664 a7ee4b88bbed0e15 3cd1bde23cee931a 123e797ec24f94fd fe3ca313fa8651b9 b774e4d3ba2cc506 fc7c5a043b0e60f5 b594b2aec9b35e51 3e02358fab8fd17 35c75e0ced099782 b6bcf5d3005c7d5c fb157a73eb5c10ba d865a83cba9d192b baf9968730dcd87f 9c38e9390f229e10 c9bfb73bb60f10fa e6ebe979f49e9176 3c12f8604b94dc3 bac85ebd0324d2b3 f7c36429cd80e6c1 d23a348421b44837 24d91aeafb8493af c9057a700d029342 2eb6db791c9c7f13 182112c21b3faef5 28424237d38ff663 f02c7576e1268d32 fc663c27d6f91db0 2a891413084d8838 e974156aa4a87e5e fba19c0e1ab58989 230311c1e5da5192 8a82cff0a62ab021 ] wstrb=[2b aa ff bd 6b 20 ae 97 cb ad 54 36 cd 2 cd 98 af 22 cf 7d 24 9c 15 d4 be e4 51 e3 81 66 b7 3f 4b 8 22 cc 6e d9 b b9 e1 2e 85 50 7 91 9 e9 bf 8f 39 c6 20 42 af df d1 e8 a5 f1 2b 55 d0 fc 3d 76 ee 68 cb be 65 8 34 53 71 ff 11 d6 8 46 29 79 45 3a 4f 4d 80 78 c6 c6 b2 15 13 33 8d da f9 40 ef c 73 7d e6 6c bd d6 78 30 53 5f 9c 10 35 14 40 88 73 dc 98 a8 f0 d8 30 64 b4 c8 c a4 a0 3d 8 54 5 15 f9 a6 52 1 fa 57 ] bresp=0 bid=1110
[1525000] SCOREBOARD MATCH: decode_err expected = 0, actual =0
[1525000] SCOREBOARD MATCH: slave_id expected = 1, actual =1
[1525000] SCOREBOARD MATCH: awaddr passthrough expected = 139fd0e0, actual =139fd0e0
[1525000] SCOREBOARD MATCH: awlen passthrough expected = 139, actual =139
[1525000] SCOREBOARD MATCH: awsize passthrough expected = 3, actual =3
[1525000] SCOREBOARD MATCH: awburst passthrough expected = 1, actual =1
[1525000] SCOREBOARD MATCH: wdata size check expected = 8c, actual =8c
[1525000] SCOREBOARD MATCH: wdata passthrough beat=0 expected = deac6eb2deaf1841, actual =deac6eb2deaf1841
[1525000] SCOREBOARD MATCH: wdata passthrough beat=1 expected = 7c7c26e08c5891d, actual =7c7c26e08c5891d
[1525000] SCOREBOARD MATCH: wdata passthrough beat=2 expected = ce262ac0d06e183e, actual =ce262ac0d06e183e
[1525000] SCOREBOARD MATCH: wdata passthrough beat=3 expected = 2f1d307fcb7cdf05, actual =2f1d307fcb7cdf05
[1525000] SCOREBOARD MATCH: wdata passthrough beat=4 expected = d44268222cd29973, actual =d44268222cd29973
[1525000] SCOREBOARD MATCH: wdata passthrough beat=5 expected = fd40b1b136e4f2ed, actual =fd40b1b136e4f2ed
[1525000] SCOREBOARD MATCH: wdata passthrough beat=6 expected = 261d1f2a26892e2, actual =261d1f2a26892e2
[1525000] SCOREBOARD MATCH: wdata passthrough beat=7 expected = cf3b2c552c5de230, actual =cf3b2c552c5de230
[1525000] SCOREBOARD MATCH: wdata passthrough beat=8 expected = e342d51dd6a43a14, actual =e342d51dd6a43a14
[1525000] SCOREBOARD MATCH: wdata passthrough beat=9 expected = f90cccf6cc7bde06, actual =f90cccf6cc7bde06
[1525000] SCOREBOARD MATCH: wdata passthrough beat=10 expected = f8d9c036e5a4a70f, actual =f8d9c036e5a4a70f
[1525000] SCOREBOARD MATCH: wdata passthrough beat=11 expected = 3c48e123c847f94c, actual =3c48e123c847f94c
[1525000] SCOREBOARD MATCH: wdata passthrough beat=12 expected = 94c3d752dc1c9553, actual =94c3d752dc1c9553
[1525000] SCOREBOARD MATCH: wdata passthrough beat=13 expected = c1c13c62b555ae19, actual =c1c13c62b555ae19
[1525000] SCOREBOARD MATCH: wdata passthrough beat=14 expected = fd9da7650d9d9789, actual =fd9da7650d9d9789
[1525000] SCOREBOARD MATCH: wdata passthrough beat=15 expected = e9ba2cdcfe0a1d85, actual =e9ba2cdcfe0a1d85
[1525000] SCOREBOARD MATCH: wdata passthrough beat=16 expected = 335fcb9f12617eb8, actual =335fcb9f12617eb8
[1525000] SCOREBOARD MATCH: wdata passthrough beat=17 expected = 1fff16412b7b693f, actual =1fff16412b7b693f
[1525000] SCOREBOARD MATCH: wdata passthrough beat=18 expected = a98586c4b0fd7304, actual =a98586c4b0fd7304
[1525000] SCOREBOARD MATCH: wdata passthrough beat=19 expected = c35ef1bc89b9431d, actual =c35ef1bc89b9431d
[1525000] SCOREBOARD MATCH: wdata passthrough beat=20 expected = b534ac5cdce55263, actual =b534ac5cdce55263
[1525000] SCOREBOARD MATCH: wdata passthrough beat=21 expected = de2c568e35e07fd, actual =de2c568e35e07fd
[1525000] SCOREBOARD MATCH: wdata passthrough beat=22 expected = ed174b1bdeba3321, actual =ed174b1bdeba3321
[1525000] SCOREBOARD MATCH: wdata passthrough beat=23 expected = bb9f8584d141b724, actual =bb9f8584d141b724
[1525000] SCOREBOARD MATCH: wdata passthrough beat=24 expected = 349fbf22a24bf777, actual =349fbf22a24bf777
[1525000] SCOREBOARD MATCH: wdata passthrough beat=25 expected = 81062a98c9824aec, actual =81062a98c9824aec
[1525000] SCOREBOARD MATCH: wdata passthrough beat=26 expected = 1ac4021121b70a3d, actual =1ac4021121b70a3d
[1525000] SCOREBOARD MATCH: wdata passthrough beat=27 expected = c40301b43ca5b01d, actual =c40301b43ca5b01d
[1525000] SCOREBOARD MATCH: wdata passthrough beat=28 expected = 8627fb09cf63c133, actual =8627fb09cf63c133
[1525000] SCOREBOARD MATCH: wdata passthrough beat=29 expected = f11acb70c5092c4d, actual =f11acb70c5092c4d
[1525000] SCOREBOARD MATCH: wdata passthrough beat=30 expected = 1aedc6aa0ebfd1a, actual =1aedc6aa0ebfd1a
[1525000] SCOREBOARD MATCH: wdata passthrough beat=31 expected = f04fbe4db51dcd24, actual =f04fbe4db51dcd24
[1525000] SCOREBOARD MATCH: wdata passthrough beat=32 expected = fa26f97187d6d773, actual =fa26f97187d6d773
[1525000] SCOREBOARD MATCH: wdata passthrough beat=33 expected = 28c2d48ee16a89bd, actual =28c2d48ee16a89bd
[1525000] SCOREBOARD MATCH: wdata passthrough beat=34 expected = 168856e2fbd5d5db, actual =168856e2fbd5d5db
[1525000] SCOREBOARD MATCH: wdata passthrough beat=35 expected = 3acad4f991292db, actual =3acad4f991292db
[1525000] SCOREBOARD MATCH: wdata passthrough beat=36 expected = fa7d1c9990af5053, actual =fa7d1c9990af5053
[1525000] SCOREBOARD MATCH: wdata passthrough beat=37 expected = c85262f2c6f81dd, actual =c85262f2c6f81dd
[1525000] SCOREBOARD MATCH: wdata passthrough beat=38 expected = c58214b81105737b, actual =c58214b81105737b
[1525000] SCOREBOARD MATCH: wdata passthrough beat=39 expected = a1b4c3ce1031d37e, actual =a1b4c3ce1031d37e
[1525000] SCOREBOARD MATCH: wdata passthrough beat=40 expected = 3ca1555bbfff3151, actual =3ca1555bbfff3151
[1525000] SCOREBOARD MATCH: wdata passthrough beat=41 expected = d104a4ccae39e9fd, actual =d104a4ccae39e9fd
[1525000] SCOREBOARD MATCH: wdata passthrough beat=42 expected = be6bbd7b82236a13, actual =be6bbd7b82236a13
[1525000] SCOREBOARD MATCH: wdata passthrough beat=43 expected = c2229b65f2b9689b, actual =c2229b65f2b9689b
[1525000] SCOREBOARD MATCH: wdata passthrough beat=44 expected = a0f35298fb0d12d6, actual =a0f35298fb0d12d6
[1525000] SCOREBOARD MATCH: wdata passthrough beat=45 expected = fd307cea93274031, actual =fd307cea93274031
[1525000] SCOREBOARD MATCH: wdata passthrough beat=46 expected = 85e0a8ccdf5f1014, actual =85e0a8ccdf5f1014
[1525000] SCOREBOARD MATCH: wdata passthrough beat=47 expected = da6c22ea3f53184f, actual =da6c22ea3f53184f
[1525000] SCOREBOARD MATCH: wdata passthrough beat=48 expected = d27a588026d3fb65, actual =d27a588026d3fb65
[1525000] SCOREBOARD MATCH: wdata passthrough beat=49 expected = 6330b79d79c9fd4, actual =6330b79d79c9fd4
[1525000] SCOREBOARD MATCH: wdata passthrough beat=50 expected = 96efb823d85b014d, actual =96efb823d85b014d
[1525000] SCOREBOARD MATCH: wdata passthrough beat=51 expected = ff2efcb2e09f2e63, actual =ff2efcb2e09f2e63
[1525000] SCOREBOARD MATCH: wdata passthrough beat=52 expected = 383bce38e96a10a4, actual =383bce38e96a10a4
[1525000] SCOREBOARD MATCH: wdata passthrough beat=53 expected = c1c511f10562082b, actual =c1c511f10562082b
[1525000] SCOREBOARD MATCH: wdata passthrough beat=54 expected = e601368ecf2b865b, actual =e601368ecf2b865b
[1525000] SCOREBOARD MATCH: wdata passthrough beat=55 expected = b89596ffc0f40ea3, actual =b89596ffc0f40ea3
[1525000] SCOREBOARD MATCH: wdata passthrough beat=56 expected = c65616ce9e3d04c6, actual =c65616ce9e3d04c6
[1525000] SCOREBOARD MATCH: wdata passthrough beat=57 expected = ed688b22fa5aa8f0, actual =ed688b22fa5aa8f0
[1525000] SCOREBOARD MATCH: wdata passthrough beat=58 expected = bb4eb793ac574d5c, actual =bb4eb793ac574d5c
[1525000] SCOREBOARD MATCH: wdata passthrough beat=59 expected = ca945223a5fe2221, actual =ca945223a5fe2221
[1525000] SCOREBOARD MATCH: wdata passthrough beat=60 expected = 2058cb1281a4ce61, actual =2058cb1281a4ce61
[1525000] SCOREBOARD MATCH: wdata passthrough beat=61 expected = 2dfc1bbe37fcdd45, actual =2dfc1bbe37fcdd45
[1525000] SCOREBOARD MATCH: wdata passthrough beat=62 expected = ddfaff66dba782a5, actual =ddfaff66dba782a5
[1525000] SCOREBOARD MATCH: wdata passthrough beat=63 expected = dd4c5107f8906de1, actual =dd4c5107f8906de1
[1525000] SCOREBOARD MATCH: wdata passthrough beat=64 expected = 308d4b26fe53ca78, actual =308d4b26fe53ca78
[1525000] SCOREBOARD MATCH: wdata passthrough beat=65 expected = d9fb4d1e0b486cc5, actual =d9fb4d1e0b486cc5
[1525000] SCOREBOARD MATCH: wdata passthrough beat=66 expected = 3d8daa68e884a8c, actual =3d8daa68e884a8c
[1525000] SCOREBOARD MATCH: wdata passthrough beat=67 expected = cdc150537479e25, actual =cdc150537479e25
[1525000] SCOREBOARD MATCH: wdata passthrough beat=68 expected = c2900aea346625cc, actual =c2900aea346625cc
[1525000] SCOREBOARD MATCH: wdata passthrough beat=69 expected = c2ee7058e6d76223, actual =c2ee7058e6d76223
[1525000] SCOREBOARD MATCH: wdata passthrough beat=70 expected = 1e1f0048c668e590, actual =1e1f0048c668e590
[1525000] SCOREBOARD MATCH: wdata passthrough beat=71 expected = facf0b5ccfca855d, actual =facf0b5ccfca855d
[1525000] SCOREBOARD MATCH: wdata passthrough beat=72 expected = b6a1e780e0af0b32, actual =b6a1e780e0af0b32
[1525000] SCOREBOARD MATCH: wdata passthrough beat=73 expected = 2717f0c2bdbd7bb4, actual =2717f0c2bdbd7bb4
[1525000] SCOREBOARD MATCH: wdata passthrough beat=74 expected = d880112d4c0e7c8, actual =d880112d4c0e7c8
[1525000] SCOREBOARD MATCH: wdata passthrough beat=75 expected = b56ff2fa21e6fc1e, actual =b56ff2fa21e6fc1e
[1525000] SCOREBOARD MATCH: wdata passthrough beat=76 expected = dfa477d2c429e892, actual =dfa477d2c429e892
[1525000] SCOREBOARD MATCH: wdata passthrough beat=77 expected = 18ead05bdc87e3bc, actual =18ead05bdc87e3bc
[1525000] SCOREBOARD MATCH: wdata passthrough beat=78 expected = fe6edfdaed2c78e4, actual =fe6edfdaed2c78e4
[1525000] SCOREBOARD MATCH: wdata passthrough beat=79 expected = 31566177ce5ac355, actual =31566177ce5ac355
[1525000] SCOREBOARD MATCH: wdata passthrough beat=80 expected = 2ae2a712de1357ad, actual =2ae2a712de1357ad
[1525000] SCOREBOARD MATCH: wdata passthrough beat=81 expected = cb3fd091ca4131d2, actual =cb3fd091ca4131d2
[1525000] SCOREBOARD MATCH: wdata passthrough beat=82 expected = 989bf527a95186ec, actual =989bf527a95186ec
[1525000] SCOREBOARD MATCH: wdata passthrough beat=83 expected = 8764de99fc963208, actual =8764de99fc963208
[1525000] SCOREBOARD MATCH: wdata passthrough beat=84 expected = c6d763dac37e9c39, actual =c6d763dac37e9c39
[1525000] SCOREBOARD MATCH: wdata passthrough beat=85 expected = ecd02326d2a4af2b, actual =ecd02326d2a4af2b
[1525000] SCOREBOARD MATCH: wdata passthrough beat=86 expected = cf3ae133df735902, actual =cf3ae133df735902
[1525000] SCOREBOARD MATCH: wdata passthrough beat=87 expected = a2f1f53bf43501bf, actual =a2f1f53bf43501bf
[1525000] SCOREBOARD MATCH: wdata passthrough beat=88 expected = c6d9b0ea1612450e, actual =c6d9b0ea1612450e
[1525000] SCOREBOARD MATCH: wdata passthrough beat=89 expected = f5859e108fc21861, actual =f5859e108fc21861
[1525000] SCOREBOARD MATCH: wdata passthrough beat=90 expected = 3f71a211614921e, actual =3f71a211614921e
[1525000] SCOREBOARD MATCH: wdata passthrough beat=91 expected = 2c26d72c9877934b, actual =2c26d72c9877934b
[1525000] SCOREBOARD MATCH: wdata passthrough beat=92 expected = 2839abadcad0cb0b, actual =2839abadcad0cb0b
[1525000] SCOREBOARD MATCH: wdata passthrough beat=93 expected = e0e55d2921ac753c, actual =e0e55d2921ac753c
[1525000] SCOREBOARD MATCH: wdata passthrough beat=94 expected = ba2408872c30c5ce, actual =ba2408872c30c5ce
[1525000] SCOREBOARD MATCH: wdata passthrough beat=95 expected = f70190d98d0c3455, actual =f70190d98d0c3455
[1525000] SCOREBOARD MATCH: wdata passthrough beat=96 expected = aeb8a991e25db434, actual =aeb8a991e25db434
[1525000] SCOREBOARD MATCH: wdata passthrough beat=97 expected = 8e8e7a02d7e6ee03, actual =8e8e7a02d7e6ee03
[1525000] SCOREBOARD MATCH: wdata passthrough beat=98 expected = e4f32258e8dcb219, actual =e4f32258e8dcb219
[1525000] SCOREBOARD MATCH: wdata passthrough beat=99 expected = cb3a664d05900adc, actual =cb3a664d05900adc
[1525000] SCOREBOARD MATCH: wdata passthrough beat=100 expected = dd76f8df13abcbea, actual =dd76f8df13abcbea
[1525000] SCOREBOARD MATCH: wdata passthrough beat=101 expected = fc887e03d9c8e050, actual =fc887e03d9c8e050
[1525000] SCOREBOARD MATCH: wdata passthrough beat=102 expected = df58eb2cc26a1b37, actual =df58eb2cc26a1b37
[1525000] SCOREBOARD MATCH: wdata passthrough beat=103 expected = d615e721c7c2e450, actual =d615e721c7c2e450
[1525000] SCOREBOARD MATCH: wdata passthrough beat=104 expected = a18bc4a03ccfe40b, actual =a18bc4a03ccfe40b
[1525000] SCOREBOARD MATCH: wdata passthrough beat=105 expected = ff39ff42d29e6524, actual =ff39ff42d29e6524
[1525000] SCOREBOARD MATCH: wdata passthrough beat=106 expected = 1a61497580e4afcc, actual =1a61497580e4afcc
[1525000] SCOREBOARD MATCH: wdata passthrough beat=107 expected = bdb493d7d54fe664, actual =bdb493d7d54fe664
[1525000] SCOREBOARD MATCH: wdata passthrough beat=108 expected = a7ee4b88bbed0e15, actual =a7ee4b88bbed0e15
[1525000] SCOREBOARD MATCH: wdata passthrough beat=109 expected = 3cd1bde23cee931a, actual =3cd1bde23cee931a
[1525000] SCOREBOARD MATCH: wdata passthrough beat=110 expected = 123e797ec24f94fd, actual =123e797ec24f94fd
[1525000] SCOREBOARD MATCH: wdata passthrough beat=111 expected = fe3ca313fa8651b9, actual =fe3ca313fa8651b9
[1525000] SCOREBOARD MATCH: wdata passthrough beat=112 expected = b774e4d3ba2cc506, actual =b774e4d3ba2cc506
[1525000] SCOREBOARD MATCH: wdata passthrough beat=113 expected = fc7c5a043b0e60f5, actual =fc7c5a043b0e60f5
[1525000] SCOREBOARD MATCH: wdata passthrough beat=114 expected = b594b2aec9b35e51, actual =b594b2aec9b35e51
[1525000] SCOREBOARD MATCH: wdata passthrough beat=115 expected = 3e02358fab8fd17, actual =3e02358fab8fd17
[1525000] SCOREBOARD MATCH: wdata passthrough beat=116 expected = 35c75e0ced099782, actual =35c75e0ced099782
[1525000] SCOREBOARD MATCH: wdata passthrough beat=117 expected = b6bcf5d3005c7d5c, actual =b6bcf5d3005c7d5c
[1525000] SCOREBOARD MATCH: wdata passthrough beat=118 expected = fb157a73eb5c10ba, actual =fb157a73eb5c10ba
[1525000] SCOREBOARD MATCH: wdata passthrough beat=119 expected = d865a83cba9d192b, actual =d865a83cba9d192b
[1525000] SCOREBOARD MATCH: wdata passthrough beat=120 expected = baf9968730dcd87f, actual =baf9968730dcd87f
[1525000] SCOREBOARD MATCH: wdata passthrough beat=121 expected = 9c38e9390f229e10, actual =9c38e9390f229e10
[1525000] SCOREBOARD MATCH: wdata passthrough beat=122 expected = c9bfb73bb60f10fa, actual =c9bfb73bb60f10fa
[1525000] SCOREBOARD MATCH: wdata passthrough beat=123 expected = e6ebe979f49e9176, actual =e6ebe979f49e9176
[1525000] SCOREBOARD MATCH: wdata passthrough beat=124 expected = 3c12f8604b94dc3, actual =3c12f8604b94dc3
[1525000] SCOREBOARD MATCH: wdata passthrough beat=125 expected = bac85ebd0324d2b3, actual =bac85ebd0324d2b3
[1525000] SCOREBOARD MATCH: wdata passthrough beat=126 expected = f7c36429cd80e6c1, actual =f7c36429cd80e6c1
[1525000] SCOREBOARD MATCH: wdata passthrough beat=127 expected = d23a348421b44837, actual =d23a348421b44837
[1525000] SCOREBOARD MATCH: wdata passthrough beat=128 expected = 24d91aeafb8493af, actual =24d91aeafb8493af
[1525000] SCOREBOARD MATCH: wdata passthrough beat=129 expected = c9057a700d029342, actual =c9057a700d029342
[1525000] SCOREBOARD MATCH: wdata passthrough beat=130 expected = 2eb6db791c9c7f13, actual =2eb6db791c9c7f13
[1525000] SCOREBOARD MATCH: wdata passthrough beat=131 expected = 182112c21b3faef5, actual =182112c21b3faef5
[1525000] SCOREBOARD MATCH: wdata passthrough beat=132 expected = 28424237d38ff663, actual =28424237d38ff663
[1525000] SCOREBOARD MATCH: wdata passthrough beat=133 expected = f02c7576e1268d32, actual =f02c7576e1268d32
[1525000] SCOREBOARD MATCH: wdata passthrough beat=134 expected = fc663c27d6f91db0, actual =fc663c27d6f91db0
[1525000] SCOREBOARD MATCH: wdata passthrough beat=135 expected = 2a891413084d8838, actual =2a891413084d8838
[1525000] SCOREBOARD MATCH: wdata passthrough beat=136 expected = e974156aa4a87e5e, actual =e974156aa4a87e5e
[1525000] SCOREBOARD MATCH: wdata passthrough beat=137 expected = fba19c0e1ab58989, actual =fba19c0e1ab58989
[1525000] SCOREBOARD MATCH: wdata passthrough beat=138 expected = 230311c1e5da5192, actual =230311c1e5da5192
[1525000] SCOREBOARD MATCH: wdata passthrough beat=139 expected = 8a82cff0a62ab021, actual =8a82cff0a62ab021
[1525000] SCOREBOARD MATCH: wstrb size check expected = 8c, actual =8c
[1525000] SCOREBOARD MATCH: wstrb passthrough beat=0 expected = 2b, actual =2b
[1525000] SCOREBOARD MATCH: wstrb passthrough beat=1 expected = aa, actual =aa
[1525000] SCOREBOARD MATCH: wstrb passthrough beat=2 expected = ff, actual =ff
[1525000] SCOREBOARD MATCH: wstrb passthrough beat=3 expected = bd, actual =bd
[1525000] SCOREBOARD MATCH: wstrb passthrough beat=4 expected = 6b, actual =6b
[1525000] SCOREBOARD MATCH: wstrb passthrough beat=5 expected = 20, actual =20
[1525000] SCOREBOARD MATCH: wstrb passthrough beat=6 expected = ae, actual =ae
[1525000] SCOREBOARD MATCH: wstrb passthrough beat=7 expected = 97, actual =97
[1525000] SCOREBOARD MATCH: wstrb passthrough beat=8 expected = cb, actual =cb
[1525000] SCOREBOARD MATCH: wstrb passthrough beat=9 expected = ad, actual =ad
[1525000] SCOREBOARD MATCH: wstrb passthrough beat=10 expected = 54, actual =54
[1525000] SCOREBOARD MATCH: wstrb passthrough beat=11 expected = 36, actual =36
[1525000] SCOREBOARD MATCH: wstrb passthrough beat=12 expected = cd, actual =cd
[1525000] SCOREBOARD MATCH: wstrb passthrough beat=13 expected = 2, actual =2
[1525000] SCOREBOARD MATCH: wstrb passthrough beat=14 expected = cd, actual =cd
[1525000] SCOREBOARD MATCH: wstrb passthrough beat=15 expected = 98, actual =98
[1525000] SCOREBOARD MATCH: wstrb passthrough beat=16 expected = af, actual =af
[1525000] SCOREBOARD MATCH: wstrb passthrough beat=17 expected = 22, actual =22
[1525000] SCOREBOARD MATCH: wstrb passthrough beat=18 expected = cf, actual =cf
[1525000] SCOREBOARD MATCH: wstrb passthrough beat=19 expected = 7d, actual =7d
[1525000] SCOREBOARD MATCH: wstrb passthrough beat=20 expected = 24, actual =24
[1525000] SCOREBOARD MATCH: wstrb passthrough beat=21 expected = 9c, actual =9c
[1525000] SCOREBOARD MATCH: wstrb passthrough beat=22 expected = 15, actual =15
[1525000] SCOREBOARD MATCH: wstrb passthrough beat=23 expected = d4, actual =d4
[1525000] SCOREBOARD MATCH: wstrb passthrough beat=24 expected = be, actual =be
[1525000] SCOREBOARD MATCH: wstrb passthrough beat=25 expected = e4, actual =e4
[1525000] SCOREBOARD MATCH: wstrb passthrough beat=26 expected = 51, actual =51
[1525000] SCOREBOARD MATCH: wstrb passthrough beat=27 expected = e3, actual =e3
[1525000] SCOREBOARD MATCH: wstrb passthrough beat=28 expected = 81, actual =81
[1525000] SCOREBOARD MATCH: wstrb passthrough beat=29 expected = 66, actual =66
[1525000] SCOREBOARD MATCH: wstrb passthrough beat=30 expected = b7, actual =b7
[1525000] SCOREBOARD MATCH: wstrb passthrough beat=31 expected = 3f, actual =3f
[1525000] SCOREBOARD MATCH: wstrb passthrough beat=32 expected = 4b, actual =4b
[1525000] SCOREBOARD MATCH: wstrb passthrough beat=33 expected = 8, actual =8
[1525000] SCOREBOARD MATCH: wstrb passthrough beat=34 expected = 22, actual =22
[1525000] SCOREBOARD MATCH: wstrb passthrough beat=35 expected = cc, actual =cc
[1525000] SCOREBOARD MATCH: wstrb passthrough beat=36 expected = 6e, actual =6e
[1525000] SCOREBOARD MATCH: wstrb passthrough beat=37 expected = d9, actual =d9
[1525000] SCOREBOARD MATCH: wstrb passthrough beat=38 expected = b, actual =b
[1525000] SCOREBOARD MATCH: wstrb passthrough beat=39 expected = b9, actual =b9
[1525000] SCOREBOARD MATCH: wstrb passthrough beat=40 expected = e1, actual =e1
[1525000] SCOREBOARD MATCH: wstrb passthrough beat=41 expected = 2e, actual =2e
[1525000] SCOREBOARD MATCH: wstrb passthrough beat=42 expected = 85, actual =85
[1525000] SCOREBOARD MATCH: wstrb passthrough beat=43 expected = 50, actual =50
[1525000] SCOREBOARD MATCH: wstrb passthrough beat=44 expected = 7, actual =7
[1525000] SCOREBOARD MATCH: wstrb passthrough beat=45 expected = 91, actual =91
[1525000] SCOREBOARD MATCH: wstrb passthrough beat=46 expected = 9, actual =9
[1525000] SCOREBOARD MATCH: wstrb passthrough beat=47 expected = e9, actual =e9
[1525000] SCOREBOARD MATCH: wstrb passthrough beat=48 expected = bf, actual =bf
[1525000] SCOREBOARD MATCH: wstrb passthrough beat=49 expected = 8f, actual =8f
[1525000] SCOREBOARD MATCH: wstrb passthrough beat=50 expected = 39, actual =39
[1525000] SCOREBOARD MATCH: wstrb passthrough beat=51 expected = c6, actual =c6
[1525000] SCOREBOARD MATCH: wstrb passthrough beat=52 expected = 20, actual =20
[1525000] SCOREBOARD MATCH: wstrb passthrough beat=53 expected = 42, actual =42
[1525000] SCOREBOARD MATCH: wstrb passthrough beat=54 expected = af, actual =af
[1525000] SCOREBOARD MATCH: wstrb passthrough beat=55 expected = df, actual =df
[1525000] SCOREBOARD MATCH: wstrb passthrough beat=56 expected = d1, actual =d1
[1525000] SCOREBOARD MATCH: wstrb passthrough beat=57 expected = e8, actual =e8
[1525000] SCOREBOARD MATCH: wstrb passthrough beat=58 expected = a5, actual =a5
[1525000] SCOREBOARD MATCH: wstrb passthrough beat=59 expected = f1, actual =f1
[1525000] SCOREBOARD MATCH: wstrb passthrough beat=60 expected = 2b, actual =2b
[1525000] SCOREBOARD MATCH: wstrb passthrough beat=61 expected = 55, actual =55
[1525000] SCOREBOARD MATCH: wstrb passthrough beat=62 expected = d0, actual =d0
[1525000] SCOREBOARD MATCH: wstrb passthrough beat=63 expected = fc, actual =fc
[1525000] SCOREBOARD MATCH: wstrb passthrough beat=64 expected = 3d, actual =3d
[1525000] SCOREBOARD MATCH: wstrb passthrough beat=65 expected = 76, actual =76
[1525000] SCOREBOARD MATCH: wstrb passthrough beat=66 expected = ee, actual =ee
[1525000] SCOREBOARD MATCH: wstrb passthrough beat=67 expected = 68, actual =68
[1525000] SCOREBOARD MATCH: wstrb passthrough beat=68 expected = cb, actual =cb
[1525000] SCOREBOARD MATCH: wstrb passthrough beat=69 expected = be, actual =be
[1525000] SCOREBOARD MATCH: wstrb passthrough beat=70 expected = 65, actual =65
[1525000] SCOREBOARD MATCH: wstrb passthrough beat=71 expected = 8, actual =8
[1525000] SCOREBOARD MATCH: wstrb passthrough beat=72 expected = 34, actual =34
[1525000] SCOREBOARD MATCH: wstrb passthrough beat=73 expected = 53, actual =53
[1525000] SCOREBOARD MATCH: wstrb passthrough beat=74 expected = 71, actual =71
[1525000] SCOREBOARD MATCH: wstrb passthrough beat=75 expected = ff, actual =ff
[1525000] SCOREBOARD MATCH: wstrb passthrough beat=76 expected = 11, actual =11
[1525000] SCOREBOARD MATCH: wstrb passthrough beat=77 expected = d6, actual =d6
[1525000] SCOREBOARD MATCH: wstrb passthrough beat=78 expected = 8, actual =8
[1525000] SCOREBOARD MATCH: wstrb passthrough beat=79 expected = 46, actual =46
[1525000] SCOREBOARD MATCH: wstrb passthrough beat=80 expected = 29, actual =29
[1525000] SCOREBOARD MATCH: wstrb passthrough beat=81 expected = 79, actual =79
[1525000] SCOREBOARD MATCH: wstrb passthrough beat=82 expected = 45, actual =45
[1525000] SCOREBOARD MATCH: wstrb passthrough beat=83 expected = 3a, actual =3a
[1525000] SCOREBOARD MATCH: wstrb passthrough beat=84 expected = 4f, actual =4f
[1525000] SCOREBOARD MATCH: wstrb passthrough beat=85 expected = 4d, actual =4d
[1525000] SCOREBOARD MATCH: wstrb passthrough beat=86 expected = 80, actual =80
[1525000] SCOREBOARD MATCH: wstrb passthrough beat=87 expected = 78, actual =78
[1525000] SCOREBOARD MATCH: wstrb passthrough beat=88 expected = c6, actual =c6
[1525000] SCOREBOARD MATCH: wstrb passthrough beat=89 expected = c6, actual =c6
[1525000] SCOREBOARD MATCH: wstrb passthrough beat=90 expected = b2, actual =b2
[1525000] SCOREBOARD MATCH: wstrb passthrough beat=91 expected = 15, actual =15
[1525000] SCOREBOARD MATCH: wstrb passthrough beat=92 expected = 13, actual =13
[1525000] SCOREBOARD MATCH: wstrb passthrough beat=93 expected = 33, actual =33
[1525000] SCOREBOARD MATCH: wstrb passthrough beat=94 expected = 8d, actual =8d
[1525000] SCOREBOARD MATCH: wstrb passthrough beat=95 expected = da, actual =da
[1525000] SCOREBOARD MATCH: wstrb passthrough beat=96 expected = f9, actual =f9
[1525000] SCOREBOARD MATCH: wstrb passthrough beat=97 expected = 40, actual =40
[1525000] SCOREBOARD MATCH: wstrb passthrough beat=98 expected = ef, actual =ef
[1525000] SCOREBOARD MATCH: wstrb passthrough beat=99 expected = c, actual =c
[1525000] SCOREBOARD MATCH: wstrb passthrough beat=100 expected = 73, actual =73
[1525000] SCOREBOARD MATCH: wstrb passthrough beat=101 expected = 7d, actual =7d
[1525000] SCOREBOARD MATCH: wstrb passthrough beat=102 expected = e6, actual =e6
[1525000] SCOREBOARD MATCH: wstrb passthrough beat=103 expected = 6c, actual =6c
[1525000] SCOREBOARD MATCH: wstrb passthrough beat=104 expected = bd, actual =bd
[1525000] SCOREBOARD MATCH: wstrb passthrough beat=105 expected = d6, actual =d6
[1525000] SCOREBOARD MATCH: wstrb passthrough beat=106 expected = 78, actual =78
[1525000] SCOREBOARD MATCH: wstrb passthrough beat=107 expected = 30, actual =30
[1525000] SCOREBOARD MATCH: wstrb passthrough beat=108 expected = 53, actual =53
[1525000] SCOREBOARD MATCH: wstrb passthrough beat=109 expected = 5f, actual =5f
[1525000] SCOREBOARD MATCH: wstrb passthrough beat=110 expected = 9c, actual =9c
[1525000] SCOREBOARD MATCH: wstrb passthrough beat=111 expected = 10, actual =10
[1525000] SCOREBOARD MATCH: wstrb passthrough beat=112 expected = 35, actual =35
[1525000] SCOREBOARD MATCH: wstrb passthrough beat=113 expected = 14, actual =14
[1525000] SCOREBOARD MATCH: wstrb passthrough beat=114 expected = 40, actual =40
[1525000] SCOREBOARD MATCH: wstrb passthrough beat=115 expected = 88, actual =88
[1525000] SCOREBOARD MATCH: wstrb passthrough beat=116 expected = 73, actual =73
[1525000] SCOREBOARD MATCH: wstrb passthrough beat=117 expected = dc, actual =dc
[1525000] SCOREBOARD MATCH: wstrb passthrough beat=118 expected = 98, actual =98
[1525000] SCOREBOARD MATCH: wstrb passthrough beat=119 expected = a8, actual =a8
[1525000] SCOREBOARD MATCH: wstrb passthrough beat=120 expected = f0, actual =f0
[1525000] SCOREBOARD MATCH: wstrb passthrough beat=121 expected = d8, actual =d8
[1525000] SCOREBOARD MATCH: wstrb passthrough beat=122 expected = 30, actual =30
[1525000] SCOREBOARD MATCH: wstrb passthrough beat=123 expected = 64, actual =64
[1525000] SCOREBOARD MATCH: wstrb passthrough beat=124 expected = b4, actual =b4
[1525000] SCOREBOARD MATCH: wstrb passthrough beat=125 expected = c8, actual =c8
[1525000] SCOREBOARD MATCH: wstrb passthrough beat=126 expected = c, actual =c
[1525000] SCOREBOARD MATCH: wstrb passthrough beat=127 expected = a4, actual =a4
[1525000] SCOREBOARD MATCH: wstrb passthrough beat=128 expected = a0, actual =a0
[1525000] SCOREBOARD MATCH: wstrb passthrough beat=129 expected = 3d, actual =3d
[1525000] SCOREBOARD MATCH: wstrb passthrough beat=130 expected = 8, actual =8
[1525000] SCOREBOARD MATCH: wstrb passthrough beat=131 expected = 54, actual =54
[1525000] SCOREBOARD MATCH: wstrb passthrough beat=132 expected = 5, actual =5
[1525000] SCOREBOARD MATCH: wstrb passthrough beat=133 expected = 15, actual =15
[1525000] SCOREBOARD MATCH: wstrb passthrough beat=134 expected = f9, actual =f9
[1525000] SCOREBOARD MATCH: wstrb passthrough beat=135 expected = a6, actual =a6
[1525000] SCOREBOARD MATCH: wstrb passthrough beat=136 expected = 52, actual =52
[1525000] SCOREBOARD MATCH: wstrb passthrough beat=137 expected = 1, actual =1
[1525000] SCOREBOARD MATCH: wstrb passthrough beat=138 expected = fa, actual =fa
[1525000] SCOREBOARD MATCH: wstrb passthrough beat=139 expected = 57, actual =57
[1525000] SCOREBOARD MATCH: bresp passthrough expected = 0, actual =0
[1525000] SCOREBOARD MATCH: response routed to correct master (write) expected = 1, actual =1
[1525000] [SCOREBOARD-M] mst_id=1 s_id=1 awaddr=139fd0e0 awid=1110 awlen=139 awsize=3 awburst=1 wdata=[deac6eb2deaf1841 7c7c26e08c5891d ce262ac0d06e183e 2f1d307fcb7cdf05 d44268222cd29973 fd40b1b136e4f2ed 261d1f2a26892e2 cf3b2c552c5de230 e342d51dd6a43a14 f90cccf6cc7bde06 f8d9c036e5a4a70f 3c48e123c847f94c 94c3d752dc1c9553 c1c13c62b555ae19 fd9da7650d9d9789 e9ba2cdcfe0a1d85 335fcb9f12617eb8 1fff16412b7b693f a98586c4b0fd7304 c35ef1bc89b9431d b534ac5cdce55263 de2c568e35e07fd ed174b1bdeba3321 bb9f8584d141b724 349fbf22a24bf777 81062a98c9824aec 1ac4021121b70a3d c40301b43ca5b01d 8627fb09cf63c133 f11acb70c5092c4d 1aedc6aa0ebfd1a f04fbe4db51dcd24 fa26f97187d6d773 28c2d48ee16a89bd 168856e2fbd5d5db 3acad4f991292db fa7d1c9990af5053 c85262f2c6f81dd c58214b81105737b a1b4c3ce1031d37e 3ca1555bbfff3151 d104a4ccae39e9fd be6bbd7b82236a13 c2229b65f2b9689b a0f35298fb0d12d6 fd307cea93274031 85e0a8ccdf5f1014 da6c22ea3f53184f d27a588026d3fb65 6330b79d79c9fd4 96efb823d85b014d ff2efcb2e09f2e63 383bce38e96a10a4 c1c511f10562082b e601368ecf2b865b b89596ffc0f40ea3 c65616ce9e3d04c6 ed688b22fa5aa8f0 bb4eb793ac574d5c ca945223a5fe2221 2058cb1281a4ce61 2dfc1bbe37fcdd45 ddfaff66dba782a5 dd4c5107f8906de1 308d4b26fe53ca78 d9fb4d1e0b486cc5 3d8daa68e884a8c cdc150537479e25 c2900aea346625cc c2ee7058e6d76223 1e1f0048c668e590 facf0b5ccfca855d b6a1e780e0af0b32 2717f0c2bdbd7bb4 d880112d4c0e7c8 b56ff2fa21e6fc1e dfa477d2c429e892 18ead05bdc87e3bc fe6edfdaed2c78e4 31566177ce5ac355 2ae2a712de1357ad cb3fd091ca4131d2 989bf527a95186ec 8764de99fc963208 c6d763dac37e9c39 ecd02326d2a4af2b cf3ae133df735902 a2f1f53bf43501bf c6d9b0ea1612450e f5859e108fc21861 3f71a211614921e 2c26d72c9877934b 2839abadcad0cb0b e0e55d2921ac753c ba2408872c30c5ce f70190d98d0c3455 aeb8a991e25db434 8e8e7a02d7e6ee03 e4f32258e8dcb219 cb3a664d05900adc dd76f8df13abcbea fc887e03d9c8e050 df58eb2cc26a1b37 d615e721c7c2e450 a18bc4a03ccfe40b ff39ff42d29e6524 1a61497580e4afcc bdb493d7d54fe664 a7ee4b88bbed0e15 3cd1bde23cee931a 123e797ec24f94fd fe3ca313fa8651b9 b774e4d3ba2cc506 fc7c5a043b0e60f5 b594b2aec9b35e51 3e02358fab8fd17 35c75e0ced099782 b6bcf5d3005c7d5c fb157a73eb5c10ba d865a83cba9d192b baf9968730dcd87f 9c38e9390f229e10 c9bfb73bb60f10fa e6ebe979f49e9176 3c12f8604b94dc3 bac85ebd0324d2b3 f7c36429cd80e6c1 d23a348421b44837 24d91aeafb8493af c9057a700d029342 2eb6db791c9c7f13 182112c21b3faef5 28424237d38ff663 f02c7576e1268d32 fc663c27d6f91db0 2a891413084d8838 e974156aa4a87e5e fba19c0e1ab58989 230311c1e5da5192 8a82cff0a62ab021 ] wstrb=[2b aa ff bd 6b 20 ae 97 cb ad 54 36 cd 2 cd 98 af 22 cf 7d 24 9c 15 d4 be e4 51 e3 81 66 b7 3f 4b 8 22 cc 6e d9 b b9 e1 2e 85 50 7 91 9 e9 bf 8f 39 c6 20 42 af df d1 e8 a5 f1 2b 55 d0 fc 3d 76 ee 68 cb be 65 8 34 53 71 ff 11 d6 8 46 29 79 45 3a 4f 4d 80 78 c6 c6 b2 15 13 33 8d da f9 40 ef c 73 7d e6 6c bd d6 78 30 53 5f 9c 10 35 14 40 88 73 dc 98 a8 f0 d8 30 64 b4 c8 c a4 a0 3d 8 54 5 15 f9 a6 52 1 fa 57 ] bresp=0 bid=1110
[1525000] [SCOREBOARD-S] mst_id=1 s_id=1 awaddr=139fd0e0 awid=1110 awlen=139 awsize=3 awburst=1 wdata=[deac6eb2deaf1841 7c7c26e08c5891d ce262ac0d06e183e 2f1d307fcb7cdf05 d44268222cd29973 fd40b1b136e4f2ed 261d1f2a26892e2 cf3b2c552c5de230 e342d51dd6a43a14 f90cccf6cc7bde06 f8d9c036e5a4a70f 3c48e123c847f94c 94c3d752dc1c9553 c1c13c62b555ae19 fd9da7650d9d9789 e9ba2cdcfe0a1d85 335fcb9f12617eb8 1fff16412b7b693f a98586c4b0fd7304 c35ef1bc89b9431d b534ac5cdce55263 de2c568e35e07fd ed174b1bdeba3321 bb9f8584d141b724 349fbf22a24bf777 81062a98c9824aec 1ac4021121b70a3d c40301b43ca5b01d 8627fb09cf63c133 f11acb70c5092c4d 1aedc6aa0ebfd1a f04fbe4db51dcd24 fa26f97187d6d773 28c2d48ee16a89bd 168856e2fbd5d5db 3acad4f991292db fa7d1c9990af5053 c85262f2c6f81dd c58214b81105737b a1b4c3ce1031d37e 3ca1555bbfff3151 d104a4ccae39e9fd be6bbd7b82236a13 c2229b65f2b9689b a0f35298fb0d12d6 fd307cea93274031 85e0a8ccdf5f1014 da6c22ea3f53184f d27a588026d3fb65 6330b79d79c9fd4 96efb823d85b014d ff2efcb2e09f2e63 383bce38e96a10a4 c1c511f10562082b e601368ecf2b865b b89596ffc0f40ea3 c65616ce9e3d04c6 ed688b22fa5aa8f0 bb4eb793ac574d5c ca945223a5fe2221 2058cb1281a4ce61 2dfc1bbe37fcdd45 ddfaff66dba782a5 dd4c5107f8906de1 308d4b26fe53ca78 d9fb4d1e0b486cc5 3d8daa68e884a8c cdc150537479e25 c2900aea346625cc c2ee7058e6d76223 1e1f0048c668e590 facf0b5ccfca855d b6a1e780e0af0b32 2717f0c2bdbd7bb4 d880112d4c0e7c8 b56ff2fa21e6fc1e dfa477d2c429e892 18ead05bdc87e3bc fe6edfdaed2c78e4 31566177ce5ac355 2ae2a712de1357ad cb3fd091ca4131d2 989bf527a95186ec 8764de99fc963208 c6d763dac37e9c39 ecd02326d2a4af2b cf3ae133df735902 a2f1f53bf43501bf c6d9b0ea1612450e f5859e108fc21861 3f71a211614921e 2c26d72c9877934b 2839abadcad0cb0b e0e55d2921ac753c ba2408872c30c5ce f70190d98d0c3455 aeb8a991e25db434 8e8e7a02d7e6ee03 e4f32258e8dcb219 cb3a664d05900adc dd76f8df13abcbea fc887e03d9c8e050 df58eb2cc26a1b37 d615e721c7c2e450 a18bc4a03ccfe40b ff39ff42d29e6524 1a61497580e4afcc bdb493d7d54fe664 a7ee4b88bbed0e15 3cd1bde23cee931a 123e797ec24f94fd fe3ca313fa8651b9 b774e4d3ba2cc506 fc7c5a043b0e60f5 b594b2aec9b35e51 3e02358fab8fd17 35c75e0ced099782 b6bcf5d3005c7d5c fb157a73eb5c10ba d865a83cba9d192b baf9968730dcd87f 9c38e9390f229e10 c9bfb73bb60f10fa e6ebe979f49e9176 3c12f8604b94dc3 bac85ebd0324d2b3 f7c36429cd80e6c1 d23a348421b44837 24d91aeafb8493af c9057a700d029342 2eb6db791c9c7f13 182112c21b3faef5 28424237d38ff663 f02c7576e1268d32 fc663c27d6f91db0 2a891413084d8838 e974156aa4a87e5e fba19c0e1ab58989 230311c1e5da5192 8a82cff0a62ab021 ] wstrb=[2b aa ff bd 6b 20 ae 97 cb ad 54 36 cd 2 cd 98 af 22 cf 7d 24 9c 15 d4 be e4 51 e3 81 66 b7 3f 4b 8 22 cc 6e d9 b b9 e1 2e 85 50 7 91 9 e9 bf 8f 39 c6 20 42 af df d1 e8 a5 f1 2b 55 d0 fc 3d 76 ee 68 cb be 65 8 34 53 71 ff 11 d6 8 46 29 79 45 3a 4f 4d 80 78 c6 c6 b2 15 13 33 8d da f9 40 ef c 73 7d e6 6c bd d6 78 30 53 5f 9c 10 35 14 40 88 73 dc 98 a8 f0 d8 30 64 b4 c8 c a4 a0 3d 8 54 5 15 f9 a6 52 1 fa 57 ] bresp=0 bid=11110
[1525000] SCOREBOARD: Transaction 5 received. pass=346 fail=0
[1525000] SCOREBOARD: Expected 5 transactions completed, PASS=346 FAIL=0
[1525000] ALL PASS. Total transactions: 5
[1525000] ALL TRANSACTIONS MONITORED
$finish called at time : 1545 ns : File "/home/nashita/Desktop/practice/axi_xbar/tb/top/axi_tb_top.sv" Line 220
exit
INFO: xsimkernel Simulation Memory Usage: 289464 KB (Peak: 337864 KB), Simulation CPU Usage: 1170 ms
INFO: [Common 17-206] Exiting xsim at Thu Sep 10 18:25:09 2026...
