#-----------------------------------------------------------
# xsim v2025.2 (64-bit)
# SW Build 6299465 on Fri Nov 14 12:34:56 MST 2025
# IP Build 6300035 on Fri Nov 14 10:48:45 MST 2025
# SharedData Build 6298862 on Thu Nov 13 04:50:51 MST 2025
# Start of session at: Fri Sep 11 11:35:16 2026
# Process ID         : 681141
# Current directory  : /home/nashita/Desktop/practice/axi_xbar/sim
# Command line       : xsim -log regress_results/BT_run175.log -mode tcl -source {xsim.dir/tb_top_snap/xsim_script.tcl}
# Log file           : /home/nashita/Desktop/practice/axi_xbar/sim/regress_results/BT_run175.log
# Journal file       : /home/nashita/Desktop/practice/axi_xbar/sim/xsim.jou
# Running On         : vlsi-vivado
# Platform           : Ubuntu
# Operating System   : Ubuntu 24.04.4 LTS
# Processor Detail   : Intel(R) Core(TM) i5-10400 CPU @ 2.90GHz
# CPU Frequency      : 4000.067 MHz
# CPU Physical cores : 6
# CPU Logical cores  : 12
# Host memory        : 41875 MB
# Swap memory        : 27648 MB
# Total Virtual      : 69524 MB
# Available Virtual  : 63061 MB
#-----------------------------------------------------------
source xsim.dir/tb_top_snap/xsim_script.tcl
# xsim {tb_top_snap} -testplusarg BT -autoloadwcfg -runall -sv_seed 176
Time resolution is 1 ps
run -all
[0] RUNNING BASE TEST
[0] INSIDE THE BASE TEST CONSTRUCTOR
[0] ENV: before agent
[0] SLAVE CONSTRUCTED
[0] MASTER MONITOR CONSTRUCTED
[0] MASTER MONITOR CONSTRUCTED
[0] SLAVE MONITOR CONSTRUCTED
[0] SLAVE MONITOR CONSTRUCTED
[0] ARB MONITOR CONSTRUCTED
GENERATOR CONSTRUCTED
[0] ENV: after agent
[0] ENV: before scoreboard
[0] ENV: after scoreboard
[15000] [SEQUENCER] mst_id=0 s_id=0 awaddr=12c3b910 awid=1101 awlen=102 awsize=0 awburst=1 wdata=[d5b27b3cdf6ac2a6 fd5be4c78e8731fe 25a46ad53bec0b83 1b56ce29f1a57e0b 2cb00afb56e611 b742f19498b2b2f0 a5830fc25d11adf a12800f0d299bfbd eb4c72ae0a84e106 3055fbe5d86af285 ab04b242f5a4a3aa 2984b0d17dfcd5 a9e8ef5a965124f0 8bf5c89a307f8095 81fd7d6ad4eda19d eb3ec68d8c1f4d4a bc9ecddf2be66cc5 d40e62f7348f28 8353dc723e9c4b4a ea82b80fec12d4ef e34764173ff2aa52 fe8ef59ceb56c671 d7699b60e69b408a 268deadce911adab d468741c3ab0ff78 214c4002251ce078 e2e8e23abd20f7c e6830ef4c7da2ade ecf70b56e297023f 8e6911bb87cf4ef6 cfa979d4fb259979 ddbc9bb8f4ec20b0 fcbb6fa6bca0852a b7c61ea3ec25ad73 e111ce23cc64e97b 89056ea59582ba5b 1a867cfddcd3dca 2a322745c0cb8d49 d64e47a4e2ba35f2 c08773bcb33795ea f4032333d7f6af73 3ab0e566eab99b01 1df130ecca516ad8 a2481a4bfb385922 e5f1f42491f4541f dc45bef7dcf8ffb1 d83158d403e32510 95d7792ffe8dd943 db86d8f43e234cf8 c2067208f21d3827 f0ab116ab3b831c8 f1db7ec0d7ddeb37 c9fb235ecc31ea5e ffea1c27b3e1f0c8 bbfdc00baa634c8 6d81f27f1c59ae7 25a78bb0d5baff5e 1061342706c23b4e f887d635316767b0 8722670e1739534e 1dfb8e9c9e2f61e5 cf96c99597839b35 aebcee83968364d1 34b2c6b7d6b930a4 ee3ccbd9ccb87d1f e33be1f18449904c db02c0f01cf9ba5d e9b2377c17eea8a8 9c3838f4c93f8cca e6394727ccee196d e4dcc215f73af9e5 c07a86afcfeb7ea3 1cd998110114fb0a f84ff4ef26b3cdd6 f69f4c7981b65a26 82cb553038ca7b9e df7e49749378e48a 152f3eb1fb1b4a1f b3e5c5bdd61d95ed e9967a7897fa93e1 1315de0193640f31 e981a51ffec5b929 96c04d0ac6fba3be da5fb2f0d3181f97 d1ddd8c0a9d62b0b f0d1cecac3e1580f 16f977a6e89e25ca 127450d6cb3181ba f12d9c9e8d75066 d175763003461fa0 ce77a15a260c516f ee3a1d5e3e9c706 e72fe6a6dd8a7b23 396cc92e0591805 c442df0cb5a78800 93320323127a6e67 f2d3866cab72c5b2 e11a4db396c8cfb5 a9433e1cb7166578 e2892b2bf44c50d6 b15208c1c16c489 d32d2a01c3a378de b7efc9b4b4585ea8 ] wstrb=[2c 31 40 a 33 e9 bf 5f 1a ff 6a 4d e8 29 ad 3 28 17 50 11 40 fd 14 68 14 64 79 54 62 8d bd 76 f2 36 cb 54 c4 88 ca b6 be 95 a 82 1d d4 38 dc 6a 42 5e 87 17 97 63 81 d9 c2 8 f0 59 6c 71 32 2e 7a 23 87 e6 94 b9 14 e dc 9b f4 71 54 8 7f 31 a3 74 a2 f8 7c 21 29 20 95 cb 18 12 ec 41 32 82 c 4a 94 f8 8b c6 ] bresp=0 bid=0
[15000] [SEQUENCER] mst_id=1 s_id=0 awaddr=196893e8 awid=110 awlen=12 awsize=6 awburst=2 wdata=[ae1f5ec1eef20992 c5bc631027e8d4cc 1a5e9f59d94c713e c83e7ad1dc07c0df 3f095abc87dfe1a 21ca6f590dfadde1 ea029ec01e4f3504 e6cd331eea08ea2a f803c80bedf3346b c42696f8897a277 f2a08ca1e20666cb cff99b36f30f9c8d fba73f05eaa454ac ] wstrb=[a5 77 a6 32 ad 53 37 52 ca de 85 78 31 ] bresp=0 bid=0
[15000] [SEQUENCER] mst_id=1 s_id=0 awaddr=179f49f8 awid=1000 awlen=4 awsize=5 awburst=0 wdata=[15d29f6fc5bbe662 d8afcfa1e06e6127 8a84e43311cc5d00 d7884362ccb9dcbe ad283de5a05783a2 ] wstrb=[3 a2 19 c1 4 ] bresp=0 bid=0
[15000] [SEQUENCER] READ mst_id=1 s_id=0 araddr=5450b80 arid=2 arlen=1 arsize=3 arburst=1 rid=[] rresp=[] rdata=[]
[15000] [SEQUENCER] READ mst_id=1 s_id=0 araddr=bb29970 arid=3 arlen=1 arsize=3 arburst=1 rid=[] rresp=[] rdata=[]
[15000] MASTER_DRIVER0 received transaction, op=AXI_WRITE
[15000] MASTER_DRIVER1 received transaction, op=AXI_WRITE
[35000] MASTER 1 AW_VALID_RDY Handshake
[35000] MASTER 0 AW_VALID_RDY Handshake
[45000] ARB MONITOR: slave=1 m0_req=1 m1_req=1 winner=0
[45000] AXI S1_AWVALID_RDY HANDSHAKE
[45000] SCOREBOARD MATCH: arbitration winner (slave 1) expected = 0, actual =0
[55000] MASTER 1 W_VALID_RDY Handshake beat=0 wlast=0
[55000] MASTER 0 W_VALID_RDY Handshake beat=0 wlast=0
[65000] MASTER 0 W_VALID_RDY Handshake beat=1 wlast=0
[65000] MASTER 1 W_VALID_RDY Handshake beat=1 wlast=0
[65000] S1 MEMORY WRITE beat=0 addr=12c3b910 data=d5b27b3cdf6ac2a6 id=0d
[75000] S1 MEMORY WRITE beat=1 addr=12c3b911 data=fd5be4c78e8731fe id=0d
[75000] MASTER 1 W_VALID_RDY Handshake beat=2 wlast=0
[75000] MASTER 0 W_VALID_RDY Handshake beat=2 wlast=0
[85000] MASTER 0 W_VALID_RDY Handshake beat=3 wlast=0
[85000] MASTER 1 W_VALID_RDY Handshake beat=3 wlast=0
[85000] S1 MEMORY WRITE beat=2 addr=12c3b912 data=25a46ad53bec0b83 id=0d
[95000] S1 MEMORY WRITE beat=3 addr=12c3b913 data=1b56ce29f1a57e0b id=0d
[95000] MASTER 1 W_VALID_RDY Handshake beat=4 wlast=0
[95000] MASTER 0 W_VALID_RDY Handshake beat=4 wlast=0
[105000] MASTER 0 W_VALID_RDY Handshake beat=5 wlast=0
[105000] MASTER 1 W_VALID_RDY Handshake beat=5 wlast=0
[105000] S1 MEMORY WRITE beat=4 addr=12c3b914 data=002cb00afb56e611 id=0d
[115000] S1 MEMORY WRITE beat=5 addr=12c3b915 data=b742f19498b2b2f0 id=0d
[115000] MASTER 1 W_VALID_RDY Handshake beat=6 wlast=0
[115000] MASTER 0 W_VALID_RDY Handshake beat=6 wlast=0
[125000] MASTER 0 W_VALID_RDY Handshake beat=7 wlast=0
[125000] MASTER 1 W_VALID_RDY Handshake beat=7 wlast=0
[125000] S1 MEMORY WRITE beat=6 addr=12c3b916 data=0a5830fc25d11adf id=0d
[135000] S1 MEMORY WRITE beat=7 addr=12c3b917 data=a12800f0d299bfbd id=0d
[135000] MASTER 0 W_VALID_RDY Handshake beat=8 wlast=0
[145000] MASTER 0 W_VALID_RDY Handshake beat=9 wlast=0
[145000] S1 MEMORY WRITE beat=8 addr=12c3b918 data=eb4c72ae0a84e106 id=0d
[155000] S1 MEMORY WRITE beat=9 addr=12c3b919 data=3055fbe5d86af285 id=0d
[155000] MASTER 0 W_VALID_RDY Handshake beat=10 wlast=0
[165000] MASTER 0 W_VALID_RDY Handshake beat=11 wlast=0
[165000] S1 MEMORY WRITE beat=10 addr=12c3b91a data=ab04b242f5a4a3aa id=0d
[175000] S1 MEMORY WRITE beat=11 addr=12c3b91b data=002984b0d17dfcd5 id=0d
[175000] MASTER 0 W_VALID_RDY Handshake beat=12 wlast=0
[185000] MASTER 0 W_VALID_RDY Handshake beat=13 wlast=0
[185000] S1 MEMORY WRITE beat=12 addr=12c3b91c data=a9e8ef5a965124f0 id=0d
[195000] S1 MEMORY WRITE beat=13 addr=12c3b91d data=8bf5c89a307f8095 id=0d
[195000] MASTER 0 W_VALID_RDY Handshake beat=14 wlast=0
[205000] MASTER 0 W_VALID_RDY Handshake beat=15 wlast=0
[205000] S1 MEMORY WRITE beat=14 addr=12c3b91e data=81fd7d6ad4eda19d id=0d
[215000] S1 MEMORY WRITE beat=15 addr=12c3b91f data=eb3ec68d8c1f4d4a id=0d
[215000] MASTER 0 W_VALID_RDY Handshake beat=16 wlast=0
[225000] MASTER 0 W_VALID_RDY Handshake beat=17 wlast=0
[225000] S1 MEMORY WRITE beat=16 addr=12c3b920 data=bc9ecddf2be66cc5 id=0d
[235000] S1 MEMORY WRITE beat=17 addr=12c3b921 data=00d40e62f7348f28 id=0d
[235000] MASTER 0 W_VALID_RDY Handshake beat=18 wlast=0
[245000] MASTER 0 W_VALID_RDY Handshake beat=19 wlast=0
[245000] S1 MEMORY WRITE beat=18 addr=12c3b922 data=8353dc723e9c4b4a id=0d
[255000] S1 MEMORY WRITE beat=19 addr=12c3b923 data=ea82b80fec12d4ef id=0d
[255000] MASTER 0 W_VALID_RDY Handshake beat=20 wlast=0
[265000] MASTER 0 W_VALID_RDY Handshake beat=21 wlast=0
[265000] S1 MEMORY WRITE beat=20 addr=12c3b924 data=e34764173ff2aa52 id=0d
[275000] S1 MEMORY WRITE beat=21 addr=12c3b925 data=fe8ef59ceb56c671 id=0d
[275000] MASTER 0 W_VALID_RDY Handshake beat=22 wlast=0
[285000] MASTER 0 W_VALID_RDY Handshake beat=23 wlast=0
[285000] S1 MEMORY WRITE beat=22 addr=12c3b926 data=d7699b60e69b408a id=0d
[295000] S1 MEMORY WRITE beat=23 addr=12c3b927 data=268deadce911adab id=0d
[295000] MASTER 0 W_VALID_RDY Handshake beat=24 wlast=0
[305000] MASTER 0 W_VALID_RDY Handshake beat=25 wlast=0
[305000] S1 MEMORY WRITE beat=24 addr=12c3b928 data=d468741c3ab0ff78 id=0d
[315000] S1 MEMORY WRITE beat=25 addr=12c3b929 data=214c4002251ce078 id=0d
[315000] MASTER 0 W_VALID_RDY Handshake beat=26 wlast=0
[325000] MASTER 0 W_VALID_RDY Handshake beat=27 wlast=0
[325000] S1 MEMORY WRITE beat=26 addr=12c3b92a data=0e2e8e23abd20f7c id=0d
[335000] S1 MEMORY WRITE beat=27 addr=12c3b92b data=e6830ef4c7da2ade id=0d
[335000] MASTER 0 W_VALID_RDY Handshake beat=28 wlast=0
[345000] MASTER 0 W_VALID_RDY Handshake beat=29 wlast=0
[345000] S1 MEMORY WRITE beat=28 addr=12c3b92c data=ecf70b56e297023f id=0d
[355000] S1 MEMORY WRITE beat=29 addr=12c3b92d data=8e6911bb87cf4ef6 id=0d
[355000] MASTER 0 W_VALID_RDY Handshake beat=30 wlast=0
[365000] MASTER 0 W_VALID_RDY Handshake beat=31 wlast=0
[365000] S1 MEMORY WRITE beat=30 addr=12c3b92e data=cfa979d4fb259979 id=0d
[375000] S1 MEMORY WRITE beat=31 addr=12c3b92f data=ddbc9bb8f4ec20b0 id=0d
[375000] MASTER 0 W_VALID_RDY Handshake beat=32 wlast=0
[385000] MASTER 0 W_VALID_RDY Handshake beat=33 wlast=0
[385000] S1 MEMORY WRITE beat=32 addr=12c3b930 data=fcbb6fa6bca0852a id=0d
[395000] S1 MEMORY WRITE beat=33 addr=12c3b931 data=b7c61ea3ec25ad73 id=0d
[395000] MASTER 0 W_VALID_RDY Handshake beat=34 wlast=0
[405000] MASTER 0 W_VALID_RDY Handshake beat=35 wlast=0
[405000] S1 MEMORY WRITE beat=34 addr=12c3b932 data=e111ce23cc64e97b id=0d
[415000] S1 MEMORY WRITE beat=35 addr=12c3b933 data=89056ea59582ba5b id=0d
[415000] MASTER 0 W_VALID_RDY Handshake beat=36 wlast=0
[425000] MASTER 0 W_VALID_RDY Handshake beat=37 wlast=0
[425000] S1 MEMORY WRITE beat=36 addr=12c3b934 data=01a867cfddcd3dca id=0d
[435000] S1 MEMORY WRITE beat=37 addr=12c3b935 data=2a322745c0cb8d49 id=0d
[435000] MASTER 0 W_VALID_RDY Handshake beat=38 wlast=0
[445000] MASTER 0 W_VALID_RDY Handshake beat=39 wlast=0
[445000] S1 MEMORY WRITE beat=38 addr=12c3b936 data=d64e47a4e2ba35f2 id=0d
[455000] S1 MEMORY WRITE beat=39 addr=12c3b937 data=c08773bcb33795ea id=0d
[455000] MASTER 0 W_VALID_RDY Handshake beat=40 wlast=0
[465000] MASTER 0 W_VALID_RDY Handshake beat=41 wlast=0
[465000] S1 MEMORY WRITE beat=40 addr=12c3b938 data=f4032333d7f6af73 id=0d
[475000] S1 MEMORY WRITE beat=41 addr=12c3b939 data=3ab0e566eab99b01 id=0d
[475000] MASTER 0 W_VALID_RDY Handshake beat=42 wlast=0
[485000] MASTER 0 W_VALID_RDY Handshake beat=43 wlast=0
[485000] S1 MEMORY WRITE beat=42 addr=12c3b93a data=1df130ecca516ad8 id=0d
[495000] S1 MEMORY WRITE beat=43 addr=12c3b93b data=a2481a4bfb385922 id=0d
[495000] MASTER 0 W_VALID_RDY Handshake beat=44 wlast=0
[505000] MASTER 0 W_VALID_RDY Handshake beat=45 wlast=0
[505000] S1 MEMORY WRITE beat=44 addr=12c3b93c data=e5f1f42491f4541f id=0d
[515000] S1 MEMORY WRITE beat=45 addr=12c3b93d data=dc45bef7dcf8ffb1 id=0d
[515000] MASTER 0 W_VALID_RDY Handshake beat=46 wlast=0
[525000] MASTER 0 W_VALID_RDY Handshake beat=47 wlast=0
[525000] S1 MEMORY WRITE beat=46 addr=12c3b93e data=d83158d403e32510 id=0d
[535000] S1 MEMORY WRITE beat=47 addr=12c3b93f data=95d7792ffe8dd943 id=0d
[535000] MASTER 0 W_VALID_RDY Handshake beat=48 wlast=0
[545000] MASTER 0 W_VALID_RDY Handshake beat=49 wlast=0
[545000] S1 MEMORY WRITE beat=48 addr=12c3b940 data=db86d8f43e234cf8 id=0d
[555000] S1 MEMORY WRITE beat=49 addr=12c3b941 data=c2067208f21d3827 id=0d
[555000] MASTER 0 W_VALID_RDY Handshake beat=50 wlast=0
[565000] MASTER 0 W_VALID_RDY Handshake beat=51 wlast=0
[565000] S1 MEMORY WRITE beat=50 addr=12c3b942 data=f0ab116ab3b831c8 id=0d
[575000] S1 MEMORY WRITE beat=51 addr=12c3b943 data=f1db7ec0d7ddeb37 id=0d
[575000] MASTER 0 W_VALID_RDY Handshake beat=52 wlast=0
[585000] MASTER 0 W_VALID_RDY Handshake beat=53 wlast=0
[585000] S1 MEMORY WRITE beat=52 addr=12c3b944 data=c9fb235ecc31ea5e id=0d
[595000] S1 MEMORY WRITE beat=53 addr=12c3b945 data=ffea1c27b3e1f0c8 id=0d
[595000] MASTER 0 W_VALID_RDY Handshake beat=54 wlast=0
[605000] MASTER 0 W_VALID_RDY Handshake beat=55 wlast=0
[605000] S1 MEMORY WRITE beat=54 addr=12c3b946 data=0bbfdc00baa634c8 id=0d
[615000] S1 MEMORY WRITE beat=55 addr=12c3b947 data=06d81f27f1c59ae7 id=0d
[615000] MASTER 0 W_VALID_RDY Handshake beat=56 wlast=0
[625000] MASTER 0 W_VALID_RDY Handshake beat=57 wlast=0
[625000] S1 MEMORY WRITE beat=56 addr=12c3b948 data=25a78bb0d5baff5e id=0d
[635000] S1 MEMORY WRITE beat=57 addr=12c3b949 data=1061342706c23b4e id=0d
[635000] MASTER 0 W_VALID_RDY Handshake beat=58 wlast=0
[645000] MASTER 0 W_VALID_RDY Handshake beat=59 wlast=0
[645000] S1 MEMORY WRITE beat=58 addr=12c3b94a data=f887d635316767b0 id=0d
[655000] S1 MEMORY WRITE beat=59 addr=12c3b94b data=8722670e1739534e id=0d
[655000] MASTER 0 W_VALID_RDY Handshake beat=60 wlast=0
[665000] MASTER 0 W_VALID_RDY Handshake beat=61 wlast=0
[665000] S1 MEMORY WRITE beat=60 addr=12c3b94c data=1dfb8e9c9e2f61e5 id=0d
[675000] S1 MEMORY WRITE beat=61 addr=12c3b94d data=cf96c99597839b35 id=0d
[675000] MASTER 0 W_VALID_RDY Handshake beat=62 wlast=0
[685000] MASTER 0 W_VALID_RDY Handshake beat=63 wlast=0
[685000] S1 MEMORY WRITE beat=62 addr=12c3b94e data=aebcee83968364d1 id=0d
[695000] S1 MEMORY WRITE beat=63 addr=12c3b94f data=34b2c6b7d6b930a4 id=0d
[695000] MASTER 0 W_VALID_RDY Handshake beat=64 wlast=0
[705000] MASTER 0 W_VALID_RDY Handshake beat=65 wlast=0
[705000] S1 MEMORY WRITE beat=64 addr=12c3b950 data=ee3ccbd9ccb87d1f id=0d
[715000] S1 MEMORY WRITE beat=65 addr=12c3b951 data=e33be1f18449904c id=0d
[715000] MASTER 0 W_VALID_RDY Handshake beat=66 wlast=0
[725000] MASTER 0 W_VALID_RDY Handshake beat=67 wlast=0
[725000] S1 MEMORY WRITE beat=66 addr=12c3b952 data=db02c0f01cf9ba5d id=0d
[735000] S1 MEMORY WRITE beat=67 addr=12c3b953 data=e9b2377c17eea8a8 id=0d
[735000] MASTER 0 W_VALID_RDY Handshake beat=68 wlast=0
[745000] MASTER 0 W_VALID_RDY Handshake beat=69 wlast=0
[745000] S1 MEMORY WRITE beat=68 addr=12c3b954 data=9c3838f4c93f8cca id=0d
[755000] S1 MEMORY WRITE beat=69 addr=12c3b955 data=e6394727ccee196d id=0d
[755000] MASTER 0 W_VALID_RDY Handshake beat=70 wlast=0
[765000] MASTER 0 W_VALID_RDY Handshake beat=71 wlast=0
[765000] S1 MEMORY WRITE beat=70 addr=12c3b956 data=e4dcc215f73af9e5 id=0d
[775000] S1 MEMORY WRITE beat=71 addr=12c3b957 data=c07a86afcfeb7ea3 id=0d
[775000] MASTER 0 W_VALID_RDY Handshake beat=72 wlast=0
[785000] MASTER 0 W_VALID_RDY Handshake beat=73 wlast=0
[785000] S1 MEMORY WRITE beat=72 addr=12c3b958 data=1cd998110114fb0a id=0d
[795000] S1 MEMORY WRITE beat=73 addr=12c3b959 data=f84ff4ef26b3cdd6 id=0d
[795000] MASTER 0 W_VALID_RDY Handshake beat=74 wlast=0
[805000] MASTER 0 W_VALID_RDY Handshake beat=75 wlast=0
[805000] S1 MEMORY WRITE beat=74 addr=12c3b95a data=f69f4c7981b65a26 id=0d
[815000] S1 MEMORY WRITE beat=75 addr=12c3b95b data=82cb553038ca7b9e id=0d
[815000] MASTER 0 W_VALID_RDY Handshake beat=76 wlast=0
[825000] MASTER 0 W_VALID_RDY Handshake beat=77 wlast=0
[825000] S1 MEMORY WRITE beat=76 addr=12c3b95c data=df7e49749378e48a id=0d
[835000] S1 MEMORY WRITE beat=77 addr=12c3b95d data=152f3eb1fb1b4a1f id=0d
[835000] MASTER 0 W_VALID_RDY Handshake beat=78 wlast=0
[845000] MASTER 0 W_VALID_RDY Handshake beat=79 wlast=0
[845000] S1 MEMORY WRITE beat=78 addr=12c3b95e data=b3e5c5bdd61d95ed id=0d
[855000] S1 MEMORY WRITE beat=79 addr=12c3b95f data=e9967a7897fa93e1 id=0d
[855000] MASTER 0 W_VALID_RDY Handshake beat=80 wlast=0
[865000] MASTER 0 W_VALID_RDY Handshake beat=81 wlast=0
[865000] S1 MEMORY WRITE beat=80 addr=12c3b960 data=1315de0193640f31 id=0d
[875000] S1 MEMORY WRITE beat=81 addr=12c3b961 data=e981a51ffec5b929 id=0d
[875000] MASTER 0 W_VALID_RDY Handshake beat=82 wlast=0
[885000] MASTER 0 W_VALID_RDY Handshake beat=83 wlast=0
[885000] S1 MEMORY WRITE beat=82 addr=12c3b962 data=96c04d0ac6fba3be id=0d
[895000] S1 MEMORY WRITE beat=83 addr=12c3b963 data=da5fb2f0d3181f97 id=0d
[895000] MASTER 0 W_VALID_RDY Handshake beat=84 wlast=0
[905000] MASTER 0 W_VALID_RDY Handshake beat=85 wlast=0
[905000] S1 MEMORY WRITE beat=84 addr=12c3b964 data=d1ddd8c0a9d62b0b id=0d
[915000] S1 MEMORY WRITE beat=85 addr=12c3b965 data=f0d1cecac3e1580f id=0d
[915000] MASTER 0 W_VALID_RDY Handshake beat=86 wlast=0
[925000] MASTER 0 W_VALID_RDY Handshake beat=87 wlast=0
[925000] S1 MEMORY WRITE beat=86 addr=12c3b966 data=16f977a6e89e25ca id=0d
[935000] S1 MEMORY WRITE beat=87 addr=12c3b967 data=127450d6cb3181ba id=0d
[935000] MASTER 0 W_VALID_RDY Handshake beat=88 wlast=0
[945000] MASTER 0 W_VALID_RDY Handshake beat=89 wlast=0
[945000] S1 MEMORY WRITE beat=88 addr=12c3b968 data=0f12d9c9e8d75066 id=0d
[955000] S1 MEMORY WRITE beat=89 addr=12c3b969 data=d175763003461fa0 id=0d
[955000] MASTER 0 W_VALID_RDY Handshake beat=90 wlast=0
[965000] MASTER 0 W_VALID_RDY Handshake beat=91 wlast=0
[965000] S1 MEMORY WRITE beat=90 addr=12c3b96a data=ce77a15a260c516f id=0d
[975000] S1 MEMORY WRITE beat=91 addr=12c3b96b data=0ee3a1d5e3e9c706 id=0d
[975000] MASTER 0 W_VALID_RDY Handshake beat=92 wlast=0
[985000] MASTER 0 W_VALID_RDY Handshake beat=93 wlast=0
[985000] S1 MEMORY WRITE beat=92 addr=12c3b96c data=e72fe6a6dd8a7b23 id=0d
[995000] S1 MEMORY WRITE beat=93 addr=12c3b96d data=0396cc92e0591805 id=0d
[995000] MASTER 0 W_VALID_RDY Handshake beat=94 wlast=0
[1005000] MASTER 0 W_VALID_RDY Handshake beat=95 wlast=0
[1005000] S1 MEMORY WRITE beat=94 addr=12c3b96e data=c442df0cb5a78800 id=0d
[1015000] S1 MEMORY WRITE beat=95 addr=12c3b96f data=93320323127a6e67 id=0d
[1015000] MASTER 0 W_VALID_RDY Handshake beat=96 wlast=0
[1025000] MASTER 0 W_VALID_RDY Handshake beat=97 wlast=0
[1025000] S1 MEMORY WRITE beat=96 addr=12c3b970 data=f2d3866cab72c5b2 id=0d
[1035000] S1 MEMORY WRITE beat=97 addr=12c3b971 data=e11a4db396c8cfb5 id=0d
[1035000] MASTER 0 W_VALID_RDY Handshake beat=98 wlast=0
[1045000] MASTER 0 W_VALID_RDY Handshake beat=99 wlast=0
[1045000] S1 MEMORY WRITE beat=98 addr=12c3b972 data=a9433e1cb7166578 id=0d
[1055000] S1 MEMORY WRITE beat=99 addr=12c3b973 data=e2892b2bf44c50d6 id=0d
[1055000] MASTER 0 W_VALID_RDY Handshake beat=100 wlast=0
[1065000] MASTER 0 W_VALID_RDY Handshake beat=101 wlast=0
[1065000] S1 MEMORY WRITE beat=100 addr=12c3b974 data=0b15208c1c16c489 id=0d
[1075000] S1 MEMORY WRITE beat=101 addr=12c3b975 data=d32d2a01c3a378de id=0d
[1075000] MASTER 0 W_VALID_RDY Handshake beat=102 wlast=1
[1085000] S1 MEMORY WRITE beat=102 addr=12c3b976 data=b7efc9b4b4585ea8 id=0d
[1095000] SLAVE1 sent B resp, id=13
[1095000] [SLAVE MONITOR] mst_id=0 s_id=1 awaddr=12c3b910 awid=1101 awlen=102 awsize=0 awburst=1 wdata=[d5b27b3cdf6ac2a6 fd5be4c78e8731fe 25a46ad53bec0b83 1b56ce29f1a57e0b 2cb00afb56e611 b742f19498b2b2f0 a5830fc25d11adf a12800f0d299bfbd eb4c72ae0a84e106 3055fbe5d86af285 ab04b242f5a4a3aa 2984b0d17dfcd5 a9e8ef5a965124f0 8bf5c89a307f8095 81fd7d6ad4eda19d eb3ec68d8c1f4d4a bc9ecddf2be66cc5 d40e62f7348f28 8353dc723e9c4b4a ea82b80fec12d4ef e34764173ff2aa52 fe8ef59ceb56c671 d7699b60e69b408a 268deadce911adab d468741c3ab0ff78 214c4002251ce078 e2e8e23abd20f7c e6830ef4c7da2ade ecf70b56e297023f 8e6911bb87cf4ef6 cfa979d4fb259979 ddbc9bb8f4ec20b0 fcbb6fa6bca0852a b7c61ea3ec25ad73 e111ce23cc64e97b 89056ea59582ba5b 1a867cfddcd3dca 2a322745c0cb8d49 d64e47a4e2ba35f2 c08773bcb33795ea f4032333d7f6af73 3ab0e566eab99b01 1df130ecca516ad8 a2481a4bfb385922 e5f1f42491f4541f dc45bef7dcf8ffb1 d83158d403e32510 95d7792ffe8dd943 db86d8f43e234cf8 c2067208f21d3827 f0ab116ab3b831c8 f1db7ec0d7ddeb37 c9fb235ecc31ea5e ffea1c27b3e1f0c8 bbfdc00baa634c8 6d81f27f1c59ae7 25a78bb0d5baff5e 1061342706c23b4e f887d635316767b0 8722670e1739534e 1dfb8e9c9e2f61e5 cf96c99597839b35 aebcee83968364d1 34b2c6b7d6b930a4 ee3ccbd9ccb87d1f e33be1f18449904c db02c0f01cf9ba5d e9b2377c17eea8a8 9c3838f4c93f8cca e6394727ccee196d e4dcc215f73af9e5 c07a86afcfeb7ea3 1cd998110114fb0a f84ff4ef26b3cdd6 f69f4c7981b65a26 82cb553038ca7b9e df7e49749378e48a 152f3eb1fb1b4a1f b3e5c5bdd61d95ed e9967a7897fa93e1 1315de0193640f31 e981a51ffec5b929 96c04d0ac6fba3be da5fb2f0d3181f97 d1ddd8c0a9d62b0b f0d1cecac3e1580f 16f977a6e89e25ca 127450d6cb3181ba f12d9c9e8d75066 d175763003461fa0 ce77a15a260c516f ee3a1d5e3e9c706 e72fe6a6dd8a7b23 396cc92e0591805 c442df0cb5a78800 93320323127a6e67 f2d3866cab72c5b2 e11a4db396c8cfb5 a9433e1cb7166578 e2892b2bf44c50d6 b15208c1c16c489 d32d2a01c3a378de b7efc9b4b4585ea8 ] wstrb=[2c 31 40 a 33 e9 bf 5f 1a ff 6a 4d e8 29 ad 3 28 17 50 11 40 fd 14 68 14 64 79 54 62 8d bd 76 f2 36 cb 54 c4 88 ca b6 be 95 a 82 1d d4 38 dc 6a 42 5e 87 17 97 63 81 d9 c2 8 f0 59 6c 71 32 2e 7a 23 87 e6 94 b9 14 e dc 9b f4 71 54 8 7f 31 a3 74 a2 f8 7c 21 29 20 95 cb 18 12 ec 41 32 82 c 4a 94 f8 8b c6 ] bresp=0 bid=1101
[1105000] ARB MONITOR: slave=1 m0_req=0 m1_req=1 winner=1
[1105000] AXI S1_AWVALID_RDY HANDSHAKE
[1115000] S1 MEMORY WRITE beat=0 addr=196893e8 data=ae1f5ec1eef20992 id=16
[1115000] MASTER 0 B_VALID_RDY Handshake
[1115000] [MASTER MONITOR] mst_id=0 s_id=1 awaddr=12c3b910 awid=1101 awlen=102 awsize=0 awburst=1 wdata=[d5b27b3cdf6ac2a6 fd5be4c78e8731fe 25a46ad53bec0b83 1b56ce29f1a57e0b 2cb00afb56e611 b742f19498b2b2f0 a5830fc25d11adf a12800f0d299bfbd eb4c72ae0a84e106 3055fbe5d86af285 ab04b242f5a4a3aa 2984b0d17dfcd5 a9e8ef5a965124f0 8bf5c89a307f8095 81fd7d6ad4eda19d eb3ec68d8c1f4d4a bc9ecddf2be66cc5 d40e62f7348f28 8353dc723e9c4b4a ea82b80fec12d4ef e34764173ff2aa52 fe8ef59ceb56c671 d7699b60e69b408a 268deadce911adab d468741c3ab0ff78 214c4002251ce078 e2e8e23abd20f7c e6830ef4c7da2ade ecf70b56e297023f 8e6911bb87cf4ef6 cfa979d4fb259979 ddbc9bb8f4ec20b0 fcbb6fa6bca0852a b7c61ea3ec25ad73 e111ce23cc64e97b 89056ea59582ba5b 1a867cfddcd3dca 2a322745c0cb8d49 d64e47a4e2ba35f2 c08773bcb33795ea f4032333d7f6af73 3ab0e566eab99b01 1df130ecca516ad8 a2481a4bfb385922 e5f1f42491f4541f dc45bef7dcf8ffb1 d83158d403e32510 95d7792ffe8dd943 db86d8f43e234cf8 c2067208f21d3827 f0ab116ab3b831c8 f1db7ec0d7ddeb37 c9fb235ecc31ea5e ffea1c27b3e1f0c8 bbfdc00baa634c8 6d81f27f1c59ae7 25a78bb0d5baff5e 1061342706c23b4e f887d635316767b0 8722670e1739534e 1dfb8e9c9e2f61e5 cf96c99597839b35 aebcee83968364d1 34b2c6b7d6b930a4 ee3ccbd9ccb87d1f e33be1f18449904c db02c0f01cf9ba5d e9b2377c17eea8a8 9c3838f4c93f8cca e6394727ccee196d e4dcc215f73af9e5 c07a86afcfeb7ea3 1cd998110114fb0a f84ff4ef26b3cdd6 f69f4c7981b65a26 82cb553038ca7b9e df7e49749378e48a 152f3eb1fb1b4a1f b3e5c5bdd61d95ed e9967a7897fa93e1 1315de0193640f31 e981a51ffec5b929 96c04d0ac6fba3be da5fb2f0d3181f97 d1ddd8c0a9d62b0b f0d1cecac3e1580f 16f977a6e89e25ca 127450d6cb3181ba f12d9c9e8d75066 d175763003461fa0 ce77a15a260c516f ee3a1d5e3e9c706 e72fe6a6dd8a7b23 396cc92e0591805 c442df0cb5a78800 93320323127a6e67 f2d3866cab72c5b2 e11a4db396c8cfb5 a9433e1cb7166578 e2892b2bf44c50d6 b15208c1c16c489 d32d2a01c3a378de b7efc9b4b4585ea8 ] wstrb=[2c 31 40 a 33 e9 bf 5f 1a ff 6a 4d e8 29 ad 3 28 17 50 11 40 fd 14 68 14 64 79 54 62 8d bd 76 f2 36 cb 54 c4 88 ca b6 be 95 a 82 1d d4 38 dc 6a 42 5e 87 17 97 63 81 d9 c2 8 f0 59 6c 71 32 2e 7a 23 87 e6 94 b9 14 e dc 9b f4 71 54 8 7f 31 a3 74 a2 f8 7c 21 29 20 95 cb 18 12 ec 41 32 82 c 4a 94 f8 8b c6 ] bresp=0 bid=1101
[1115000] MASTER 0 RECEIVED BRESP. BRESP=0
[1115000] [MASTER DRIVER] mst_id=0 s_id=0 awaddr=12c3b910 awid=1101 awlen=102 awsize=0 awburst=1 wdata=[d5b27b3cdf6ac2a6 fd5be4c78e8731fe 25a46ad53bec0b83 1b56ce29f1a57e0b 2cb00afb56e611 b742f19498b2b2f0 a5830fc25d11adf a12800f0d299bfbd eb4c72ae0a84e106 3055fbe5d86af285 ab04b242f5a4a3aa 2984b0d17dfcd5 a9e8ef5a965124f0 8bf5c89a307f8095 81fd7d6ad4eda19d eb3ec68d8c1f4d4a bc9ecddf2be66cc5 d40e62f7348f28 8353dc723e9c4b4a ea82b80fec12d4ef e34764173ff2aa52 fe8ef59ceb56c671 d7699b60e69b408a 268deadce911adab d468741c3ab0ff78 214c4002251ce078 e2e8e23abd20f7c e6830ef4c7da2ade ecf70b56e297023f 8e6911bb87cf4ef6 cfa979d4fb259979 ddbc9bb8f4ec20b0 fcbb6fa6bca0852a b7c61ea3ec25ad73 e111ce23cc64e97b 89056ea59582ba5b 1a867cfddcd3dca 2a322745c0cb8d49 d64e47a4e2ba35f2 c08773bcb33795ea f4032333d7f6af73 3ab0e566eab99b01 1df130ecca516ad8 a2481a4bfb385922 e5f1f42491f4541f dc45bef7dcf8ffb1 d83158d403e32510 95d7792ffe8dd943 db86d8f43e234cf8 c2067208f21d3827 f0ab116ab3b831c8 f1db7ec0d7ddeb37 c9fb235ecc31ea5e ffea1c27b3e1f0c8 bbfdc00baa634c8 6d81f27f1c59ae7 25a78bb0d5baff5e 1061342706c23b4e f887d635316767b0 8722670e1739534e 1dfb8e9c9e2f61e5 cf96c99597839b35 aebcee83968364d1 34b2c6b7d6b930a4 ee3ccbd9ccb87d1f e33be1f18449904c db02c0f01cf9ba5d e9b2377c17eea8a8 9c3838f4c93f8cca e6394727ccee196d e4dcc215f73af9e5 c07a86afcfeb7ea3 1cd998110114fb0a f84ff4ef26b3cdd6 f69f4c7981b65a26 82cb553038ca7b9e df7e49749378e48a 152f3eb1fb1b4a1f b3e5c5bdd61d95ed e9967a7897fa93e1 1315de0193640f31 e981a51ffec5b929 96c04d0ac6fba3be da5fb2f0d3181f97 d1ddd8c0a9d62b0b f0d1cecac3e1580f 16f977a6e89e25ca 127450d6cb3181ba f12d9c9e8d75066 d175763003461fa0 ce77a15a260c516f ee3a1d5e3e9c706 e72fe6a6dd8a7b23 396cc92e0591805 c442df0cb5a78800 93320323127a6e67 f2d3866cab72c5b2 e11a4db396c8cfb5 a9433e1cb7166578 e2892b2bf44c50d6 b15208c1c16c489 d32d2a01c3a378de b7efc9b4b4585ea8 ] wstrb=[2c 31 40 a 33 e9 bf 5f 1a ff 6a 4d e8 29 ad 3 28 17 50 11 40 fd 14 68 14 64 79 54 62 8d bd 76 f2 36 cb 54 c4 88 ca b6 be 95 a 82 1d d4 38 dc 6a 42 5e 87 17 97 63 81 d9 c2 8 f0 59 6c 71 32 2e 7a 23 87 e6 94 b9 14 e dc 9b f4 71 54 8 7f 31 a3 74 a2 f8 7c 21 29 20 95 cb 18 12 ec 41 32 82 c 4a 94 f8 8b c6 ] bresp=0 bid=1101
[1115000] SCOREBOARD MATCH: decode_err expected = 0, actual =0
[1115000] SCOREBOARD MATCH: slave_id expected = 1, actual =1
[1115000] SCOREBOARD MATCH: awaddr passthrough expected = 12c3b910, actual =12c3b910
[1115000] SCOREBOARD MATCH: awlen passthrough expected = 102, actual =102
[1115000] SCOREBOARD MATCH: awsize passthrough expected = 0, actual =0
[1115000] SCOREBOARD MATCH: awburst passthrough expected = 1, actual =1
[1115000] SCOREBOARD MATCH: wdata size check expected = 67, actual =67
[1115000] SCOREBOARD MATCH: wdata passthrough beat=0 expected = d5b27b3cdf6ac2a6, actual =d5b27b3cdf6ac2a6
[1115000] SCOREBOARD MATCH: wdata passthrough beat=1 expected = fd5be4c78e8731fe, actual =fd5be4c78e8731fe
[1115000] SCOREBOARD MATCH: wdata passthrough beat=2 expected = 25a46ad53bec0b83, actual =25a46ad53bec0b83
[1115000] SCOREBOARD MATCH: wdata passthrough beat=3 expected = 1b56ce29f1a57e0b, actual =1b56ce29f1a57e0b
[1115000] SCOREBOARD MATCH: wdata passthrough beat=4 expected = 2cb00afb56e611, actual =2cb00afb56e611
[1115000] SCOREBOARD MATCH: wdata passthrough beat=5 expected = b742f19498b2b2f0, actual =b742f19498b2b2f0
[1115000] SCOREBOARD MATCH: wdata passthrough beat=6 expected = a5830fc25d11adf, actual =a5830fc25d11adf
[1115000] SCOREBOARD MATCH: wdata passthrough beat=7 expected = a12800f0d299bfbd, actual =a12800f0d299bfbd
[1115000] SCOREBOARD MATCH: wdata passthrough beat=8 expected = eb4c72ae0a84e106, actual =eb4c72ae0a84e106
[1115000] SCOREBOARD MATCH: wdata passthrough beat=9 expected = 3055fbe5d86af285, actual =3055fbe5d86af285
[1115000] SCOREBOARD MATCH: wdata passthrough beat=10 expected = ab04b242f5a4a3aa, actual =ab04b242f5a4a3aa
[1115000] SCOREBOARD MATCH: wdata passthrough beat=11 expected = 2984b0d17dfcd5, actual =2984b0d17dfcd5
[1115000] SCOREBOARD MATCH: wdata passthrough beat=12 expected = a9e8ef5a965124f0, actual =a9e8ef5a965124f0
[1115000] SCOREBOARD MATCH: wdata passthrough beat=13 expected = 8bf5c89a307f8095, actual =8bf5c89a307f8095
[1115000] SCOREBOARD MATCH: wdata passthrough beat=14 expected = 81fd7d6ad4eda19d, actual =81fd7d6ad4eda19d
[1115000] SCOREBOARD MATCH: wdata passthrough beat=15 expected = eb3ec68d8c1f4d4a, actual =eb3ec68d8c1f4d4a
[1115000] SCOREBOARD MATCH: wdata passthrough beat=16 expected = bc9ecddf2be66cc5, actual =bc9ecddf2be66cc5
[1115000] SCOREBOARD MATCH: wdata passthrough beat=17 expected = d40e62f7348f28, actual =d40e62f7348f28
[1115000] SCOREBOARD MATCH: wdata passthrough beat=18 expected = 8353dc723e9c4b4a, actual =8353dc723e9c4b4a
[1115000] SCOREBOARD MATCH: wdata passthrough beat=19 expected = ea82b80fec12d4ef, actual =ea82b80fec12d4ef
[1115000] SCOREBOARD MATCH: wdata passthrough beat=20 expected = e34764173ff2aa52, actual =e34764173ff2aa52
[1115000] SCOREBOARD MATCH: wdata passthrough beat=21 expected = fe8ef59ceb56c671, actual =fe8ef59ceb56c671
[1115000] SCOREBOARD MATCH: wdata passthrough beat=22 expected = d7699b60e69b408a, actual =d7699b60e69b408a
[1115000] SCOREBOARD MATCH: wdata passthrough beat=23 expected = 268deadce911adab, actual =268deadce911adab
[1115000] SCOREBOARD MATCH: wdata passthrough beat=24 expected = d468741c3ab0ff78, actual =d468741c3ab0ff78
[1115000] SCOREBOARD MATCH: wdata passthrough beat=25 expected = 214c4002251ce078, actual =214c4002251ce078
[1115000] SCOREBOARD MATCH: wdata passthrough beat=26 expected = e2e8e23abd20f7c, actual =e2e8e23abd20f7c
[1115000] SCOREBOARD MATCH: wdata passthrough beat=27 expected = e6830ef4c7da2ade, actual =e6830ef4c7da2ade
[1115000] SCOREBOARD MATCH: wdata passthrough beat=28 expected = ecf70b56e297023f, actual =ecf70b56e297023f
[1115000] SCOREBOARD MATCH: wdata passthrough beat=29 expected = 8e6911bb87cf4ef6, actual =8e6911bb87cf4ef6
[1115000] SCOREBOARD MATCH: wdata passthrough beat=30 expected = cfa979d4fb259979, actual =cfa979d4fb259979
[1115000] SCOREBOARD MATCH: wdata passthrough beat=31 expected = ddbc9bb8f4ec20b0, actual =ddbc9bb8f4ec20b0
[1115000] SCOREBOARD MATCH: wdata passthrough beat=32 expected = fcbb6fa6bca0852a, actual =fcbb6fa6bca0852a
[1115000] SCOREBOARD MATCH: wdata passthrough beat=33 expected = b7c61ea3ec25ad73, actual =b7c61ea3ec25ad73
[1115000] SCOREBOARD MATCH: wdata passthrough beat=34 expected = e111ce23cc64e97b, actual =e111ce23cc64e97b
[1115000] SCOREBOARD MATCH: wdata passthrough beat=35 expected = 89056ea59582ba5b, actual =89056ea59582ba5b
[1115000] SCOREBOARD MATCH: wdata passthrough beat=36 expected = 1a867cfddcd3dca, actual =1a867cfddcd3dca
[1115000] SCOREBOARD MATCH: wdata passthrough beat=37 expected = 2a322745c0cb8d49, actual =2a322745c0cb8d49
[1115000] SCOREBOARD MATCH: wdata passthrough beat=38 expected = d64e47a4e2ba35f2, actual =d64e47a4e2ba35f2
[1115000] SCOREBOARD MATCH: wdata passthrough beat=39 expected = c08773bcb33795ea, actual =c08773bcb33795ea
[1115000] SCOREBOARD MATCH: wdata passthrough beat=40 expected = f4032333d7f6af73, actual =f4032333d7f6af73
[1115000] SCOREBOARD MATCH: wdata passthrough beat=41 expected = 3ab0e566eab99b01, actual =3ab0e566eab99b01
[1115000] SCOREBOARD MATCH: wdata passthrough beat=42 expected = 1df130ecca516ad8, actual =1df130ecca516ad8
[1115000] SCOREBOARD MATCH: wdata passthrough beat=43 expected = a2481a4bfb385922, actual =a2481a4bfb385922
[1115000] SCOREBOARD MATCH: wdata passthrough beat=44 expected = e5f1f42491f4541f, actual =e5f1f42491f4541f
[1115000] SCOREBOARD MATCH: wdata passthrough beat=45 expected = dc45bef7dcf8ffb1, actual =dc45bef7dcf8ffb1
[1115000] SCOREBOARD MATCH: wdata passthrough beat=46 expected = d83158d403e32510, actual =d83158d403e32510
[1115000] SCOREBOARD MATCH: wdata passthrough beat=47 expected = 95d7792ffe8dd943, actual =95d7792ffe8dd943
[1115000] SCOREBOARD MATCH: wdata passthrough beat=48 expected = db86d8f43e234cf8, actual =db86d8f43e234cf8
[1115000] SCOREBOARD MATCH: wdata passthrough beat=49 expected = c2067208f21d3827, actual =c2067208f21d3827
[1115000] SCOREBOARD MATCH: wdata passthrough beat=50 expected = f0ab116ab3b831c8, actual =f0ab116ab3b831c8
[1115000] SCOREBOARD MATCH: wdata passthrough beat=51 expected = f1db7ec0d7ddeb37, actual =f1db7ec0d7ddeb37
[1115000] SCOREBOARD MATCH: wdata passthrough beat=52 expected = c9fb235ecc31ea5e, actual =c9fb235ecc31ea5e
[1115000] SCOREBOARD MATCH: wdata passthrough beat=53 expected = ffea1c27b3e1f0c8, actual =ffea1c27b3e1f0c8
[1115000] SCOREBOARD MATCH: wdata passthrough beat=54 expected = bbfdc00baa634c8, actual =bbfdc00baa634c8
[1115000] SCOREBOARD MATCH: wdata passthrough beat=55 expected = 6d81f27f1c59ae7, actual =6d81f27f1c59ae7
[1115000] SCOREBOARD MATCH: wdata passthrough beat=56 expected = 25a78bb0d5baff5e, actual =25a78bb0d5baff5e
[1115000] SCOREBOARD MATCH: wdata passthrough beat=57 expected = 1061342706c23b4e, actual =1061342706c23b4e
[1115000] SCOREBOARD MATCH: wdata passthrough beat=58 expected = f887d635316767b0, actual =f887d635316767b0
[1115000] SCOREBOARD MATCH: wdata passthrough beat=59 expected = 8722670e1739534e, actual =8722670e1739534e
[1115000] SCOREBOARD MATCH: wdata passthrough beat=60 expected = 1dfb8e9c9e2f61e5, actual =1dfb8e9c9e2f61e5
[1115000] SCOREBOARD MATCH: wdata passthrough beat=61 expected = cf96c99597839b35, actual =cf96c99597839b35
[1115000] SCOREBOARD MATCH: wdata passthrough beat=62 expected = aebcee83968364d1, actual =aebcee83968364d1
[1115000] SCOREBOARD MATCH: wdata passthrough beat=63 expected = 34b2c6b7d6b930a4, actual =34b2c6b7d6b930a4
[1115000] SCOREBOARD MATCH: wdata passthrough beat=64 expected = ee3ccbd9ccb87d1f, actual =ee3ccbd9ccb87d1f
[1115000] SCOREBOARD MATCH: wdata passthrough beat=65 expected = e33be1f18449904c, actual =e33be1f18449904c
[1115000] SCOREBOARD MATCH: wdata passthrough beat=66 expected = db02c0f01cf9ba5d, actual =db02c0f01cf9ba5d
[1115000] SCOREBOARD MATCH: wdata passthrough beat=67 expected = e9b2377c17eea8a8, actual =e9b2377c17eea8a8
[1115000] SCOREBOARD MATCH: wdata passthrough beat=68 expected = 9c3838f4c93f8cca, actual =9c3838f4c93f8cca
[1115000] SCOREBOARD MATCH: wdata passthrough beat=69 expected = e6394727ccee196d, actual =e6394727ccee196d
[1115000] SCOREBOARD MATCH: wdata passthrough beat=70 expected = e4dcc215f73af9e5, actual =e4dcc215f73af9e5
[1115000] SCOREBOARD MATCH: wdata passthrough beat=71 expected = c07a86afcfeb7ea3, actual =c07a86afcfeb7ea3
[1115000] SCOREBOARD MATCH: wdata passthrough beat=72 expected = 1cd998110114fb0a, actual =1cd998110114fb0a
[1115000] SCOREBOARD MATCH: wdata passthrough beat=73 expected = f84ff4ef26b3cdd6, actual =f84ff4ef26b3cdd6
[1115000] SCOREBOARD MATCH: wdata passthrough beat=74 expected = f69f4c7981b65a26, actual =f69f4c7981b65a26
[1115000] SCOREBOARD MATCH: wdata passthrough beat=75 expected = 82cb553038ca7b9e, actual =82cb553038ca7b9e
[1115000] SCOREBOARD MATCH: wdata passthrough beat=76 expected = df7e49749378e48a, actual =df7e49749378e48a
[1115000] SCOREBOARD MATCH: wdata passthrough beat=77 expected = 152f3eb1fb1b4a1f, actual =152f3eb1fb1b4a1f
[1115000] SCOREBOARD MATCH: wdata passthrough beat=78 expected = b3e5c5bdd61d95ed, actual =b3e5c5bdd61d95ed
[1115000] SCOREBOARD MATCH: wdata passthrough beat=79 expected = e9967a7897fa93e1, actual =e9967a7897fa93e1
[1115000] SCOREBOARD MATCH: wdata passthrough beat=80 expected = 1315de0193640f31, actual =1315de0193640f31
[1115000] SCOREBOARD MATCH: wdata passthrough beat=81 expected = e981a51ffec5b929, actual =e981a51ffec5b929
[1115000] SCOREBOARD MATCH: wdata passthrough beat=82 expected = 96c04d0ac6fba3be, actual =96c04d0ac6fba3be
[1115000] SCOREBOARD MATCH: wdata passthrough beat=83 expected = da5fb2f0d3181f97, actual =da5fb2f0d3181f97
[1115000] SCOREBOARD MATCH: wdata passthrough beat=84 expected = d1ddd8c0a9d62b0b, actual =d1ddd8c0a9d62b0b
[1115000] SCOREBOARD MATCH: wdata passthrough beat=85 expected = f0d1cecac3e1580f, actual =f0d1cecac3e1580f
[1115000] SCOREBOARD MATCH: wdata passthrough beat=86 expected = 16f977a6e89e25ca, actual =16f977a6e89e25ca
[1115000] SCOREBOARD MATCH: wdata passthrough beat=87 expected = 127450d6cb3181ba, actual =127450d6cb3181ba
[1115000] SCOREBOARD MATCH: wdata passthrough beat=88 expected = f12d9c9e8d75066, actual =f12d9c9e8d75066
[1115000] SCOREBOARD MATCH: wdata passthrough beat=89 expected = d175763003461fa0, actual =d175763003461fa0
[1115000] SCOREBOARD MATCH: wdata passthrough beat=90 expected = ce77a15a260c516f, actual =ce77a15a260c516f
[1115000] SCOREBOARD MATCH: wdata passthrough beat=91 expected = ee3a1d5e3e9c706, actual =ee3a1d5e3e9c706
[1115000] SCOREBOARD MATCH: wdata passthrough beat=92 expected = e72fe6a6dd8a7b23, actual =e72fe6a6dd8a7b23
[1115000] SCOREBOARD MATCH: wdata passthrough beat=93 expected = 396cc92e0591805, actual =396cc92e0591805
[1115000] SCOREBOARD MATCH: wdata passthrough beat=94 expected = c442df0cb5a78800, actual =c442df0cb5a78800
[1115000] SCOREBOARD MATCH: wdata passthrough beat=95 expected = 93320323127a6e67, actual =93320323127a6e67
[1115000] SCOREBOARD MATCH: wdata passthrough beat=96 expected = f2d3866cab72c5b2, actual =f2d3866cab72c5b2
[1115000] SCOREBOARD MATCH: wdata passthrough beat=97 expected = e11a4db396c8cfb5, actual =e11a4db396c8cfb5
[1115000] SCOREBOARD MATCH: wdata passthrough beat=98 expected = a9433e1cb7166578, actual =a9433e1cb7166578
[1115000] SCOREBOARD MATCH: wdata passthrough beat=99 expected = e2892b2bf44c50d6, actual =e2892b2bf44c50d6
[1115000] SCOREBOARD MATCH: wdata passthrough beat=100 expected = b15208c1c16c489, actual =b15208c1c16c489
[1115000] SCOREBOARD MATCH: wdata passthrough beat=101 expected = d32d2a01c3a378de, actual =d32d2a01c3a378de
[1115000] SCOREBOARD MATCH: wdata passthrough beat=102 expected = b7efc9b4b4585ea8, actual =b7efc9b4b4585ea8
[1115000] SCOREBOARD MATCH: wstrb size check expected = 67, actual =67
[1115000] SCOREBOARD MATCH: wstrb passthrough beat=0 expected = 2c, actual =2c
[1115000] SCOREBOARD MATCH: wstrb passthrough beat=1 expected = 31, actual =31
[1115000] SCOREBOARD MATCH: wstrb passthrough beat=2 expected = 40, actual =40
[1115000] SCOREBOARD MATCH: wstrb passthrough beat=3 expected = a, actual =a
[1115000] SCOREBOARD MATCH: wstrb passthrough beat=4 expected = 33, actual =33
[1115000] SCOREBOARD MATCH: wstrb passthrough beat=5 expected = e9, actual =e9
[1115000] SCOREBOARD MATCH: wstrb passthrough beat=6 expected = bf, actual =bf
[1115000] SCOREBOARD MATCH: wstrb passthrough beat=7 expected = 5f, actual =5f
[1115000] SCOREBOARD MATCH: wstrb passthrough beat=8 expected = 1a, actual =1a
[1115000] SCOREBOARD MATCH: wstrb passthrough beat=9 expected = ff, actual =ff
[1115000] SCOREBOARD MATCH: wstrb passthrough beat=10 expected = 6a, actual =6a
[1115000] SCOREBOARD MATCH: wstrb passthrough beat=11 expected = 4d, actual =4d
[1115000] SCOREBOARD MATCH: wstrb passthrough beat=12 expected = e8, actual =e8
[1115000] SCOREBOARD MATCH: wstrb passthrough beat=13 expected = 29, actual =29
[1115000] SCOREBOARD MATCH: wstrb passthrough beat=14 expected = ad, actual =ad
[1115000] SCOREBOARD MATCH: wstrb passthrough beat=15 expected = 3, actual =3
[1115000] SCOREBOARD MATCH: wstrb passthrough beat=16 expected = 28, actual =28
[1115000] SCOREBOARD MATCH: wstrb passthrough beat=17 expected = 17, actual =17
[1115000] SCOREBOARD MATCH: wstrb passthrough beat=18 expected = 50, actual =50
[1115000] SCOREBOARD MATCH: wstrb passthrough beat=19 expected = 11, actual =11
[1115000] SCOREBOARD MATCH: wstrb passthrough beat=20 expected = 40, actual =40
[1115000] SCOREBOARD MATCH: wstrb passthrough beat=21 expected = fd, actual =fd
[1115000] SCOREBOARD MATCH: wstrb passthrough beat=22 expected = 14, actual =14
[1115000] SCOREBOARD MATCH: wstrb passthrough beat=23 expected = 68, actual =68
[1115000] SCOREBOARD MATCH: wstrb passthrough beat=24 expected = 14, actual =14
[1115000] SCOREBOARD MATCH: wstrb passthrough beat=25 expected = 64, actual =64
[1115000] SCOREBOARD MATCH: wstrb passthrough beat=26 expected = 79, actual =79
[1115000] SCOREBOARD MATCH: wstrb passthrough beat=27 expected = 54, actual =54
[1115000] SCOREBOARD MATCH: wstrb passthrough beat=28 expected = 62, actual =62
[1115000] SCOREBOARD MATCH: wstrb passthrough beat=29 expected = 8d, actual =8d
[1115000] SCOREBOARD MATCH: wstrb passthrough beat=30 expected = bd, actual =bd
[1115000] SCOREBOARD MATCH: wstrb passthrough beat=31 expected = 76, actual =76
[1115000] SCOREBOARD MATCH: wstrb passthrough beat=32 expected = f2, actual =f2
[1115000] SCOREBOARD MATCH: wstrb passthrough beat=33 expected = 36, actual =36
[1115000] SCOREBOARD MATCH: wstrb passthrough beat=34 expected = cb, actual =cb
[1115000] SCOREBOARD MATCH: wstrb passthrough beat=35 expected = 54, actual =54
[1115000] SCOREBOARD MATCH: wstrb passthrough beat=36 expected = c4, actual =c4
[1115000] SCOREBOARD MATCH: wstrb passthrough beat=37 expected = 88, actual =88
[1115000] SCOREBOARD MATCH: wstrb passthrough beat=38 expected = ca, actual =ca
[1115000] SCOREBOARD MATCH: wstrb passthrough beat=39 expected = b6, actual =b6
[1115000] SCOREBOARD MATCH: wstrb passthrough beat=40 expected = be, actual =be
[1115000] SCOREBOARD MATCH: wstrb passthrough beat=41 expected = 95, actual =95
[1115000] SCOREBOARD MATCH: wstrb passthrough beat=42 expected = a, actual =a
[1115000] SCOREBOARD MATCH: wstrb passthrough beat=43 expected = 82, actual =82
[1115000] SCOREBOARD MATCH: wstrb passthrough beat=44 expected = 1d, actual =1d
[1115000] SCOREBOARD MATCH: wstrb passthrough beat=45 expected = d4, actual =d4
[1115000] SCOREBOARD MATCH: wstrb passthrough beat=46 expected = 38, actual =38
[1115000] SCOREBOARD MATCH: wstrb passthrough beat=47 expected = dc, actual =dc
[1115000] SCOREBOARD MATCH: wstrb passthrough beat=48 expected = 6a, actual =6a
[1115000] SCOREBOARD MATCH: wstrb passthrough beat=49 expected = 42, actual =42
[1115000] SCOREBOARD MATCH: wstrb passthrough beat=50 expected = 5e, actual =5e
[1115000] SCOREBOARD MATCH: wstrb passthrough beat=51 expected = 87, actual =87
[1115000] SCOREBOARD MATCH: wstrb passthrough beat=52 expected = 17, actual =17
[1115000] SCOREBOARD MATCH: wstrb passthrough beat=53 expected = 97, actual =97
[1115000] SCOREBOARD MATCH: wstrb passthrough beat=54 expected = 63, actual =63
[1115000] SCOREBOARD MATCH: wstrb passthrough beat=55 expected = 81, actual =81
[1115000] SCOREBOARD MATCH: wstrb passthrough beat=56 expected = d9, actual =d9
[1115000] SCOREBOARD MATCH: wstrb passthrough beat=57 expected = c2, actual =c2
[1115000] SCOREBOARD MATCH: wstrb passthrough beat=58 expected = 8, actual =8
[1115000] SCOREBOARD MATCH: wstrb passthrough beat=59 expected = f0, actual =f0
[1115000] SCOREBOARD MATCH: wstrb passthrough beat=60 expected = 59, actual =59
[1115000] SCOREBOARD MATCH: wstrb passthrough beat=61 expected = 6c, actual =6c
[1115000] SCOREBOARD MATCH: wstrb passthrough beat=62 expected = 71, actual =71
[1115000] SCOREBOARD MATCH: wstrb passthrough beat=63 expected = 32, actual =32
[1115000] SCOREBOARD MATCH: wstrb passthrough beat=64 expected = 2e, actual =2e
[1115000] SCOREBOARD MATCH: wstrb passthrough beat=65 expected = 7a, actual =7a
[1115000] SCOREBOARD MATCH: wstrb passthrough beat=66 expected = 23, actual =23
[1115000] SCOREBOARD MATCH: wstrb passthrough beat=67 expected = 87, actual =87
[1115000] SCOREBOARD MATCH: wstrb passthrough beat=68 expected = e6, actual =e6
[1115000] SCOREBOARD MATCH: wstrb passthrough beat=69 expected = 94, actual =94
[1115000] SCOREBOARD MATCH: wstrb passthrough beat=70 expected = b9, actual =b9
[1115000] SCOREBOARD MATCH: wstrb passthrough beat=71 expected = 14, actual =14
[1115000] SCOREBOARD MATCH: wstrb passthrough beat=72 expected = e, actual =e
[1115000] SCOREBOARD MATCH: wstrb passthrough beat=73 expected = dc, actual =dc
[1115000] SCOREBOARD MATCH: wstrb passthrough beat=74 expected = 9b, actual =9b
[1115000] SCOREBOARD MATCH: wstrb passthrough beat=75 expected = f4, actual =f4
[1115000] SCOREBOARD MATCH: wstrb passthrough beat=76 expected = 71, actual =71
[1115000] SCOREBOARD MATCH: wstrb passthrough beat=77 expected = 54, actual =54
[1115000] SCOREBOARD MATCH: wstrb passthrough beat=78 expected = 8, actual =8
[1115000] SCOREBOARD MATCH: wstrb passthrough beat=79 expected = 7f, actual =7f
[1115000] SCOREBOARD MATCH: wstrb passthrough beat=80 expected = 31, actual =31
[1115000] SCOREBOARD MATCH: wstrb passthrough beat=81 expected = a3, actual =a3
[1115000] SCOREBOARD MATCH: wstrb passthrough beat=82 expected = 74, actual =74
[1115000] SCOREBOARD MATCH: wstrb passthrough beat=83 expected = a2, actual =a2
[1115000] SCOREBOARD MATCH: wstrb passthrough beat=84 expected = f8, actual =f8
[1115000] SCOREBOARD MATCH: wstrb passthrough beat=85 expected = 7c, actual =7c
[1115000] SCOREBOARD MATCH: wstrb passthrough beat=86 expected = 21, actual =21
[1115000] SCOREBOARD MATCH: wstrb passthrough beat=87 expected = 29, actual =29
[1115000] SCOREBOARD MATCH: wstrb passthrough beat=88 expected = 20, actual =20
[1115000] SCOREBOARD MATCH: wstrb passthrough beat=89 expected = 95, actual =95
[1115000] SCOREBOARD MATCH: wstrb passthrough beat=90 expected = cb, actual =cb
[1115000] SCOREBOARD MATCH: wstrb passthrough beat=91 expected = 18, actual =18
[1115000] SCOREBOARD MATCH: wstrb passthrough beat=92 expected = 12, actual =12
[1115000] SCOREBOARD MATCH: wstrb passthrough beat=93 expected = ec, actual =ec
[1115000] SCOREBOARD MATCH: wstrb passthrough beat=94 expected = 41, actual =41
[1115000] SCOREBOARD MATCH: wstrb passthrough beat=95 expected = 32, actual =32
[1115000] SCOREBOARD MATCH: wstrb passthrough beat=96 expected = 82, actual =82
[1115000] SCOREBOARD MATCH: wstrb passthrough beat=97 expected = c, actual =c
[1115000] SCOREBOARD MATCH: wstrb passthrough beat=98 expected = 4a, actual =4a
[1115000] SCOREBOARD MATCH: wstrb passthrough beat=99 expected = 94, actual =94
[1115000] SCOREBOARD MATCH: wstrb passthrough beat=100 expected = f8, actual =f8
[1115000] SCOREBOARD MATCH: wstrb passthrough beat=101 expected = 8b, actual =8b
[1115000] SCOREBOARD MATCH: wstrb passthrough beat=102 expected = c6, actual =c6
[1115000] SCOREBOARD MATCH: bresp passthrough expected = 0, actual =0
[1115000] SCOREBOARD MATCH: response routed to correct master (write) expected = 0, actual =0
[1115000] [SCOREBOARD-M] mst_id=0 s_id=1 awaddr=12c3b910 awid=1101 awlen=102 awsize=0 awburst=1 wdata=[d5b27b3cdf6ac2a6 fd5be4c78e8731fe 25a46ad53bec0b83 1b56ce29f1a57e0b 2cb00afb56e611 b742f19498b2b2f0 a5830fc25d11adf a12800f0d299bfbd eb4c72ae0a84e106 3055fbe5d86af285 ab04b242f5a4a3aa 2984b0d17dfcd5 a9e8ef5a965124f0 8bf5c89a307f8095 81fd7d6ad4eda19d eb3ec68d8c1f4d4a bc9ecddf2be66cc5 d40e62f7348f28 8353dc723e9c4b4a ea82b80fec12d4ef e34764173ff2aa52 fe8ef59ceb56c671 d7699b60e69b408a 268deadce911adab d468741c3ab0ff78 214c4002251ce078 e2e8e23abd20f7c e6830ef4c7da2ade ecf70b56e297023f 8e6911bb87cf4ef6 cfa979d4fb259979 ddbc9bb8f4ec20b0 fcbb6fa6bca0852a b7c61ea3ec25ad73 e111ce23cc64e97b 89056ea59582ba5b 1a867cfddcd3dca 2a322745c0cb8d49 d64e47a4e2ba35f2 c08773bcb33795ea f4032333d7f6af73 3ab0e566eab99b01 1df130ecca516ad8 a2481a4bfb385922 e5f1f42491f4541f dc45bef7dcf8ffb1 d83158d403e32510 95d7792ffe8dd943 db86d8f43e234cf8 c2067208f21d3827 f0ab116ab3b831c8 f1db7ec0d7ddeb37 c9fb235ecc31ea5e ffea1c27b3e1f0c8 bbfdc00baa634c8 6d81f27f1c59ae7 25a78bb0d5baff5e 1061342706c23b4e f887d635316767b0 8722670e1739534e 1dfb8e9c9e2f61e5 cf96c99597839b35 aebcee83968364d1 34b2c6b7d6b930a4 ee3ccbd9ccb87d1f e33be1f18449904c db02c0f01cf9ba5d e9b2377c17eea8a8 9c3838f4c93f8cca e6394727ccee196d e4dcc215f73af9e5 c07a86afcfeb7ea3 1cd998110114fb0a f84ff4ef26b3cdd6 f69f4c7981b65a26 82cb553038ca7b9e df7e49749378e48a 152f3eb1fb1b4a1f b3e5c5bdd61d95ed e9967a7897fa93e1 1315de0193640f31 e981a51ffec5b929 96c04d0ac6fba3be da5fb2f0d3181f97 d1ddd8c0a9d62b0b f0d1cecac3e1580f 16f977a6e89e25ca 127450d6cb3181ba f12d9c9e8d75066 d175763003461fa0 ce77a15a260c516f ee3a1d5e3e9c706 e72fe6a6dd8a7b23 396cc92e0591805 c442df0cb5a78800 93320323127a6e67 f2d3866cab72c5b2 e11a4db396c8cfb5 a9433e1cb7166578 e2892b2bf44c50d6 b15208c1c16c489 d32d2a01c3a378de b7efc9b4b4585ea8 ] wstrb=[2c 31 40 a 33 e9 bf 5f 1a ff 6a 4d e8 29 ad 3 28 17 50 11 40 fd 14 68 14 64 79 54 62 8d bd 76 f2 36 cb 54 c4 88 ca b6 be 95 a 82 1d d4 38 dc 6a 42 5e 87 17 97 63 81 d9 c2 8 f0 59 6c 71 32 2e 7a 23 87 e6 94 b9 14 e dc 9b f4 71 54 8 7f 31 a3 74 a2 f8 7c 21 29 20 95 cb 18 12 ec 41 32 82 c 4a 94 f8 8b c6 ] bresp=0 bid=1101
[1115000] [SCOREBOARD-S] mst_id=0 s_id=1 awaddr=12c3b910 awid=1101 awlen=102 awsize=0 awburst=1 wdata=[d5b27b3cdf6ac2a6 fd5be4c78e8731fe 25a46ad53bec0b83 1b56ce29f1a57e0b 2cb00afb56e611 b742f19498b2b2f0 a5830fc25d11adf a12800f0d299bfbd eb4c72ae0a84e106 3055fbe5d86af285 ab04b242f5a4a3aa 2984b0d17dfcd5 a9e8ef5a965124f0 8bf5c89a307f8095 81fd7d6ad4eda19d eb3ec68d8c1f4d4a bc9ecddf2be66cc5 d40e62f7348f28 8353dc723e9c4b4a ea82b80fec12d4ef e34764173ff2aa52 fe8ef59ceb56c671 d7699b60e69b408a 268deadce911adab d468741c3ab0ff78 214c4002251ce078 e2e8e23abd20f7c e6830ef4c7da2ade ecf70b56e297023f 8e6911bb87cf4ef6 cfa979d4fb259979 ddbc9bb8f4ec20b0 fcbb6fa6bca0852a b7c61ea3ec25ad73 e111ce23cc64e97b 89056ea59582ba5b 1a867cfddcd3dca 2a322745c0cb8d49 d64e47a4e2ba35f2 c08773bcb33795ea f4032333d7f6af73 3ab0e566eab99b01 1df130ecca516ad8 a2481a4bfb385922 e5f1f42491f4541f dc45bef7dcf8ffb1 d83158d403e32510 95d7792ffe8dd943 db86d8f43e234cf8 c2067208f21d3827 f0ab116ab3b831c8 f1db7ec0d7ddeb37 c9fb235ecc31ea5e ffea1c27b3e1f0c8 bbfdc00baa634c8 6d81f27f1c59ae7 25a78bb0d5baff5e 1061342706c23b4e f887d635316767b0 8722670e1739534e 1dfb8e9c9e2f61e5 cf96c99597839b35 aebcee83968364d1 34b2c6b7d6b930a4 ee3ccbd9ccb87d1f e33be1f18449904c db02c0f01cf9ba5d e9b2377c17eea8a8 9c3838f4c93f8cca e6394727ccee196d e4dcc215f73af9e5 c07a86afcfeb7ea3 1cd998110114fb0a f84ff4ef26b3cdd6 f69f4c7981b65a26 82cb553038ca7b9e df7e49749378e48a 152f3eb1fb1b4a1f b3e5c5bdd61d95ed e9967a7897fa93e1 1315de0193640f31 e981a51ffec5b929 96c04d0ac6fba3be da5fb2f0d3181f97 d1ddd8c0a9d62b0b f0d1cecac3e1580f 16f977a6e89e25ca 127450d6cb3181ba f12d9c9e8d75066 d175763003461fa0 ce77a15a260c516f ee3a1d5e3e9c706 e72fe6a6dd8a7b23 396cc92e0591805 c442df0cb5a78800 93320323127a6e67 f2d3866cab72c5b2 e11a4db396c8cfb5 a9433e1cb7166578 e2892b2bf44c50d6 b15208c1c16c489 d32d2a01c3a378de b7efc9b4b4585ea8 ] wstrb=[2c 31 40 a 33 e9 bf 5f 1a ff 6a 4d e8 29 ad 3 28 17 50 11 40 fd 14 68 14 64 79 54 62 8d bd 76 f2 36 cb 54 c4 88 ca b6 be 95 a 82 1d d4 38 dc 6a 42 5e 87 17 97 63 81 d9 c2 8 f0 59 6c 71 32 2e 7a 23 87 e6 94 b9 14 e dc 9b f4 71 54 8 7f 31 a3 74 a2 f8 7c 21 29 20 95 cb 18 12 ec 41 32 82 c 4a 94 f8 8b c6 ] bresp=0 bid=1101
[1115000] SCOREBOARD: Transaction 1 received. pass=217 fail=0
[1115000] ALL PASS. Total transactions: 1
[1125000] MASTER 1 W_VALID_RDY Handshake beat=8 wlast=0
[1125000] S1 MEMORY WRITE beat=1 addr=19689428 data=c5bc631027e8d4cc id=16
[1135000] S1 MEMORY WRITE beat=2 addr=19689468 data=1a5e9f59d94c713e id=16
[1135000] MASTER 1 W_VALID_RDY Handshake beat=9 wlast=0
[1145000] MASTER 1 W_VALID_RDY Handshake beat=10 wlast=0
[1145000] S1 MEMORY WRITE beat=3 addr=196894a8 data=c83e7ad1dc07c0df id=16
[1155000] S1 MEMORY WRITE beat=4 addr=196894e8 data=03f095abc87dfe1a id=16
[1155000] MASTER 1 W_VALID_RDY Handshake beat=11 wlast=0
[1165000] MASTER_DRIVER1 received transaction, op=AXI_WRITE
[1165000] MASTER 1 W_VALID_RDY Handshake beat=12 wlast=1
[1165000] S1 MEMORY WRITE beat=5 addr=19689528 data=21ca6f590dfadde1 id=16
[1175000] S1 MEMORY WRITE beat=6 addr=19689200 data=ea029ec01e4f3504 id=16
[1185000] MASTER 1 AW_VALID_RDY Handshake
[1185000] S1 MEMORY WRITE beat=7 addr=19689240 data=e6cd331eea08ea2a id=16
[1195000] S1 MEMORY WRITE beat=8 addr=19689280 data=f803c80bedf3346b id=16
[1205000] MASTER 1 W_VALID_RDY Handshake beat=0 wlast=0
[1205000] S1 MEMORY WRITE beat=9 addr=196892c0 data=0c42696f8897a277 id=16
[1215000] S1 MEMORY WRITE beat=10 addr=19689300 data=f2a08ca1e20666cb id=16
[1215000] MASTER 1 W_VALID_RDY Handshake beat=1 wlast=0
[1225000] MASTER 1 W_VALID_RDY Handshake beat=2 wlast=0
[1225000] S1 MEMORY WRITE beat=11 addr=19689340 data=cff99b36f30f9c8d id=16
[1235000] S1 MEMORY WRITE beat=12 addr=19689380 data=fba73f05eaa454ac id=16
[1235000] MASTER 1 W_VALID_RDY Handshake beat=3 wlast=0
[1245000] MASTER_DRIVER1 received transaction, op=AXI_READ
[1245000] MASTER 1 W_VALID_RDY Handshake beat=4 wlast=1
[1245000] SLAVE1 sent B resp, id=6
[1255000] AXI S1_AWVALID_RDY HANDSHAKE
[1255000] [SLAVE MONITOR] mst_id=1 s_id=1 awaddr=196893e8 awid=110 awlen=12 awsize=6 awburst=2 wdata=[ae1f5ec1eef20992 c5bc631027e8d4cc 1a5e9f59d94c713e c83e7ad1dc07c0df 3f095abc87dfe1a 21ca6f590dfadde1 ea029ec01e4f3504 e6cd331eea08ea2a f803c80bedf3346b c42696f8897a277 f2a08ca1e20666cb cff99b36f30f9c8d fba73f05eaa454ac ] wstrb=[a5 77 a6 32 ad 53 37 52 ca de 85 78 31 ] bresp=0 bid=10110
[1255000] ARB MONITOR: slave=1 m0_req=0 m1_req=1 winner=1
[1265000] MASTER_DRIVER1 received transaction, op=AXI_READ
[1265000] MASTER 1 RECEIVED BRESP. BRESP=0
[1265000] [MASTER DRIVER] mst_id=1 s_id=0 awaddr=196893e8 awid=110 awlen=12 awsize=6 awburst=2 wdata=[ae1f5ec1eef20992 c5bc631027e8d4cc 1a5e9f59d94c713e c83e7ad1dc07c0df 3f095abc87dfe1a 21ca6f590dfadde1 ea029ec01e4f3504 e6cd331eea08ea2a f803c80bedf3346b c42696f8897a277 f2a08ca1e20666cb cff99b36f30f9c8d fba73f05eaa454ac ] wstrb=[a5 77 a6 32 ad 53 37 52 ca de 85 78 31 ] bresp=0 bid=110
[1265000] MASTER 1 B_VALID_RDY Handshake
[1265000] [MASTER MONITOR] mst_id=1 s_id=1 awaddr=196893e8 awid=110 awlen=12 awsize=6 awburst=2 wdata=[ae1f5ec1eef20992 c5bc631027e8d4cc 1a5e9f59d94c713e c83e7ad1dc07c0df 3f095abc87dfe1a 21ca6f590dfadde1 ea029ec01e4f3504 e6cd331eea08ea2a f803c80bedf3346b c42696f8897a277 f2a08ca1e20666cb cff99b36f30f9c8d fba73f05eaa454ac ] wstrb=[a5 77 a6 32 ad 53 37 52 ca de 85 78 31 ] bresp=0 bid=110
[1265000] S1 MEMORY WRITE beat=0 addr=179f49f8 data=15d29f6fc5bbe662 id=18
[1265000] SCOREBOARD MATCH: decode_err expected = 0, actual =0
[1265000] SCOREBOARD MATCH: slave_id expected = 1, actual =1
[1265000] SCOREBOARD MATCH: awaddr passthrough expected = 196893e8, actual =196893e8
[1265000] SCOREBOARD MATCH: awlen passthrough expected = 12, actual =12
[1265000] SCOREBOARD MATCH: awsize passthrough expected = 6, actual =6
[1265000] SCOREBOARD MATCH: awburst passthrough expected = 2, actual =2
[1265000] SCOREBOARD MATCH: wdata size check expected = d, actual =d
[1265000] SCOREBOARD MATCH: wdata passthrough beat=0 expected = ae1f5ec1eef20992, actual =ae1f5ec1eef20992
[1265000] SCOREBOARD MATCH: wdata passthrough beat=1 expected = c5bc631027e8d4cc, actual =c5bc631027e8d4cc
[1265000] SCOREBOARD MATCH: wdata passthrough beat=2 expected = 1a5e9f59d94c713e, actual =1a5e9f59d94c713e
[1265000] SCOREBOARD MATCH: wdata passthrough beat=3 expected = c83e7ad1dc07c0df, actual =c83e7ad1dc07c0df
[1265000] SCOREBOARD MATCH: wdata passthrough beat=4 expected = 3f095abc87dfe1a, actual =3f095abc87dfe1a
[1265000] SCOREBOARD MATCH: wdata passthrough beat=5 expected = 21ca6f590dfadde1, actual =21ca6f590dfadde1
[1265000] SCOREBOARD MATCH: wdata passthrough beat=6 expected = ea029ec01e4f3504, actual =ea029ec01e4f3504
[1265000] SCOREBOARD MATCH: wdata passthrough beat=7 expected = e6cd331eea08ea2a, actual =e6cd331eea08ea2a
[1265000] SCOREBOARD MATCH: wdata passthrough beat=8 expected = f803c80bedf3346b, actual =f803c80bedf3346b
[1265000] SCOREBOARD MATCH: wdata passthrough beat=9 expected = c42696f8897a277, actual =c42696f8897a277
[1265000] SCOREBOARD MATCH: wdata passthrough beat=10 expected = f2a08ca1e20666cb, actual =f2a08ca1e20666cb
[1265000] SCOREBOARD MATCH: wdata passthrough beat=11 expected = cff99b36f30f9c8d, actual =cff99b36f30f9c8d
[1265000] SCOREBOARD MATCH: wdata passthrough beat=12 expected = fba73f05eaa454ac, actual =fba73f05eaa454ac
[1265000] SCOREBOARD MATCH: wstrb size check expected = d, actual =d
[1265000] SCOREBOARD MATCH: wstrb passthrough beat=0 expected = a5, actual =a5
[1265000] SCOREBOARD MATCH: wstrb passthrough beat=1 expected = 77, actual =77
[1265000] SCOREBOARD MATCH: wstrb passthrough beat=2 expected = a6, actual =a6
[1265000] SCOREBOARD MATCH: wstrb passthrough beat=3 expected = 32, actual =32
[1265000] SCOREBOARD MATCH: wstrb passthrough beat=4 expected = ad, actual =ad
[1265000] SCOREBOARD MATCH: wstrb passthrough beat=5 expected = 53, actual =53
[1265000] SCOREBOARD MATCH: wstrb passthrough beat=6 expected = 37, actual =37
[1265000] SCOREBOARD MATCH: wstrb passthrough beat=7 expected = 52, actual =52
[1265000] SCOREBOARD MATCH: wstrb passthrough beat=8 expected = ca, actual =ca
[1265000] SCOREBOARD MATCH: wstrb passthrough beat=9 expected = de, actual =de
[1265000] SCOREBOARD MATCH: wstrb passthrough beat=10 expected = 85, actual =85
[1265000] SCOREBOARD MATCH: wstrb passthrough beat=11 expected = 78, actual =78
[1265000] SCOREBOARD MATCH: wstrb passthrough beat=12 expected = 31, actual =31
[1265000] SCOREBOARD MATCH: bresp passthrough expected = 0, actual =0
[1265000] SCOREBOARD MATCH: response routed to correct master (write) expected = 1, actual =1
[1265000] [SCOREBOARD-M] mst_id=1 s_id=1 awaddr=196893e8 awid=110 awlen=12 awsize=6 awburst=2 wdata=[ae1f5ec1eef20992 c5bc631027e8d4cc 1a5e9f59d94c713e c83e7ad1dc07c0df 3f095abc87dfe1a 21ca6f590dfadde1 ea029ec01e4f3504 e6cd331eea08ea2a f803c80bedf3346b c42696f8897a277 f2a08ca1e20666cb cff99b36f30f9c8d fba73f05eaa454ac ] wstrb=[a5 77 a6 32 ad 53 37 52 ca de 85 78 31 ] bresp=0 bid=110
[1265000] [SCOREBOARD-S] mst_id=1 s_id=1 awaddr=196893e8 awid=110 awlen=12 awsize=6 awburst=2 wdata=[ae1f5ec1eef20992 c5bc631027e8d4cc 1a5e9f59d94c713e c83e7ad1dc07c0df 3f095abc87dfe1a 21ca6f590dfadde1 ea029ec01e4f3504 e6cd331eea08ea2a f803c80bedf3346b c42696f8897a277 f2a08ca1e20666cb cff99b36f30f9c8d fba73f05eaa454ac ] wstrb=[a5 77 a6 32 ad 53 37 52 ca de 85 78 31 ] bresp=0 bid=10110
[1265000] SCOREBOARD: Transaction 2 received. pass=253 fail=0
[1265000] ALL PASS. Total transactions: 2
[1275000] S1 MEMORY WRITE beat=1 addr=179f49f8 data=d8afcfa1e06e6127 id=18
[1275000] AXI S0_ARVALID_RDY HANDSHAKE
[1275000] MEMORY READ MISS beat=0 addr=5450b80 -> default data id=18
[1275000] ARB MONITOR: slave=0 m0_req=0 m1_req=1 winner=1
[1285000] SLAVE 0 R_VALID_RDY Handshake beat=0 rlast=0
[1285000] MEMORY READ MISS beat=1 addr=5450b88 -> default data id=18
[1285000] S1 MEMORY WRITE beat=2 addr=179f49f8 data=8a84e43311cc5d00 id=18
[1295000] S1 MEMORY WRITE beat=3 addr=179f49f8 data=d7884362ccb9dcbe id=18
[1295000] SLAVE 0 R_VALID_RDY Handshake beat=1 rlast=1
[1295000] [SLAVE MONITOR] READ mst_id=1 s_id=0 araddr=5450b80 arid=2 arlen=1 arsize=3 arburst=1 rid=[1212] rresp=[00] rdata=[baadf00d12345678baadf00d12345678]
[1305000] MASTER 1 R_VALID_RDY Handshake beat=0 rlast=0
[1305000] ARB MONITOR: slave=0 m0_req=0 m1_req=1 winner=1
[1305000] AXI S0_ARVALID_RDY HANDSHAKE
[1305000] MEMORY READ MISS beat=0 addr=bb29970 -> default data id=19
[1305000] S1 MEMORY WRITE beat=4 addr=179f49f8 data=ad283de5a05783a2 id=18
[1315000] SLAVE1 sent B resp, id=8
[1315000] MEMORY READ MISS beat=1 addr=bb29978 -> default data id=19
[1315000] SLAVE 0 R_VALID_RDY Handshake beat=0 rlast=0
[1315000] [SLAVE MONITOR] mst_id=1 s_id=1 awaddr=179f49f8 awid=1000 awlen=4 awsize=5 awburst=0 wdata=[15d29f6fc5bbe662 d8afcfa1e06e6127 8a84e43311cc5d00 d7884362ccb9dcbe ad283de5a05783a2 ] wstrb=[3 a2 19 c1 4 ] bresp=0 bid=11000
[1315000] MASTER 1 R_VALID_RDY Handshake beat=1 rlast=1
[1315000] [MASTER MONITOR] READ mst_id=1 s_id=0 araddr=5450b80 arid=2 arlen=1 arsize=3 arburst=1 rid=[22] rresp=[00] rdata=[baadf00d12345678baadf00d12345678]
[1315000] [MASTER DRIVER] READ mst_id=1 s_id=0 araddr=5450b80 arid=2 arlen=1 arsize=3 arburst=1 rid=[22] rresp=[00] rdata=[baadf00d12345678baadf00d12345678]
[1315000] SCOREBOARD MATCH: decode_err expected = 0, actual =0
[1315000] SCOREBOARD MATCH: slave_id expected = 0, actual =0
[1315000] SCOREBOARD MATCH: araddr passthrough expected = 5450b80, actual =5450b80
[1315000] SCOREBOARD MATCH: arlen passthrough expected = 1, actual =1
[1315000] SCOREBOARD MATCH: arsize passthrough expected = 3, actual =3
[1315000] SCOREBOARD MATCH: arburst passthrough expected = 1, actual =1
[1315000] SCOREBOARD MATCH: rdata size check expected = 2, actual =2
[1315000] SCOREBOARD MATCH: rdata passthrough beat=0 expected = baadf00d12345678, actual =baadf00d12345678
[1315000] SCOREBOARD MATCH: rdata passthrough beat=1 expected = baadf00d12345678, actual =baadf00d12345678
[1315000] SCOREBOARD MATCH: rresp size check expected = 2, actual =2
[1315000] SCOREBOARD MATCH: rresp passthrough beat=0 expected = 0, actual =0
[1315000] SCOREBOARD MATCH: rresp passthrough beat=1 expected = 0, actual =0
[1315000] SCOREBOARD MATCH: response routed to correct master (read beat 0) expected = 1, actual =1
[1315000] SCOREBOARD MATCH: response routed to correct master (read beat 1) expected = 1, actual =1
[1315000] [SCOREBOARD-M] READ mst_id=1 s_id=0 araddr=5450b80 arid=2 arlen=1 arsize=3 arburst=1 rid=[22] rresp=[00] rdata=[baadf00d12345678baadf00d12345678]
[1315000] [SCOREBOARD-S] READ mst_id=1 s_id=0 araddr=5450b80 arid=2 arlen=1 arsize=3 arburst=1 rid=[1212] rresp=[00] rdata=[baadf00d12345678baadf00d12345678]
[1315000] SCOREBOARD: Transaction 3 received. pass=267 fail=0
[1315000] ALL PASS. Total transactions: 3
[1325000] SLAVE 0 R_VALID_RDY Handshake beat=1 rlast=1
[1325000] [SLAVE MONITOR] READ mst_id=1 s_id=0 araddr=bb29970 arid=3 arlen=1 arsize=3 arburst=1 rid=[1313] rresp=[00] rdata=[baadf00d12345678baadf00d12345678]
[1335000] MASTER 1 R_VALID_RDY Handshake beat=0 rlast=0
[1335000] MASTER 1 B_VALID_RDY Handshake
[1335000] [MASTER MONITOR] mst_id=1 s_id=1 awaddr=179f49f8 awid=1000 awlen=4 awsize=5 awburst=0 wdata=[15d29f6fc5bbe662 d8afcfa1e06e6127 8a84e43311cc5d00 d7884362ccb9dcbe ad283de5a05783a2 ] wstrb=[3 a2 19 c1 4 ] bresp=0 bid=1000
[1335000] MASTER 1 RECEIVED BRESP. BRESP=0
[1335000] [MASTER DRIVER] mst_id=1 s_id=0 awaddr=179f49f8 awid=1000 awlen=4 awsize=5 awburst=0 wdata=[15d29f6fc5bbe662 d8afcfa1e06e6127 8a84e43311cc5d00 d7884362ccb9dcbe ad283de5a05783a2 ] wstrb=[3 a2 19 c1 4 ] bresp=0 bid=1000
[1335000] SCOREBOARD MATCH: decode_err expected = 0, actual =0
[1335000] SCOREBOARD MATCH: slave_id expected = 1, actual =1
[1335000] SCOREBOARD MATCH: awaddr passthrough expected = 179f49f8, actual =179f49f8
[1335000] SCOREBOARD MATCH: awlen passthrough expected = 4, actual =4
[1335000] SCOREBOARD MATCH: awsize passthrough expected = 5, actual =5
[1335000] SCOREBOARD MATCH: awburst passthrough expected = 0, actual =0
[1335000] SCOREBOARD MATCH: wdata size check expected = 5, actual =5
[1335000] SCOREBOARD MATCH: wdata passthrough beat=0 expected = 15d29f6fc5bbe662, actual =15d29f6fc5bbe662
[1335000] SCOREBOARD MATCH: wdata passthrough beat=1 expected = d8afcfa1e06e6127, actual =d8afcfa1e06e6127
[1335000] SCOREBOARD MATCH: wdata passthrough beat=2 expected = 8a84e43311cc5d00, actual =8a84e43311cc5d00
[1335000] SCOREBOARD MATCH: wdata passthrough beat=3 expected = d7884362ccb9dcbe, actual =d7884362ccb9dcbe
[1335000] SCOREBOARD MATCH: wdata passthrough beat=4 expected = ad283de5a05783a2, actual =ad283de5a05783a2
[1335000] SCOREBOARD MATCH: wstrb size check expected = 5, actual =5
[1335000] SCOREBOARD MATCH: wstrb passthrough beat=0 expected = 3, actual =3
[1335000] SCOREBOARD MATCH: wstrb passthrough beat=1 expected = a2, actual =a2
[1335000] SCOREBOARD MATCH: wstrb passthrough beat=2 expected = 19, actual =19
[1335000] SCOREBOARD MATCH: wstrb passthrough beat=3 expected = c1, actual =c1
[1335000] SCOREBOARD MATCH: wstrb passthrough beat=4 expected = 4, actual =4
[1335000] SCOREBOARD MATCH: bresp passthrough expected = 0, actual =0
[1335000] SCOREBOARD MATCH: response routed to correct master (write) expected = 1, actual =1
[1335000] [SCOREBOARD-M] mst_id=1 s_id=1 awaddr=179f49f8 awid=1000 awlen=4 awsize=5 awburst=0 wdata=[15d29f6fc5bbe662 d8afcfa1e06e6127 8a84e43311cc5d00 d7884362ccb9dcbe ad283de5a05783a2 ] wstrb=[3 a2 19 c1 4 ] bresp=0 bid=1000
[1335000] [SCOREBOARD-S] mst_id=1 s_id=1 awaddr=179f49f8 awid=1000 awlen=4 awsize=5 awburst=0 wdata=[15d29f6fc5bbe662 d8afcfa1e06e6127 8a84e43311cc5d00 d7884362ccb9dcbe ad283de5a05783a2 ] wstrb=[3 a2 19 c1 4 ] bresp=0 bid=11000
[1335000] SCOREBOARD: Transaction 4 received. pass=287 fail=0
[1335000] ALL PASS. Total transactions: 4
[1345000] [MASTER DRIVER] READ mst_id=1 s_id=0 araddr=bb29970 arid=3 arlen=1 arsize=3 arburst=1 rid=[33] rresp=[00] rdata=[baadf00d12345678baadf00d12345678]
[1345000] MASTER 1 R_VALID_RDY Handshake beat=1 rlast=1
[1345000] [MASTER MONITOR] READ mst_id=1 s_id=0 araddr=bb29970 arid=3 arlen=1 arsize=3 arburst=1 rid=[33] rresp=[00] rdata=[baadf00d12345678baadf00d12345678]
[1345000] SCOREBOARD MATCH: decode_err expected = 0, actual =0
[1345000] SCOREBOARD MATCH: slave_id expected = 0, actual =0
[1345000] SCOREBOARD MATCH: araddr passthrough expected = bb29970, actual =bb29970
[1345000] SCOREBOARD MATCH: arlen passthrough expected = 1, actual =1
[1345000] SCOREBOARD MATCH: arsize passthrough expected = 3, actual =3
[1345000] SCOREBOARD MATCH: arburst passthrough expected = 1, actual =1
[1345000] SCOREBOARD MATCH: rdata size check expected = 2, actual =2
[1345000] SCOREBOARD MATCH: rdata passthrough beat=0 expected = baadf00d12345678, actual =baadf00d12345678
[1345000] SCOREBOARD MATCH: rdata passthrough beat=1 expected = baadf00d12345678, actual =baadf00d12345678
[1345000] SCOREBOARD MATCH: rresp size check expected = 2, actual =2
[1345000] SCOREBOARD MATCH: rresp passthrough beat=0 expected = 0, actual =0
[1345000] SCOREBOARD MATCH: rresp passthrough beat=1 expected = 0, actual =0
[1345000] SCOREBOARD MATCH: response routed to correct master (read beat 0) expected = 1, actual =1
[1345000] SCOREBOARD MATCH: response routed to correct master (read beat 1) expected = 1, actual =1
[1345000] [SCOREBOARD-M] READ mst_id=1 s_id=0 araddr=bb29970 arid=3 arlen=1 arsize=3 arburst=1 rid=[33] rresp=[00] rdata=[baadf00d12345678baadf00d12345678]
[1345000] [SCOREBOARD-S] READ mst_id=1 s_id=0 araddr=bb29970 arid=3 arlen=1 arsize=3 arburst=1 rid=[1313] rresp=[00] rdata=[baadf00d12345678baadf00d12345678]
[1345000] SCOREBOARD: Transaction 5 received. pass=301 fail=0
[1345000] SCOREBOARD: Expected 5 transactions completed, PASS=301 FAIL=0
[1345000] ALL PASS. Total transactions: 5
[1345000] ALL TRANSACTIONS MONITORED
$finish called at time : 1365 ns : File "/home/nashita/Desktop/practice/axi_xbar/tb/top/axi_tb_top.sv" Line 220
exit
INFO: xsimkernel Simulation Memory Usage: 289464 KB (Peak: 337864 KB), Simulation CPU Usage: 1170 ms
INFO: [Common 17-206] Exiting xsim at Fri Sep 11 11:35:19 2026...
