#-----------------------------------------------------------
# xsim v2025.2 (64-bit)
# SW Build 6299465 on Fri Nov 14 12:34:56 MST 2025
# IP Build 6300035 on Fri Nov 14 10:48:45 MST 2025
# SharedData Build 6298862 on Thu Nov 13 04:50:51 MST 2025
# Start of session at: Thu Sep 10 18:40:48 2026
# Process ID         : 3661472
# Current directory  : /home/nashita/Desktop/practice/axi_xbar/sim
# Command line       : xsim -log regress_results/BT_run392.log -mode tcl -source {xsim.dir/tb_top_snap/xsim_script.tcl}
# Log file           : /home/nashita/Desktop/practice/axi_xbar/sim/regress_results/BT_run392.log
# Journal file       : /home/nashita/Desktop/practice/axi_xbar/sim/xsim.jou
# Running On         : vlsi-vivado
# Platform           : Ubuntu
# Operating System   : Ubuntu 24.04.4 LTS
# Processor Detail   : Intel(R) Core(TM) i5-10400 CPU @ 2.90GHz
# CPU Frequency      : 4131.166 MHz
# CPU Physical cores : 6
# CPU Logical cores  : 12
# Host memory        : 41875 MB
# Swap memory        : 27648 MB
# Total Virtual      : 69524 MB
# Available Virtual  : 62649 MB
#-----------------------------------------------------------
source xsim.dir/tb_top_snap/xsim_script.tcl
# xsim {tb_top_snap} -testplusarg BT -autoloadwcfg -runall -sv_seed 393
Time resolution is 1 ps
run -all
[0] RUNNING BASE TEST
[0] INSIDE THE BASE TEST CONSTRUCTOR
[0] ENV: before agent
[0] SLAVE CONSTRUCTED
[0] MASTER MONITOR CONSTRUCTED
[0] MASTER MONITOR CONSTRUCTED
[0] SLAVE MONITOR CONSTRUCTED
[0] SLAVE MONITOR CONSTRUCTED
[0] ARB MONITOR CONSTRUCTED
GENERATOR CONSTRUCTED
[0] ENV: after agent
[0] ENV: before scoreboard
[0] ENV: after scoreboard
[15000] [SEQUENCER] READ mst_id=0 s_id=0 araddr=1e3e2990 arid=0 arlen=1 arsize=3 arburst=1 rid=[] rresp=[] rdata=[]
[15000] [SEQUENCER] READ mst_id=1 s_id=0 araddr=11926b08 arid=0 arlen=1 arsize=3 arburst=1 rid=[] rresp=[] rdata=[]
[15000] [SEQUENCER] READ mst_id=0 s_id=0 araddr=1afd3b00 arid=1 arlen=1 arsize=3 arburst=1 rid=[] rresp=[] rdata=[]
[15000] [SEQUENCER] READ mst_id=0 s_id=0 araddr=1e22db30 arid=2 arlen=1 arsize=3 arburst=1 rid=[] rresp=[] rdata=[]
[15000] [SEQUENCER] mst_id=1 s_id=0 awaddr=1795e320 awid=1100 awlen=83 awsize=6 awburst=1 wdata=[91c058058e74044a 19aae68ef55bc2d6 3c295e77fe50015a cc405a5cb9fcd25 c0fb8ffbcde9b67c cc39b7d7266eec33 f20eb958fd24ee72 cb0ea4eed8fdbd7c ff6ca9af330a4953 302f37c597485cc5 f0461a41f17b6307 2485ac5afb3ddcb3 12863979efb2c3f0 e12e26f7d4b4e41f cff2c0d282cc53ba f27f17ab85b3d351 da68b770e278fa4b e5454e06d3ad3ea2 d96111f42a5b7843 8cd4728ed7c465b1 ab71a453b3c9c964 de2541a7f219c094 c9de264584d2b647 389c7faceaf9b436 dd1374caf54fca99 fa2280e096c1c153 81bb758926f19b10 1c4165a9b2bf008c c980c1e0deceea54 5c085649663e689 c922e716cb3c3769 aa0b21bd2201eb0d b865d19612a3a8f6 dddfe05fafcba721 d1cd922e8188b8ac 942c61a207eb021d b7b6a93e0a3363c5 8bbc1c71f20c4202 f9f7441f09843b6d 13b79f321fe87e14 11f4c016b1aded5d bb3228ca9f73bba3 bf5c39b70bec0435 bd99f192cee9c7fc ee5d83a0d150f9cd dd3cfe02f8cc1a5d c7b5e259adb9bd57 ff0ab7251ad6ef95 13a309f2b61365f9 e3cd2351dc47b527 f71ea4bcdb58ec4b 116c5245e2d7da76 bf1f8f9d8ac1aeae e61a9afaf5397596 d811500c363e345a c0ffe308f786ed3f ecc062d59730dfa9 cd6f1403a71a7e02 9ea16b41c4d1b2e1 dc02928a0e6ef70c b589750e8b61ce16 d03380f72971a68e 37e09d9ad42ae050 df8cae662c361382 d5a7ba10ed6a12a8 c194f2f82fc02f5e dbf642e00d8857aa faf26a522121a15f d0e1d0bd319dfcf0 3f26549a3c875d4b dda8feaa2cd8139d de76108dba18beec f6a01c372e8acf67 db62e3041d9c6527 d7b52413d4491ae1 82d3ea4839d8f391 d77558b8ce55404b a29e5b2cde36cd4c 980fc0ddaf2a7ccb fd7fbd1625724575 83a912c1ef851995 1eaf9661201e1843 c5905db81bb8d39f 8b3ded349c2f5377 ] wstrb=[79 ba 95 18 72 d 4d ec c7 e2 4 3a ef 51 26 b7 34 2a f1 23 7c 17 da b0 41 cb d3 bd e2 ae 6d 24 79 41 e1 5c ef 4f 80 68 90 61 c4 7f b0 44 e7 40 a6 ac bf 56 f0 a7 97 96 53 56 ed 43 fd 84 da 50 da c7 94 d8 4b 6e 28 25 35 bc fd 80 2a 26 a5 5f e2 a3 df d ] bresp=0 bid=0
[15000] MASTER_DRIVER0 received transaction, op=AXI_READ
[15000] MASTER_DRIVER1 received transaction, op=AXI_READ
[35000] MASTER_DRIVER0 received transaction, op=AXI_READ
[35000] MASTER_DRIVER1 received transaction, op=AXI_WRITE
[45000] ARB MONITOR: slave=1 m0_req=1 m1_req=1 winner=0
[45000] AXI S0_ARVALID_RDY HANDSHAKE
[45000] MEMORY READ MISS beat=0 addr=1e3e2990 -> default data id=0
[45000] SCOREBOARD MATCH: arbitration winner (slave 1) expected = 0, actual =0
[55000] MEMORY READ MISS beat=1 addr=1e3e2998 -> default data id=0
[55000] SLAVE 1 R_VALID_RDY Handshake beat=0 rlast=0
[55000] MASTER 1 AW_VALID_RDY Handshake
[55000] MASTER_DRIVER0 received transaction, op=AXI_READ
[65000] ARB MONITOR: slave=1 m0_req=0 m1_req=1 winner=1
[65000] SLAVE 1 R_VALID_RDY Handshake beat=1 rlast=1
[65000] [SLAVE MONITOR] READ mst_id=0 s_id=1 araddr=1e3e2990 arid=0 arlen=1 arsize=3 arburst=1 rid=[00] rresp=[00] rdata=[baadf00d12345678baadf00d12345678]
[65000] AXI S1_AWVALID_RDY HANDSHAKE
[75000] AXI S0_ARVALID_RDY HANDSHAKE
[75000] MEMORY READ MISS beat=0 addr=11926b08 -> default data id=16
[75000] ARB MONITOR: slave=1 m0_req=1 m1_req=1 winner=1
[75000] MASTER 1 W_VALID_RDY Handshake beat=0 wlast=0
[75000] MASTER 0 R_VALID_RDY Handshake beat=0 rlast=0
[75000] SCOREBOARD MATCH: arbitration winner (slave 1) expected = 1, actual =1
[85000] [MASTER DRIVER] READ mst_id=0 s_id=0 araddr=1e3e2990 arid=0 arlen=1 arsize=3 arburst=1 rid=[00] rresp=[00] rdata=[baadf00d12345678baadf00d12345678]
[85000] MASTER 0 R_VALID_RDY Handshake beat=1 rlast=1
[85000] [MASTER MONITOR] READ mst_id=0 s_id=1 araddr=1e3e2990 arid=0 arlen=1 arsize=3 arburst=1 rid=[00] rresp=[00] rdata=[baadf00d12345678baadf00d12345678]
[85000] MASTER 1 W_VALID_RDY Handshake beat=1 wlast=0
[85000] SLAVE 1 R_VALID_RDY Handshake beat=0 rlast=0
[85000] MEMORY READ MISS beat=1 addr=11926b10 -> default data id=16
[85000] S1 MEMORY WRITE beat=0 addr=1795e320 data=91c058058e74044a id=1c
[85000] SCOREBOARD MATCH: decode_err expected = 0, actual =0
[85000] SCOREBOARD MATCH: slave_id expected = 1, actual =1
[85000] SCOREBOARD MATCH: araddr passthrough expected = 1e3e2990, actual =1e3e2990
[85000] SCOREBOARD MATCH: arlen passthrough expected = 1, actual =1
[85000] SCOREBOARD MATCH: arsize passthrough expected = 3, actual =3
[85000] SCOREBOARD MATCH: arburst passthrough expected = 1, actual =1
[85000] SCOREBOARD MATCH: rdata size check expected = 2, actual =2
[85000] SCOREBOARD MATCH: rdata passthrough beat=0 expected = baadf00d12345678, actual =baadf00d12345678
[85000] SCOREBOARD MATCH: rdata passthrough beat=1 expected = baadf00d12345678, actual =baadf00d12345678
[85000] SCOREBOARD MATCH: rresp size check expected = 2, actual =2
[85000] SCOREBOARD MATCH: rresp passthrough beat=0 expected = 0, actual =0
[85000] SCOREBOARD MATCH: rresp passthrough beat=1 expected = 0, actual =0
[85000] SCOREBOARD MATCH: response routed to correct master (read beat 0) expected = 0, actual =0
[85000] SCOREBOARD MATCH: response routed to correct master (read beat 1) expected = 0, actual =0
[85000] [SCOREBOARD-M] READ mst_id=0 s_id=1 araddr=1e3e2990 arid=0 arlen=1 arsize=3 arburst=1 rid=[00] rresp=[00] rdata=[baadf00d12345678baadf00d12345678]
[85000] [SCOREBOARD-S] READ mst_id=0 s_id=1 araddr=1e3e2990 arid=0 arlen=1 arsize=3 arburst=1 rid=[00] rresp=[00] rdata=[baadf00d12345678baadf00d12345678]
[85000] SCOREBOARD: Transaction 1 received. pass=16 fail=0
[85000] ALL PASS. Total transactions: 1
[95000] S1 MEMORY WRITE beat=1 addr=1795e360 data=19aae68ef55bc2d6 id=1c
[95000] SLAVE 1 R_VALID_RDY Handshake beat=1 rlast=1
[95000] [SLAVE MONITOR] READ mst_id=1 s_id=1 araddr=11926b08 arid=0 arlen=1 arsize=3 arburst=1 rid=[1010] rresp=[00] rdata=[baadf00d12345678baadf00d12345678]
[95000] MASTER 1 W_VALID_RDY Handshake beat=2 wlast=0
[105000] MASTER 1 W_VALID_RDY Handshake beat=3 wlast=0
[105000] MASTER 1 R_VALID_RDY Handshake beat=0 rlast=0
[105000] ARB MONITOR: slave=1 m0_req=1 m1_req=0 winner=0
[105000] AXI S0_ARVALID_RDY HANDSHAKE
[105000] MEMORY READ MISS beat=0 addr=1afd3b00 -> default data id=1
[105000] S1 MEMORY WRITE beat=2 addr=1795e3a0 data=3c295e77fe50015a id=1c
[115000] S1 MEMORY WRITE beat=3 addr=1795e3e0 data=0cc405a5cb9fcd25 id=1c
[115000] MEMORY READ MISS beat=1 addr=1afd3b08 -> default data id=1
[115000] SLAVE 1 R_VALID_RDY Handshake beat=0 rlast=0
[115000] MASTER 1 R_VALID_RDY Handshake beat=1 rlast=1
[115000] [MASTER MONITOR] READ mst_id=1 s_id=1 araddr=11926b08 arid=0 arlen=1 arsize=3 arburst=1 rid=[00] rresp=[00] rdata=[baadf00d12345678baadf00d12345678]
[115000] MASTER 1 W_VALID_RDY Handshake beat=4 wlast=0
[115000] [MASTER DRIVER] READ mst_id=1 s_id=0 araddr=11926b08 arid=0 arlen=1 arsize=3 arburst=1 rid=[00] rresp=[00] rdata=[baadf00d12345678baadf00d12345678]
[115000] SCOREBOARD MATCH: decode_err expected = 0, actual =0
[115000] SCOREBOARD MATCH: slave_id expected = 1, actual =1
[115000] SCOREBOARD MATCH: araddr passthrough expected = 11926b08, actual =11926b08
[115000] SCOREBOARD MATCH: arlen passthrough expected = 1, actual =1
[115000] SCOREBOARD MATCH: arsize passthrough expected = 3, actual =3
[115000] SCOREBOARD MATCH: arburst passthrough expected = 1, actual =1
[115000] SCOREBOARD MATCH: rdata size check expected = 2, actual =2
[115000] SCOREBOARD MATCH: rdata passthrough beat=0 expected = baadf00d12345678, actual =baadf00d12345678
[115000] SCOREBOARD MATCH: rdata passthrough beat=1 expected = baadf00d12345678, actual =baadf00d12345678
[115000] SCOREBOARD MATCH: rresp size check expected = 2, actual =2
[115000] SCOREBOARD MATCH: rresp passthrough beat=0 expected = 0, actual =0
[115000] SCOREBOARD MATCH: rresp passthrough beat=1 expected = 0, actual =0
[115000] SCOREBOARD MATCH: response routed to correct master (read beat 0) expected = 1, actual =1
[115000] SCOREBOARD MATCH: response routed to correct master (read beat 1) expected = 1, actual =1
[115000] [SCOREBOARD-M] READ mst_id=1 s_id=1 araddr=11926b08 arid=0 arlen=1 arsize=3 arburst=1 rid=[00] rresp=[00] rdata=[baadf00d12345678baadf00d12345678]
[115000] [SCOREBOARD-S] READ mst_id=1 s_id=1 araddr=11926b08 arid=0 arlen=1 arsize=3 arburst=1 rid=[1010] rresp=[00] rdata=[baadf00d12345678baadf00d12345678]
[115000] SCOREBOARD: Transaction 2 received. pass=30 fail=0
[115000] ALL PASS. Total transactions: 2
[125000] MASTER 1 W_VALID_RDY Handshake beat=5 wlast=0
[125000] SLAVE 1 R_VALID_RDY Handshake beat=1 rlast=1
[125000] [SLAVE MONITOR] READ mst_id=0 s_id=1 araddr=1afd3b00 arid=1 arlen=1 arsize=3 arburst=1 rid=[11] rresp=[00] rdata=[baadf00d12345678baadf00d12345678]
[125000] S1 MEMORY WRITE beat=4 addr=1795e420 data=c0fb8ffbcde9b67c id=1c
[135000] S1 MEMORY WRITE beat=5 addr=1795e460 data=cc39b7d7266eec33 id=1c
[135000] AXI S0_ARVALID_RDY HANDSHAKE
[135000] MEMORY READ MISS beat=0 addr=1e22db30 -> default data id=2
[135000] ARB MONITOR: slave=1 m0_req=0 m1_req=0 winner=0
[135000] MASTER 1 W_VALID_RDY Handshake beat=6 wlast=0
[135000] MASTER 0 R_VALID_RDY Handshake beat=0 rlast=0
[145000] [MASTER DRIVER] READ mst_id=0 s_id=0 araddr=1afd3b00 arid=1 arlen=1 arsize=3 arburst=1 rid=[11] rresp=[00] rdata=[baadf00d12345678baadf00d12345678]
[145000] MASTER 0 R_VALID_RDY Handshake beat=1 rlast=1
[145000] [MASTER MONITOR] READ mst_id=0 s_id=1 araddr=1afd3b00 arid=1 arlen=1 arsize=3 arburst=1 rid=[11] rresp=[00] rdata=[baadf00d12345678baadf00d12345678]
[145000] MASTER 1 W_VALID_RDY Handshake beat=7 wlast=0
[145000] SLAVE 1 R_VALID_RDY Handshake beat=0 rlast=0
[145000] MEMORY READ MISS beat=1 addr=1e22db38 -> default data id=2
[145000] S1 MEMORY WRITE beat=6 addr=1795e4a0 data=f20eb958fd24ee72 id=1c
[145000] SCOREBOARD MATCH: decode_err expected = 0, actual =0
[145000] SCOREBOARD MATCH: slave_id expected = 1, actual =1
[145000] SCOREBOARD MATCH: araddr passthrough expected = 1afd3b00, actual =1afd3b00
[145000] SCOREBOARD MATCH: arlen passthrough expected = 1, actual =1
[145000] SCOREBOARD MATCH: arsize passthrough expected = 3, actual =3
[145000] SCOREBOARD MATCH: arburst passthrough expected = 1, actual =1
[145000] SCOREBOARD MATCH: rdata size check expected = 2, actual =2
[145000] SCOREBOARD MATCH: rdata passthrough beat=0 expected = baadf00d12345678, actual =baadf00d12345678
[145000] SCOREBOARD MATCH: rdata passthrough beat=1 expected = baadf00d12345678, actual =baadf00d12345678
[145000] SCOREBOARD MATCH: rresp size check expected = 2, actual =2
[145000] SCOREBOARD MATCH: rresp passthrough beat=0 expected = 0, actual =0
[145000] SCOREBOARD MATCH: rresp passthrough beat=1 expected = 0, actual =0
[145000] SCOREBOARD MATCH: response routed to correct master (read beat 0) expected = 0, actual =0
[145000] SCOREBOARD MATCH: response routed to correct master (read beat 1) expected = 0, actual =0
[145000] [SCOREBOARD-M] READ mst_id=0 s_id=1 araddr=1afd3b00 arid=1 arlen=1 arsize=3 arburst=1 rid=[11] rresp=[00] rdata=[baadf00d12345678baadf00d12345678]
[145000] [SCOREBOARD-S] READ mst_id=0 s_id=1 araddr=1afd3b00 arid=1 arlen=1 arsize=3 arburst=1 rid=[11] rresp=[00] rdata=[baadf00d12345678baadf00d12345678]
[145000] SCOREBOARD: Transaction 3 received. pass=44 fail=0
[145000] ALL PASS. Total transactions: 3
[155000] S1 MEMORY WRITE beat=7 addr=1795e4e0 data=cb0ea4eed8fdbd7c id=1c
[155000] SLAVE 1 R_VALID_RDY Handshake beat=1 rlast=1
[155000] [SLAVE MONITOR] READ mst_id=0 s_id=1 araddr=1e22db30 arid=2 arlen=1 arsize=3 arburst=1 rid=[22] rresp=[00] rdata=[baadf00d12345678baadf00d12345678]
[155000] MASTER 1 W_VALID_RDY Handshake beat=8 wlast=0
[165000] MASTER 0 R_VALID_RDY Handshake beat=0 rlast=0
[165000] MASTER 1 W_VALID_RDY Handshake beat=9 wlast=0
[165000] S1 MEMORY WRITE beat=8 addr=1795e520 data=ff6ca9af330a4953 id=1c
[175000] S1 MEMORY WRITE beat=9 addr=1795e560 data=302f37c597485cc5 id=1c
[175000] MASTER 1 W_VALID_RDY Handshake beat=10 wlast=0
[175000] MASTER 0 R_VALID_RDY Handshake beat=1 rlast=1
[175000] [MASTER MONITOR] READ mst_id=0 s_id=1 araddr=1e22db30 arid=2 arlen=1 arsize=3 arburst=1 rid=[22] rresp=[00] rdata=[baadf00d12345678baadf00d12345678]
[175000] [MASTER DRIVER] READ mst_id=0 s_id=0 araddr=1e22db30 arid=2 arlen=1 arsize=3 arburst=1 rid=[22] rresp=[00] rdata=[baadf00d12345678baadf00d12345678]
[175000] SCOREBOARD MATCH: decode_err expected = 0, actual =0
[175000] SCOREBOARD MATCH: slave_id expected = 1, actual =1
[175000] SCOREBOARD MATCH: araddr passthrough expected = 1e22db30, actual =1e22db30
[175000] SCOREBOARD MATCH: arlen passthrough expected = 1, actual =1
[175000] SCOREBOARD MATCH: arsize passthrough expected = 3, actual =3
[175000] SCOREBOARD MATCH: arburst passthrough expected = 1, actual =1
[175000] SCOREBOARD MATCH: rdata size check expected = 2, actual =2
[175000] SCOREBOARD MATCH: rdata passthrough beat=0 expected = baadf00d12345678, actual =baadf00d12345678
[175000] SCOREBOARD MATCH: rdata passthrough beat=1 expected = baadf00d12345678, actual =baadf00d12345678
[175000] SCOREBOARD MATCH: rresp size check expected = 2, actual =2
[175000] SCOREBOARD MATCH: rresp passthrough beat=0 expected = 0, actual =0
[175000] SCOREBOARD MATCH: rresp passthrough beat=1 expected = 0, actual =0
[175000] SCOREBOARD MATCH: response routed to correct master (read beat 0) expected = 0, actual =0
[175000] SCOREBOARD MATCH: response routed to correct master (read beat 1) expected = 0, actual =0
[175000] [SCOREBOARD-M] READ mst_id=0 s_id=1 araddr=1e22db30 arid=2 arlen=1 arsize=3 arburst=1 rid=[22] rresp=[00] rdata=[baadf00d12345678baadf00d12345678]
[175000] [SCOREBOARD-S] READ mst_id=0 s_id=1 araddr=1e22db30 arid=2 arlen=1 arsize=3 arburst=1 rid=[22] rresp=[00] rdata=[baadf00d12345678baadf00d12345678]
[175000] SCOREBOARD: Transaction 4 received. pass=58 fail=0
[175000] ALL PASS. Total transactions: 4
[185000] MASTER 1 W_VALID_RDY Handshake beat=11 wlast=0
[185000] S1 MEMORY WRITE beat=10 addr=1795e5a0 data=f0461a41f17b6307 id=1c
[195000] S1 MEMORY WRITE beat=11 addr=1795e5e0 data=2485ac5afb3ddcb3 id=1c
[195000] MASTER 1 W_VALID_RDY Handshake beat=12 wlast=0
[205000] MASTER 1 W_VALID_RDY Handshake beat=13 wlast=0
[205000] S1 MEMORY WRITE beat=12 addr=1795e620 data=12863979efb2c3f0 id=1c
[215000] S1 MEMORY WRITE beat=13 addr=1795e660 data=e12e26f7d4b4e41f id=1c
[215000] MASTER 1 W_VALID_RDY Handshake beat=14 wlast=0
[225000] MASTER 1 W_VALID_RDY Handshake beat=15 wlast=0
[225000] S1 MEMORY WRITE beat=14 addr=1795e6a0 data=cff2c0d282cc53ba id=1c
[235000] S1 MEMORY WRITE beat=15 addr=1795e6e0 data=f27f17ab85b3d351 id=1c
[235000] MASTER 1 W_VALID_RDY Handshake beat=16 wlast=0
[245000] MASTER 1 W_VALID_RDY Handshake beat=17 wlast=0
[245000] S1 MEMORY WRITE beat=16 addr=1795e720 data=da68b770e278fa4b id=1c
[255000] S1 MEMORY WRITE beat=17 addr=1795e760 data=e5454e06d3ad3ea2 id=1c
[255000] MASTER 1 W_VALID_RDY Handshake beat=18 wlast=0
[265000] MASTER 1 W_VALID_RDY Handshake beat=19 wlast=0
[265000] S1 MEMORY WRITE beat=18 addr=1795e7a0 data=d96111f42a5b7843 id=1c
[275000] S1 MEMORY WRITE beat=19 addr=1795e7e0 data=8cd4728ed7c465b1 id=1c
[275000] MASTER 1 W_VALID_RDY Handshake beat=20 wlast=0
[285000] MASTER 1 W_VALID_RDY Handshake beat=21 wlast=0
[285000] S1 MEMORY WRITE beat=20 addr=1795e820 data=ab71a453b3c9c964 id=1c
[295000] S1 MEMORY WRITE beat=21 addr=1795e860 data=de2541a7f219c094 id=1c
[295000] MASTER 1 W_VALID_RDY Handshake beat=22 wlast=0
[305000] MASTER 1 W_VALID_RDY Handshake beat=23 wlast=0
[305000] S1 MEMORY WRITE beat=22 addr=1795e8a0 data=c9de264584d2b647 id=1c
[315000] S1 MEMORY WRITE beat=23 addr=1795e8e0 data=389c7faceaf9b436 id=1c
[315000] MASTER 1 W_VALID_RDY Handshake beat=24 wlast=0
[325000] MASTER 1 W_VALID_RDY Handshake beat=25 wlast=0
[325000] S1 MEMORY WRITE beat=24 addr=1795e920 data=dd1374caf54fca99 id=1c
[335000] S1 MEMORY WRITE beat=25 addr=1795e960 data=fa2280e096c1c153 id=1c
[335000] MASTER 1 W_VALID_RDY Handshake beat=26 wlast=0
[345000] MASTER 1 W_VALID_RDY Handshake beat=27 wlast=0
[345000] S1 MEMORY WRITE beat=26 addr=1795e9a0 data=81bb758926f19b10 id=1c
[355000] S1 MEMORY WRITE beat=27 addr=1795e9e0 data=1c4165a9b2bf008c id=1c
[355000] MASTER 1 W_VALID_RDY Handshake beat=28 wlast=0
[365000] MASTER 1 W_VALID_RDY Handshake beat=29 wlast=0
[365000] S1 MEMORY WRITE beat=28 addr=1795ea20 data=c980c1e0deceea54 id=1c
[375000] S1 MEMORY WRITE beat=29 addr=1795ea60 data=05c085649663e689 id=1c
[375000] MASTER 1 W_VALID_RDY Handshake beat=30 wlast=0
[385000] MASTER 1 W_VALID_RDY Handshake beat=31 wlast=0
[385000] S1 MEMORY WRITE beat=30 addr=1795eaa0 data=c922e716cb3c3769 id=1c
[395000] S1 MEMORY WRITE beat=31 addr=1795eae0 data=aa0b21bd2201eb0d id=1c
[395000] MASTER 1 W_VALID_RDY Handshake beat=32 wlast=0
[405000] MASTER 1 W_VALID_RDY Handshake beat=33 wlast=0
[405000] S1 MEMORY WRITE beat=32 addr=1795eb20 data=b865d19612a3a8f6 id=1c
[415000] S1 MEMORY WRITE beat=33 addr=1795eb60 data=dddfe05fafcba721 id=1c
[415000] MASTER 1 W_VALID_RDY Handshake beat=34 wlast=0
[425000] MASTER 1 W_VALID_RDY Handshake beat=35 wlast=0
[425000] S1 MEMORY WRITE beat=34 addr=1795eba0 data=d1cd922e8188b8ac id=1c
[435000] S1 MEMORY WRITE beat=35 addr=1795ebe0 data=942c61a207eb021d id=1c
[435000] MASTER 1 W_VALID_RDY Handshake beat=36 wlast=0
[445000] MASTER 1 W_VALID_RDY Handshake beat=37 wlast=0
[445000] S1 MEMORY WRITE beat=36 addr=1795ec20 data=b7b6a93e0a3363c5 id=1c
[455000] S1 MEMORY WRITE beat=37 addr=1795ec60 data=8bbc1c71f20c4202 id=1c
[455000] MASTER 1 W_VALID_RDY Handshake beat=38 wlast=0
[465000] MASTER 1 W_VALID_RDY Handshake beat=39 wlast=0
[465000] S1 MEMORY WRITE beat=38 addr=1795eca0 data=f9f7441f09843b6d id=1c
[475000] S1 MEMORY WRITE beat=39 addr=1795ece0 data=13b79f321fe87e14 id=1c
[475000] MASTER 1 W_VALID_RDY Handshake beat=40 wlast=0
[485000] MASTER 1 W_VALID_RDY Handshake beat=41 wlast=0
[485000] S1 MEMORY WRITE beat=40 addr=1795ed20 data=11f4c016b1aded5d id=1c
[495000] S1 MEMORY WRITE beat=41 addr=1795ed60 data=bb3228ca9f73bba3 id=1c
[495000] MASTER 1 W_VALID_RDY Handshake beat=42 wlast=0
[505000] MASTER 1 W_VALID_RDY Handshake beat=43 wlast=0
[505000] S1 MEMORY WRITE beat=42 addr=1795eda0 data=bf5c39b70bec0435 id=1c
[515000] S1 MEMORY WRITE beat=43 addr=1795ede0 data=bd99f192cee9c7fc id=1c
[515000] MASTER 1 W_VALID_RDY Handshake beat=44 wlast=0
[525000] MASTER 1 W_VALID_RDY Handshake beat=45 wlast=0
[525000] S1 MEMORY WRITE beat=44 addr=1795ee20 data=ee5d83a0d150f9cd id=1c
[535000] S1 MEMORY WRITE beat=45 addr=1795ee60 data=dd3cfe02f8cc1a5d id=1c
[535000] MASTER 1 W_VALID_RDY Handshake beat=46 wlast=0
[545000] MASTER 1 W_VALID_RDY Handshake beat=47 wlast=0
[545000] S1 MEMORY WRITE beat=46 addr=1795eea0 data=c7b5e259adb9bd57 id=1c
[555000] S1 MEMORY WRITE beat=47 addr=1795eee0 data=ff0ab7251ad6ef95 id=1c
[555000] MASTER 1 W_VALID_RDY Handshake beat=48 wlast=0
[565000] MASTER 1 W_VALID_RDY Handshake beat=49 wlast=0
[565000] S1 MEMORY WRITE beat=48 addr=1795ef20 data=13a309f2b61365f9 id=1c
[575000] S1 MEMORY WRITE beat=49 addr=1795ef60 data=e3cd2351dc47b527 id=1c
[575000] MASTER 1 W_VALID_RDY Handshake beat=50 wlast=0
[585000] MASTER 1 W_VALID_RDY Handshake beat=51 wlast=0
[585000] S1 MEMORY WRITE beat=50 addr=1795efa0 data=f71ea4bcdb58ec4b id=1c
[595000] S1 MEMORY WRITE beat=51 addr=1795efe0 data=116c5245e2d7da76 id=1c
[595000] MASTER 1 W_VALID_RDY Handshake beat=52 wlast=0
[605000] MASTER 1 W_VALID_RDY Handshake beat=53 wlast=0
[605000] S1 MEMORY WRITE beat=52 addr=1795f020 data=bf1f8f9d8ac1aeae id=1c
[615000] S1 MEMORY WRITE beat=53 addr=1795f060 data=e61a9afaf5397596 id=1c
[615000] MASTER 1 W_VALID_RDY Handshake beat=54 wlast=0
[625000] MASTER 1 W_VALID_RDY Handshake beat=55 wlast=0
[625000] S1 MEMORY WRITE beat=54 addr=1795f0a0 data=d811500c363e345a id=1c
[635000] S1 MEMORY WRITE beat=55 addr=1795f0e0 data=c0ffe308f786ed3f id=1c
[635000] MASTER 1 W_VALID_RDY Handshake beat=56 wlast=0
[645000] MASTER 1 W_VALID_RDY Handshake beat=57 wlast=0
[645000] S1 MEMORY WRITE beat=56 addr=1795f120 data=ecc062d59730dfa9 id=1c
[655000] S1 MEMORY WRITE beat=57 addr=1795f160 data=cd6f1403a71a7e02 id=1c
[655000] MASTER 1 W_VALID_RDY Handshake beat=58 wlast=0
[665000] MASTER 1 W_VALID_RDY Handshake beat=59 wlast=0
[665000] S1 MEMORY WRITE beat=58 addr=1795f1a0 data=9ea16b41c4d1b2e1 id=1c
[675000] S1 MEMORY WRITE beat=59 addr=1795f1e0 data=dc02928a0e6ef70c id=1c
[675000] MASTER 1 W_VALID_RDY Handshake beat=60 wlast=0
[685000] MASTER 1 W_VALID_RDY Handshake beat=61 wlast=0
[685000] S1 MEMORY WRITE beat=60 addr=1795f220 data=b589750e8b61ce16 id=1c
[695000] S1 MEMORY WRITE beat=61 addr=1795f260 data=d03380f72971a68e id=1c
[695000] MASTER 1 W_VALID_RDY Handshake beat=62 wlast=0
[705000] MASTER 1 W_VALID_RDY Handshake beat=63 wlast=0
[705000] S1 MEMORY WRITE beat=62 addr=1795f2a0 data=37e09d9ad42ae050 id=1c
[715000] S1 MEMORY WRITE beat=63 addr=1795f2e0 data=df8cae662c361382 id=1c
[715000] MASTER 1 W_VALID_RDY Handshake beat=64 wlast=0
[725000] MASTER 1 W_VALID_RDY Handshake beat=65 wlast=0
[725000] S1 MEMORY WRITE beat=64 addr=1795f320 data=d5a7ba10ed6a12a8 id=1c
[735000] S1 MEMORY WRITE beat=65 addr=1795f360 data=c194f2f82fc02f5e id=1c
[735000] MASTER 1 W_VALID_RDY Handshake beat=66 wlast=0
[745000] MASTER 1 W_VALID_RDY Handshake beat=67 wlast=0
[745000] S1 MEMORY WRITE beat=66 addr=1795f3a0 data=dbf642e00d8857aa id=1c
[755000] S1 MEMORY WRITE beat=67 addr=1795f3e0 data=faf26a522121a15f id=1c
[755000] MASTER 1 W_VALID_RDY Handshake beat=68 wlast=0
[765000] MASTER 1 W_VALID_RDY Handshake beat=69 wlast=0
[765000] S1 MEMORY WRITE beat=68 addr=1795f420 data=d0e1d0bd319dfcf0 id=1c
[775000] S1 MEMORY WRITE beat=69 addr=1795f460 data=3f26549a3c875d4b id=1c
[775000] MASTER 1 W_VALID_RDY Handshake beat=70 wlast=0
[785000] MASTER 1 W_VALID_RDY Handshake beat=71 wlast=0
[785000] S1 MEMORY WRITE beat=70 addr=1795f4a0 data=dda8feaa2cd8139d id=1c
[795000] S1 MEMORY WRITE beat=71 addr=1795f4e0 data=de76108dba18beec id=1c
[795000] MASTER 1 W_VALID_RDY Handshake beat=72 wlast=0
[805000] MASTER 1 W_VALID_RDY Handshake beat=73 wlast=0
[805000] S1 MEMORY WRITE beat=72 addr=1795f520 data=f6a01c372e8acf67 id=1c
[815000] S1 MEMORY WRITE beat=73 addr=1795f560 data=db62e3041d9c6527 id=1c
[815000] MASTER 1 W_VALID_RDY Handshake beat=74 wlast=0
[825000] MASTER 1 W_VALID_RDY Handshake beat=75 wlast=0
[825000] S1 MEMORY WRITE beat=74 addr=1795f5a0 data=d7b52413d4491ae1 id=1c
[835000] S1 MEMORY WRITE beat=75 addr=1795f5e0 data=82d3ea4839d8f391 id=1c
[835000] MASTER 1 W_VALID_RDY Handshake beat=76 wlast=0
[845000] MASTER 1 W_VALID_RDY Handshake beat=77 wlast=0
[845000] S1 MEMORY WRITE beat=76 addr=1795f620 data=d77558b8ce55404b id=1c
[855000] S1 MEMORY WRITE beat=77 addr=1795f660 data=a29e5b2cde36cd4c id=1c
[855000] MASTER 1 W_VALID_RDY Handshake beat=78 wlast=0
[865000] MASTER 1 W_VALID_RDY Handshake beat=79 wlast=0
[865000] S1 MEMORY WRITE beat=78 addr=1795f6a0 data=980fc0ddaf2a7ccb id=1c
[875000] S1 MEMORY WRITE beat=79 addr=1795f6e0 data=fd7fbd1625724575 id=1c
[875000] MASTER 1 W_VALID_RDY Handshake beat=80 wlast=0
[885000] MASTER 1 W_VALID_RDY Handshake beat=81 wlast=0
[885000] S1 MEMORY WRITE beat=80 addr=1795f720 data=83a912c1ef851995 id=1c
[895000] S1 MEMORY WRITE beat=81 addr=1795f760 data=1eaf9661201e1843 id=1c
[895000] MASTER 1 W_VALID_RDY Handshake beat=82 wlast=0
[905000] MASTER 1 W_VALID_RDY Handshake beat=83 wlast=1
[905000] S1 MEMORY WRITE beat=82 addr=1795f7a0 data=c5905db81bb8d39f id=1c
[915000] S1 MEMORY WRITE beat=83 addr=1795f7e0 data=8b3ded349c2f5377 id=1c
[925000] SLAVE1 sent B resp, id=12
[935000] [SLAVE MONITOR] mst_id=1 s_id=1 awaddr=1795e320 awid=1100 awlen=83 awsize=6 awburst=1 wdata=[91c058058e74044a 19aae68ef55bc2d6 3c295e77fe50015a cc405a5cb9fcd25 c0fb8ffbcde9b67c cc39b7d7266eec33 f20eb958fd24ee72 cb0ea4eed8fdbd7c ff6ca9af330a4953 302f37c597485cc5 f0461a41f17b6307 2485ac5afb3ddcb3 12863979efb2c3f0 e12e26f7d4b4e41f cff2c0d282cc53ba f27f17ab85b3d351 da68b770e278fa4b e5454e06d3ad3ea2 d96111f42a5b7843 8cd4728ed7c465b1 ab71a453b3c9c964 de2541a7f219c094 c9de264584d2b647 389c7faceaf9b436 dd1374caf54fca99 fa2280e096c1c153 81bb758926f19b10 1c4165a9b2bf008c c980c1e0deceea54 5c085649663e689 c922e716cb3c3769 aa0b21bd2201eb0d b865d19612a3a8f6 dddfe05fafcba721 d1cd922e8188b8ac 942c61a207eb021d b7b6a93e0a3363c5 8bbc1c71f20c4202 f9f7441f09843b6d 13b79f321fe87e14 11f4c016b1aded5d bb3228ca9f73bba3 bf5c39b70bec0435 bd99f192cee9c7fc ee5d83a0d150f9cd dd3cfe02f8cc1a5d c7b5e259adb9bd57 ff0ab7251ad6ef95 13a309f2b61365f9 e3cd2351dc47b527 f71ea4bcdb58ec4b 116c5245e2d7da76 bf1f8f9d8ac1aeae e61a9afaf5397596 d811500c363e345a c0ffe308f786ed3f ecc062d59730dfa9 cd6f1403a71a7e02 9ea16b41c4d1b2e1 dc02928a0e6ef70c b589750e8b61ce16 d03380f72971a68e 37e09d9ad42ae050 df8cae662c361382 d5a7ba10ed6a12a8 c194f2f82fc02f5e dbf642e00d8857aa faf26a522121a15f d0e1d0bd319dfcf0 3f26549a3c875d4b dda8feaa2cd8139d de76108dba18beec f6a01c372e8acf67 db62e3041d9c6527 d7b52413d4491ae1 82d3ea4839d8f391 d77558b8ce55404b a29e5b2cde36cd4c 980fc0ddaf2a7ccb fd7fbd1625724575 83a912c1ef851995 1eaf9661201e1843 c5905db81bb8d39f 8b3ded349c2f5377 ] wstrb=[79 ba 95 18 72 d 4d ec c7 e2 4 3a ef 51 26 b7 34 2a f1 23 7c 17 da b0 41 cb d3 bd e2 ae 6d 24 79 41 e1 5c ef 4f 80 68 90 61 c4 7f b0 44 e7 40 a6 ac bf 56 f0 a7 97 96 53 56 ed 43 fd 84 da 50 da c7 94 d8 4b 6e 28 25 35 bc fd 80 2a 26 a5 5f e2 a3 df d ] bresp=0 bid=11100
[945000] MASTER 1 RECEIVED BRESP. BRESP=0
[945000] [MASTER DRIVER] mst_id=1 s_id=0 awaddr=1795e320 awid=1100 awlen=83 awsize=6 awburst=1 wdata=[91c058058e74044a 19aae68ef55bc2d6 3c295e77fe50015a cc405a5cb9fcd25 c0fb8ffbcde9b67c cc39b7d7266eec33 f20eb958fd24ee72 cb0ea4eed8fdbd7c ff6ca9af330a4953 302f37c597485cc5 f0461a41f17b6307 2485ac5afb3ddcb3 12863979efb2c3f0 e12e26f7d4b4e41f cff2c0d282cc53ba f27f17ab85b3d351 da68b770e278fa4b e5454e06d3ad3ea2 d96111f42a5b7843 8cd4728ed7c465b1 ab71a453b3c9c964 de2541a7f219c094 c9de264584d2b647 389c7faceaf9b436 dd1374caf54fca99 fa2280e096c1c153 81bb758926f19b10 1c4165a9b2bf008c c980c1e0deceea54 5c085649663e689 c922e716cb3c3769 aa0b21bd2201eb0d b865d19612a3a8f6 dddfe05fafcba721 d1cd922e8188b8ac 942c61a207eb021d b7b6a93e0a3363c5 8bbc1c71f20c4202 f9f7441f09843b6d 13b79f321fe87e14 11f4c016b1aded5d bb3228ca9f73bba3 bf5c39b70bec0435 bd99f192cee9c7fc ee5d83a0d150f9cd dd3cfe02f8cc1a5d c7b5e259adb9bd57 ff0ab7251ad6ef95 13a309f2b61365f9 e3cd2351dc47b527 f71ea4bcdb58ec4b 116c5245e2d7da76 bf1f8f9d8ac1aeae e61a9afaf5397596 d811500c363e345a c0ffe308f786ed3f ecc062d59730dfa9 cd6f1403a71a7e02 9ea16b41c4d1b2e1 dc02928a0e6ef70c b589750e8b61ce16 d03380f72971a68e 37e09d9ad42ae050 df8cae662c361382 d5a7ba10ed6a12a8 c194f2f82fc02f5e dbf642e00d8857aa faf26a522121a15f d0e1d0bd319dfcf0 3f26549a3c875d4b dda8feaa2cd8139d de76108dba18beec f6a01c372e8acf67 db62e3041d9c6527 d7b52413d4491ae1 82d3ea4839d8f391 d77558b8ce55404b a29e5b2cde36cd4c 980fc0ddaf2a7ccb fd7fbd1625724575 83a912c1ef851995 1eaf9661201e1843 c5905db81bb8d39f 8b3ded349c2f5377 ] wstrb=[79 ba 95 18 72 d 4d ec c7 e2 4 3a ef 51 26 b7 34 2a f1 23 7c 17 da b0 41 cb d3 bd e2 ae 6d 24 79 41 e1 5c ef 4f 80 68 90 61 c4 7f b0 44 e7 40 a6 ac bf 56 f0 a7 97 96 53 56 ed 43 fd 84 da 50 da c7 94 d8 4b 6e 28 25 35 bc fd 80 2a 26 a5 5f e2 a3 df d ] bresp=0 bid=1100
[945000] MASTER 1 B_VALID_RDY Handshake
[945000] [MASTER MONITOR] mst_id=1 s_id=1 awaddr=1795e320 awid=1100 awlen=83 awsize=6 awburst=1 wdata=[91c058058e74044a 19aae68ef55bc2d6 3c295e77fe50015a cc405a5cb9fcd25 c0fb8ffbcde9b67c cc39b7d7266eec33 f20eb958fd24ee72 cb0ea4eed8fdbd7c ff6ca9af330a4953 302f37c597485cc5 f0461a41f17b6307 2485ac5afb3ddcb3 12863979efb2c3f0 e12e26f7d4b4e41f cff2c0d282cc53ba f27f17ab85b3d351 da68b770e278fa4b e5454e06d3ad3ea2 d96111f42a5b7843 8cd4728ed7c465b1 ab71a453b3c9c964 de2541a7f219c094 c9de264584d2b647 389c7faceaf9b436 dd1374caf54fca99 fa2280e096c1c153 81bb758926f19b10 1c4165a9b2bf008c c980c1e0deceea54 5c085649663e689 c922e716cb3c3769 aa0b21bd2201eb0d b865d19612a3a8f6 dddfe05fafcba721 d1cd922e8188b8ac 942c61a207eb021d b7b6a93e0a3363c5 8bbc1c71f20c4202 f9f7441f09843b6d 13b79f321fe87e14 11f4c016b1aded5d bb3228ca9f73bba3 bf5c39b70bec0435 bd99f192cee9c7fc ee5d83a0d150f9cd dd3cfe02f8cc1a5d c7b5e259adb9bd57 ff0ab7251ad6ef95 13a309f2b61365f9 e3cd2351dc47b527 f71ea4bcdb58ec4b 116c5245e2d7da76 bf1f8f9d8ac1aeae e61a9afaf5397596 d811500c363e345a c0ffe308f786ed3f ecc062d59730dfa9 cd6f1403a71a7e02 9ea16b41c4d1b2e1 dc02928a0e6ef70c b589750e8b61ce16 d03380f72971a68e 37e09d9ad42ae050 df8cae662c361382 d5a7ba10ed6a12a8 c194f2f82fc02f5e dbf642e00d8857aa faf26a522121a15f d0e1d0bd319dfcf0 3f26549a3c875d4b dda8feaa2cd8139d de76108dba18beec f6a01c372e8acf67 db62e3041d9c6527 d7b52413d4491ae1 82d3ea4839d8f391 d77558b8ce55404b a29e5b2cde36cd4c 980fc0ddaf2a7ccb fd7fbd1625724575 83a912c1ef851995 1eaf9661201e1843 c5905db81bb8d39f 8b3ded349c2f5377 ] wstrb=[79 ba 95 18 72 d 4d ec c7 e2 4 3a ef 51 26 b7 34 2a f1 23 7c 17 da b0 41 cb d3 bd e2 ae 6d 24 79 41 e1 5c ef 4f 80 68 90 61 c4 7f b0 44 e7 40 a6 ac bf 56 f0 a7 97 96 53 56 ed 43 fd 84 da 50 da c7 94 d8 4b 6e 28 25 35 bc fd 80 2a 26 a5 5f e2 a3 df d ] bresp=0 bid=1100
[945000] SCOREBOARD MATCH: decode_err expected = 0, actual =0
[945000] SCOREBOARD MATCH: slave_id expected = 1, actual =1
[945000] SCOREBOARD MATCH: awaddr passthrough expected = 1795e320, actual =1795e320
[945000] SCOREBOARD MATCH: awlen passthrough expected = 83, actual =83
[945000] SCOREBOARD MATCH: awsize passthrough expected = 6, actual =6
[945000] SCOREBOARD MATCH: awburst passthrough expected = 1, actual =1
[945000] SCOREBOARD MATCH: wdata size check expected = 54, actual =54
[945000] SCOREBOARD MATCH: wdata passthrough beat=0 expected = 91c058058e74044a, actual =91c058058e74044a
[945000] SCOREBOARD MATCH: wdata passthrough beat=1 expected = 19aae68ef55bc2d6, actual =19aae68ef55bc2d6
[945000] SCOREBOARD MATCH: wdata passthrough beat=2 expected = 3c295e77fe50015a, actual =3c295e77fe50015a
[945000] SCOREBOARD MATCH: wdata passthrough beat=3 expected = cc405a5cb9fcd25, actual =cc405a5cb9fcd25
[945000] SCOREBOARD MATCH: wdata passthrough beat=4 expected = c0fb8ffbcde9b67c, actual =c0fb8ffbcde9b67c
[945000] SCOREBOARD MATCH: wdata passthrough beat=5 expected = cc39b7d7266eec33, actual =cc39b7d7266eec33
[945000] SCOREBOARD MATCH: wdata passthrough beat=6 expected = f20eb958fd24ee72, actual =f20eb958fd24ee72
[945000] SCOREBOARD MATCH: wdata passthrough beat=7 expected = cb0ea4eed8fdbd7c, actual =cb0ea4eed8fdbd7c
[945000] SCOREBOARD MATCH: wdata passthrough beat=8 expected = ff6ca9af330a4953, actual =ff6ca9af330a4953
[945000] SCOREBOARD MATCH: wdata passthrough beat=9 expected = 302f37c597485cc5, actual =302f37c597485cc5
[945000] SCOREBOARD MATCH: wdata passthrough beat=10 expected = f0461a41f17b6307, actual =f0461a41f17b6307
[945000] SCOREBOARD MATCH: wdata passthrough beat=11 expected = 2485ac5afb3ddcb3, actual =2485ac5afb3ddcb3
[945000] SCOREBOARD MATCH: wdata passthrough beat=12 expected = 12863979efb2c3f0, actual =12863979efb2c3f0
[945000] SCOREBOARD MATCH: wdata passthrough beat=13 expected = e12e26f7d4b4e41f, actual =e12e26f7d4b4e41f
[945000] SCOREBOARD MATCH: wdata passthrough beat=14 expected = cff2c0d282cc53ba, actual =cff2c0d282cc53ba
[945000] SCOREBOARD MATCH: wdata passthrough beat=15 expected = f27f17ab85b3d351, actual =f27f17ab85b3d351
[945000] SCOREBOARD MATCH: wdata passthrough beat=16 expected = da68b770e278fa4b, actual =da68b770e278fa4b
[945000] SCOREBOARD MATCH: wdata passthrough beat=17 expected = e5454e06d3ad3ea2, actual =e5454e06d3ad3ea2
[945000] SCOREBOARD MATCH: wdata passthrough beat=18 expected = d96111f42a5b7843, actual =d96111f42a5b7843
[945000] SCOREBOARD MATCH: wdata passthrough beat=19 expected = 8cd4728ed7c465b1, actual =8cd4728ed7c465b1
[945000] SCOREBOARD MATCH: wdata passthrough beat=20 expected = ab71a453b3c9c964, actual =ab71a453b3c9c964
[945000] SCOREBOARD MATCH: wdata passthrough beat=21 expected = de2541a7f219c094, actual =de2541a7f219c094
[945000] SCOREBOARD MATCH: wdata passthrough beat=22 expected = c9de264584d2b647, actual =c9de264584d2b647
[945000] SCOREBOARD MATCH: wdata passthrough beat=23 expected = 389c7faceaf9b436, actual =389c7faceaf9b436
[945000] SCOREBOARD MATCH: wdata passthrough beat=24 expected = dd1374caf54fca99, actual =dd1374caf54fca99
[945000] SCOREBOARD MATCH: wdata passthrough beat=25 expected = fa2280e096c1c153, actual =fa2280e096c1c153
[945000] SCOREBOARD MATCH: wdata passthrough beat=26 expected = 81bb758926f19b10, actual =81bb758926f19b10
[945000] SCOREBOARD MATCH: wdata passthrough beat=27 expected = 1c4165a9b2bf008c, actual =1c4165a9b2bf008c
[945000] SCOREBOARD MATCH: wdata passthrough beat=28 expected = c980c1e0deceea54, actual =c980c1e0deceea54
[945000] SCOREBOARD MATCH: wdata passthrough beat=29 expected = 5c085649663e689, actual =5c085649663e689
[945000] SCOREBOARD MATCH: wdata passthrough beat=30 expected = c922e716cb3c3769, actual =c922e716cb3c3769
[945000] SCOREBOARD MATCH: wdata passthrough beat=31 expected = aa0b21bd2201eb0d, actual =aa0b21bd2201eb0d
[945000] SCOREBOARD MATCH: wdata passthrough beat=32 expected = b865d19612a3a8f6, actual =b865d19612a3a8f6
[945000] SCOREBOARD MATCH: wdata passthrough beat=33 expected = dddfe05fafcba721, actual =dddfe05fafcba721
[945000] SCOREBOARD MATCH: wdata passthrough beat=34 expected = d1cd922e8188b8ac, actual =d1cd922e8188b8ac
[945000] SCOREBOARD MATCH: wdata passthrough beat=35 expected = 942c61a207eb021d, actual =942c61a207eb021d
[945000] SCOREBOARD MATCH: wdata passthrough beat=36 expected = b7b6a93e0a3363c5, actual =b7b6a93e0a3363c5
[945000] SCOREBOARD MATCH: wdata passthrough beat=37 expected = 8bbc1c71f20c4202, actual =8bbc1c71f20c4202
[945000] SCOREBOARD MATCH: wdata passthrough beat=38 expected = f9f7441f09843b6d, actual =f9f7441f09843b6d
[945000] SCOREBOARD MATCH: wdata passthrough beat=39 expected = 13b79f321fe87e14, actual =13b79f321fe87e14
[945000] SCOREBOARD MATCH: wdata passthrough beat=40 expected = 11f4c016b1aded5d, actual =11f4c016b1aded5d
[945000] SCOREBOARD MATCH: wdata passthrough beat=41 expected = bb3228ca9f73bba3, actual =bb3228ca9f73bba3
[945000] SCOREBOARD MATCH: wdata passthrough beat=42 expected = bf5c39b70bec0435, actual =bf5c39b70bec0435
[945000] SCOREBOARD MATCH: wdata passthrough beat=43 expected = bd99f192cee9c7fc, actual =bd99f192cee9c7fc
[945000] SCOREBOARD MATCH: wdata passthrough beat=44 expected = ee5d83a0d150f9cd, actual =ee5d83a0d150f9cd
[945000] SCOREBOARD MATCH: wdata passthrough beat=45 expected = dd3cfe02f8cc1a5d, actual =dd3cfe02f8cc1a5d
[945000] SCOREBOARD MATCH: wdata passthrough beat=46 expected = c7b5e259adb9bd57, actual =c7b5e259adb9bd57
[945000] SCOREBOARD MATCH: wdata passthrough beat=47 expected = ff0ab7251ad6ef95, actual =ff0ab7251ad6ef95
[945000] SCOREBOARD MATCH: wdata passthrough beat=48 expected = 13a309f2b61365f9, actual =13a309f2b61365f9
[945000] SCOREBOARD MATCH: wdata passthrough beat=49 expected = e3cd2351dc47b527, actual =e3cd2351dc47b527
[945000] SCOREBOARD MATCH: wdata passthrough beat=50 expected = f71ea4bcdb58ec4b, actual =f71ea4bcdb58ec4b
[945000] SCOREBOARD MATCH: wdata passthrough beat=51 expected = 116c5245e2d7da76, actual =116c5245e2d7da76
[945000] SCOREBOARD MATCH: wdata passthrough beat=52 expected = bf1f8f9d8ac1aeae, actual =bf1f8f9d8ac1aeae
[945000] SCOREBOARD MATCH: wdata passthrough beat=53 expected = e61a9afaf5397596, actual =e61a9afaf5397596
[945000] SCOREBOARD MATCH: wdata passthrough beat=54 expected = d811500c363e345a, actual =d811500c363e345a
[945000] SCOREBOARD MATCH: wdata passthrough beat=55 expected = c0ffe308f786ed3f, actual =c0ffe308f786ed3f
[945000] SCOREBOARD MATCH: wdata passthrough beat=56 expected = ecc062d59730dfa9, actual =ecc062d59730dfa9
[945000] SCOREBOARD MATCH: wdata passthrough beat=57 expected = cd6f1403a71a7e02, actual =cd6f1403a71a7e02
[945000] SCOREBOARD MATCH: wdata passthrough beat=58 expected = 9ea16b41c4d1b2e1, actual =9ea16b41c4d1b2e1
[945000] SCOREBOARD MATCH: wdata passthrough beat=59 expected = dc02928a0e6ef70c, actual =dc02928a0e6ef70c
[945000] SCOREBOARD MATCH: wdata passthrough beat=60 expected = b589750e8b61ce16, actual =b589750e8b61ce16
[945000] SCOREBOARD MATCH: wdata passthrough beat=61 expected = d03380f72971a68e, actual =d03380f72971a68e
[945000] SCOREBOARD MATCH: wdata passthrough beat=62 expected = 37e09d9ad42ae050, actual =37e09d9ad42ae050
[945000] SCOREBOARD MATCH: wdata passthrough beat=63 expected = df8cae662c361382, actual =df8cae662c361382
[945000] SCOREBOARD MATCH: wdata passthrough beat=64 expected = d5a7ba10ed6a12a8, actual =d5a7ba10ed6a12a8
[945000] SCOREBOARD MATCH: wdata passthrough beat=65 expected = c194f2f82fc02f5e, actual =c194f2f82fc02f5e
[945000] SCOREBOARD MATCH: wdata passthrough beat=66 expected = dbf642e00d8857aa, actual =dbf642e00d8857aa
[945000] SCOREBOARD MATCH: wdata passthrough beat=67 expected = faf26a522121a15f, actual =faf26a522121a15f
[945000] SCOREBOARD MATCH: wdata passthrough beat=68 expected = d0e1d0bd319dfcf0, actual =d0e1d0bd319dfcf0
[945000] SCOREBOARD MATCH: wdata passthrough beat=69 expected = 3f26549a3c875d4b, actual =3f26549a3c875d4b
[945000] SCOREBOARD MATCH: wdata passthrough beat=70 expected = dda8feaa2cd8139d, actual =dda8feaa2cd8139d
[945000] SCOREBOARD MATCH: wdata passthrough beat=71 expected = de76108dba18beec, actual =de76108dba18beec
[945000] SCOREBOARD MATCH: wdata passthrough beat=72 expected = f6a01c372e8acf67, actual =f6a01c372e8acf67
[945000] SCOREBOARD MATCH: wdata passthrough beat=73 expected = db62e3041d9c6527, actual =db62e3041d9c6527
[945000] SCOREBOARD MATCH: wdata passthrough beat=74 expected = d7b52413d4491ae1, actual =d7b52413d4491ae1
[945000] SCOREBOARD MATCH: wdata passthrough beat=75 expected = 82d3ea4839d8f391, actual =82d3ea4839d8f391
[945000] SCOREBOARD MATCH: wdata passthrough beat=76 expected = d77558b8ce55404b, actual =d77558b8ce55404b
[945000] SCOREBOARD MATCH: wdata passthrough beat=77 expected = a29e5b2cde36cd4c, actual =a29e5b2cde36cd4c
[945000] SCOREBOARD MATCH: wdata passthrough beat=78 expected = 980fc0ddaf2a7ccb, actual =980fc0ddaf2a7ccb
[945000] SCOREBOARD MATCH: wdata passthrough beat=79 expected = fd7fbd1625724575, actual =fd7fbd1625724575
[945000] SCOREBOARD MATCH: wdata passthrough beat=80 expected = 83a912c1ef851995, actual =83a912c1ef851995
[945000] SCOREBOARD MATCH: wdata passthrough beat=81 expected = 1eaf9661201e1843, actual =1eaf9661201e1843
[945000] SCOREBOARD MATCH: wdata passthrough beat=82 expected = c5905db81bb8d39f, actual =c5905db81bb8d39f
[945000] SCOREBOARD MATCH: wdata passthrough beat=83 expected = 8b3ded349c2f5377, actual =8b3ded349c2f5377
[945000] SCOREBOARD MATCH: wstrb size check expected = 54, actual =54
[945000] SCOREBOARD MATCH: wstrb passthrough beat=0 expected = 79, actual =79
[945000] SCOREBOARD MATCH: wstrb passthrough beat=1 expected = ba, actual =ba
[945000] SCOREBOARD MATCH: wstrb passthrough beat=2 expected = 95, actual =95
[945000] SCOREBOARD MATCH: wstrb passthrough beat=3 expected = 18, actual =18
[945000] SCOREBOARD MATCH: wstrb passthrough beat=4 expected = 72, actual =72
[945000] SCOREBOARD MATCH: wstrb passthrough beat=5 expected = d, actual =d
[945000] SCOREBOARD MATCH: wstrb passthrough beat=6 expected = 4d, actual =4d
[945000] SCOREBOARD MATCH: wstrb passthrough beat=7 expected = ec, actual =ec
[945000] SCOREBOARD MATCH: wstrb passthrough beat=8 expected = c7, actual =c7
[945000] SCOREBOARD MATCH: wstrb passthrough beat=9 expected = e2, actual =e2
[945000] SCOREBOARD MATCH: wstrb passthrough beat=10 expected = 4, actual =4
[945000] SCOREBOARD MATCH: wstrb passthrough beat=11 expected = 3a, actual =3a
[945000] SCOREBOARD MATCH: wstrb passthrough beat=12 expected = ef, actual =ef
[945000] SCOREBOARD MATCH: wstrb passthrough beat=13 expected = 51, actual =51
[945000] SCOREBOARD MATCH: wstrb passthrough beat=14 expected = 26, actual =26
[945000] SCOREBOARD MATCH: wstrb passthrough beat=15 expected = b7, actual =b7
[945000] SCOREBOARD MATCH: wstrb passthrough beat=16 expected = 34, actual =34
[945000] SCOREBOARD MATCH: wstrb passthrough beat=17 expected = 2a, actual =2a
[945000] SCOREBOARD MATCH: wstrb passthrough beat=18 expected = f1, actual =f1
[945000] SCOREBOARD MATCH: wstrb passthrough beat=19 expected = 23, actual =23
[945000] SCOREBOARD MATCH: wstrb passthrough beat=20 expected = 7c, actual =7c
[945000] SCOREBOARD MATCH: wstrb passthrough beat=21 expected = 17, actual =17
[945000] SCOREBOARD MATCH: wstrb passthrough beat=22 expected = da, actual =da
[945000] SCOREBOARD MATCH: wstrb passthrough beat=23 expected = b0, actual =b0
[945000] SCOREBOARD MATCH: wstrb passthrough beat=24 expected = 41, actual =41
[945000] SCOREBOARD MATCH: wstrb passthrough beat=25 expected = cb, actual =cb
[945000] SCOREBOARD MATCH: wstrb passthrough beat=26 expected = d3, actual =d3
[945000] SCOREBOARD MATCH: wstrb passthrough beat=27 expected = bd, actual =bd
[945000] SCOREBOARD MATCH: wstrb passthrough beat=28 expected = e2, actual =e2
[945000] SCOREBOARD MATCH: wstrb passthrough beat=29 expected = ae, actual =ae
[945000] SCOREBOARD MATCH: wstrb passthrough beat=30 expected = 6d, actual =6d
[945000] SCOREBOARD MATCH: wstrb passthrough beat=31 expected = 24, actual =24
[945000] SCOREBOARD MATCH: wstrb passthrough beat=32 expected = 79, actual =79
[945000] SCOREBOARD MATCH: wstrb passthrough beat=33 expected = 41, actual =41
[945000] SCOREBOARD MATCH: wstrb passthrough beat=34 expected = e1, actual =e1
[945000] SCOREBOARD MATCH: wstrb passthrough beat=35 expected = 5c, actual =5c
[945000] SCOREBOARD MATCH: wstrb passthrough beat=36 expected = ef, actual =ef
[945000] SCOREBOARD MATCH: wstrb passthrough beat=37 expected = 4f, actual =4f
[945000] SCOREBOARD MATCH: wstrb passthrough beat=38 expected = 80, actual =80
[945000] SCOREBOARD MATCH: wstrb passthrough beat=39 expected = 68, actual =68
[945000] SCOREBOARD MATCH: wstrb passthrough beat=40 expected = 90, actual =90
[945000] SCOREBOARD MATCH: wstrb passthrough beat=41 expected = 61, actual =61
[945000] SCOREBOARD MATCH: wstrb passthrough beat=42 expected = c4, actual =c4
[945000] SCOREBOARD MATCH: wstrb passthrough beat=43 expected = 7f, actual =7f
[945000] SCOREBOARD MATCH: wstrb passthrough beat=44 expected = b0, actual =b0
[945000] SCOREBOARD MATCH: wstrb passthrough beat=45 expected = 44, actual =44
[945000] SCOREBOARD MATCH: wstrb passthrough beat=46 expected = e7, actual =e7
[945000] SCOREBOARD MATCH: wstrb passthrough beat=47 expected = 40, actual =40
[945000] SCOREBOARD MATCH: wstrb passthrough beat=48 expected = a6, actual =a6
[945000] SCOREBOARD MATCH: wstrb passthrough beat=49 expected = ac, actual =ac
[945000] SCOREBOARD MATCH: wstrb passthrough beat=50 expected = bf, actual =bf
[945000] SCOREBOARD MATCH: wstrb passthrough beat=51 expected = 56, actual =56
[945000] SCOREBOARD MATCH: wstrb passthrough beat=52 expected = f0, actual =f0
[945000] SCOREBOARD MATCH: wstrb passthrough beat=53 expected = a7, actual =a7
[945000] SCOREBOARD MATCH: wstrb passthrough beat=54 expected = 97, actual =97
[945000] SCOREBOARD MATCH: wstrb passthrough beat=55 expected = 96, actual =96
[945000] SCOREBOARD MATCH: wstrb passthrough beat=56 expected = 53, actual =53
[945000] SCOREBOARD MATCH: wstrb passthrough beat=57 expected = 56, actual =56
[945000] SCOREBOARD MATCH: wstrb passthrough beat=58 expected = ed, actual =ed
[945000] SCOREBOARD MATCH: wstrb passthrough beat=59 expected = 43, actual =43
[945000] SCOREBOARD MATCH: wstrb passthrough beat=60 expected = fd, actual =fd
[945000] SCOREBOARD MATCH: wstrb passthrough beat=61 expected = 84, actual =84
[945000] SCOREBOARD MATCH: wstrb passthrough beat=62 expected = da, actual =da
[945000] SCOREBOARD MATCH: wstrb passthrough beat=63 expected = 50, actual =50
[945000] SCOREBOARD MATCH: wstrb passthrough beat=64 expected = da, actual =da
[945000] SCOREBOARD MATCH: wstrb passthrough beat=65 expected = c7, actual =c7
[945000] SCOREBOARD MATCH: wstrb passthrough beat=66 expected = 94, actual =94
[945000] SCOREBOARD MATCH: wstrb passthrough beat=67 expected = d8, actual =d8
[945000] SCOREBOARD MATCH: wstrb passthrough beat=68 expected = 4b, actual =4b
[945000] SCOREBOARD MATCH: wstrb passthrough beat=69 expected = 6e, actual =6e
[945000] SCOREBOARD MATCH: wstrb passthrough beat=70 expected = 28, actual =28
[945000] SCOREBOARD MATCH: wstrb passthrough beat=71 expected = 25, actual =25
[945000] SCOREBOARD MATCH: wstrb passthrough beat=72 expected = 35, actual =35
[945000] SCOREBOARD MATCH: wstrb passthrough beat=73 expected = bc, actual =bc
[945000] SCOREBOARD MATCH: wstrb passthrough beat=74 expected = fd, actual =fd
[945000] SCOREBOARD MATCH: wstrb passthrough beat=75 expected = 80, actual =80
[945000] SCOREBOARD MATCH: wstrb passthrough beat=76 expected = 2a, actual =2a
[945000] SCOREBOARD MATCH: wstrb passthrough beat=77 expected = 26, actual =26
[945000] SCOREBOARD MATCH: wstrb passthrough beat=78 expected = a5, actual =a5
[945000] SCOREBOARD MATCH: wstrb passthrough beat=79 expected = 5f, actual =5f
[945000] SCOREBOARD MATCH: wstrb passthrough beat=80 expected = e2, actual =e2
[945000] SCOREBOARD MATCH: wstrb passthrough beat=81 expected = a3, actual =a3
[945000] SCOREBOARD MATCH: wstrb passthrough beat=82 expected = df, actual =df
[945000] SCOREBOARD MATCH: wstrb passthrough beat=83 expected = d, actual =d
[945000] SCOREBOARD MATCH: bresp passthrough expected = 0, actual =0
[945000] SCOREBOARD MATCH: response routed to correct master (write) expected = 1, actual =1
[945000] [SCOREBOARD-M] mst_id=1 s_id=1 awaddr=1795e320 awid=1100 awlen=83 awsize=6 awburst=1 wdata=[91c058058e74044a 19aae68ef55bc2d6 3c295e77fe50015a cc405a5cb9fcd25 c0fb8ffbcde9b67c cc39b7d7266eec33 f20eb958fd24ee72 cb0ea4eed8fdbd7c ff6ca9af330a4953 302f37c597485cc5 f0461a41f17b6307 2485ac5afb3ddcb3 12863979efb2c3f0 e12e26f7d4b4e41f cff2c0d282cc53ba f27f17ab85b3d351 da68b770e278fa4b e5454e06d3ad3ea2 d96111f42a5b7843 8cd4728ed7c465b1 ab71a453b3c9c964 de2541a7f219c094 c9de264584d2b647 389c7faceaf9b436 dd1374caf54fca99 fa2280e096c1c153 81bb758926f19b10 1c4165a9b2bf008c c980c1e0deceea54 5c085649663e689 c922e716cb3c3769 aa0b21bd2201eb0d b865d19612a3a8f6 dddfe05fafcba721 d1cd922e8188b8ac 942c61a207eb021d b7b6a93e0a3363c5 8bbc1c71f20c4202 f9f7441f09843b6d 13b79f321fe87e14 11f4c016b1aded5d bb3228ca9f73bba3 bf5c39b70bec0435 bd99f192cee9c7fc ee5d83a0d150f9cd dd3cfe02f8cc1a5d c7b5e259adb9bd57 ff0ab7251ad6ef95 13a309f2b61365f9 e3cd2351dc47b527 f71ea4bcdb58ec4b 116c5245e2d7da76 bf1f8f9d8ac1aeae e61a9afaf5397596 d811500c363e345a c0ffe308f786ed3f ecc062d59730dfa9 cd6f1403a71a7e02 9ea16b41c4d1b2e1 dc02928a0e6ef70c b589750e8b61ce16 d03380f72971a68e 37e09d9ad42ae050 df8cae662c361382 d5a7ba10ed6a12a8 c194f2f82fc02f5e dbf642e00d8857aa faf26a522121a15f d0e1d0bd319dfcf0 3f26549a3c875d4b dda8feaa2cd8139d de76108dba18beec f6a01c372e8acf67 db62e3041d9c6527 d7b52413d4491ae1 82d3ea4839d8f391 d77558b8ce55404b a29e5b2cde36cd4c 980fc0ddaf2a7ccb fd7fbd1625724575 83a912c1ef851995 1eaf9661201e1843 c5905db81bb8d39f 8b3ded349c2f5377 ] wstrb=[79 ba 95 18 72 d 4d ec c7 e2 4 3a ef 51 26 b7 34 2a f1 23 7c 17 da b0 41 cb d3 bd e2 ae 6d 24 79 41 e1 5c ef 4f 80 68 90 61 c4 7f b0 44 e7 40 a6 ac bf 56 f0 a7 97 96 53 56 ed 43 fd 84 da 50 da c7 94 d8 4b 6e 28 25 35 bc fd 80 2a 26 a5 5f e2 a3 df d ] bresp=0 bid=1100
[945000] [SCOREBOARD-S] mst_id=1 s_id=1 awaddr=1795e320 awid=1100 awlen=83 awsize=6 awburst=1 wdata=[91c058058e74044a 19aae68ef55bc2d6 3c295e77fe50015a cc405a5cb9fcd25 c0fb8ffbcde9b67c cc39b7d7266eec33 f20eb958fd24ee72 cb0ea4eed8fdbd7c ff6ca9af330a4953 302f37c597485cc5 f0461a41f17b6307 2485ac5afb3ddcb3 12863979efb2c3f0 e12e26f7d4b4e41f cff2c0d282cc53ba f27f17ab85b3d351 da68b770e278fa4b e5454e06d3ad3ea2 d96111f42a5b7843 8cd4728ed7c465b1 ab71a453b3c9c964 de2541a7f219c094 c9de264584d2b647 389c7faceaf9b436 dd1374caf54fca99 fa2280e096c1c153 81bb758926f19b10 1c4165a9b2bf008c c980c1e0deceea54 5c085649663e689 c922e716cb3c3769 aa0b21bd2201eb0d b865d19612a3a8f6 dddfe05fafcba721 d1cd922e8188b8ac 942c61a207eb021d b7b6a93e0a3363c5 8bbc1c71f20c4202 f9f7441f09843b6d 13b79f321fe87e14 11f4c016b1aded5d bb3228ca9f73bba3 bf5c39b70bec0435 bd99f192cee9c7fc ee5d83a0d150f9cd dd3cfe02f8cc1a5d c7b5e259adb9bd57 ff0ab7251ad6ef95 13a309f2b61365f9 e3cd2351dc47b527 f71ea4bcdb58ec4b 116c5245e2d7da76 bf1f8f9d8ac1aeae e61a9afaf5397596 d811500c363e345a c0ffe308f786ed3f ecc062d59730dfa9 cd6f1403a71a7e02 9ea16b41c4d1b2e1 dc02928a0e6ef70c b589750e8b61ce16 d03380f72971a68e 37e09d9ad42ae050 df8cae662c361382 d5a7ba10ed6a12a8 c194f2f82fc02f5e dbf642e00d8857aa faf26a522121a15f d0e1d0bd319dfcf0 3f26549a3c875d4b dda8feaa2cd8139d de76108dba18beec f6a01c372e8acf67 db62e3041d9c6527 d7b52413d4491ae1 82d3ea4839d8f391 d77558b8ce55404b a29e5b2cde36cd4c 980fc0ddaf2a7ccb fd7fbd1625724575 83a912c1ef851995 1eaf9661201e1843 c5905db81bb8d39f 8b3ded349c2f5377 ] wstrb=[79 ba 95 18 72 d 4d ec c7 e2 4 3a ef 51 26 b7 34 2a f1 23 7c 17 da b0 41 cb d3 bd e2 ae 6d 24 79 41 e1 5c ef 4f 80 68 90 61 c4 7f b0 44 e7 40 a6 ac bf 56 f0 a7 97 96 53 56 ed 43 fd 84 da 50 da c7 94 d8 4b 6e 28 25 35 bc fd 80 2a 26 a5 5f e2 a3 df d ] bresp=0 bid=11100
[945000] SCOREBOARD: Transaction 5 received. pass=236 fail=0
[945000] SCOREBOARD: Expected 5 transactions completed, PASS=236 FAIL=0
[945000] ALL PASS. Total transactions: 5
[945000] ALL TRANSACTIONS MONITORED
$finish called at time : 965 ns : File "/home/nashita/Desktop/practice/axi_xbar/tb/top/axi_tb_top.sv" Line 220
exit
INFO: xsimkernel Simulation Memory Usage: 289464 KB (Peak: 337864 KB), Simulation CPU Usage: 1170 ms
INFO: [Common 17-206] Exiting xsim at Thu Sep 10 18:40:52 2026...
