#-----------------------------------------------------------
# xsim v2025.2 (64-bit)
# SW Build 6299465 on Fri Nov 14 12:34:56 MST 2025
# IP Build 6300035 on Fri Nov 14 10:48:45 MST 2025
# SharedData Build 6298862 on Thu Nov 13 04:50:51 MST 2025
# Start of session at: Fri Sep 11 11:25:51 2026
# Process ID         : 655746
# Current directory  : /home/nashita/Desktop/practice/axi_xbar/sim
# Command line       : xsim -log regress_results/BT_run54.log -mode tcl -source {xsim.dir/tb_top_snap/xsim_script.tcl}
# Log file           : /home/nashita/Desktop/practice/axi_xbar/sim/regress_results/BT_run54.log
# Journal file       : /home/nashita/Desktop/practice/axi_xbar/sim/xsim.jou
# Running On         : vlsi-vivado
# Platform           : Ubuntu
# Operating System   : Ubuntu 24.04.4 LTS
# Processor Detail   : Intel(R) Core(TM) i5-10400 CPU @ 2.90GHz
# CPU Frequency      : 4098.593 MHz
# CPU Physical cores : 6
# CPU Logical cores  : 12
# Host memory        : 41875 MB
# Swap memory        : 27648 MB
# Total Virtual      : 69524 MB
# Available Virtual  : 62995 MB
#-----------------------------------------------------------
source xsim.dir/tb_top_snap/xsim_script.tcl
# xsim {tb_top_snap} -testplusarg BT -autoloadwcfg -runall -sv_seed 55
Time resolution is 1 ps
run -all
[0] RUNNING BASE TEST
[0] INSIDE THE BASE TEST CONSTRUCTOR
[0] ENV: before agent
[0] SLAVE CONSTRUCTED
[0] MASTER MONITOR CONSTRUCTED
[0] MASTER MONITOR CONSTRUCTED
[0] SLAVE MONITOR CONSTRUCTED
[0] SLAVE MONITOR CONSTRUCTED
[0] ARB MONITOR CONSTRUCTED
GENERATOR CONSTRUCTED
[0] ENV: after agent
[0] ENV: before scoreboard
[0] ENV: after scoreboard
[15000] [SEQUENCER] READ mst_id=1 s_id=0 araddr=12f9ab0 arid=0 arlen=1 arsize=3 arburst=1 rid=[] rresp=[] rdata=[]
[15000] [SEQUENCER] mst_id=0 s_id=0 awaddr=5586b28 awid=1100 awlen=120 awsize=5 awburst=1 wdata=[8124c6be36a35458 d8a368d799475f41 a1c1189af7b50bb3 2e58600bd2206fcf eb67cf1022e5df59 1a9aeb0c86fbc8e2 d91c38b10d28e7ab 300ec704c8f34b17 cfef13f9c48407c2 d1acef6dcaa9b210 139cfd27290b4cab ed8f546d01bbb671 cc656881e38c1120 8c975dcb3f3c43da c0f7fa4be00265a8 c38e76c8fa26b238 b962f6120d5d62cc ed5fc874d025d494 ca4c86ccfa5af05d 87b85329b0ee3f3c 811413d003af7cdf fe0a6d3cf5181b9d 26065adacb609a9d cf10177c05c2c066 fadadc03a71a6eaa f27b0947cd1a84b8 d2dd451ea0e136dd c7fba588c18b20c3 ea5a57ccdb82122 ee9957ffba76aecf fc01cf93e182ea9a af3b0bbcb694fd87 f10bac570aa7750f ec2a5fa91dd463bc d4696143ed0d7bea f7b4f0f91b656b66 3939cf22c5750d9a b2828984e3df50a2 ff44bc088da33065 d3183e00aa377a7d e16cb20b87e8b2a c621bb90859ac784 2fd242028d5b8728 c5da12531939f990 9ed4c1143de90d22 cb44944a0bfbcde3 2535c773cea70316 8c901038911ea69d 9d1a7480c40a8887 12b18b9ed7d4a483 e8f34b20c2503bf3 65ac47b9f419bd6 f7164059060dbfa1 c85dfb94190c5019 b84debefe0098b7a e6174b1bceb8c00f e7c510282f642c49 f6db7c3ae7546af fd2e06bf2012fc18 cf772861f58502de a3fa498de4f316e7 850612ffdee4e024 d469e302a128504c 61b6734d47d3b60 b3621b84f8642c8f 198c7cdc8b217a33 df9eb59487cbfe86 302b161fa7e410 aac95e439300d118 1acccf9f19bca7f2 39648c028a6813d7 1d68e4f01afcfab5 34b9a2a7e42dea45 ee95fe1d3835b48f d332af44ee1e2ea9 d24c18ee0bfee30d c434979c07ec51eb f60a8094c0e2170b cce0fa18176746e0 1f5398cbc8569982 938b08e911591b4 a87cd894155e195f ddb4b2e1d619aaa6 e72f3c5bc7d0715f dd2e8abee6ed636f 3d070e168fac14ef d77c864f3ae33da0 a1d0a10f24364a71 b3e25f60b4ab110d ef8e4eadded7af25 830df9968b5ee5af c009f6bd115eefbd f0369ee236f058f7 c24f3ea6af98456a c0f73527f3449879 2a34f17082593563 31f17ace312dd40a 24726c83ec843016 eedd657af2e8aff5 a41683ffcea75df3 bb2b8e0920cee048 93b7903dc888f082 97304e75aa08f383 cad7d3cb37ce143d 805704bfd25bdc7f fc64d002de8f6409 165d784617875335 e9e32fb4c73ca3ce 25cc07d796b47d05 ae3bd03ae647ffb6 ad84a3843c29801d d2ddfd22981effee fe66ffa5d350ab5b 8f7a2b780119cd5d 9938cd4babeba329 ff3c4e85e258289b e371f5f8979fccf0 c38b701a8eb679fd f10ea298fcaac343 144a9034c2c7be9f d17e389cd4809890 ] wstrb=[4e d4 35 ed 8 c5 89 56 99 be 43 a1 84 cc f7 1d 8b 3a bf f 7 b6 2c 92 f1 eb a1 f8 a2 cd 8a 93 b9 2b 8b 5b f8 15 ee b1 40 79 c 38 8e fa ea ce 73 f6 6 1 f1 f0 cf 64 e7 d6 66 d8 c6 35 3c ad b a2 85 d2 d8 c2 7f e3 64 5 b5 3c c7 35 20 2b 3a d5 68 1 a 88 2c 44 5d 94 45 68 1c 72 ac 7a 6 f2 e2 23 64 8e 9d 6a 80 7f 8d e4 d 2a 4f 8e a9 dc 72 b7 7 c1 45 b0 9e ] bresp=0 bid=0
[15000] [SEQUENCER] mst_id=0 s_id=0 awaddr=5091228 awid=11 awlen=131 awsize=4 awburst=1 wdata=[fcf02b3dd827ebe6 aad4c58e85ade7f0 c4d0d372fb0c5fc0 d3344ba7c77fe955 cd2dd145c1c0feaf bccd5e6ffe091135 c588fa8a91fea4b7 d3bfa3669001aa16 e0abb4c12b6cbd0 a4b57087108d01d6 a08eabecd393b5d6 e64a81a6f87513ee 90215c4ae996738 22d1d0f0afff22e 375061ca990c1b0 d82a28e9e8779eb5 f37790e30c771be0 b607dd90da5745f8 c2cee4adf6ec96ff 8363b2df8e320679 e8894c7136467591 ad330c90396b9070 c79d96e92b58311f e19ea6b03096bf70 ea024fe03026e35b db7f147a8ed1b340 bf6872b0b19fe6c9 e1c6ca243d1dbb2a cbef6e6aa96ac290 db0aa95abd45de9e fa6399c80b57e11b b4c2a3abbcd1737e fa17521dc6530833 d1aae94e8fcd4d05 cc9ec084f47aebe5 bacdf418866d8cf9 163ad9ffc6b612a1 bb30fe868c78dd66 12e66a60e2d99a83 298fad24f5fef29f 8277d0052921445f bfadee2e4c0abaa dabf9e49955e3a65 be7f7ec4358a8c06 9a4b37b0dd376e4f f295a8b4ca7a5da6 8004e9acf50ad5fa d242444931152779 fb8f851f1a50215d f5af757c4d7ecfd f5ed1476fb946ecc 15e49029e19d3ba0 a675289df17c9996 ed110862253f8780 6dcc3201c623d14 dded6aa02f5988b 2835200bad51ebbd c9b428d1faefdf0c fde577972f11e32b dc63cee8d792ff7b d282de87261a97a2 d52c7acd2617f7ba fdaaf735d068561e f682edc0b19049b5 d7a8416fd02dd5bd a0962bdbcbaf688d fd3fb243d55338a5 25810e621719199c e2c88229d4e7f3b2 aa3b2c57c6173a3d dd3053d9e008346c 34f0281fcfbc3ab9 15d374f73ff8d603 a0010a6fdf2b5476 2ee78f30f303c8d0 b2fc9ed3d4f1328e 341c8705c4bb0427 b7beccf7d2fda943 a7eedbd1e3041635 27bf1a5ceabb6bcb 3db9150edc0b62d6 bf0f790bdf7de753 ca39531ee5a7f0df c1b353b6e6ce9367 c64c7abb87f2682c ed9a590c80c2ccc1 e79160299085cdd9 187836062f4dacc2 b01079832ddddae4 be63a8bd06128f12 35603bd497a1d9ac c57fb490d6dbdec3 dcee6dd5e570b557 fd128f0403e35d4e dabf3c11924ea9a9 f7bf5f01c2924394 c675a0e237ada9e7 c9fc5390f4d1ee05 b76431992134dcf4 d8e286dbc1bbb291 b68da096fdd9d27c 1f0eaf70a2deda6b e49a8cfdedf1d230 ebcba4acf7f1364b 9ad010b69b282d93 8919ffc30ada541c 2cb8a67ff6a9db3 1a92cb47f4e5a46f ffbff88b9d9b9b1d 1d0638d1a3accb0a 18926f7a828b82f2 20271e1037990418 db45cf2298526805 1addeaf83d2d56e1 f4c65af9f3d83e9c c2aa6a23b050908 f8325fe9d00c2a1b c3e468b82708919a e20d9aa2ecf8bae2 bd04e4fdd00f0f5a f717a0f4da3ffa8b c738b56d80e94db5 d0f85d0fd9253b96 33653621843d9a6a 526e820c80ffe03 a1353999fa9deb8e fedb85f8d61f452f 1e2f4333d49a6fba cf385b4884026e18 da21b348bf647ccc 13feec87ce13e141 d2164f59f850f67b ] wstrb=[cf 47 a1 10 ce 1c 6a 9e 64 b ae 32 28 18 d0 8c 24 7f be 4c 97 8f d8 bb e 96 7 a5 25 df 61 33 76 68 d9 9b 48 3a cf be a2 a8 59 ea e2 28 a8 84 d0 2 6f b2 2a 17 37 fb 19 a6 ad 44 bd e4 3f d7 8a ec 1b 48 d1 5a 1f 5b 46 3a a3 17 94 c2 73 da fc 16 f2 90 d9 65 6b d5 7b 5d 66 54 c2 d1 2a 3d 2e 90 92 f0 61 bc 2d 8f 4c bf 7f ad 7b ac 3c c7 6c bb 74 e7 67 b0 af d3 6b 23 bb d3 d4 6a a6 3f 8d 61 12 61 ] bresp=0 bid=0
[15000] [SEQUENCER] READ mst_id=0 s_id=0 araddr=107bb08 arid=2 arlen=1 arsize=3 arburst=1 rid=[] rresp=[] rdata=[]
[15000] [SEQUENCER] READ mst_id=1 s_id=0 araddr=19920180 arid=1 arlen=1 arsize=3 arburst=1 rid=[] rresp=[] rdata=[]
[15000] MASTER_DRIVER1 received transaction, op=AXI_READ
[15000] MASTER_DRIVER0 received transaction, op=AXI_WRITE
[35000] MASTER 0 AW_VALID_RDY Handshake
[35000] MASTER_DRIVER1 received transaction, op=AXI_READ
[45000] ARB MONITOR: slave=0 m0_req=1 m1_req=0 winner=0
[45000] ARB MONITOR: slave=0 m0_req=0 m1_req=1 winner=1
[45000] AXI S0_ARVALID_RDY HANDSHAKE
[45000] MEMORY READ MISS beat=0 addr=12f9ab0 -> default data id=16
[45000] AXI S0_AWVALID_RDY HANDSHAKE
[55000] MEMORY READ MISS beat=1 addr=12f9ab8 -> default data id=16
[55000] SLAVE 0 R_VALID_RDY Handshake beat=0 rlast=0
[55000] MASTER 0 W_VALID_RDY Handshake beat=0 wlast=0
[65000] MASTER 0 W_VALID_RDY Handshake beat=1 wlast=0
[65000] ARB MONITOR: slave=1 m0_req=0 m1_req=1 winner=1
[65000] SLAVE 0 R_VALID_RDY Handshake beat=1 rlast=1
[65000] [SLAVE MONITOR] READ mst_id=1 s_id=0 araddr=12f9ab0 arid=0 arlen=1 arsize=3 arburst=1 rid=[1010] rresp=[00] rdata=[baadf00d12345678baadf00d12345678]
[65000] AXI S0_ARVALID_RDY HANDSHAKE
[65000] MEMORY READ MISS beat=0 addr=19920180 -> default data id=17
[65000] AXI S0_WVALID_RDY HANDSHAKE
[65000] S0 MEMORY WRITE beat=0 addr=05586b28 data=8124c6be36a35458 id=0c
[75000] AXI S0_WVALID_RDY HANDSHAKE
[75000] S0 MEMORY WRITE beat=1 addr=05586b48 data=d8a368d799475f41 id=0c
[75000] MEMORY READ MISS beat=1 addr=19920188 -> default data id=17
[75000] SLAVE 1 R_VALID_RDY Handshake beat=0 rlast=0
[75000] MASTER 1 R_VALID_RDY Handshake beat=0 rlast=0
[75000] MASTER 0 W_VALID_RDY Handshake beat=2 wlast=0
[85000] [MASTER DRIVER] READ mst_id=1 s_id=0 araddr=12f9ab0 arid=0 arlen=1 arsize=3 arburst=1 rid=[00] rresp=[00] rdata=[baadf00d12345678baadf00d12345678]
[85000] MASTER 0 W_VALID_RDY Handshake beat=3 wlast=0
[85000] MASTER 1 R_VALID_RDY Handshake beat=1 rlast=1
[85000] [MASTER MONITOR] READ mst_id=1 s_id=0 araddr=12f9ab0 arid=0 arlen=1 arsize=3 arburst=1 rid=[00] rresp=[00] rdata=[baadf00d12345678baadf00d12345678]
[85000] SLAVE 1 R_VALID_RDY Handshake beat=1 rlast=1
[85000] [SLAVE MONITOR] READ mst_id=1 s_id=1 araddr=19920180 arid=1 arlen=1 arsize=3 arburst=1 rid=[1111] rresp=[00] rdata=[baadf00d12345678baadf00d12345678]
[85000] AXI S0_WVALID_RDY HANDSHAKE
[85000] S0 MEMORY WRITE beat=2 addr=05586b68 data=a1c1189af7b50bb3 id=0c
[85000] SCOREBOARD MATCH: decode_err expected = 0, actual =0
[85000] SCOREBOARD MATCH: slave_id expected = 0, actual =0
[85000] SCOREBOARD MATCH: araddr passthrough expected = 12f9ab0, actual =12f9ab0
[85000] SCOREBOARD MATCH: arlen passthrough expected = 1, actual =1
[85000] SCOREBOARD MATCH: arsize passthrough expected = 3, actual =3
[85000] SCOREBOARD MATCH: arburst passthrough expected = 1, actual =1
[85000] SCOREBOARD MATCH: rdata size check expected = 2, actual =2
[85000] SCOREBOARD MATCH: rdata passthrough beat=0 expected = baadf00d12345678, actual =baadf00d12345678
[85000] SCOREBOARD MATCH: rdata passthrough beat=1 expected = baadf00d12345678, actual =baadf00d12345678
[85000] SCOREBOARD MATCH: rresp size check expected = 2, actual =2
[85000] SCOREBOARD MATCH: rresp passthrough beat=0 expected = 0, actual =0
[85000] SCOREBOARD MATCH: rresp passthrough beat=1 expected = 0, actual =0
[85000] SCOREBOARD MATCH: response routed to correct master (read beat 0) expected = 1, actual =1
[85000] SCOREBOARD MATCH: response routed to correct master (read beat 1) expected = 1, actual =1
[85000] [SCOREBOARD-M] READ mst_id=1 s_id=0 araddr=12f9ab0 arid=0 arlen=1 arsize=3 arburst=1 rid=[00] rresp=[00] rdata=[baadf00d12345678baadf00d12345678]
[85000] [SCOREBOARD-S] READ mst_id=1 s_id=0 araddr=12f9ab0 arid=0 arlen=1 arsize=3 arburst=1 rid=[1010] rresp=[00] rdata=[baadf00d12345678baadf00d12345678]
[85000] SCOREBOARD: Transaction 1 received. pass=14 fail=0
[85000] ALL PASS. Total transactions: 1
[95000] AXI S0_WVALID_RDY HANDSHAKE
[95000] S0 MEMORY WRITE beat=3 addr=05586b88 data=2e58600bd2206fcf id=0c
[95000] MASTER 0 W_VALID_RDY Handshake beat=4 wlast=0
[105000] MASTER 0 W_VALID_RDY Handshake beat=5 wlast=0
[105000] MASTER 1 R_VALID_RDY Handshake beat=0 rlast=0
[105000] AXI S0_WVALID_RDY HANDSHAKE
[105000] S0 MEMORY WRITE beat=4 addr=05586ba8 data=eb67cf1022e5df59 id=0c
[115000] AXI S0_WVALID_RDY HANDSHAKE
[115000] S0 MEMORY WRITE beat=5 addr=05586bc8 data=1a9aeb0c86fbc8e2 id=0c
[115000] MASTER 1 R_VALID_RDY Handshake beat=1 rlast=1
[115000] [MASTER MONITOR] READ mst_id=1 s_id=1 araddr=19920180 arid=1 arlen=1 arsize=3 arburst=1 rid=[11] rresp=[00] rdata=[baadf00d12345678baadf00d12345678]
[115000] MASTER 0 W_VALID_RDY Handshake beat=6 wlast=0
[115000] [MASTER DRIVER] READ mst_id=1 s_id=0 araddr=19920180 arid=1 arlen=1 arsize=3 arburst=1 rid=[11] rresp=[00] rdata=[baadf00d12345678baadf00d12345678]
[115000] SCOREBOARD MATCH: decode_err expected = 0, actual =0
[115000] SCOREBOARD MATCH: slave_id expected = 1, actual =1
[115000] SCOREBOARD MATCH: araddr passthrough expected = 19920180, actual =19920180
[115000] SCOREBOARD MATCH: arlen passthrough expected = 1, actual =1
[115000] SCOREBOARD MATCH: arsize passthrough expected = 3, actual =3
[115000] SCOREBOARD MATCH: arburst passthrough expected = 1, actual =1
[115000] SCOREBOARD MATCH: rdata size check expected = 2, actual =2
[115000] SCOREBOARD MATCH: rdata passthrough beat=0 expected = baadf00d12345678, actual =baadf00d12345678
[115000] SCOREBOARD MATCH: rdata passthrough beat=1 expected = baadf00d12345678, actual =baadf00d12345678
[115000] SCOREBOARD MATCH: rresp size check expected = 2, actual =2
[115000] SCOREBOARD MATCH: rresp passthrough beat=0 expected = 0, actual =0
[115000] SCOREBOARD MATCH: rresp passthrough beat=1 expected = 0, actual =0
[115000] SCOREBOARD MATCH: response routed to correct master (read beat 0) expected = 1, actual =1
[115000] SCOREBOARD MATCH: response routed to correct master (read beat 1) expected = 1, actual =1
[115000] [SCOREBOARD-M] READ mst_id=1 s_id=1 araddr=19920180 arid=1 arlen=1 arsize=3 arburst=1 rid=[11] rresp=[00] rdata=[baadf00d12345678baadf00d12345678]
[115000] [SCOREBOARD-S] READ mst_id=1 s_id=1 araddr=19920180 arid=1 arlen=1 arsize=3 arburst=1 rid=[1111] rresp=[00] rdata=[baadf00d12345678baadf00d12345678]
[115000] SCOREBOARD: Transaction 2 received. pass=28 fail=0
[115000] ALL PASS. Total transactions: 2
[125000] MASTER 0 W_VALID_RDY Handshake beat=7 wlast=0
[125000] AXI S0_WVALID_RDY HANDSHAKE
[125000] S0 MEMORY WRITE beat=6 addr=05586be8 data=d91c38b10d28e7ab id=0c
[135000] AXI S0_WVALID_RDY HANDSHAKE
[135000] S0 MEMORY WRITE beat=7 addr=05586c08 data=300ec704c8f34b17 id=0c
[135000] MASTER 0 W_VALID_RDY Handshake beat=8 wlast=0
[145000] MASTER 0 W_VALID_RDY Handshake beat=9 wlast=0
[145000] AXI S0_WVALID_RDY HANDSHAKE
[145000] S0 MEMORY WRITE beat=8 addr=05586c28 data=cfef13f9c48407c2 id=0c
[155000] AXI S0_WVALID_RDY HANDSHAKE
[155000] S0 MEMORY WRITE beat=9 addr=05586c48 data=d1acef6dcaa9b210 id=0c
[155000] MASTER 0 W_VALID_RDY Handshake beat=10 wlast=0
[165000] MASTER 0 W_VALID_RDY Handshake beat=11 wlast=0
[165000] AXI S0_WVALID_RDY HANDSHAKE
[165000] S0 MEMORY WRITE beat=10 addr=05586c68 data=139cfd27290b4cab id=0c
[175000] AXI S0_WVALID_RDY HANDSHAKE
[175000] S0 MEMORY WRITE beat=11 addr=05586c88 data=ed8f546d01bbb671 id=0c
[175000] MASTER 0 W_VALID_RDY Handshake beat=12 wlast=0
[185000] MASTER 0 W_VALID_RDY Handshake beat=13 wlast=0
[185000] AXI S0_WVALID_RDY HANDSHAKE
[185000] S0 MEMORY WRITE beat=12 addr=05586ca8 data=cc656881e38c1120 id=0c
[195000] AXI S0_WVALID_RDY HANDSHAKE
[195000] S0 MEMORY WRITE beat=13 addr=05586cc8 data=8c975dcb3f3c43da id=0c
[195000] MASTER 0 W_VALID_RDY Handshake beat=14 wlast=0
[205000] MASTER 0 W_VALID_RDY Handshake beat=15 wlast=0
[205000] AXI S0_WVALID_RDY HANDSHAKE
[205000] S0 MEMORY WRITE beat=14 addr=05586ce8 data=c0f7fa4be00265a8 id=0c
[215000] AXI S0_WVALID_RDY HANDSHAKE
[215000] S0 MEMORY WRITE beat=15 addr=05586d08 data=c38e76c8fa26b238 id=0c
[215000] MASTER 0 W_VALID_RDY Handshake beat=16 wlast=0
[225000] MASTER 0 W_VALID_RDY Handshake beat=17 wlast=0
[225000] AXI S0_WVALID_RDY HANDSHAKE
[225000] S0 MEMORY WRITE beat=16 addr=05586d28 data=b962f6120d5d62cc id=0c
[235000] AXI S0_WVALID_RDY HANDSHAKE
[235000] S0 MEMORY WRITE beat=17 addr=05586d48 data=ed5fc874d025d494 id=0c
[235000] MASTER 0 W_VALID_RDY Handshake beat=18 wlast=0
[245000] MASTER 0 W_VALID_RDY Handshake beat=19 wlast=0
[245000] AXI S0_WVALID_RDY HANDSHAKE
[245000] S0 MEMORY WRITE beat=18 addr=05586d68 data=ca4c86ccfa5af05d id=0c
[255000] AXI S0_WVALID_RDY HANDSHAKE
[255000] S0 MEMORY WRITE beat=19 addr=05586d88 data=87b85329b0ee3f3c id=0c
[255000] MASTER 0 W_VALID_RDY Handshake beat=20 wlast=0
[265000] MASTER 0 W_VALID_RDY Handshake beat=21 wlast=0
[265000] AXI S0_WVALID_RDY HANDSHAKE
[265000] S0 MEMORY WRITE beat=20 addr=05586da8 data=811413d003af7cdf id=0c
[275000] AXI S0_WVALID_RDY HANDSHAKE
[275000] S0 MEMORY WRITE beat=21 addr=05586dc8 data=fe0a6d3cf5181b9d id=0c
[275000] MASTER 0 W_VALID_RDY Handshake beat=22 wlast=0
[285000] MASTER 0 W_VALID_RDY Handshake beat=23 wlast=0
[285000] AXI S0_WVALID_RDY HANDSHAKE
[285000] S0 MEMORY WRITE beat=22 addr=05586de8 data=26065adacb609a9d id=0c
[295000] AXI S0_WVALID_RDY HANDSHAKE
[295000] S0 MEMORY WRITE beat=23 addr=05586e08 data=cf10177c05c2c066 id=0c
[295000] MASTER 0 W_VALID_RDY Handshake beat=24 wlast=0
[305000] MASTER 0 W_VALID_RDY Handshake beat=25 wlast=0
[305000] AXI S0_WVALID_RDY HANDSHAKE
[305000] S0 MEMORY WRITE beat=24 addr=05586e28 data=fadadc03a71a6eaa id=0c
[315000] AXI S0_WVALID_RDY HANDSHAKE
[315000] S0 MEMORY WRITE beat=25 addr=05586e48 data=f27b0947cd1a84b8 id=0c
[315000] MASTER 0 W_VALID_RDY Handshake beat=26 wlast=0
[325000] MASTER 0 W_VALID_RDY Handshake beat=27 wlast=0
[325000] AXI S0_WVALID_RDY HANDSHAKE
[325000] S0 MEMORY WRITE beat=26 addr=05586e68 data=d2dd451ea0e136dd id=0c
[335000] AXI S0_WVALID_RDY HANDSHAKE
[335000] S0 MEMORY WRITE beat=27 addr=05586e88 data=c7fba588c18b20c3 id=0c
[335000] MASTER 0 W_VALID_RDY Handshake beat=28 wlast=0
[345000] MASTER 0 W_VALID_RDY Handshake beat=29 wlast=0
[345000] AXI S0_WVALID_RDY HANDSHAKE
[345000] S0 MEMORY WRITE beat=28 addr=05586ea8 data=0ea5a57ccdb82122 id=0c
[355000] AXI S0_WVALID_RDY HANDSHAKE
[355000] S0 MEMORY WRITE beat=29 addr=05586ec8 data=ee9957ffba76aecf id=0c
[355000] MASTER 0 W_VALID_RDY Handshake beat=30 wlast=0
[365000] MASTER 0 W_VALID_RDY Handshake beat=31 wlast=0
[365000] AXI S0_WVALID_RDY HANDSHAKE
[365000] S0 MEMORY WRITE beat=30 addr=05586ee8 data=fc01cf93e182ea9a id=0c
[375000] AXI S0_WVALID_RDY HANDSHAKE
[375000] S0 MEMORY WRITE beat=31 addr=05586f08 data=af3b0bbcb694fd87 id=0c
[375000] MASTER 0 W_VALID_RDY Handshake beat=32 wlast=0
[385000] MASTER 0 W_VALID_RDY Handshake beat=33 wlast=0
[385000] AXI S0_WVALID_RDY HANDSHAKE
[385000] S0 MEMORY WRITE beat=32 addr=05586f28 data=f10bac570aa7750f id=0c
[395000] AXI S0_WVALID_RDY HANDSHAKE
[395000] S0 MEMORY WRITE beat=33 addr=05586f48 data=ec2a5fa91dd463bc id=0c
[395000] MASTER 0 W_VALID_RDY Handshake beat=34 wlast=0
[405000] MASTER 0 W_VALID_RDY Handshake beat=35 wlast=0
[405000] AXI S0_WVALID_RDY HANDSHAKE
[405000] S0 MEMORY WRITE beat=34 addr=05586f68 data=d4696143ed0d7bea id=0c
[415000] AXI S0_WVALID_RDY HANDSHAKE
[415000] S0 MEMORY WRITE beat=35 addr=05586f88 data=f7b4f0f91b656b66 id=0c
[415000] MASTER 0 W_VALID_RDY Handshake beat=36 wlast=0
[425000] MASTER 0 W_VALID_RDY Handshake beat=37 wlast=0
[425000] AXI S0_WVALID_RDY HANDSHAKE
[425000] S0 MEMORY WRITE beat=36 addr=05586fa8 data=3939cf22c5750d9a id=0c
[435000] AXI S0_WVALID_RDY HANDSHAKE
[435000] S0 MEMORY WRITE beat=37 addr=05586fc8 data=b2828984e3df50a2 id=0c
[435000] MASTER 0 W_VALID_RDY Handshake beat=38 wlast=0
[445000] MASTER 0 W_VALID_RDY Handshake beat=39 wlast=0
[445000] AXI S0_WVALID_RDY HANDSHAKE
[445000] S0 MEMORY WRITE beat=38 addr=05586fe8 data=ff44bc088da33065 id=0c
[455000] AXI S0_WVALID_RDY HANDSHAKE
[455000] S0 MEMORY WRITE beat=39 addr=05587008 data=d3183e00aa377a7d id=0c
[455000] MASTER 0 W_VALID_RDY Handshake beat=40 wlast=0
[465000] MASTER 0 W_VALID_RDY Handshake beat=41 wlast=0
[465000] AXI S0_WVALID_RDY HANDSHAKE
[465000] S0 MEMORY WRITE beat=40 addr=05587028 data=0e16cb20b87e8b2a id=0c
[475000] AXI S0_WVALID_RDY HANDSHAKE
[475000] S0 MEMORY WRITE beat=41 addr=05587048 data=c621bb90859ac784 id=0c
[475000] MASTER 0 W_VALID_RDY Handshake beat=42 wlast=0
[485000] MASTER 0 W_VALID_RDY Handshake beat=43 wlast=0
[485000] AXI S0_WVALID_RDY HANDSHAKE
[485000] S0 MEMORY WRITE beat=42 addr=05587068 data=2fd242028d5b8728 id=0c
[495000] AXI S0_WVALID_RDY HANDSHAKE
[495000] S0 MEMORY WRITE beat=43 addr=05587088 data=c5da12531939f990 id=0c
[495000] MASTER 0 W_VALID_RDY Handshake beat=44 wlast=0
[505000] MASTER 0 W_VALID_RDY Handshake beat=45 wlast=0
[505000] AXI S0_WVALID_RDY HANDSHAKE
[505000] S0 MEMORY WRITE beat=44 addr=055870a8 data=9ed4c1143de90d22 id=0c
[515000] AXI S0_WVALID_RDY HANDSHAKE
[515000] S0 MEMORY WRITE beat=45 addr=055870c8 data=cb44944a0bfbcde3 id=0c
[515000] MASTER 0 W_VALID_RDY Handshake beat=46 wlast=0
[525000] MASTER 0 W_VALID_RDY Handshake beat=47 wlast=0
[525000] AXI S0_WVALID_RDY HANDSHAKE
[525000] S0 MEMORY WRITE beat=46 addr=055870e8 data=2535c773cea70316 id=0c
[535000] AXI S0_WVALID_RDY HANDSHAKE
[535000] S0 MEMORY WRITE beat=47 addr=05587108 data=8c901038911ea69d id=0c
[535000] MASTER 0 W_VALID_RDY Handshake beat=48 wlast=0
[545000] MASTER 0 W_VALID_RDY Handshake beat=49 wlast=0
[545000] AXI S0_WVALID_RDY HANDSHAKE
[545000] S0 MEMORY WRITE beat=48 addr=05587128 data=9d1a7480c40a8887 id=0c
[555000] AXI S0_WVALID_RDY HANDSHAKE
[555000] S0 MEMORY WRITE beat=49 addr=05587148 data=12b18b9ed7d4a483 id=0c
[555000] MASTER 0 W_VALID_RDY Handshake beat=50 wlast=0
[565000] MASTER 0 W_VALID_RDY Handshake beat=51 wlast=0
[565000] AXI S0_WVALID_RDY HANDSHAKE
[565000] S0 MEMORY WRITE beat=50 addr=05587168 data=e8f34b20c2503bf3 id=0c
[575000] AXI S0_WVALID_RDY HANDSHAKE
[575000] S0 MEMORY WRITE beat=51 addr=05587188 data=065ac47b9f419bd6 id=0c
[575000] MASTER 0 W_VALID_RDY Handshake beat=52 wlast=0
[585000] MASTER 0 W_VALID_RDY Handshake beat=53 wlast=0
[585000] AXI S0_WVALID_RDY HANDSHAKE
[585000] S0 MEMORY WRITE beat=52 addr=055871a8 data=f7164059060dbfa1 id=0c
[595000] AXI S0_WVALID_RDY HANDSHAKE
[595000] S0 MEMORY WRITE beat=53 addr=055871c8 data=c85dfb94190c5019 id=0c
[595000] MASTER 0 W_VALID_RDY Handshake beat=54 wlast=0
[605000] MASTER 0 W_VALID_RDY Handshake beat=55 wlast=0
[605000] AXI S0_WVALID_RDY HANDSHAKE
[605000] S0 MEMORY WRITE beat=54 addr=055871e8 data=b84debefe0098b7a id=0c
[615000] AXI S0_WVALID_RDY HANDSHAKE
[615000] S0 MEMORY WRITE beat=55 addr=05587208 data=e6174b1bceb8c00f id=0c
[615000] MASTER 0 W_VALID_RDY Handshake beat=56 wlast=0
[625000] MASTER 0 W_VALID_RDY Handshake beat=57 wlast=0
[625000] AXI S0_WVALID_RDY HANDSHAKE
[625000] S0 MEMORY WRITE beat=56 addr=05587228 data=e7c510282f642c49 id=0c
[635000] AXI S0_WVALID_RDY HANDSHAKE
[635000] S0 MEMORY WRITE beat=57 addr=05587248 data=0f6db7c3ae7546af id=0c
[635000] MASTER 0 W_VALID_RDY Handshake beat=58 wlast=0
[645000] MASTER 0 W_VALID_RDY Handshake beat=59 wlast=0
[645000] AXI S0_WVALID_RDY HANDSHAKE
[645000] S0 MEMORY WRITE beat=58 addr=05587268 data=fd2e06bf2012fc18 id=0c
[655000] AXI S0_WVALID_RDY HANDSHAKE
[655000] S0 MEMORY WRITE beat=59 addr=05587288 data=cf772861f58502de id=0c
[655000] MASTER 0 W_VALID_RDY Handshake beat=60 wlast=0
[665000] MASTER 0 W_VALID_RDY Handshake beat=61 wlast=0
[665000] AXI S0_WVALID_RDY HANDSHAKE
[665000] S0 MEMORY WRITE beat=60 addr=055872a8 data=a3fa498de4f316e7 id=0c
[675000] AXI S0_WVALID_RDY HANDSHAKE
[675000] S0 MEMORY WRITE beat=61 addr=055872c8 data=850612ffdee4e024 id=0c
[675000] MASTER 0 W_VALID_RDY Handshake beat=62 wlast=0
[685000] MASTER 0 W_VALID_RDY Handshake beat=63 wlast=0
[685000] AXI S0_WVALID_RDY HANDSHAKE
[685000] S0 MEMORY WRITE beat=62 addr=055872e8 data=d469e302a128504c id=0c
[695000] AXI S0_WVALID_RDY HANDSHAKE
[695000] S0 MEMORY WRITE beat=63 addr=05587308 data=061b6734d47d3b60 id=0c
[695000] MASTER 0 W_VALID_RDY Handshake beat=64 wlast=0
[705000] MASTER 0 W_VALID_RDY Handshake beat=65 wlast=0
[705000] AXI S0_WVALID_RDY HANDSHAKE
[705000] S0 MEMORY WRITE beat=64 addr=05587328 data=b3621b84f8642c8f id=0c
[715000] AXI S0_WVALID_RDY HANDSHAKE
[715000] S0 MEMORY WRITE beat=65 addr=05587348 data=198c7cdc8b217a33 id=0c
[715000] MASTER 0 W_VALID_RDY Handshake beat=66 wlast=0
[725000] MASTER 0 W_VALID_RDY Handshake beat=67 wlast=0
[725000] AXI S0_WVALID_RDY HANDSHAKE
[725000] S0 MEMORY WRITE beat=66 addr=05587368 data=df9eb59487cbfe86 id=0c
[735000] AXI S0_WVALID_RDY HANDSHAKE
[735000] S0 MEMORY WRITE beat=67 addr=05587388 data=00302b161fa7e410 id=0c
[735000] MASTER 0 W_VALID_RDY Handshake beat=68 wlast=0
[745000] MASTER 0 W_VALID_RDY Handshake beat=69 wlast=0
[745000] AXI S0_WVALID_RDY HANDSHAKE
[745000] S0 MEMORY WRITE beat=68 addr=055873a8 data=aac95e439300d118 id=0c
[755000] AXI S0_WVALID_RDY HANDSHAKE
[755000] S0 MEMORY WRITE beat=69 addr=055873c8 data=1acccf9f19bca7f2 id=0c
[755000] MASTER 0 W_VALID_RDY Handshake beat=70 wlast=0
[765000] MASTER 0 W_VALID_RDY Handshake beat=71 wlast=0
[765000] AXI S0_WVALID_RDY HANDSHAKE
[765000] S0 MEMORY WRITE beat=70 addr=055873e8 data=39648c028a6813d7 id=0c
[775000] AXI S0_WVALID_RDY HANDSHAKE
[775000] S0 MEMORY WRITE beat=71 addr=05587408 data=1d68e4f01afcfab5 id=0c
[775000] MASTER 0 W_VALID_RDY Handshake beat=72 wlast=0
[785000] MASTER 0 W_VALID_RDY Handshake beat=73 wlast=0
[785000] AXI S0_WVALID_RDY HANDSHAKE
[785000] S0 MEMORY WRITE beat=72 addr=05587428 data=34b9a2a7e42dea45 id=0c
[795000] AXI S0_WVALID_RDY HANDSHAKE
[795000] S0 MEMORY WRITE beat=73 addr=05587448 data=ee95fe1d3835b48f id=0c
[795000] MASTER 0 W_VALID_RDY Handshake beat=74 wlast=0
[805000] MASTER 0 W_VALID_RDY Handshake beat=75 wlast=0
[805000] AXI S0_WVALID_RDY HANDSHAKE
[805000] S0 MEMORY WRITE beat=74 addr=05587468 data=d332af44ee1e2ea9 id=0c
[815000] AXI S0_WVALID_RDY HANDSHAKE
[815000] S0 MEMORY WRITE beat=75 addr=05587488 data=d24c18ee0bfee30d id=0c
[815000] MASTER 0 W_VALID_RDY Handshake beat=76 wlast=0
[825000] MASTER 0 W_VALID_RDY Handshake beat=77 wlast=0
[825000] AXI S0_WVALID_RDY HANDSHAKE
[825000] S0 MEMORY WRITE beat=76 addr=055874a8 data=c434979c07ec51eb id=0c
[835000] AXI S0_WVALID_RDY HANDSHAKE
[835000] S0 MEMORY WRITE beat=77 addr=055874c8 data=f60a8094c0e2170b id=0c
[835000] MASTER 0 W_VALID_RDY Handshake beat=78 wlast=0
[845000] MASTER 0 W_VALID_RDY Handshake beat=79 wlast=0
[845000] AXI S0_WVALID_RDY HANDSHAKE
[845000] S0 MEMORY WRITE beat=78 addr=055874e8 data=cce0fa18176746e0 id=0c
[855000] AXI S0_WVALID_RDY HANDSHAKE
[855000] S0 MEMORY WRITE beat=79 addr=05587508 data=1f5398cbc8569982 id=0c
[855000] MASTER 0 W_VALID_RDY Handshake beat=80 wlast=0
[865000] MASTER 0 W_VALID_RDY Handshake beat=81 wlast=0
[865000] AXI S0_WVALID_RDY HANDSHAKE
[865000] S0 MEMORY WRITE beat=80 addr=05587528 data=0938b08e911591b4 id=0c
[875000] AXI S0_WVALID_RDY HANDSHAKE
[875000] S0 MEMORY WRITE beat=81 addr=05587548 data=a87cd894155e195f id=0c
[875000] MASTER 0 W_VALID_RDY Handshake beat=82 wlast=0
[885000] MASTER 0 W_VALID_RDY Handshake beat=83 wlast=0
[885000] AXI S0_WVALID_RDY HANDSHAKE
[885000] S0 MEMORY WRITE beat=82 addr=05587568 data=ddb4b2e1d619aaa6 id=0c
[895000] AXI S0_WVALID_RDY HANDSHAKE
[895000] S0 MEMORY WRITE beat=83 addr=05587588 data=e72f3c5bc7d0715f id=0c
[895000] MASTER 0 W_VALID_RDY Handshake beat=84 wlast=0
[905000] MASTER 0 W_VALID_RDY Handshake beat=85 wlast=0
[905000] AXI S0_WVALID_RDY HANDSHAKE
[905000] S0 MEMORY WRITE beat=84 addr=055875a8 data=dd2e8abee6ed636f id=0c
[915000] AXI S0_WVALID_RDY HANDSHAKE
[915000] S0 MEMORY WRITE beat=85 addr=055875c8 data=3d070e168fac14ef id=0c
[915000] MASTER 0 W_VALID_RDY Handshake beat=86 wlast=0
[925000] MASTER 0 W_VALID_RDY Handshake beat=87 wlast=0
[925000] AXI S0_WVALID_RDY HANDSHAKE
[925000] S0 MEMORY WRITE beat=86 addr=055875e8 data=d77c864f3ae33da0 id=0c
[935000] AXI S0_WVALID_RDY HANDSHAKE
[935000] S0 MEMORY WRITE beat=87 addr=05587608 data=a1d0a10f24364a71 id=0c
[935000] MASTER 0 W_VALID_RDY Handshake beat=88 wlast=0
[945000] MASTER 0 W_VALID_RDY Handshake beat=89 wlast=0
[945000] AXI S0_WVALID_RDY HANDSHAKE
[945000] S0 MEMORY WRITE beat=88 addr=05587628 data=b3e25f60b4ab110d id=0c
[955000] AXI S0_WVALID_RDY HANDSHAKE
[955000] S0 MEMORY WRITE beat=89 addr=05587648 data=ef8e4eadded7af25 id=0c
[955000] MASTER 0 W_VALID_RDY Handshake beat=90 wlast=0
[965000] MASTER 0 W_VALID_RDY Handshake beat=91 wlast=0
[965000] AXI S0_WVALID_RDY HANDSHAKE
[965000] S0 MEMORY WRITE beat=90 addr=05587668 data=830df9968b5ee5af id=0c
[975000] AXI S0_WVALID_RDY HANDSHAKE
[975000] S0 MEMORY WRITE beat=91 addr=05587688 data=c009f6bd115eefbd id=0c
[975000] MASTER 0 W_VALID_RDY Handshake beat=92 wlast=0
[985000] MASTER 0 W_VALID_RDY Handshake beat=93 wlast=0
[985000] AXI S0_WVALID_RDY HANDSHAKE
[985000] S0 MEMORY WRITE beat=92 addr=055876a8 data=f0369ee236f058f7 id=0c
[995000] AXI S0_WVALID_RDY HANDSHAKE
[995000] S0 MEMORY WRITE beat=93 addr=055876c8 data=c24f3ea6af98456a id=0c
[995000] MASTER 0 W_VALID_RDY Handshake beat=94 wlast=0
[1005000] MASTER 0 W_VALID_RDY Handshake beat=95 wlast=0
[1005000] AXI S0_WVALID_RDY HANDSHAKE
[1005000] S0 MEMORY WRITE beat=94 addr=055876e8 data=c0f73527f3449879 id=0c
[1015000] AXI S0_WVALID_RDY HANDSHAKE
[1015000] S0 MEMORY WRITE beat=95 addr=05587708 data=2a34f17082593563 id=0c
[1015000] MASTER 0 W_VALID_RDY Handshake beat=96 wlast=0
[1025000] MASTER 0 W_VALID_RDY Handshake beat=97 wlast=0
[1025000] AXI S0_WVALID_RDY HANDSHAKE
[1025000] S0 MEMORY WRITE beat=96 addr=05587728 data=31f17ace312dd40a id=0c
[1035000] AXI S0_WVALID_RDY HANDSHAKE
[1035000] S0 MEMORY WRITE beat=97 addr=05587748 data=24726c83ec843016 id=0c
[1035000] MASTER 0 W_VALID_RDY Handshake beat=98 wlast=0
[1045000] MASTER 0 W_VALID_RDY Handshake beat=99 wlast=0
[1045000] AXI S0_WVALID_RDY HANDSHAKE
[1045000] S0 MEMORY WRITE beat=98 addr=05587768 data=eedd657af2e8aff5 id=0c
[1055000] AXI S0_WVALID_RDY HANDSHAKE
[1055000] S0 MEMORY WRITE beat=99 addr=05587788 data=a41683ffcea75df3 id=0c
[1055000] MASTER 0 W_VALID_RDY Handshake beat=100 wlast=0
[1065000] MASTER 0 W_VALID_RDY Handshake beat=101 wlast=0
[1065000] AXI S0_WVALID_RDY HANDSHAKE
[1065000] S0 MEMORY WRITE beat=100 addr=055877a8 data=bb2b8e0920cee048 id=0c
[1075000] AXI S0_WVALID_RDY HANDSHAKE
[1075000] S0 MEMORY WRITE beat=101 addr=055877c8 data=93b7903dc888f082 id=0c
[1075000] MASTER 0 W_VALID_RDY Handshake beat=102 wlast=0
[1085000] MASTER 0 W_VALID_RDY Handshake beat=103 wlast=0
[1085000] AXI S0_WVALID_RDY HANDSHAKE
[1085000] S0 MEMORY WRITE beat=102 addr=055877e8 data=97304e75aa08f383 id=0c
[1095000] AXI S0_WVALID_RDY HANDSHAKE
[1095000] S0 MEMORY WRITE beat=103 addr=05587808 data=cad7d3cb37ce143d id=0c
[1095000] MASTER 0 W_VALID_RDY Handshake beat=104 wlast=0
[1105000] MASTER 0 W_VALID_RDY Handshake beat=105 wlast=0
[1105000] AXI S0_WVALID_RDY HANDSHAKE
[1105000] S0 MEMORY WRITE beat=104 addr=05587828 data=805704bfd25bdc7f id=0c
[1115000] AXI S0_WVALID_RDY HANDSHAKE
[1115000] S0 MEMORY WRITE beat=105 addr=05587848 data=fc64d002de8f6409 id=0c
[1115000] MASTER 0 W_VALID_RDY Handshake beat=106 wlast=0
[1125000] MASTER 0 W_VALID_RDY Handshake beat=107 wlast=0
[1125000] AXI S0_WVALID_RDY HANDSHAKE
[1125000] S0 MEMORY WRITE beat=106 addr=05587868 data=165d784617875335 id=0c
[1135000] AXI S0_WVALID_RDY HANDSHAKE
[1135000] S0 MEMORY WRITE beat=107 addr=05587888 data=e9e32fb4c73ca3ce id=0c
[1135000] MASTER 0 W_VALID_RDY Handshake beat=108 wlast=0
[1145000] MASTER 0 W_VALID_RDY Handshake beat=109 wlast=0
[1145000] AXI S0_WVALID_RDY HANDSHAKE
[1145000] S0 MEMORY WRITE beat=108 addr=055878a8 data=25cc07d796b47d05 id=0c
[1155000] AXI S0_WVALID_RDY HANDSHAKE
[1155000] S0 MEMORY WRITE beat=109 addr=055878c8 data=ae3bd03ae647ffb6 id=0c
[1155000] MASTER 0 W_VALID_RDY Handshake beat=110 wlast=0
[1165000] MASTER 0 W_VALID_RDY Handshake beat=111 wlast=0
[1165000] AXI S0_WVALID_RDY HANDSHAKE
[1165000] S0 MEMORY WRITE beat=110 addr=055878e8 data=ad84a3843c29801d id=0c
[1175000] AXI S0_WVALID_RDY HANDSHAKE
[1175000] S0 MEMORY WRITE beat=111 addr=05587908 data=d2ddfd22981effee id=0c
[1175000] MASTER 0 W_VALID_RDY Handshake beat=112 wlast=0
[1185000] MASTER 0 W_VALID_RDY Handshake beat=113 wlast=0
[1185000] AXI S0_WVALID_RDY HANDSHAKE
[1185000] S0 MEMORY WRITE beat=112 addr=05587928 data=fe66ffa5d350ab5b id=0c
[1195000] AXI S0_WVALID_RDY HANDSHAKE
[1195000] S0 MEMORY WRITE beat=113 addr=05587948 data=8f7a2b780119cd5d id=0c
[1195000] MASTER 0 W_VALID_RDY Handshake beat=114 wlast=0
[1205000] MASTER 0 W_VALID_RDY Handshake beat=115 wlast=0
[1205000] AXI S0_WVALID_RDY HANDSHAKE
[1205000] S0 MEMORY WRITE beat=114 addr=05587968 data=9938cd4babeba329 id=0c
[1215000] AXI S0_WVALID_RDY HANDSHAKE
[1215000] S0 MEMORY WRITE beat=115 addr=05587988 data=ff3c4e85e258289b id=0c
[1215000] MASTER 0 W_VALID_RDY Handshake beat=116 wlast=0
[1225000] MASTER 0 W_VALID_RDY Handshake beat=117 wlast=0
[1225000] AXI S0_WVALID_RDY HANDSHAKE
[1225000] S0 MEMORY WRITE beat=116 addr=055879a8 data=e371f5f8979fccf0 id=0c
[1235000] AXI S0_WVALID_RDY HANDSHAKE
[1235000] S0 MEMORY WRITE beat=117 addr=055879c8 data=c38b701a8eb679fd id=0c
[1235000] MASTER 0 W_VALID_RDY Handshake beat=118 wlast=0
[1245000] MASTER 0 W_VALID_RDY Handshake beat=119 wlast=0
[1245000] AXI S0_WVALID_RDY HANDSHAKE
[1245000] S0 MEMORY WRITE beat=118 addr=055879e8 data=f10ea298fcaac343 id=0c
[1255000] AXI S0_WVALID_RDY HANDSHAKE
[1255000] S0 MEMORY WRITE beat=119 addr=05587a08 data=144a9034c2c7be9f id=0c
[1255000] MASTER 0 W_VALID_RDY Handshake beat=120 wlast=1
[1255000] MASTER_DRIVER0 received transaction, op=AXI_WRITE
[1265000] AXI S0_WVALID_RDY HANDSHAKE
[1265000] S0 MEMORY WRITE beat=120 addr=05587a28 data=d17e389cd4809890 id=0c
[1275000] SLAVE0 sent B resp, id=12
[1275000] [SLAVE MONITOR] mst_id=0 s_id=0 awaddr=5586b28 awid=1100 awlen=120 awsize=5 awburst=1 wdata=[8124c6be36a35458 d8a368d799475f41 a1c1189af7b50bb3 2e58600bd2206fcf eb67cf1022e5df59 1a9aeb0c86fbc8e2 d91c38b10d28e7ab 300ec704c8f34b17 cfef13f9c48407c2 d1acef6dcaa9b210 139cfd27290b4cab ed8f546d01bbb671 cc656881e38c1120 8c975dcb3f3c43da c0f7fa4be00265a8 c38e76c8fa26b238 b962f6120d5d62cc ed5fc874d025d494 ca4c86ccfa5af05d 87b85329b0ee3f3c 811413d003af7cdf fe0a6d3cf5181b9d 26065adacb609a9d cf10177c05c2c066 fadadc03a71a6eaa f27b0947cd1a84b8 d2dd451ea0e136dd c7fba588c18b20c3 ea5a57ccdb82122 ee9957ffba76aecf fc01cf93e182ea9a af3b0bbcb694fd87 f10bac570aa7750f ec2a5fa91dd463bc d4696143ed0d7bea f7b4f0f91b656b66 3939cf22c5750d9a b2828984e3df50a2 ff44bc088da33065 d3183e00aa377a7d e16cb20b87e8b2a c621bb90859ac784 2fd242028d5b8728 c5da12531939f990 9ed4c1143de90d22 cb44944a0bfbcde3 2535c773cea70316 8c901038911ea69d 9d1a7480c40a8887 12b18b9ed7d4a483 e8f34b20c2503bf3 65ac47b9f419bd6 f7164059060dbfa1 c85dfb94190c5019 b84debefe0098b7a e6174b1bceb8c00f e7c510282f642c49 f6db7c3ae7546af fd2e06bf2012fc18 cf772861f58502de a3fa498de4f316e7 850612ffdee4e024 d469e302a128504c 61b6734d47d3b60 b3621b84f8642c8f 198c7cdc8b217a33 df9eb59487cbfe86 302b161fa7e410 aac95e439300d118 1acccf9f19bca7f2 39648c028a6813d7 1d68e4f01afcfab5 34b9a2a7e42dea45 ee95fe1d3835b48f d332af44ee1e2ea9 d24c18ee0bfee30d c434979c07ec51eb f60a8094c0e2170b cce0fa18176746e0 1f5398cbc8569982 938b08e911591b4 a87cd894155e195f ddb4b2e1d619aaa6 e72f3c5bc7d0715f dd2e8abee6ed636f 3d070e168fac14ef d77c864f3ae33da0 a1d0a10f24364a71 b3e25f60b4ab110d ef8e4eadded7af25 830df9968b5ee5af c009f6bd115eefbd f0369ee236f058f7 c24f3ea6af98456a c0f73527f3449879 2a34f17082593563 31f17ace312dd40a 24726c83ec843016 eedd657af2e8aff5 a41683ffcea75df3 bb2b8e0920cee048 93b7903dc888f082 97304e75aa08f383 cad7d3cb37ce143d 805704bfd25bdc7f fc64d002de8f6409 165d784617875335 e9e32fb4c73ca3ce 25cc07d796b47d05 ae3bd03ae647ffb6 ad84a3843c29801d d2ddfd22981effee fe66ffa5d350ab5b 8f7a2b780119cd5d 9938cd4babeba329 ff3c4e85e258289b e371f5f8979fccf0 c38b701a8eb679fd f10ea298fcaac343 144a9034c2c7be9f d17e389cd4809890 ] wstrb=[4e d4 35 ed 8 c5 89 56 99 be 43 a1 84 cc f7 1d 8b 3a bf f 7 b6 2c 92 f1 eb a1 f8 a2 cd 8a 93 b9 2b 8b 5b f8 15 ee b1 40 79 c 38 8e fa ea ce 73 f6 6 1 f1 f0 cf 64 e7 d6 66 d8 c6 35 3c ad b a2 85 d2 d8 c2 7f e3 64 5 b5 3c c7 35 20 2b 3a d5 68 1 a 88 2c 44 5d 94 45 68 1c 72 ac 7a 6 f2 e2 23 64 8e 9d 6a 80 7f 8d e4 d 2a 4f 8e a9 dc 72 b7 7 c1 45 b0 9e ] bresp=0 bid=1100
[1275000] MASTER 0 AW_VALID_RDY Handshake
[1285000] ARB MONITOR: slave=0 m0_req=1 m1_req=0 winner=0
[1285000] AXI S0_AWVALID_RDY HANDSHAKE
[1295000] MASTER 0 W_VALID_RDY Handshake beat=0 wlast=0
[1295000] MASTER 0 B_VALID_RDY Handshake
[1295000] [MASTER MONITOR] mst_id=0 s_id=0 awaddr=5586b28 awid=1100 awlen=120 awsize=5 awburst=1 wdata=[8124c6be36a35458 d8a368d799475f41 a1c1189af7b50bb3 2e58600bd2206fcf eb67cf1022e5df59 1a9aeb0c86fbc8e2 d91c38b10d28e7ab 300ec704c8f34b17 cfef13f9c48407c2 d1acef6dcaa9b210 139cfd27290b4cab ed8f546d01bbb671 cc656881e38c1120 8c975dcb3f3c43da c0f7fa4be00265a8 c38e76c8fa26b238 b962f6120d5d62cc ed5fc874d025d494 ca4c86ccfa5af05d 87b85329b0ee3f3c 811413d003af7cdf fe0a6d3cf5181b9d 26065adacb609a9d cf10177c05c2c066 fadadc03a71a6eaa f27b0947cd1a84b8 d2dd451ea0e136dd c7fba588c18b20c3 ea5a57ccdb82122 ee9957ffba76aecf fc01cf93e182ea9a af3b0bbcb694fd87 f10bac570aa7750f ec2a5fa91dd463bc d4696143ed0d7bea f7b4f0f91b656b66 3939cf22c5750d9a b2828984e3df50a2 ff44bc088da33065 d3183e00aa377a7d e16cb20b87e8b2a c621bb90859ac784 2fd242028d5b8728 c5da12531939f990 9ed4c1143de90d22 cb44944a0bfbcde3 2535c773cea70316 8c901038911ea69d 9d1a7480c40a8887 12b18b9ed7d4a483 e8f34b20c2503bf3 65ac47b9f419bd6 f7164059060dbfa1 c85dfb94190c5019 b84debefe0098b7a e6174b1bceb8c00f e7c510282f642c49 f6db7c3ae7546af fd2e06bf2012fc18 cf772861f58502de a3fa498de4f316e7 850612ffdee4e024 d469e302a128504c 61b6734d47d3b60 b3621b84f8642c8f 198c7cdc8b217a33 df9eb59487cbfe86 302b161fa7e410 aac95e439300d118 1acccf9f19bca7f2 39648c028a6813d7 1d68e4f01afcfab5 34b9a2a7e42dea45 ee95fe1d3835b48f d332af44ee1e2ea9 d24c18ee0bfee30d c434979c07ec51eb f60a8094c0e2170b cce0fa18176746e0 1f5398cbc8569982 938b08e911591b4 a87cd894155e195f ddb4b2e1d619aaa6 e72f3c5bc7d0715f dd2e8abee6ed636f 3d070e168fac14ef d77c864f3ae33da0 a1d0a10f24364a71 b3e25f60b4ab110d ef8e4eadded7af25 830df9968b5ee5af c009f6bd115eefbd f0369ee236f058f7 c24f3ea6af98456a c0f73527f3449879 2a34f17082593563 31f17ace312dd40a 24726c83ec843016 eedd657af2e8aff5 a41683ffcea75df3 bb2b8e0920cee048 93b7903dc888f082 97304e75aa08f383 cad7d3cb37ce143d 805704bfd25bdc7f fc64d002de8f6409 165d784617875335 e9e32fb4c73ca3ce 25cc07d796b47d05 ae3bd03ae647ffb6 ad84a3843c29801d d2ddfd22981effee fe66ffa5d350ab5b 8f7a2b780119cd5d 9938cd4babeba329 ff3c4e85e258289b e371f5f8979fccf0 c38b701a8eb679fd f10ea298fcaac343 144a9034c2c7be9f d17e389cd4809890 ] wstrb=[4e d4 35 ed 8 c5 89 56 99 be 43 a1 84 cc f7 1d 8b 3a bf f 7 b6 2c 92 f1 eb a1 f8 a2 cd 8a 93 b9 2b 8b 5b f8 15 ee b1 40 79 c 38 8e fa ea ce 73 f6 6 1 f1 f0 cf 64 e7 d6 66 d8 c6 35 3c ad b a2 85 d2 d8 c2 7f e3 64 5 b5 3c c7 35 20 2b 3a d5 68 1 a 88 2c 44 5d 94 45 68 1c 72 ac 7a 6 f2 e2 23 64 8e 9d 6a 80 7f 8d e4 d 2a 4f 8e a9 dc 72 b7 7 c1 45 b0 9e ] bresp=0 bid=1100
[1295000] MASTER 0 RECEIVED BRESP. BRESP=0
[1295000] [MASTER DRIVER] mst_id=0 s_id=0 awaddr=5586b28 awid=1100 awlen=120 awsize=5 awburst=1 wdata=[8124c6be36a35458 d8a368d799475f41 a1c1189af7b50bb3 2e58600bd2206fcf eb67cf1022e5df59 1a9aeb0c86fbc8e2 d91c38b10d28e7ab 300ec704c8f34b17 cfef13f9c48407c2 d1acef6dcaa9b210 139cfd27290b4cab ed8f546d01bbb671 cc656881e38c1120 8c975dcb3f3c43da c0f7fa4be00265a8 c38e76c8fa26b238 b962f6120d5d62cc ed5fc874d025d494 ca4c86ccfa5af05d 87b85329b0ee3f3c 811413d003af7cdf fe0a6d3cf5181b9d 26065adacb609a9d cf10177c05c2c066 fadadc03a71a6eaa f27b0947cd1a84b8 d2dd451ea0e136dd c7fba588c18b20c3 ea5a57ccdb82122 ee9957ffba76aecf fc01cf93e182ea9a af3b0bbcb694fd87 f10bac570aa7750f ec2a5fa91dd463bc d4696143ed0d7bea f7b4f0f91b656b66 3939cf22c5750d9a b2828984e3df50a2 ff44bc088da33065 d3183e00aa377a7d e16cb20b87e8b2a c621bb90859ac784 2fd242028d5b8728 c5da12531939f990 9ed4c1143de90d22 cb44944a0bfbcde3 2535c773cea70316 8c901038911ea69d 9d1a7480c40a8887 12b18b9ed7d4a483 e8f34b20c2503bf3 65ac47b9f419bd6 f7164059060dbfa1 c85dfb94190c5019 b84debefe0098b7a e6174b1bceb8c00f e7c510282f642c49 f6db7c3ae7546af fd2e06bf2012fc18 cf772861f58502de a3fa498de4f316e7 850612ffdee4e024 d469e302a128504c 61b6734d47d3b60 b3621b84f8642c8f 198c7cdc8b217a33 df9eb59487cbfe86 302b161fa7e410 aac95e439300d118 1acccf9f19bca7f2 39648c028a6813d7 1d68e4f01afcfab5 34b9a2a7e42dea45 ee95fe1d3835b48f d332af44ee1e2ea9 d24c18ee0bfee30d c434979c07ec51eb f60a8094c0e2170b cce0fa18176746e0 1f5398cbc8569982 938b08e911591b4 a87cd894155e195f ddb4b2e1d619aaa6 e72f3c5bc7d0715f dd2e8abee6ed636f 3d070e168fac14ef d77c864f3ae33da0 a1d0a10f24364a71 b3e25f60b4ab110d ef8e4eadded7af25 830df9968b5ee5af c009f6bd115eefbd f0369ee236f058f7 c24f3ea6af98456a c0f73527f3449879 2a34f17082593563 31f17ace312dd40a 24726c83ec843016 eedd657af2e8aff5 a41683ffcea75df3 bb2b8e0920cee048 93b7903dc888f082 97304e75aa08f383 cad7d3cb37ce143d 805704bfd25bdc7f fc64d002de8f6409 165d784617875335 e9e32fb4c73ca3ce 25cc07d796b47d05 ae3bd03ae647ffb6 ad84a3843c29801d d2ddfd22981effee fe66ffa5d350ab5b 8f7a2b780119cd5d 9938cd4babeba329 ff3c4e85e258289b e371f5f8979fccf0 c38b701a8eb679fd f10ea298fcaac343 144a9034c2c7be9f d17e389cd4809890 ] wstrb=[4e d4 35 ed 8 c5 89 56 99 be 43 a1 84 cc f7 1d 8b 3a bf f 7 b6 2c 92 f1 eb a1 f8 a2 cd 8a 93 b9 2b 8b 5b f8 15 ee b1 40 79 c 38 8e fa ea ce 73 f6 6 1 f1 f0 cf 64 e7 d6 66 d8 c6 35 3c ad b a2 85 d2 d8 c2 7f e3 64 5 b5 3c c7 35 20 2b 3a d5 68 1 a 88 2c 44 5d 94 45 68 1c 72 ac 7a 6 f2 e2 23 64 8e 9d 6a 80 7f 8d e4 d 2a 4f 8e a9 dc 72 b7 7 c1 45 b0 9e ] bresp=0 bid=1100
[1295000] SCOREBOARD MATCH: decode_err expected = 0, actual =0
[1295000] SCOREBOARD MATCH: slave_id expected = 0, actual =0
[1295000] SCOREBOARD MATCH: awaddr passthrough expected = 5586b28, actual =5586b28
[1295000] SCOREBOARD MATCH: awlen passthrough expected = 120, actual =120
[1295000] SCOREBOARD MATCH: awsize passthrough expected = 5, actual =5
[1295000] SCOREBOARD MATCH: awburst passthrough expected = 1, actual =1
[1295000] SCOREBOARD MATCH: wdata size check expected = 79, actual =79
[1295000] SCOREBOARD MATCH: wdata passthrough beat=0 expected = 8124c6be36a35458, actual =8124c6be36a35458
[1295000] SCOREBOARD MATCH: wdata passthrough beat=1 expected = d8a368d799475f41, actual =d8a368d799475f41
[1295000] SCOREBOARD MATCH: wdata passthrough beat=2 expected = a1c1189af7b50bb3, actual =a1c1189af7b50bb3
[1295000] SCOREBOARD MATCH: wdata passthrough beat=3 expected = 2e58600bd2206fcf, actual =2e58600bd2206fcf
[1295000] SCOREBOARD MATCH: wdata passthrough beat=4 expected = eb67cf1022e5df59, actual =eb67cf1022e5df59
[1295000] SCOREBOARD MATCH: wdata passthrough beat=5 expected = 1a9aeb0c86fbc8e2, actual =1a9aeb0c86fbc8e2
[1295000] SCOREBOARD MATCH: wdata passthrough beat=6 expected = d91c38b10d28e7ab, actual =d91c38b10d28e7ab
[1295000] SCOREBOARD MATCH: wdata passthrough beat=7 expected = 300ec704c8f34b17, actual =300ec704c8f34b17
[1295000] SCOREBOARD MATCH: wdata passthrough beat=8 expected = cfef13f9c48407c2, actual =cfef13f9c48407c2
[1295000] SCOREBOARD MATCH: wdata passthrough beat=9 expected = d1acef6dcaa9b210, actual =d1acef6dcaa9b210
[1295000] SCOREBOARD MATCH: wdata passthrough beat=10 expected = 139cfd27290b4cab, actual =139cfd27290b4cab
[1295000] SCOREBOARD MATCH: wdata passthrough beat=11 expected = ed8f546d01bbb671, actual =ed8f546d01bbb671
[1295000] SCOREBOARD MATCH: wdata passthrough beat=12 expected = cc656881e38c1120, actual =cc656881e38c1120
[1295000] SCOREBOARD MATCH: wdata passthrough beat=13 expected = 8c975dcb3f3c43da, actual =8c975dcb3f3c43da
[1295000] SCOREBOARD MATCH: wdata passthrough beat=14 expected = c0f7fa4be00265a8, actual =c0f7fa4be00265a8
[1295000] SCOREBOARD MATCH: wdata passthrough beat=15 expected = c38e76c8fa26b238, actual =c38e76c8fa26b238
[1295000] SCOREBOARD MATCH: wdata passthrough beat=16 expected = b962f6120d5d62cc, actual =b962f6120d5d62cc
[1295000] SCOREBOARD MATCH: wdata passthrough beat=17 expected = ed5fc874d025d494, actual =ed5fc874d025d494
[1295000] SCOREBOARD MATCH: wdata passthrough beat=18 expected = ca4c86ccfa5af05d, actual =ca4c86ccfa5af05d
[1295000] SCOREBOARD MATCH: wdata passthrough beat=19 expected = 87b85329b0ee3f3c, actual =87b85329b0ee3f3c
[1295000] SCOREBOARD MATCH: wdata passthrough beat=20 expected = 811413d003af7cdf, actual =811413d003af7cdf
[1295000] SCOREBOARD MATCH: wdata passthrough beat=21 expected = fe0a6d3cf5181b9d, actual =fe0a6d3cf5181b9d
[1295000] SCOREBOARD MATCH: wdata passthrough beat=22 expected = 26065adacb609a9d, actual =26065adacb609a9d
[1295000] SCOREBOARD MATCH: wdata passthrough beat=23 expected = cf10177c05c2c066, actual =cf10177c05c2c066
[1295000] SCOREBOARD MATCH: wdata passthrough beat=24 expected = fadadc03a71a6eaa, actual =fadadc03a71a6eaa
[1295000] SCOREBOARD MATCH: wdata passthrough beat=25 expected = f27b0947cd1a84b8, actual =f27b0947cd1a84b8
[1295000] SCOREBOARD MATCH: wdata passthrough beat=26 expected = d2dd451ea0e136dd, actual =d2dd451ea0e136dd
[1295000] SCOREBOARD MATCH: wdata passthrough beat=27 expected = c7fba588c18b20c3, actual =c7fba588c18b20c3
[1295000] SCOREBOARD MATCH: wdata passthrough beat=28 expected = ea5a57ccdb82122, actual =ea5a57ccdb82122
[1295000] SCOREBOARD MATCH: wdata passthrough beat=29 expected = ee9957ffba76aecf, actual =ee9957ffba76aecf
[1295000] SCOREBOARD MATCH: wdata passthrough beat=30 expected = fc01cf93e182ea9a, actual =fc01cf93e182ea9a
[1295000] SCOREBOARD MATCH: wdata passthrough beat=31 expected = af3b0bbcb694fd87, actual =af3b0bbcb694fd87
[1295000] SCOREBOARD MATCH: wdata passthrough beat=32 expected = f10bac570aa7750f, actual =f10bac570aa7750f
[1295000] SCOREBOARD MATCH: wdata passthrough beat=33 expected = ec2a5fa91dd463bc, actual =ec2a5fa91dd463bc
[1295000] SCOREBOARD MATCH: wdata passthrough beat=34 expected = d4696143ed0d7bea, actual =d4696143ed0d7bea
[1295000] SCOREBOARD MATCH: wdata passthrough beat=35 expected = f7b4f0f91b656b66, actual =f7b4f0f91b656b66
[1295000] SCOREBOARD MATCH: wdata passthrough beat=36 expected = 3939cf22c5750d9a, actual =3939cf22c5750d9a
[1295000] SCOREBOARD MATCH: wdata passthrough beat=37 expected = b2828984e3df50a2, actual =b2828984e3df50a2
[1295000] SCOREBOARD MATCH: wdata passthrough beat=38 expected = ff44bc088da33065, actual =ff44bc088da33065
[1295000] SCOREBOARD MATCH: wdata passthrough beat=39 expected = d3183e00aa377a7d, actual =d3183e00aa377a7d
[1295000] SCOREBOARD MATCH: wdata passthrough beat=40 expected = e16cb20b87e8b2a, actual =e16cb20b87e8b2a
[1295000] SCOREBOARD MATCH: wdata passthrough beat=41 expected = c621bb90859ac784, actual =c621bb90859ac784
[1295000] SCOREBOARD MATCH: wdata passthrough beat=42 expected = 2fd242028d5b8728, actual =2fd242028d5b8728
[1295000] SCOREBOARD MATCH: wdata passthrough beat=43 expected = c5da12531939f990, actual =c5da12531939f990
[1295000] SCOREBOARD MATCH: wdata passthrough beat=44 expected = 9ed4c1143de90d22, actual =9ed4c1143de90d22
[1295000] SCOREBOARD MATCH: wdata passthrough beat=45 expected = cb44944a0bfbcde3, actual =cb44944a0bfbcde3
[1295000] SCOREBOARD MATCH: wdata passthrough beat=46 expected = 2535c773cea70316, actual =2535c773cea70316
[1295000] SCOREBOARD MATCH: wdata passthrough beat=47 expected = 8c901038911ea69d, actual =8c901038911ea69d
[1295000] SCOREBOARD MATCH: wdata passthrough beat=48 expected = 9d1a7480c40a8887, actual =9d1a7480c40a8887
[1295000] SCOREBOARD MATCH: wdata passthrough beat=49 expected = 12b18b9ed7d4a483, actual =12b18b9ed7d4a483
[1295000] SCOREBOARD MATCH: wdata passthrough beat=50 expected = e8f34b20c2503bf3, actual =e8f34b20c2503bf3
[1295000] SCOREBOARD MATCH: wdata passthrough beat=51 expected = 65ac47b9f419bd6, actual =65ac47b9f419bd6
[1295000] SCOREBOARD MATCH: wdata passthrough beat=52 expected = f7164059060dbfa1, actual =f7164059060dbfa1
[1295000] SCOREBOARD MATCH: wdata passthrough beat=53 expected = c85dfb94190c5019, actual =c85dfb94190c5019
[1295000] SCOREBOARD MATCH: wdata passthrough beat=54 expected = b84debefe0098b7a, actual =b84debefe0098b7a
[1295000] SCOREBOARD MATCH: wdata passthrough beat=55 expected = e6174b1bceb8c00f, actual =e6174b1bceb8c00f
[1295000] SCOREBOARD MATCH: wdata passthrough beat=56 expected = e7c510282f642c49, actual =e7c510282f642c49
[1295000] SCOREBOARD MATCH: wdata passthrough beat=57 expected = f6db7c3ae7546af, actual =f6db7c3ae7546af
[1295000] SCOREBOARD MATCH: wdata passthrough beat=58 expected = fd2e06bf2012fc18, actual =fd2e06bf2012fc18
[1295000] SCOREBOARD MATCH: wdata passthrough beat=59 expected = cf772861f58502de, actual =cf772861f58502de
[1295000] SCOREBOARD MATCH: wdata passthrough beat=60 expected = a3fa498de4f316e7, actual =a3fa498de4f316e7
[1295000] SCOREBOARD MATCH: wdata passthrough beat=61 expected = 850612ffdee4e024, actual =850612ffdee4e024
[1295000] SCOREBOARD MATCH: wdata passthrough beat=62 expected = d469e302a128504c, actual =d469e302a128504c
[1295000] SCOREBOARD MATCH: wdata passthrough beat=63 expected = 61b6734d47d3b60, actual =61b6734d47d3b60
[1295000] SCOREBOARD MATCH: wdata passthrough beat=64 expected = b3621b84f8642c8f, actual =b3621b84f8642c8f
[1295000] SCOREBOARD MATCH: wdata passthrough beat=65 expected = 198c7cdc8b217a33, actual =198c7cdc8b217a33
[1295000] SCOREBOARD MATCH: wdata passthrough beat=66 expected = df9eb59487cbfe86, actual =df9eb59487cbfe86
[1295000] SCOREBOARD MATCH: wdata passthrough beat=67 expected = 302b161fa7e410, actual =302b161fa7e410
[1295000] SCOREBOARD MATCH: wdata passthrough beat=68 expected = aac95e439300d118, actual =aac95e439300d118
[1295000] SCOREBOARD MATCH: wdata passthrough beat=69 expected = 1acccf9f19bca7f2, actual =1acccf9f19bca7f2
[1295000] SCOREBOARD MATCH: wdata passthrough beat=70 expected = 39648c028a6813d7, actual =39648c028a6813d7
[1295000] SCOREBOARD MATCH: wdata passthrough beat=71 expected = 1d68e4f01afcfab5, actual =1d68e4f01afcfab5
[1295000] SCOREBOARD MATCH: wdata passthrough beat=72 expected = 34b9a2a7e42dea45, actual =34b9a2a7e42dea45
[1295000] SCOREBOARD MATCH: wdata passthrough beat=73 expected = ee95fe1d3835b48f, actual =ee95fe1d3835b48f
[1295000] SCOREBOARD MATCH: wdata passthrough beat=74 expected = d332af44ee1e2ea9, actual =d332af44ee1e2ea9
[1295000] SCOREBOARD MATCH: wdata passthrough beat=75 expected = d24c18ee0bfee30d, actual =d24c18ee0bfee30d
[1295000] SCOREBOARD MATCH: wdata passthrough beat=76 expected = c434979c07ec51eb, actual =c434979c07ec51eb
[1295000] SCOREBOARD MATCH: wdata passthrough beat=77 expected = f60a8094c0e2170b, actual =f60a8094c0e2170b
[1295000] SCOREBOARD MATCH: wdata passthrough beat=78 expected = cce0fa18176746e0, actual =cce0fa18176746e0
[1295000] SCOREBOARD MATCH: wdata passthrough beat=79 expected = 1f5398cbc8569982, actual =1f5398cbc8569982
[1295000] SCOREBOARD MATCH: wdata passthrough beat=80 expected = 938b08e911591b4, actual =938b08e911591b4
[1295000] SCOREBOARD MATCH: wdata passthrough beat=81 expected = a87cd894155e195f, actual =a87cd894155e195f
[1295000] SCOREBOARD MATCH: wdata passthrough beat=82 expected = ddb4b2e1d619aaa6, actual =ddb4b2e1d619aaa6
[1295000] SCOREBOARD MATCH: wdata passthrough beat=83 expected = e72f3c5bc7d0715f, actual =e72f3c5bc7d0715f
[1295000] SCOREBOARD MATCH: wdata passthrough beat=84 expected = dd2e8abee6ed636f, actual =dd2e8abee6ed636f
[1295000] SCOREBOARD MATCH: wdata passthrough beat=85 expected = 3d070e168fac14ef, actual =3d070e168fac14ef
[1295000] SCOREBOARD MATCH: wdata passthrough beat=86 expected = d77c864f3ae33da0, actual =d77c864f3ae33da0
[1295000] SCOREBOARD MATCH: wdata passthrough beat=87 expected = a1d0a10f24364a71, actual =a1d0a10f24364a71
[1295000] SCOREBOARD MATCH: wdata passthrough beat=88 expected = b3e25f60b4ab110d, actual =b3e25f60b4ab110d
[1295000] SCOREBOARD MATCH: wdata passthrough beat=89 expected = ef8e4eadded7af25, actual =ef8e4eadded7af25
[1295000] SCOREBOARD MATCH: wdata passthrough beat=90 expected = 830df9968b5ee5af, actual =830df9968b5ee5af
[1295000] SCOREBOARD MATCH: wdata passthrough beat=91 expected = c009f6bd115eefbd, actual =c009f6bd115eefbd
[1295000] SCOREBOARD MATCH: wdata passthrough beat=92 expected = f0369ee236f058f7, actual =f0369ee236f058f7
[1295000] SCOREBOARD MATCH: wdata passthrough beat=93 expected = c24f3ea6af98456a, actual =c24f3ea6af98456a
[1295000] SCOREBOARD MATCH: wdata passthrough beat=94 expected = c0f73527f3449879, actual =c0f73527f3449879
[1295000] SCOREBOARD MATCH: wdata passthrough beat=95 expected = 2a34f17082593563, actual =2a34f17082593563
[1295000] SCOREBOARD MATCH: wdata passthrough beat=96 expected = 31f17ace312dd40a, actual =31f17ace312dd40a
[1295000] SCOREBOARD MATCH: wdata passthrough beat=97 expected = 24726c83ec843016, actual =24726c83ec843016
[1295000] SCOREBOARD MATCH: wdata passthrough beat=98 expected = eedd657af2e8aff5, actual =eedd657af2e8aff5
[1295000] SCOREBOARD MATCH: wdata passthrough beat=99 expected = a41683ffcea75df3, actual =a41683ffcea75df3
[1295000] SCOREBOARD MATCH: wdata passthrough beat=100 expected = bb2b8e0920cee048, actual =bb2b8e0920cee048
[1295000] SCOREBOARD MATCH: wdata passthrough beat=101 expected = 93b7903dc888f082, actual =93b7903dc888f082
[1295000] SCOREBOARD MATCH: wdata passthrough beat=102 expected = 97304e75aa08f383, actual =97304e75aa08f383
[1295000] SCOREBOARD MATCH: wdata passthrough beat=103 expected = cad7d3cb37ce143d, actual =cad7d3cb37ce143d
[1295000] SCOREBOARD MATCH: wdata passthrough beat=104 expected = 805704bfd25bdc7f, actual =805704bfd25bdc7f
[1295000] SCOREBOARD MATCH: wdata passthrough beat=105 expected = fc64d002de8f6409, actual =fc64d002de8f6409
[1295000] SCOREBOARD MATCH: wdata passthrough beat=106 expected = 165d784617875335, actual =165d784617875335
[1295000] SCOREBOARD MATCH: wdata passthrough beat=107 expected = e9e32fb4c73ca3ce, actual =e9e32fb4c73ca3ce
[1295000] SCOREBOARD MATCH: wdata passthrough beat=108 expected = 25cc07d796b47d05, actual =25cc07d796b47d05
[1295000] SCOREBOARD MATCH: wdata passthrough beat=109 expected = ae3bd03ae647ffb6, actual =ae3bd03ae647ffb6
[1295000] SCOREBOARD MATCH: wdata passthrough beat=110 expected = ad84a3843c29801d, actual =ad84a3843c29801d
[1295000] SCOREBOARD MATCH: wdata passthrough beat=111 expected = d2ddfd22981effee, actual =d2ddfd22981effee
[1295000] SCOREBOARD MATCH: wdata passthrough beat=112 expected = fe66ffa5d350ab5b, actual =fe66ffa5d350ab5b
[1295000] SCOREBOARD MATCH: wdata passthrough beat=113 expected = 8f7a2b780119cd5d, actual =8f7a2b780119cd5d
[1295000] SCOREBOARD MATCH: wdata passthrough beat=114 expected = 9938cd4babeba329, actual =9938cd4babeba329
[1295000] SCOREBOARD MATCH: wdata passthrough beat=115 expected = ff3c4e85e258289b, actual =ff3c4e85e258289b
[1295000] SCOREBOARD MATCH: wdata passthrough beat=116 expected = e371f5f8979fccf0, actual =e371f5f8979fccf0
[1295000] SCOREBOARD MATCH: wdata passthrough beat=117 expected = c38b701a8eb679fd, actual =c38b701a8eb679fd
[1295000] SCOREBOARD MATCH: wdata passthrough beat=118 expected = f10ea298fcaac343, actual =f10ea298fcaac343
[1295000] SCOREBOARD MATCH: wdata passthrough beat=119 expected = 144a9034c2c7be9f, actual =144a9034c2c7be9f
[1295000] SCOREBOARD MATCH: wdata passthrough beat=120 expected = d17e389cd4809890, actual =d17e389cd4809890
[1295000] SCOREBOARD MATCH: wstrb size check expected = 79, actual =79
[1295000] SCOREBOARD MATCH: wstrb passthrough beat=0 expected = 4e, actual =4e
[1295000] SCOREBOARD MATCH: wstrb passthrough beat=1 expected = d4, actual =d4
[1295000] SCOREBOARD MATCH: wstrb passthrough beat=2 expected = 35, actual =35
[1295000] SCOREBOARD MATCH: wstrb passthrough beat=3 expected = ed, actual =ed
[1295000] SCOREBOARD MATCH: wstrb passthrough beat=4 expected = 8, actual =8
[1295000] SCOREBOARD MATCH: wstrb passthrough beat=5 expected = c5, actual =c5
[1295000] SCOREBOARD MATCH: wstrb passthrough beat=6 expected = 89, actual =89
[1295000] SCOREBOARD MATCH: wstrb passthrough beat=7 expected = 56, actual =56
[1295000] SCOREBOARD MATCH: wstrb passthrough beat=8 expected = 99, actual =99
[1295000] SCOREBOARD MATCH: wstrb passthrough beat=9 expected = be, actual =be
[1295000] SCOREBOARD MATCH: wstrb passthrough beat=10 expected = 43, actual =43
[1295000] SCOREBOARD MATCH: wstrb passthrough beat=11 expected = a1, actual =a1
[1295000] SCOREBOARD MATCH: wstrb passthrough beat=12 expected = 84, actual =84
[1295000] SCOREBOARD MATCH: wstrb passthrough beat=13 expected = cc, actual =cc
[1295000] SCOREBOARD MATCH: wstrb passthrough beat=14 expected = f7, actual =f7
[1295000] SCOREBOARD MATCH: wstrb passthrough beat=15 expected = 1d, actual =1d
[1295000] SCOREBOARD MATCH: wstrb passthrough beat=16 expected = 8b, actual =8b
[1295000] SCOREBOARD MATCH: wstrb passthrough beat=17 expected = 3a, actual =3a
[1295000] SCOREBOARD MATCH: wstrb passthrough beat=18 expected = bf, actual =bf
[1295000] SCOREBOARD MATCH: wstrb passthrough beat=19 expected = f, actual =f
[1295000] SCOREBOARD MATCH: wstrb passthrough beat=20 expected = 7, actual =7
[1295000] SCOREBOARD MATCH: wstrb passthrough beat=21 expected = b6, actual =b6
[1295000] SCOREBOARD MATCH: wstrb passthrough beat=22 expected = 2c, actual =2c
[1295000] SCOREBOARD MATCH: wstrb passthrough beat=23 expected = 92, actual =92
[1295000] SCOREBOARD MATCH: wstrb passthrough beat=24 expected = f1, actual =f1
[1295000] SCOREBOARD MATCH: wstrb passthrough beat=25 expected = eb, actual =eb
[1295000] SCOREBOARD MATCH: wstrb passthrough beat=26 expected = a1, actual =a1
[1295000] SCOREBOARD MATCH: wstrb passthrough beat=27 expected = f8, actual =f8
[1295000] SCOREBOARD MATCH: wstrb passthrough beat=28 expected = a2, actual =a2
[1295000] SCOREBOARD MATCH: wstrb passthrough beat=29 expected = cd, actual =cd
[1295000] SCOREBOARD MATCH: wstrb passthrough beat=30 expected = 8a, actual =8a
[1295000] SCOREBOARD MATCH: wstrb passthrough beat=31 expected = 93, actual =93
[1295000] SCOREBOARD MATCH: wstrb passthrough beat=32 expected = b9, actual =b9
[1295000] SCOREBOARD MATCH: wstrb passthrough beat=33 expected = 2b, actual =2b
[1295000] SCOREBOARD MATCH: wstrb passthrough beat=34 expected = 8b, actual =8b
[1295000] SCOREBOARD MATCH: wstrb passthrough beat=35 expected = 5b, actual =5b
[1295000] SCOREBOARD MATCH: wstrb passthrough beat=36 expected = f8, actual =f8
[1295000] SCOREBOARD MATCH: wstrb passthrough beat=37 expected = 15, actual =15
[1295000] SCOREBOARD MATCH: wstrb passthrough beat=38 expected = ee, actual =ee
[1295000] SCOREBOARD MATCH: wstrb passthrough beat=39 expected = b1, actual =b1
[1295000] SCOREBOARD MATCH: wstrb passthrough beat=40 expected = 40, actual =40
[1295000] SCOREBOARD MATCH: wstrb passthrough beat=41 expected = 79, actual =79
[1295000] SCOREBOARD MATCH: wstrb passthrough beat=42 expected = c, actual =c
[1295000] SCOREBOARD MATCH: wstrb passthrough beat=43 expected = 38, actual =38
[1295000] SCOREBOARD MATCH: wstrb passthrough beat=44 expected = 8e, actual =8e
[1295000] SCOREBOARD MATCH: wstrb passthrough beat=45 expected = fa, actual =fa
[1295000] SCOREBOARD MATCH: wstrb passthrough beat=46 expected = ea, actual =ea
[1295000] SCOREBOARD MATCH: wstrb passthrough beat=47 expected = ce, actual =ce
[1295000] SCOREBOARD MATCH: wstrb passthrough beat=48 expected = 73, actual =73
[1295000] SCOREBOARD MATCH: wstrb passthrough beat=49 expected = f6, actual =f6
[1295000] SCOREBOARD MATCH: wstrb passthrough beat=50 expected = 6, actual =6
[1295000] SCOREBOARD MATCH: wstrb passthrough beat=51 expected = 1, actual =1
[1295000] SCOREBOARD MATCH: wstrb passthrough beat=52 expected = f1, actual =f1
[1295000] SCOREBOARD MATCH: wstrb passthrough beat=53 expected = f0, actual =f0
[1295000] SCOREBOARD MATCH: wstrb passthrough beat=54 expected = cf, actual =cf
[1295000] SCOREBOARD MATCH: wstrb passthrough beat=55 expected = 64, actual =64
[1295000] SCOREBOARD MATCH: wstrb passthrough beat=56 expected = e7, actual =e7
[1295000] SCOREBOARD MATCH: wstrb passthrough beat=57 expected = d6, actual =d6
[1295000] SCOREBOARD MATCH: wstrb passthrough beat=58 expected = 66, actual =66
[1295000] SCOREBOARD MATCH: wstrb passthrough beat=59 expected = d8, actual =d8
[1295000] SCOREBOARD MATCH: wstrb passthrough beat=60 expected = c6, actual =c6
[1295000] SCOREBOARD MATCH: wstrb passthrough beat=61 expected = 35, actual =35
[1295000] SCOREBOARD MATCH: wstrb passthrough beat=62 expected = 3c, actual =3c
[1295000] SCOREBOARD MATCH: wstrb passthrough beat=63 expected = ad, actual =ad
[1295000] SCOREBOARD MATCH: wstrb passthrough beat=64 expected = b, actual =b
[1295000] SCOREBOARD MATCH: wstrb passthrough beat=65 expected = a2, actual =a2
[1295000] SCOREBOARD MATCH: wstrb passthrough beat=66 expected = 85, actual =85
[1295000] SCOREBOARD MATCH: wstrb passthrough beat=67 expected = d2, actual =d2
[1295000] SCOREBOARD MATCH: wstrb passthrough beat=68 expected = d8, actual =d8
[1295000] SCOREBOARD MATCH: wstrb passthrough beat=69 expected = c2, actual =c2
[1295000] SCOREBOARD MATCH: wstrb passthrough beat=70 expected = 7f, actual =7f
[1295000] SCOREBOARD MATCH: wstrb passthrough beat=71 expected = e3, actual =e3
[1295000] SCOREBOARD MATCH: wstrb passthrough beat=72 expected = 64, actual =64
[1295000] SCOREBOARD MATCH: wstrb passthrough beat=73 expected = 5, actual =5
[1295000] SCOREBOARD MATCH: wstrb passthrough beat=74 expected = b5, actual =b5
[1295000] SCOREBOARD MATCH: wstrb passthrough beat=75 expected = 3c, actual =3c
[1295000] SCOREBOARD MATCH: wstrb passthrough beat=76 expected = c7, actual =c7
[1295000] SCOREBOARD MATCH: wstrb passthrough beat=77 expected = 35, actual =35
[1295000] SCOREBOARD MATCH: wstrb passthrough beat=78 expected = 20, actual =20
[1295000] SCOREBOARD MATCH: wstrb passthrough beat=79 expected = 2b, actual =2b
[1295000] SCOREBOARD MATCH: wstrb passthrough beat=80 expected = 3a, actual =3a
[1295000] SCOREBOARD MATCH: wstrb passthrough beat=81 expected = d5, actual =d5
[1295000] SCOREBOARD MATCH: wstrb passthrough beat=82 expected = 68, actual =68
[1295000] SCOREBOARD MATCH: wstrb passthrough beat=83 expected = 1, actual =1
[1295000] SCOREBOARD MATCH: wstrb passthrough beat=84 expected = a, actual =a
[1295000] SCOREBOARD MATCH: wstrb passthrough beat=85 expected = 88, actual =88
[1295000] SCOREBOARD MATCH: wstrb passthrough beat=86 expected = 2c, actual =2c
[1295000] SCOREBOARD MATCH: wstrb passthrough beat=87 expected = 44, actual =44
[1295000] SCOREBOARD MATCH: wstrb passthrough beat=88 expected = 5d, actual =5d
[1295000] SCOREBOARD MATCH: wstrb passthrough beat=89 expected = 94, actual =94
[1295000] SCOREBOARD MATCH: wstrb passthrough beat=90 expected = 45, actual =45
[1295000] SCOREBOARD MATCH: wstrb passthrough beat=91 expected = 68, actual =68
[1295000] SCOREBOARD MATCH: wstrb passthrough beat=92 expected = 1c, actual =1c
[1295000] SCOREBOARD MATCH: wstrb passthrough beat=93 expected = 72, actual =72
[1295000] SCOREBOARD MATCH: wstrb passthrough beat=94 expected = ac, actual =ac
[1295000] SCOREBOARD MATCH: wstrb passthrough beat=95 expected = 7a, actual =7a
[1295000] SCOREBOARD MATCH: wstrb passthrough beat=96 expected = 6, actual =6
[1295000] SCOREBOARD MATCH: wstrb passthrough beat=97 expected = f2, actual =f2
[1295000] SCOREBOARD MATCH: wstrb passthrough beat=98 expected = e2, actual =e2
[1295000] SCOREBOARD MATCH: wstrb passthrough beat=99 expected = 23, actual =23
[1295000] SCOREBOARD MATCH: wstrb passthrough beat=100 expected = 64, actual =64
[1295000] SCOREBOARD MATCH: wstrb passthrough beat=101 expected = 8e, actual =8e
[1295000] SCOREBOARD MATCH: wstrb passthrough beat=102 expected = 9d, actual =9d
[1295000] SCOREBOARD MATCH: wstrb passthrough beat=103 expected = 6a, actual =6a
[1295000] SCOREBOARD MATCH: wstrb passthrough beat=104 expected = 80, actual =80
[1295000] SCOREBOARD MATCH: wstrb passthrough beat=105 expected = 7f, actual =7f
[1295000] SCOREBOARD MATCH: wstrb passthrough beat=106 expected = 8d, actual =8d
[1295000] SCOREBOARD MATCH: wstrb passthrough beat=107 expected = e4, actual =e4
[1295000] SCOREBOARD MATCH: wstrb passthrough beat=108 expected = d, actual =d
[1295000] SCOREBOARD MATCH: wstrb passthrough beat=109 expected = 2a, actual =2a
[1295000] SCOREBOARD MATCH: wstrb passthrough beat=110 expected = 4f, actual =4f
[1295000] SCOREBOARD MATCH: wstrb passthrough beat=111 expected = 8e, actual =8e
[1295000] SCOREBOARD MATCH: wstrb passthrough beat=112 expected = a9, actual =a9
[1295000] SCOREBOARD MATCH: wstrb passthrough beat=113 expected = dc, actual =dc
[1295000] SCOREBOARD MATCH: wstrb passthrough beat=114 expected = 72, actual =72
[1295000] SCOREBOARD MATCH: wstrb passthrough beat=115 expected = b7, actual =b7
[1295000] SCOREBOARD MATCH: wstrb passthrough beat=116 expected = 7, actual =7
[1295000] SCOREBOARD MATCH: wstrb passthrough beat=117 expected = c1, actual =c1
[1295000] SCOREBOARD MATCH: wstrb passthrough beat=118 expected = 45, actual =45
[1295000] SCOREBOARD MATCH: wstrb passthrough beat=119 expected = b0, actual =b0
[1295000] SCOREBOARD MATCH: wstrb passthrough beat=120 expected = 9e, actual =9e
[1295000] SCOREBOARD MATCH: bresp passthrough expected = 0, actual =0
[1295000] SCOREBOARD MATCH: response routed to correct master (write) expected = 0, actual =0
[1295000] [SCOREBOARD-M] mst_id=0 s_id=0 awaddr=5586b28 awid=1100 awlen=120 awsize=5 awburst=1 wdata=[8124c6be36a35458 d8a368d799475f41 a1c1189af7b50bb3 2e58600bd2206fcf eb67cf1022e5df59 1a9aeb0c86fbc8e2 d91c38b10d28e7ab 300ec704c8f34b17 cfef13f9c48407c2 d1acef6dcaa9b210 139cfd27290b4cab ed8f546d01bbb671 cc656881e38c1120 8c975dcb3f3c43da c0f7fa4be00265a8 c38e76c8fa26b238 b962f6120d5d62cc ed5fc874d025d494 ca4c86ccfa5af05d 87b85329b0ee3f3c 811413d003af7cdf fe0a6d3cf5181b9d 26065adacb609a9d cf10177c05c2c066 fadadc03a71a6eaa f27b0947cd1a84b8 d2dd451ea0e136dd c7fba588c18b20c3 ea5a57ccdb82122 ee9957ffba76aecf fc01cf93e182ea9a af3b0bbcb694fd87 f10bac570aa7750f ec2a5fa91dd463bc d4696143ed0d7bea f7b4f0f91b656b66 3939cf22c5750d9a b2828984e3df50a2 ff44bc088da33065 d3183e00aa377a7d e16cb20b87e8b2a c621bb90859ac784 2fd242028d5b8728 c5da12531939f990 9ed4c1143de90d22 cb44944a0bfbcde3 2535c773cea70316 8c901038911ea69d 9d1a7480c40a8887 12b18b9ed7d4a483 e8f34b20c2503bf3 65ac47b9f419bd6 f7164059060dbfa1 c85dfb94190c5019 b84debefe0098b7a e6174b1bceb8c00f e7c510282f642c49 f6db7c3ae7546af fd2e06bf2012fc18 cf772861f58502de a3fa498de4f316e7 850612ffdee4e024 d469e302a128504c 61b6734d47d3b60 b3621b84f8642c8f 198c7cdc8b217a33 df9eb59487cbfe86 302b161fa7e410 aac95e439300d118 1acccf9f19bca7f2 39648c028a6813d7 1d68e4f01afcfab5 34b9a2a7e42dea45 ee95fe1d3835b48f d332af44ee1e2ea9 d24c18ee0bfee30d c434979c07ec51eb f60a8094c0e2170b cce0fa18176746e0 1f5398cbc8569982 938b08e911591b4 a87cd894155e195f ddb4b2e1d619aaa6 e72f3c5bc7d0715f dd2e8abee6ed636f 3d070e168fac14ef d77c864f3ae33da0 a1d0a10f24364a71 b3e25f60b4ab110d ef8e4eadded7af25 830df9968b5ee5af c009f6bd115eefbd f0369ee236f058f7 c24f3ea6af98456a c0f73527f3449879 2a34f17082593563 31f17ace312dd40a 24726c83ec843016 eedd657af2e8aff5 a41683ffcea75df3 bb2b8e0920cee048 93b7903dc888f082 97304e75aa08f383 cad7d3cb37ce143d 805704bfd25bdc7f fc64d002de8f6409 165d784617875335 e9e32fb4c73ca3ce 25cc07d796b47d05 ae3bd03ae647ffb6 ad84a3843c29801d d2ddfd22981effee fe66ffa5d350ab5b 8f7a2b780119cd5d 9938cd4babeba329 ff3c4e85e258289b e371f5f8979fccf0 c38b701a8eb679fd f10ea298fcaac343 144a9034c2c7be9f d17e389cd4809890 ] wstrb=[4e d4 35 ed 8 c5 89 56 99 be 43 a1 84 cc f7 1d 8b 3a bf f 7 b6 2c 92 f1 eb a1 f8 a2 cd 8a 93 b9 2b 8b 5b f8 15 ee b1 40 79 c 38 8e fa ea ce 73 f6 6 1 f1 f0 cf 64 e7 d6 66 d8 c6 35 3c ad b a2 85 d2 d8 c2 7f e3 64 5 b5 3c c7 35 20 2b 3a d5 68 1 a 88 2c 44 5d 94 45 68 1c 72 ac 7a 6 f2 e2 23 64 8e 9d 6a 80 7f 8d e4 d 2a 4f 8e a9 dc 72 b7 7 c1 45 b0 9e ] bresp=0 bid=1100
[1295000] [SCOREBOARD-S] mst_id=0 s_id=0 awaddr=5586b28 awid=1100 awlen=120 awsize=5 awburst=1 wdata=[8124c6be36a35458 d8a368d799475f41 a1c1189af7b50bb3 2e58600bd2206fcf eb67cf1022e5df59 1a9aeb0c86fbc8e2 d91c38b10d28e7ab 300ec704c8f34b17 cfef13f9c48407c2 d1acef6dcaa9b210 139cfd27290b4cab ed8f546d01bbb671 cc656881e38c1120 8c975dcb3f3c43da c0f7fa4be00265a8 c38e76c8fa26b238 b962f6120d5d62cc ed5fc874d025d494 ca4c86ccfa5af05d 87b85329b0ee3f3c 811413d003af7cdf fe0a6d3cf5181b9d 26065adacb609a9d cf10177c05c2c066 fadadc03a71a6eaa f27b0947cd1a84b8 d2dd451ea0e136dd c7fba588c18b20c3 ea5a57ccdb82122 ee9957ffba76aecf fc01cf93e182ea9a af3b0bbcb694fd87 f10bac570aa7750f ec2a5fa91dd463bc d4696143ed0d7bea f7b4f0f91b656b66 3939cf22c5750d9a b2828984e3df50a2 ff44bc088da33065 d3183e00aa377a7d e16cb20b87e8b2a c621bb90859ac784 2fd242028d5b8728 c5da12531939f990 9ed4c1143de90d22 cb44944a0bfbcde3 2535c773cea70316 8c901038911ea69d 9d1a7480c40a8887 12b18b9ed7d4a483 e8f34b20c2503bf3 65ac47b9f419bd6 f7164059060dbfa1 c85dfb94190c5019 b84debefe0098b7a e6174b1bceb8c00f e7c510282f642c49 f6db7c3ae7546af fd2e06bf2012fc18 cf772861f58502de a3fa498de4f316e7 850612ffdee4e024 d469e302a128504c 61b6734d47d3b60 b3621b84f8642c8f 198c7cdc8b217a33 df9eb59487cbfe86 302b161fa7e410 aac95e439300d118 1acccf9f19bca7f2 39648c028a6813d7 1d68e4f01afcfab5 34b9a2a7e42dea45 ee95fe1d3835b48f d332af44ee1e2ea9 d24c18ee0bfee30d c434979c07ec51eb f60a8094c0e2170b cce0fa18176746e0 1f5398cbc8569982 938b08e911591b4 a87cd894155e195f ddb4b2e1d619aaa6 e72f3c5bc7d0715f dd2e8abee6ed636f 3d070e168fac14ef d77c864f3ae33da0 a1d0a10f24364a71 b3e25f60b4ab110d ef8e4eadded7af25 830df9968b5ee5af c009f6bd115eefbd f0369ee236f058f7 c24f3ea6af98456a c0f73527f3449879 2a34f17082593563 31f17ace312dd40a 24726c83ec843016 eedd657af2e8aff5 a41683ffcea75df3 bb2b8e0920cee048 93b7903dc888f082 97304e75aa08f383 cad7d3cb37ce143d 805704bfd25bdc7f fc64d002de8f6409 165d784617875335 e9e32fb4c73ca3ce 25cc07d796b47d05 ae3bd03ae647ffb6 ad84a3843c29801d d2ddfd22981effee fe66ffa5d350ab5b 8f7a2b780119cd5d 9938cd4babeba329 ff3c4e85e258289b e371f5f8979fccf0 c38b701a8eb679fd f10ea298fcaac343 144a9034c2c7be9f d17e389cd4809890 ] wstrb=[4e d4 35 ed 8 c5 89 56 99 be 43 a1 84 cc f7 1d 8b 3a bf f 7 b6 2c 92 f1 eb a1 f8 a2 cd 8a 93 b9 2b 8b 5b f8 15 ee b1 40 79 c 38 8e fa ea ce 73 f6 6 1 f1 f0 cf 64 e7 d6 66 d8 c6 35 3c ad b a2 85 d2 d8 c2 7f e3 64 5 b5 3c c7 35 20 2b 3a d5 68 1 a 88 2c 44 5d 94 45 68 1c 72 ac 7a 6 f2 e2 23 64 8e 9d 6a 80 7f 8d e4 d 2a 4f 8e a9 dc 72 b7 7 c1 45 b0 9e ] bresp=0 bid=1100
[1295000] SCOREBOARD: Transaction 3 received. pass=280 fail=0
[1295000] ALL PASS. Total transactions: 3
[1305000] MASTER 0 W_VALID_RDY Handshake beat=1 wlast=0
[1305000] AXI S0_WVALID_RDY HANDSHAKE
[1305000] S0 MEMORY WRITE beat=0 addr=05091228 data=fcf02b3dd827ebe6 id=03
[1315000] AXI S0_WVALID_RDY HANDSHAKE
[1315000] S0 MEMORY WRITE beat=1 addr=05091238 data=aad4c58e85ade7f0 id=03
[1315000] MASTER 0 W_VALID_RDY Handshake beat=2 wlast=0
[1325000] MASTER 0 W_VALID_RDY Handshake beat=3 wlast=0
[1325000] AXI S0_WVALID_RDY HANDSHAKE
[1325000] S0 MEMORY WRITE beat=2 addr=05091248 data=c4d0d372fb0c5fc0 id=03
[1335000] AXI S0_WVALID_RDY HANDSHAKE
[1335000] S0 MEMORY WRITE beat=3 addr=05091258 data=d3344ba7c77fe955 id=03
[1335000] MASTER 0 W_VALID_RDY Handshake beat=4 wlast=0
[1345000] MASTER 0 W_VALID_RDY Handshake beat=5 wlast=0
[1345000] AXI S0_WVALID_RDY HANDSHAKE
[1345000] S0 MEMORY WRITE beat=4 addr=05091268 data=cd2dd145c1c0feaf id=03
[1355000] AXI S0_WVALID_RDY HANDSHAKE
[1355000] S0 MEMORY WRITE beat=5 addr=05091278 data=bccd5e6ffe091135 id=03
[1355000] MASTER 0 W_VALID_RDY Handshake beat=6 wlast=0
[1365000] MASTER 0 W_VALID_RDY Handshake beat=7 wlast=0
[1365000] AXI S0_WVALID_RDY HANDSHAKE
[1365000] S0 MEMORY WRITE beat=6 addr=05091288 data=c588fa8a91fea4b7 id=03
[1375000] AXI S0_WVALID_RDY HANDSHAKE
[1375000] S0 MEMORY WRITE beat=7 addr=05091298 data=d3bfa3669001aa16 id=03
[1375000] MASTER 0 W_VALID_RDY Handshake beat=8 wlast=0
[1385000] MASTER 0 W_VALID_RDY Handshake beat=9 wlast=0
[1385000] AXI S0_WVALID_RDY HANDSHAKE
[1385000] S0 MEMORY WRITE beat=8 addr=050912a8 data=0e0abb4c12b6cbd0 id=03
[1395000] AXI S0_WVALID_RDY HANDSHAKE
[1395000] S0 MEMORY WRITE beat=9 addr=050912b8 data=a4b57087108d01d6 id=03
[1395000] MASTER 0 W_VALID_RDY Handshake beat=10 wlast=0
[1405000] MASTER 0 W_VALID_RDY Handshake beat=11 wlast=0
[1405000] AXI S0_WVALID_RDY HANDSHAKE
[1405000] S0 MEMORY WRITE beat=10 addr=050912c8 data=a08eabecd393b5d6 id=03
[1415000] AXI S0_WVALID_RDY HANDSHAKE
[1415000] S0 MEMORY WRITE beat=11 addr=050912d8 data=e64a81a6f87513ee id=03
[1415000] MASTER 0 W_VALID_RDY Handshake beat=12 wlast=0
[1425000] MASTER 0 W_VALID_RDY Handshake beat=13 wlast=0
[1425000] AXI S0_WVALID_RDY HANDSHAKE
[1425000] S0 MEMORY WRITE beat=12 addr=050912e8 data=090215c4ae996738 id=03
[1435000] AXI S0_WVALID_RDY HANDSHAKE
[1435000] S0 MEMORY WRITE beat=13 addr=050912f8 data=022d1d0f0afff22e id=03
[1435000] MASTER 0 W_VALID_RDY Handshake beat=14 wlast=0
[1445000] MASTER 0 W_VALID_RDY Handshake beat=15 wlast=0
[1445000] AXI S0_WVALID_RDY HANDSHAKE
[1445000] S0 MEMORY WRITE beat=14 addr=05091308 data=0375061ca990c1b0 id=03
[1455000] AXI S0_WVALID_RDY HANDSHAKE
[1455000] S0 MEMORY WRITE beat=15 addr=05091318 data=d82a28e9e8779eb5 id=03
[1455000] MASTER 0 W_VALID_RDY Handshake beat=16 wlast=0
[1465000] MASTER 0 W_VALID_RDY Handshake beat=17 wlast=0
[1465000] AXI S0_WVALID_RDY HANDSHAKE
[1465000] S0 MEMORY WRITE beat=16 addr=05091328 data=f37790e30c771be0 id=03
[1475000] AXI S0_WVALID_RDY HANDSHAKE
[1475000] S0 MEMORY WRITE beat=17 addr=05091338 data=b607dd90da5745f8 id=03
[1475000] MASTER 0 W_VALID_RDY Handshake beat=18 wlast=0
[1485000] MASTER 0 W_VALID_RDY Handshake beat=19 wlast=0
[1485000] AXI S0_WVALID_RDY HANDSHAKE
[1485000] S0 MEMORY WRITE beat=18 addr=05091348 data=c2cee4adf6ec96ff id=03
[1495000] AXI S0_WVALID_RDY HANDSHAKE
[1495000] S0 MEMORY WRITE beat=19 addr=05091358 data=8363b2df8e320679 id=03
[1495000] MASTER 0 W_VALID_RDY Handshake beat=20 wlast=0
[1505000] MASTER 0 W_VALID_RDY Handshake beat=21 wlast=0
[1505000] AXI S0_WVALID_RDY HANDSHAKE
[1505000] S0 MEMORY WRITE beat=20 addr=05091368 data=e8894c7136467591 id=03
[1515000] AXI S0_WVALID_RDY HANDSHAKE
[1515000] S0 MEMORY WRITE beat=21 addr=05091378 data=ad330c90396b9070 id=03
[1515000] MASTER 0 W_VALID_RDY Handshake beat=22 wlast=0
[1525000] MASTER 0 W_VALID_RDY Handshake beat=23 wlast=0
[1525000] AXI S0_WVALID_RDY HANDSHAKE
[1525000] S0 MEMORY WRITE beat=22 addr=05091388 data=c79d96e92b58311f id=03
[1535000] AXI S0_WVALID_RDY HANDSHAKE
[1535000] S0 MEMORY WRITE beat=23 addr=05091398 data=e19ea6b03096bf70 id=03
[1535000] MASTER 0 W_VALID_RDY Handshake beat=24 wlast=0
[1545000] MASTER 0 W_VALID_RDY Handshake beat=25 wlast=0
[1545000] AXI S0_WVALID_RDY HANDSHAKE
[1545000] S0 MEMORY WRITE beat=24 addr=050913a8 data=ea024fe03026e35b id=03
[1555000] AXI S0_WVALID_RDY HANDSHAKE
[1555000] S0 MEMORY WRITE beat=25 addr=050913b8 data=db7f147a8ed1b340 id=03
[1555000] MASTER 0 W_VALID_RDY Handshake beat=26 wlast=0
[1565000] MASTER 0 W_VALID_RDY Handshake beat=27 wlast=0
[1565000] AXI S0_WVALID_RDY HANDSHAKE
[1565000] S0 MEMORY WRITE beat=26 addr=050913c8 data=bf6872b0b19fe6c9 id=03
[1575000] AXI S0_WVALID_RDY HANDSHAKE
[1575000] S0 MEMORY WRITE beat=27 addr=050913d8 data=e1c6ca243d1dbb2a id=03
[1575000] MASTER 0 W_VALID_RDY Handshake beat=28 wlast=0
[1585000] MASTER 0 W_VALID_RDY Handshake beat=29 wlast=0
[1585000] AXI S0_WVALID_RDY HANDSHAKE
[1585000] S0 MEMORY WRITE beat=28 addr=050913e8 data=cbef6e6aa96ac290 id=03
[1595000] AXI S0_WVALID_RDY HANDSHAKE
[1595000] S0 MEMORY WRITE beat=29 addr=050913f8 data=db0aa95abd45de9e id=03
[1595000] MASTER 0 W_VALID_RDY Handshake beat=30 wlast=0
[1605000] MASTER 0 W_VALID_RDY Handshake beat=31 wlast=0
[1605000] AXI S0_WVALID_RDY HANDSHAKE
[1605000] S0 MEMORY WRITE beat=30 addr=05091408 data=fa6399c80b57e11b id=03
[1615000] AXI S0_WVALID_RDY HANDSHAKE
[1615000] S0 MEMORY WRITE beat=31 addr=05091418 data=b4c2a3abbcd1737e id=03
[1615000] MASTER 0 W_VALID_RDY Handshake beat=32 wlast=0
[1625000] MASTER 0 W_VALID_RDY Handshake beat=33 wlast=0
[1625000] AXI S0_WVALID_RDY HANDSHAKE
[1625000] S0 MEMORY WRITE beat=32 addr=05091428 data=fa17521dc6530833 id=03
[1635000] AXI S0_WVALID_RDY HANDSHAKE
[1635000] S0 MEMORY WRITE beat=33 addr=05091438 data=d1aae94e8fcd4d05 id=03
[1635000] MASTER 0 W_VALID_RDY Handshake beat=34 wlast=0
[1645000] MASTER 0 W_VALID_RDY Handshake beat=35 wlast=0
[1645000] AXI S0_WVALID_RDY HANDSHAKE
[1645000] S0 MEMORY WRITE beat=34 addr=05091448 data=cc9ec084f47aebe5 id=03
[1655000] AXI S0_WVALID_RDY HANDSHAKE
[1655000] S0 MEMORY WRITE beat=35 addr=05091458 data=bacdf418866d8cf9 id=03
[1655000] MASTER 0 W_VALID_RDY Handshake beat=36 wlast=0
[1665000] MASTER 0 W_VALID_RDY Handshake beat=37 wlast=0
[1665000] AXI S0_WVALID_RDY HANDSHAKE
[1665000] S0 MEMORY WRITE beat=36 addr=05091468 data=163ad9ffc6b612a1 id=03
[1675000] AXI S0_WVALID_RDY HANDSHAKE
[1675000] S0 MEMORY WRITE beat=37 addr=05091478 data=bb30fe868c78dd66 id=03
[1675000] MASTER 0 W_VALID_RDY Handshake beat=38 wlast=0
[1685000] MASTER 0 W_VALID_RDY Handshake beat=39 wlast=0
[1685000] AXI S0_WVALID_RDY HANDSHAKE
[1685000] S0 MEMORY WRITE beat=38 addr=05091488 data=12e66a60e2d99a83 id=03
[1695000] AXI S0_WVALID_RDY HANDSHAKE
[1695000] S0 MEMORY WRITE beat=39 addr=05091498 data=298fad24f5fef29f id=03
[1695000] MASTER 0 W_VALID_RDY Handshake beat=40 wlast=0
[1705000] MASTER 0 W_VALID_RDY Handshake beat=41 wlast=0
[1705000] AXI S0_WVALID_RDY HANDSHAKE
[1705000] S0 MEMORY WRITE beat=40 addr=050914a8 data=8277d0052921445f id=03
[1715000] AXI S0_WVALID_RDY HANDSHAKE
[1715000] S0 MEMORY WRITE beat=41 addr=050914b8 data=0bfadee2e4c0abaa id=03
[1715000] MASTER 0 W_VALID_RDY Handshake beat=42 wlast=0
[1725000] MASTER 0 W_VALID_RDY Handshake beat=43 wlast=0
[1725000] AXI S0_WVALID_RDY HANDSHAKE
[1725000] S0 MEMORY WRITE beat=42 addr=050914c8 data=dabf9e49955e3a65 id=03
[1735000] AXI S0_WVALID_RDY HANDSHAKE
[1735000] S0 MEMORY WRITE beat=43 addr=050914d8 data=be7f7ec4358a8c06 id=03
[1735000] MASTER 0 W_VALID_RDY Handshake beat=44 wlast=0
[1745000] MASTER 0 W_VALID_RDY Handshake beat=45 wlast=0
[1745000] AXI S0_WVALID_RDY HANDSHAKE
[1745000] S0 MEMORY WRITE beat=44 addr=050914e8 data=9a4b37b0dd376e4f id=03
[1755000] AXI S0_WVALID_RDY HANDSHAKE
[1755000] S0 MEMORY WRITE beat=45 addr=050914f8 data=f295a8b4ca7a5da6 id=03
[1755000] MASTER 0 W_VALID_RDY Handshake beat=46 wlast=0
[1765000] MASTER 0 W_VALID_RDY Handshake beat=47 wlast=0
[1765000] AXI S0_WVALID_RDY HANDSHAKE
[1765000] S0 MEMORY WRITE beat=46 addr=05091508 data=8004e9acf50ad5fa id=03
[1775000] AXI S0_WVALID_RDY HANDSHAKE
[1775000] S0 MEMORY WRITE beat=47 addr=05091518 data=d242444931152779 id=03
[1775000] MASTER 0 W_VALID_RDY Handshake beat=48 wlast=0
[1785000] MASTER 0 W_VALID_RDY Handshake beat=49 wlast=0
[1785000] AXI S0_WVALID_RDY HANDSHAKE
[1785000] S0 MEMORY WRITE beat=48 addr=05091528 data=fb8f851f1a50215d id=03
[1795000] AXI S0_WVALID_RDY HANDSHAKE
[1795000] S0 MEMORY WRITE beat=49 addr=05091538 data=0f5af757c4d7ecfd id=03
[1795000] MASTER 0 W_VALID_RDY Handshake beat=50 wlast=0
[1805000] MASTER 0 W_VALID_RDY Handshake beat=51 wlast=0
[1805000] AXI S0_WVALID_RDY HANDSHAKE
[1805000] S0 MEMORY WRITE beat=50 addr=05091548 data=f5ed1476fb946ecc id=03
[1815000] AXI S0_WVALID_RDY HANDSHAKE
[1815000] S0 MEMORY WRITE beat=51 addr=05091558 data=15e49029e19d3ba0 id=03
[1815000] MASTER 0 W_VALID_RDY Handshake beat=52 wlast=0
[1825000] MASTER 0 W_VALID_RDY Handshake beat=53 wlast=0
[1825000] AXI S0_WVALID_RDY HANDSHAKE
[1825000] S0 MEMORY WRITE beat=52 addr=05091568 data=a675289df17c9996 id=03
[1835000] AXI S0_WVALID_RDY HANDSHAKE
[1835000] S0 MEMORY WRITE beat=53 addr=05091578 data=ed110862253f8780 id=03
[1835000] MASTER 0 W_VALID_RDY Handshake beat=54 wlast=0
[1845000] MASTER 0 W_VALID_RDY Handshake beat=55 wlast=0
[1845000] AXI S0_WVALID_RDY HANDSHAKE
[1845000] S0 MEMORY WRITE beat=54 addr=05091588 data=06dcc3201c623d14 id=03
[1855000] AXI S0_WVALID_RDY HANDSHAKE
[1855000] S0 MEMORY WRITE beat=55 addr=05091598 data=0dded6aa02f5988b id=03
[1855000] MASTER 0 W_VALID_RDY Handshake beat=56 wlast=0
[1865000] MASTER 0 W_VALID_RDY Handshake beat=57 wlast=0
[1865000] AXI S0_WVALID_RDY HANDSHAKE
[1865000] S0 MEMORY WRITE beat=56 addr=050915a8 data=2835200bad51ebbd id=03
[1875000] AXI S0_WVALID_RDY HANDSHAKE
[1875000] S0 MEMORY WRITE beat=57 addr=050915b8 data=c9b428d1faefdf0c id=03
[1875000] MASTER 0 W_VALID_RDY Handshake beat=58 wlast=0
[1885000] MASTER 0 W_VALID_RDY Handshake beat=59 wlast=0
[1885000] AXI S0_WVALID_RDY HANDSHAKE
[1885000] S0 MEMORY WRITE beat=58 addr=050915c8 data=fde577972f11e32b id=03
[1895000] AXI S0_WVALID_RDY HANDSHAKE
[1895000] S0 MEMORY WRITE beat=59 addr=050915d8 data=dc63cee8d792ff7b id=03
[1895000] MASTER 0 W_VALID_RDY Handshake beat=60 wlast=0
[1905000] MASTER 0 W_VALID_RDY Handshake beat=61 wlast=0
[1905000] AXI S0_WVALID_RDY HANDSHAKE
[1905000] S0 MEMORY WRITE beat=60 addr=050915e8 data=d282de87261a97a2 id=03
[1915000] AXI S0_WVALID_RDY HANDSHAKE
[1915000] S0 MEMORY WRITE beat=61 addr=050915f8 data=d52c7acd2617f7ba id=03
[1915000] MASTER 0 W_VALID_RDY Handshake beat=62 wlast=0
[1925000] MASTER 0 W_VALID_RDY Handshake beat=63 wlast=0
[1925000] AXI S0_WVALID_RDY HANDSHAKE
[1925000] S0 MEMORY WRITE beat=62 addr=05091608 data=fdaaf735d068561e id=03
[1935000] AXI S0_WVALID_RDY HANDSHAKE
[1935000] S0 MEMORY WRITE beat=63 addr=05091618 data=f682edc0b19049b5 id=03
[1935000] MASTER 0 W_VALID_RDY Handshake beat=64 wlast=0
[1945000] MASTER 0 W_VALID_RDY Handshake beat=65 wlast=0
[1945000] AXI S0_WVALID_RDY HANDSHAKE
[1945000] S0 MEMORY WRITE beat=64 addr=05091628 data=d7a8416fd02dd5bd id=03
[1955000] AXI S0_WVALID_RDY HANDSHAKE
[1955000] S0 MEMORY WRITE beat=65 addr=05091638 data=a0962bdbcbaf688d id=03
[1955000] MASTER 0 W_VALID_RDY Handshake beat=66 wlast=0
[1965000] MASTER 0 W_VALID_RDY Handshake beat=67 wlast=0
[1965000] AXI S0_WVALID_RDY HANDSHAKE
[1965000] S0 MEMORY WRITE beat=66 addr=05091648 data=fd3fb243d55338a5 id=03
[1975000] AXI S0_WVALID_RDY HANDSHAKE
[1975000] S0 MEMORY WRITE beat=67 addr=05091658 data=25810e621719199c id=03
[1975000] MASTER 0 W_VALID_RDY Handshake beat=68 wlast=0
[1985000] MASTER 0 W_VALID_RDY Handshake beat=69 wlast=0
[1985000] AXI S0_WVALID_RDY HANDSHAKE
[1985000] S0 MEMORY WRITE beat=68 addr=05091668 data=e2c88229d4e7f3b2 id=03
[1995000] AXI S0_WVALID_RDY HANDSHAKE
[1995000] S0 MEMORY WRITE beat=69 addr=05091678 data=aa3b2c57c6173a3d id=03
[1995000] MASTER 0 W_VALID_RDY Handshake beat=70 wlast=0
[2005000] MASTER 0 W_VALID_RDY Handshake beat=71 wlast=0
[2005000] AXI S0_WVALID_RDY HANDSHAKE
[2005000] S0 MEMORY WRITE beat=70 addr=05091688 data=dd3053d9e008346c id=03
[2015000] AXI S0_WVALID_RDY HANDSHAKE
[2015000] S0 MEMORY WRITE beat=71 addr=05091698 data=34f0281fcfbc3ab9 id=03
[2015000] MASTER 0 W_VALID_RDY Handshake beat=72 wlast=0
[2025000] MASTER 0 W_VALID_RDY Handshake beat=73 wlast=0
[2025000] AXI S0_WVALID_RDY HANDSHAKE
[2025000] S0 MEMORY WRITE beat=72 addr=050916a8 data=15d374f73ff8d603 id=03
[2035000] AXI S0_WVALID_RDY HANDSHAKE
[2035000] S0 MEMORY WRITE beat=73 addr=050916b8 data=a0010a6fdf2b5476 id=03
[2035000] MASTER 0 W_VALID_RDY Handshake beat=74 wlast=0
[2045000] MASTER 0 W_VALID_RDY Handshake beat=75 wlast=0
[2045000] AXI S0_WVALID_RDY HANDSHAKE
[2045000] S0 MEMORY WRITE beat=74 addr=050916c8 data=2ee78f30f303c8d0 id=03
[2055000] AXI S0_WVALID_RDY HANDSHAKE
[2055000] S0 MEMORY WRITE beat=75 addr=050916d8 data=b2fc9ed3d4f1328e id=03
[2055000] MASTER 0 W_VALID_RDY Handshake beat=76 wlast=0
[2065000] MASTER 0 W_VALID_RDY Handshake beat=77 wlast=0
[2065000] AXI S0_WVALID_RDY HANDSHAKE
[2065000] S0 MEMORY WRITE beat=76 addr=050916e8 data=341c8705c4bb0427 id=03
[2075000] AXI S0_WVALID_RDY HANDSHAKE
[2075000] S0 MEMORY WRITE beat=77 addr=050916f8 data=b7beccf7d2fda943 id=03
[2075000] MASTER 0 W_VALID_RDY Handshake beat=78 wlast=0
[2085000] MASTER 0 W_VALID_RDY Handshake beat=79 wlast=0
[2085000] AXI S0_WVALID_RDY HANDSHAKE
[2085000] S0 MEMORY WRITE beat=78 addr=05091708 data=a7eedbd1e3041635 id=03
[2095000] AXI S0_WVALID_RDY HANDSHAKE
[2095000] S0 MEMORY WRITE beat=79 addr=05091718 data=27bf1a5ceabb6bcb id=03
[2095000] MASTER 0 W_VALID_RDY Handshake beat=80 wlast=0
[2105000] MASTER 0 W_VALID_RDY Handshake beat=81 wlast=0
[2105000] AXI S0_WVALID_RDY HANDSHAKE
[2105000] S0 MEMORY WRITE beat=80 addr=05091728 data=3db9150edc0b62d6 id=03
[2115000] AXI S0_WVALID_RDY HANDSHAKE
[2115000] S0 MEMORY WRITE beat=81 addr=05091738 data=bf0f790bdf7de753 id=03
[2115000] MASTER 0 W_VALID_RDY Handshake beat=82 wlast=0
[2125000] MASTER 0 W_VALID_RDY Handshake beat=83 wlast=0
[2125000] AXI S0_WVALID_RDY HANDSHAKE
[2125000] S0 MEMORY WRITE beat=82 addr=05091748 data=ca39531ee5a7f0df id=03
[2135000] AXI S0_WVALID_RDY HANDSHAKE
[2135000] S0 MEMORY WRITE beat=83 addr=05091758 data=c1b353b6e6ce9367 id=03
[2135000] MASTER 0 W_VALID_RDY Handshake beat=84 wlast=0
[2145000] MASTER 0 W_VALID_RDY Handshake beat=85 wlast=0
[2145000] AXI S0_WVALID_RDY HANDSHAKE
[2145000] S0 MEMORY WRITE beat=84 addr=05091768 data=c64c7abb87f2682c id=03
[2155000] AXI S0_WVALID_RDY HANDSHAKE
[2155000] S0 MEMORY WRITE beat=85 addr=05091778 data=ed9a590c80c2ccc1 id=03
[2155000] MASTER 0 W_VALID_RDY Handshake beat=86 wlast=0
[2165000] MASTER 0 W_VALID_RDY Handshake beat=87 wlast=0
[2165000] AXI S0_WVALID_RDY HANDSHAKE
[2165000] S0 MEMORY WRITE beat=86 addr=05091788 data=e79160299085cdd9 id=03
[2175000] AXI S0_WVALID_RDY HANDSHAKE
[2175000] S0 MEMORY WRITE beat=87 addr=05091798 data=187836062f4dacc2 id=03
[2175000] MASTER 0 W_VALID_RDY Handshake beat=88 wlast=0
[2185000] MASTER 0 W_VALID_RDY Handshake beat=89 wlast=0
[2185000] AXI S0_WVALID_RDY HANDSHAKE
[2185000] S0 MEMORY WRITE beat=88 addr=050917a8 data=b01079832ddddae4 id=03
[2195000] AXI S0_WVALID_RDY HANDSHAKE
[2195000] S0 MEMORY WRITE beat=89 addr=050917b8 data=be63a8bd06128f12 id=03
[2195000] MASTER 0 W_VALID_RDY Handshake beat=90 wlast=0
[2205000] MASTER 0 W_VALID_RDY Handshake beat=91 wlast=0
[2205000] AXI S0_WVALID_RDY HANDSHAKE
[2205000] S0 MEMORY WRITE beat=90 addr=050917c8 data=35603bd497a1d9ac id=03
[2215000] AXI S0_WVALID_RDY HANDSHAKE
[2215000] S0 MEMORY WRITE beat=91 addr=050917d8 data=c57fb490d6dbdec3 id=03
[2215000] MASTER 0 W_VALID_RDY Handshake beat=92 wlast=0
[2225000] MASTER 0 W_VALID_RDY Handshake beat=93 wlast=0
[2225000] AXI S0_WVALID_RDY HANDSHAKE
[2225000] S0 MEMORY WRITE beat=92 addr=050917e8 data=dcee6dd5e570b557 id=03
[2235000] AXI S0_WVALID_RDY HANDSHAKE
[2235000] S0 MEMORY WRITE beat=93 addr=050917f8 data=fd128f0403e35d4e id=03
[2235000] MASTER 0 W_VALID_RDY Handshake beat=94 wlast=0
[2245000] MASTER 0 W_VALID_RDY Handshake beat=95 wlast=0
[2245000] AXI S0_WVALID_RDY HANDSHAKE
[2245000] S0 MEMORY WRITE beat=94 addr=05091808 data=dabf3c11924ea9a9 id=03
[2255000] AXI S0_WVALID_RDY HANDSHAKE
[2255000] S0 MEMORY WRITE beat=95 addr=05091818 data=f7bf5f01c2924394 id=03
[2255000] MASTER 0 W_VALID_RDY Handshake beat=96 wlast=0
[2265000] MASTER 0 W_VALID_RDY Handshake beat=97 wlast=0
[2265000] AXI S0_WVALID_RDY HANDSHAKE
[2265000] S0 MEMORY WRITE beat=96 addr=05091828 data=c675a0e237ada9e7 id=03
[2275000] AXI S0_WVALID_RDY HANDSHAKE
[2275000] S0 MEMORY WRITE beat=97 addr=05091838 data=c9fc5390f4d1ee05 id=03
[2275000] MASTER 0 W_VALID_RDY Handshake beat=98 wlast=0
[2285000] MASTER 0 W_VALID_RDY Handshake beat=99 wlast=0
[2285000] AXI S0_WVALID_RDY HANDSHAKE
[2285000] S0 MEMORY WRITE beat=98 addr=05091848 data=b76431992134dcf4 id=03
[2295000] AXI S0_WVALID_RDY HANDSHAKE
[2295000] S0 MEMORY WRITE beat=99 addr=05091858 data=d8e286dbc1bbb291 id=03
[2295000] MASTER 0 W_VALID_RDY Handshake beat=100 wlast=0
[2305000] MASTER 0 W_VALID_RDY Handshake beat=101 wlast=0
[2305000] AXI S0_WVALID_RDY HANDSHAKE
[2305000] S0 MEMORY WRITE beat=100 addr=05091868 data=b68da096fdd9d27c id=03
[2315000] AXI S0_WVALID_RDY HANDSHAKE
[2315000] S0 MEMORY WRITE beat=101 addr=05091878 data=1f0eaf70a2deda6b id=03
[2315000] MASTER 0 W_VALID_RDY Handshake beat=102 wlast=0
[2325000] MASTER 0 W_VALID_RDY Handshake beat=103 wlast=0
[2325000] AXI S0_WVALID_RDY HANDSHAKE
[2325000] S0 MEMORY WRITE beat=102 addr=05091888 data=e49a8cfdedf1d230 id=03
[2335000] AXI S0_WVALID_RDY HANDSHAKE
[2335000] S0 MEMORY WRITE beat=103 addr=05091898 data=ebcba4acf7f1364b id=03
[2335000] MASTER 0 W_VALID_RDY Handshake beat=104 wlast=0
[2345000] MASTER 0 W_VALID_RDY Handshake beat=105 wlast=0
[2345000] AXI S0_WVALID_RDY HANDSHAKE
[2345000] S0 MEMORY WRITE beat=104 addr=050918a8 data=9ad010b69b282d93 id=03
[2355000] AXI S0_WVALID_RDY HANDSHAKE
[2355000] S0 MEMORY WRITE beat=105 addr=050918b8 data=8919ffc30ada541c id=03
[2355000] MASTER 0 W_VALID_RDY Handshake beat=106 wlast=0
[2365000] MASTER 0 W_VALID_RDY Handshake beat=107 wlast=0
[2365000] AXI S0_WVALID_RDY HANDSHAKE
[2365000] S0 MEMORY WRITE beat=106 addr=050918c8 data=02cb8a67ff6a9db3 id=03
[2375000] AXI S0_WVALID_RDY HANDSHAKE
[2375000] S0 MEMORY WRITE beat=107 addr=050918d8 data=1a92cb47f4e5a46f id=03
[2375000] MASTER 0 W_VALID_RDY Handshake beat=108 wlast=0
[2385000] MASTER 0 W_VALID_RDY Handshake beat=109 wlast=0
[2385000] AXI S0_WVALID_RDY HANDSHAKE
[2385000] S0 MEMORY WRITE beat=108 addr=050918e8 data=ffbff88b9d9b9b1d id=03
[2395000] AXI S0_WVALID_RDY HANDSHAKE
[2395000] S0 MEMORY WRITE beat=109 addr=050918f8 data=1d0638d1a3accb0a id=03
[2395000] MASTER 0 W_VALID_RDY Handshake beat=110 wlast=0
[2405000] MASTER 0 W_VALID_RDY Handshake beat=111 wlast=0
[2405000] AXI S0_WVALID_RDY HANDSHAKE
[2405000] S0 MEMORY WRITE beat=110 addr=05091908 data=18926f7a828b82f2 id=03
[2415000] AXI S0_WVALID_RDY HANDSHAKE
[2415000] S0 MEMORY WRITE beat=111 addr=05091918 data=20271e1037990418 id=03
[2415000] MASTER 0 W_VALID_RDY Handshake beat=112 wlast=0
[2425000] MASTER 0 W_VALID_RDY Handshake beat=113 wlast=0
[2425000] AXI S0_WVALID_RDY HANDSHAKE
[2425000] S0 MEMORY WRITE beat=112 addr=05091928 data=db45cf2298526805 id=03
[2435000] AXI S0_WVALID_RDY HANDSHAKE
[2435000] S0 MEMORY WRITE beat=113 addr=05091938 data=1addeaf83d2d56e1 id=03
[2435000] MASTER 0 W_VALID_RDY Handshake beat=114 wlast=0
[2445000] MASTER 0 W_VALID_RDY Handshake beat=115 wlast=0
[2445000] AXI S0_WVALID_RDY HANDSHAKE
[2445000] S0 MEMORY WRITE beat=114 addr=05091948 data=f4c65af9f3d83e9c id=03
[2455000] AXI S0_WVALID_RDY HANDSHAKE
[2455000] S0 MEMORY WRITE beat=115 addr=05091958 data=0c2aa6a23b050908 id=03
[2455000] MASTER 0 W_VALID_RDY Handshake beat=116 wlast=0
[2465000] MASTER 0 W_VALID_RDY Handshake beat=117 wlast=0
[2465000] AXI S0_WVALID_RDY HANDSHAKE
[2465000] S0 MEMORY WRITE beat=116 addr=05091968 data=f8325fe9d00c2a1b id=03
[2475000] AXI S0_WVALID_RDY HANDSHAKE
[2475000] S0 MEMORY WRITE beat=117 addr=05091978 data=c3e468b82708919a id=03
[2475000] MASTER 0 W_VALID_RDY Handshake beat=118 wlast=0
[2485000] MASTER 0 W_VALID_RDY Handshake beat=119 wlast=0
[2485000] AXI S0_WVALID_RDY HANDSHAKE
[2485000] S0 MEMORY WRITE beat=118 addr=05091988 data=e20d9aa2ecf8bae2 id=03
[2495000] AXI S0_WVALID_RDY HANDSHAKE
[2495000] S0 MEMORY WRITE beat=119 addr=05091998 data=bd04e4fdd00f0f5a id=03
[2495000] MASTER 0 W_VALID_RDY Handshake beat=120 wlast=0
[2505000] MASTER 0 W_VALID_RDY Handshake beat=121 wlast=0
[2505000] AXI S0_WVALID_RDY HANDSHAKE
[2505000] S0 MEMORY WRITE beat=120 addr=050919a8 data=f717a0f4da3ffa8b id=03
[2515000] AXI S0_WVALID_RDY HANDSHAKE
[2515000] S0 MEMORY WRITE beat=121 addr=050919b8 data=c738b56d80e94db5 id=03
[2515000] MASTER 0 W_VALID_RDY Handshake beat=122 wlast=0
[2525000] MASTER 0 W_VALID_RDY Handshake beat=123 wlast=0
[2525000] AXI S0_WVALID_RDY HANDSHAKE
[2525000] S0 MEMORY WRITE beat=122 addr=050919c8 data=d0f85d0fd9253b96 id=03
[2535000] AXI S0_WVALID_RDY HANDSHAKE
[2535000] S0 MEMORY WRITE beat=123 addr=050919d8 data=33653621843d9a6a id=03
[2535000] MASTER 0 W_VALID_RDY Handshake beat=124 wlast=0
[2545000] MASTER 0 W_VALID_RDY Handshake beat=125 wlast=0
[2545000] AXI S0_WVALID_RDY HANDSHAKE
[2545000] S0 MEMORY WRITE beat=124 addr=050919e8 data=0526e820c80ffe03 id=03
[2555000] AXI S0_WVALID_RDY HANDSHAKE
[2555000] S0 MEMORY WRITE beat=125 addr=050919f8 data=a1353999fa9deb8e id=03
[2555000] MASTER 0 W_VALID_RDY Handshake beat=126 wlast=0
[2565000] MASTER 0 W_VALID_RDY Handshake beat=127 wlast=0
[2565000] AXI S0_WVALID_RDY HANDSHAKE
[2565000] S0 MEMORY WRITE beat=126 addr=05091a08 data=fedb85f8d61f452f id=03
[2575000] AXI S0_WVALID_RDY HANDSHAKE
[2575000] S0 MEMORY WRITE beat=127 addr=05091a18 data=1e2f4333d49a6fba id=03
[2575000] MASTER 0 W_VALID_RDY Handshake beat=128 wlast=0
[2585000] MASTER 0 W_VALID_RDY Handshake beat=129 wlast=0
[2585000] AXI S0_WVALID_RDY HANDSHAKE
[2585000] S0 MEMORY WRITE beat=128 addr=05091a28 data=cf385b4884026e18 id=03
[2595000] AXI S0_WVALID_RDY HANDSHAKE
[2595000] S0 MEMORY WRITE beat=129 addr=05091a38 data=da21b348bf647ccc id=03
[2595000] MASTER 0 W_VALID_RDY Handshake beat=130 wlast=0
[2605000] MASTER_DRIVER0 received transaction, op=AXI_READ
[2605000] MASTER 0 W_VALID_RDY Handshake beat=131 wlast=1
[2605000] AXI S0_WVALID_RDY HANDSHAKE
[2605000] S0 MEMORY WRITE beat=130 addr=05091a48 data=13feec87ce13e141 id=03
[2615000] AXI S0_WVALID_RDY HANDSHAKE
[2615000] S0 MEMORY WRITE beat=131 addr=05091a58 data=d2164f59f850f67b id=03
[2625000] SLAVE0 sent B resp, id=3
[2635000] AXI S0_ARVALID_RDY HANDSHAKE
[2635000] MEMORY READ MISS beat=0 addr=107bb08 -> default data id=2
[2635000] [SLAVE MONITOR] mst_id=0 s_id=0 awaddr=5091228 awid=11 awlen=131 awsize=4 awburst=1 wdata=[fcf02b3dd827ebe6 aad4c58e85ade7f0 c4d0d372fb0c5fc0 d3344ba7c77fe955 cd2dd145c1c0feaf bccd5e6ffe091135 c588fa8a91fea4b7 d3bfa3669001aa16 e0abb4c12b6cbd0 a4b57087108d01d6 a08eabecd393b5d6 e64a81a6f87513ee 90215c4ae996738 22d1d0f0afff22e 375061ca990c1b0 d82a28e9e8779eb5 f37790e30c771be0 b607dd90da5745f8 c2cee4adf6ec96ff 8363b2df8e320679 e8894c7136467591 ad330c90396b9070 c79d96e92b58311f e19ea6b03096bf70 ea024fe03026e35b db7f147a8ed1b340 bf6872b0b19fe6c9 e1c6ca243d1dbb2a cbef6e6aa96ac290 db0aa95abd45de9e fa6399c80b57e11b b4c2a3abbcd1737e fa17521dc6530833 d1aae94e8fcd4d05 cc9ec084f47aebe5 bacdf418866d8cf9 163ad9ffc6b612a1 bb30fe868c78dd66 12e66a60e2d99a83 298fad24f5fef29f 8277d0052921445f bfadee2e4c0abaa dabf9e49955e3a65 be7f7ec4358a8c06 9a4b37b0dd376e4f f295a8b4ca7a5da6 8004e9acf50ad5fa d242444931152779 fb8f851f1a50215d f5af757c4d7ecfd f5ed1476fb946ecc 15e49029e19d3ba0 a675289df17c9996 ed110862253f8780 6dcc3201c623d14 dded6aa02f5988b 2835200bad51ebbd c9b428d1faefdf0c fde577972f11e32b dc63cee8d792ff7b d282de87261a97a2 d52c7acd2617f7ba fdaaf735d068561e f682edc0b19049b5 d7a8416fd02dd5bd a0962bdbcbaf688d fd3fb243d55338a5 25810e621719199c e2c88229d4e7f3b2 aa3b2c57c6173a3d dd3053d9e008346c 34f0281fcfbc3ab9 15d374f73ff8d603 a0010a6fdf2b5476 2ee78f30f303c8d0 b2fc9ed3d4f1328e 341c8705c4bb0427 b7beccf7d2fda943 a7eedbd1e3041635 27bf1a5ceabb6bcb 3db9150edc0b62d6 bf0f790bdf7de753 ca39531ee5a7f0df c1b353b6e6ce9367 c64c7abb87f2682c ed9a590c80c2ccc1 e79160299085cdd9 187836062f4dacc2 b01079832ddddae4 be63a8bd06128f12 35603bd497a1d9ac c57fb490d6dbdec3 dcee6dd5e570b557 fd128f0403e35d4e dabf3c11924ea9a9 f7bf5f01c2924394 c675a0e237ada9e7 c9fc5390f4d1ee05 b76431992134dcf4 d8e286dbc1bbb291 b68da096fdd9d27c 1f0eaf70a2deda6b e49a8cfdedf1d230 ebcba4acf7f1364b 9ad010b69b282d93 8919ffc30ada541c 2cb8a67ff6a9db3 1a92cb47f4e5a46f ffbff88b9d9b9b1d 1d0638d1a3accb0a 18926f7a828b82f2 20271e1037990418 db45cf2298526805 1addeaf83d2d56e1 f4c65af9f3d83e9c c2aa6a23b050908 f8325fe9d00c2a1b c3e468b82708919a e20d9aa2ecf8bae2 bd04e4fdd00f0f5a f717a0f4da3ffa8b c738b56d80e94db5 d0f85d0fd9253b96 33653621843d9a6a 526e820c80ffe03 a1353999fa9deb8e fedb85f8d61f452f 1e2f4333d49a6fba cf385b4884026e18 da21b348bf647ccc 13feec87ce13e141 d2164f59f850f67b ] wstrb=[cf 47 a1 10 ce 1c 6a 9e 64 b ae 32 28 18 d0 8c 24 7f be 4c 97 8f d8 bb e 96 7 a5 25 df 61 33 76 68 d9 9b 48 3a cf be a2 a8 59 ea e2 28 a8 84 d0 2 6f b2 2a 17 37 fb 19 a6 ad 44 bd e4 3f d7 8a ec 1b 48 d1 5a 1f 5b 46 3a a3 17 94 c2 73 da fc 16 f2 90 d9 65 6b d5 7b 5d 66 54 c2 d1 2a 3d 2e 90 92 f0 61 bc 2d 8f 4c bf 7f ad 7b ac 3c c7 6c bb 74 e7 67 b0 af d3 6b 23 bb d3 d4 6a a6 3f 8d 61 12 61 ] bresp=0 bid=11
[2635000] ARB MONITOR: slave=0 m0_req=1 m1_req=0 winner=0
[2645000] MASTER 0 RECEIVED BRESP. BRESP=0
[2645000] [MASTER DRIVER] mst_id=0 s_id=0 awaddr=5091228 awid=11 awlen=131 awsize=4 awburst=1 wdata=[fcf02b3dd827ebe6 aad4c58e85ade7f0 c4d0d372fb0c5fc0 d3344ba7c77fe955 cd2dd145c1c0feaf bccd5e6ffe091135 c588fa8a91fea4b7 d3bfa3669001aa16 e0abb4c12b6cbd0 a4b57087108d01d6 a08eabecd393b5d6 e64a81a6f87513ee 90215c4ae996738 22d1d0f0afff22e 375061ca990c1b0 d82a28e9e8779eb5 f37790e30c771be0 b607dd90da5745f8 c2cee4adf6ec96ff 8363b2df8e320679 e8894c7136467591 ad330c90396b9070 c79d96e92b58311f e19ea6b03096bf70 ea024fe03026e35b db7f147a8ed1b340 bf6872b0b19fe6c9 e1c6ca243d1dbb2a cbef6e6aa96ac290 db0aa95abd45de9e fa6399c80b57e11b b4c2a3abbcd1737e fa17521dc6530833 d1aae94e8fcd4d05 cc9ec084f47aebe5 bacdf418866d8cf9 163ad9ffc6b612a1 bb30fe868c78dd66 12e66a60e2d99a83 298fad24f5fef29f 8277d0052921445f bfadee2e4c0abaa dabf9e49955e3a65 be7f7ec4358a8c06 9a4b37b0dd376e4f f295a8b4ca7a5da6 8004e9acf50ad5fa d242444931152779 fb8f851f1a50215d f5af757c4d7ecfd f5ed1476fb946ecc 15e49029e19d3ba0 a675289df17c9996 ed110862253f8780 6dcc3201c623d14 dded6aa02f5988b 2835200bad51ebbd c9b428d1faefdf0c fde577972f11e32b dc63cee8d792ff7b d282de87261a97a2 d52c7acd2617f7ba fdaaf735d068561e f682edc0b19049b5 d7a8416fd02dd5bd a0962bdbcbaf688d fd3fb243d55338a5 25810e621719199c e2c88229d4e7f3b2 aa3b2c57c6173a3d dd3053d9e008346c 34f0281fcfbc3ab9 15d374f73ff8d603 a0010a6fdf2b5476 2ee78f30f303c8d0 b2fc9ed3d4f1328e 341c8705c4bb0427 b7beccf7d2fda943 a7eedbd1e3041635 27bf1a5ceabb6bcb 3db9150edc0b62d6 bf0f790bdf7de753 ca39531ee5a7f0df c1b353b6e6ce9367 c64c7abb87f2682c ed9a590c80c2ccc1 e79160299085cdd9 187836062f4dacc2 b01079832ddddae4 be63a8bd06128f12 35603bd497a1d9ac c57fb490d6dbdec3 dcee6dd5e570b557 fd128f0403e35d4e dabf3c11924ea9a9 f7bf5f01c2924394 c675a0e237ada9e7 c9fc5390f4d1ee05 b76431992134dcf4 d8e286dbc1bbb291 b68da096fdd9d27c 1f0eaf70a2deda6b e49a8cfdedf1d230 ebcba4acf7f1364b 9ad010b69b282d93 8919ffc30ada541c 2cb8a67ff6a9db3 1a92cb47f4e5a46f ffbff88b9d9b9b1d 1d0638d1a3accb0a 18926f7a828b82f2 20271e1037990418 db45cf2298526805 1addeaf83d2d56e1 f4c65af9f3d83e9c c2aa6a23b050908 f8325fe9d00c2a1b c3e468b82708919a e20d9aa2ecf8bae2 bd04e4fdd00f0f5a f717a0f4da3ffa8b c738b56d80e94db5 d0f85d0fd9253b96 33653621843d9a6a 526e820c80ffe03 a1353999fa9deb8e fedb85f8d61f452f 1e2f4333d49a6fba cf385b4884026e18 da21b348bf647ccc 13feec87ce13e141 d2164f59f850f67b ] wstrb=[cf 47 a1 10 ce 1c 6a 9e 64 b ae 32 28 18 d0 8c 24 7f be 4c 97 8f d8 bb e 96 7 a5 25 df 61 33 76 68 d9 9b 48 3a cf be a2 a8 59 ea e2 28 a8 84 d0 2 6f b2 2a 17 37 fb 19 a6 ad 44 bd e4 3f d7 8a ec 1b 48 d1 5a 1f 5b 46 3a a3 17 94 c2 73 da fc 16 f2 90 d9 65 6b d5 7b 5d 66 54 c2 d1 2a 3d 2e 90 92 f0 61 bc 2d 8f 4c bf 7f ad 7b ac 3c c7 6c bb 74 e7 67 b0 af d3 6b 23 bb d3 d4 6a a6 3f 8d 61 12 61 ] bresp=0 bid=11
[2645000] MASTER 0 B_VALID_RDY Handshake
