#-----------------------------------------------------------
# xsim v2025.2 (64-bit)
# SW Build 6299465 on Fri Nov 14 12:34:56 MST 2025
# IP Build 6300035 on Fri Nov 14 10:48:45 MST 2025
# SharedData Build 6298862 on Thu Nov 13 04:50:51 MST 2025
# Start of session at: Thu Sep 10 18:27:07 2026
# Process ID         : 3624564
# Current directory  : /home/nashita/Desktop/practice/axi_xbar/sim
# Command line       : xsim -log regress_results/BT_run216.log -mode tcl -source {xsim.dir/tb_top_snap/xsim_script.tcl}
# Log file           : /home/nashita/Desktop/practice/axi_xbar/sim/regress_results/BT_run216.log
# Journal file       : /home/nashita/Desktop/practice/axi_xbar/sim/xsim.jou
# Running On         : vlsi-vivado
# Platform           : Ubuntu
# Operating System   : Ubuntu 24.04.4 LTS
# Processor Detail   : Intel(R) Core(TM) i5-10400 CPU @ 2.90GHz
# CPU Frequency      : 3999.990 MHz
# CPU Physical cores : 6
# CPU Logical cores  : 12
# Host memory        : 41875 MB
# Swap memory        : 27648 MB
# Total Virtual      : 69524 MB
# Available Virtual  : 62610 MB
#-----------------------------------------------------------
source xsim.dir/tb_top_snap/xsim_script.tcl
# xsim {tb_top_snap} -testplusarg BT -autoloadwcfg -runall -sv_seed 217
Time resolution is 1 ps
run -all
[0] RUNNING BASE TEST
[0] INSIDE THE BASE TEST CONSTRUCTOR
[0] ENV: before agent
[0] SLAVE CONSTRUCTED
[0] MASTER MONITOR CONSTRUCTED
[0] MASTER MONITOR CONSTRUCTED
[0] SLAVE MONITOR CONSTRUCTED
[0] SLAVE MONITOR CONSTRUCTED
[0] ARB MONITOR CONSTRUCTED
GENERATOR CONSTRUCTED
[0] ENV: after agent
[0] ENV: before scoreboard
[0] ENV: after scoreboard
[15000] [SEQUENCER] READ mst_id=1 s_id=0 araddr=10dbcf20 arid=0 arlen=1 arsize=3 arburst=1 rid=[] rresp=[] rdata=[]
[15000] [SEQUENCER] READ mst_id=1 s_id=0 araddr=14f2c7a8 arid=1 arlen=1 arsize=3 arburst=1 rid=[] rresp=[] rdata=[]
[15000] [SEQUENCER] READ mst_id=0 s_id=0 araddr=699d30 arid=0 arlen=1 arsize=3 arburst=1 rid=[] rresp=[] rdata=[]
[15000] [SEQUENCER] READ mst_id=1 s_id=0 araddr=be2ab30 arid=2 arlen=1 arsize=3 arburst=1 rid=[] rresp=[] rdata=[]
[15000] [SEQUENCER] mst_id=0 s_id=0 awaddr=14d84e70 awid=1010 awlen=139 awsize=7 awburst=1 wdata=[2157f44aea884388 8fc3ed04e020a098 f6d4d156faaa98ad e532dc36db9aa04e bbbb40e6982cc5a0 12d75e4ef4f6c93a d09169893290123d cabcd7ddf80a3a84 ed0103be8c4caa6f bedcbcacdd94362b d59e70afbd926d47 c9df17b70999948a e72dcab5c29f746e 8031e1b588bbd463 925568ed3ccc3b65 ff6bafd3ca10f96c d2cccdd0f98333a3 364f6f08ff9d9188 c9ae8af5e52236bd dea56a6035bb1edb b558b0631c7b58c5 819d8f8294f4d968 caaff843ff073b58 9b82941de042f9e3 f537d34b0008a8a7 ff0fe3ff1d2023a0 fd631d833fe7cb8f 3ff074361a92781d 37b29bbdf29af0ce b282bc5dbf005835 d992d0523515b940 a7b0aa0ef2733093 317388c991456c0f c65b254fda33666c cca696ff8b06591b 1c4bc52bee0bcf5e c83f35cafe1a1fc8 92078e4e2a6ea7a d0b2b9d894e5ccc9 12ffec92256c3e0f 8813288998f1efa2 2dd7bc6c1c206576 c18ca385d8c5e262 f1b7d204c0d7a8fe dcf80e74c99fcc0e a265ae709f8f8e70 e067376e1e84b1f9 e8247e07141d8075 b3ad0ee5bd5f45e2 dbe3f7db0a8a2c78 1ea7aced14144654 d1738c36c40875e3 ce92a25bd254bbd2 e66902262d578412 f15ff9f5ed3a4f48 bf8f0b1a37dc8e5d e534126f3ff29c50 2d2ceb9825f80d41 ddd49b9ed6940c64 1686a8b4ecbbf6b2 92b403f3c308ae0d 199cba71c3b3944c b06f8afef0889f91 b3914d9e30236325 f3d6f771c3238ef2 b3ac2e83cd2e080f fd516b34a446826f e76a1161e73d7c22 b46b8431f12862a5 156ee5151b163fe5 253bc0731bcef66 a2e5520bfcd8f676 97ef365bb6bf4038 e87c2f9eb8543720 352d2d979a42f262 d102329b0b6181aa c3b5b8cacd1c63f2 e75f5655b97e6239 c4dfe3e3f8e2e661 c5ff4a54386188f0 f1dfeb2908959cae 8178830f2d5ea0a9 e5c0299936bfcf0d 3f556bbbc777cd63 f4d66e0cd7a014c2 8e5fe3cfc0cdeeca 845bc2eda9697a5 3236ac68cdb54f8a e833e55fd1c2a3a d7b2c1e0c0969037 e4bdfc216c8fa83 93e524bd09e96e48 ca7ffe7f1ccf1e17 3398189aeb97e69d f58154e5d8cbde41 f59afc58c77d3d57 331523f5c0015365 98cd31a6a93314f2 f0b0524aa89678da e897cc3f0e682dff b79b42f123c5763f cc5bef190164fde6 fcd2be5a84b953b cc110b7a34f3bb59 3658b93fc7686ed6 efb40412186cfa94 cd60b5edc625e524 8d8e53fabbc50f8c d4320a2003b96f2c c9df5450fd42580c 39076799a192c00d a54c2f39d76da84a d4b000578d3971b9 2ecc31c7ef2b8389 c6992bd40db767f0 9af0d9a9d4186100 c343e48a1b492c2b 2900941bc9bd0b70 1dd56c7109dd105e 25263c89c3f16dc4 dae7935e11950fb eaf66159ce26d0a4 92183e682b83e5a6 c9d36a1101c9de2 de436e869fc6b79d cb4a9d43f79397fa 7b035dcf05bacee 1022648cd7e7d3e4 cf7b6bdee5f3a462 d64f5150db6d01cf 3354d5b4d72ba1ba bd1f461ce671b5dc c1deb7ac82d04192 d9fbe34d136e976d f9e04d49f5338d60 f803cef2971b2969 aa89c0d6bbbf04f5 b0f29255d1ffb23f e91adba9246a0e20 e029131528f66148 ] wstrb=[7f 87 6b 9f 30 b3 b5 b0 3a 20 4f 6b d3 4 1b d 24 6a 78 f7 6f 93 5 93 fe 7d 8b 6d 11 90 0 f d 8b 7c 1e 1b 7c 2d 29 8 a9 47 23 26 75 4c 2e 1e 94 51 44 9 9e 72 27 32 c4 6c 3b 62 de 62 94 a2 ce cf 4 ad 31 98 4f 0 67 54 ad 99 ec fc 99 54 50 46 ed 3d 42 86 91 93 cc 7e d0 e 4 61 a1 d0 df 71 de e3 d2 80 b3 b1 f1 91 94 c4 11 47 75 3 d9 a c7 ea 51 3c ed 2a 46 b4 15 98 f1 2 c2 37 b7 d7 cf a8 da 92 df 91 69 af 39 ] bresp=0 bid=0
[15000] MASTER_DRIVER1 received transaction, op=AXI_READ
[15000] MASTER_DRIVER0 received transaction, op=AXI_READ
[35000] MASTER_DRIVER1 received transaction, op=AXI_READ
[35000] MASTER_DRIVER0 received transaction, op=AXI_WRITE
[45000] ARB MONITOR: slave=0 m0_req=1 m1_req=0 winner=0
[45000] ARB MONITOR: slave=1 m0_req=0 m1_req=1 winner=1
[45000] AXI S0_ARVALID_RDY HANDSHAKE
[45000] MEMORY READ MISS beat=0 addr=10dbcf20 -> default data id=16
[45000] AXI S0_ARVALID_RDY HANDSHAKE
[45000] MEMORY READ MISS beat=0 addr=699d30 -> default data id=0
[55000] MEMORY READ MISS beat=1 addr=699d38 -> default data id=0
[55000] MEMORY READ MISS beat=1 addr=10dbcf28 -> default data id=16
[55000] SLAVE 0 R_VALID_RDY Handshake beat=0 rlast=0
[55000] SLAVE 1 R_VALID_RDY Handshake beat=0 rlast=0
[55000] MASTER 0 AW_VALID_RDY Handshake
[55000] MASTER_DRIVER1 received transaction, op=AXI_READ
[65000] ARB MONITOR: slave=1 m0_req=1 m1_req=0 winner=0
[65000] SLAVE 1 R_VALID_RDY Handshake beat=1 rlast=1
[65000] [SLAVE MONITOR] READ mst_id=1 s_id=1 araddr=10dbcf20 arid=0 arlen=1 arsize=3 arburst=1 rid=[1010] rresp=[00] rdata=[baadf00d12345678baadf00d12345678]
[65000] SLAVE 0 R_VALID_RDY Handshake beat=1 rlast=1
[65000] [SLAVE MONITOR] READ mst_id=0 s_id=0 araddr=699d30 arid=0 arlen=1 arsize=3 arburst=1 rid=[00] rresp=[00] rdata=[baadf00d12345678baadf00d12345678]
[65000] AXI S1_AWVALID_RDY HANDSHAKE
[75000] AXI S0_ARVALID_RDY HANDSHAKE
[75000] MEMORY READ MISS beat=0 addr=14f2c7a8 -> default data id=17
[75000] ARB MONITOR: slave=1 m0_req=0 m1_req=1 winner=1
[75000] MASTER 1 R_VALID_RDY Handshake beat=0 rlast=0
[75000] MASTER 0 R_VALID_RDY Handshake beat=0 rlast=0
[75000] MASTER 0 W_VALID_RDY Handshake beat=0 wlast=0
[85000] [MASTER DRIVER] READ mst_id=0 s_id=0 araddr=699d30 arid=0 arlen=1 arsize=3 arburst=1 rid=[00] rresp=[00] rdata=[baadf00d12345678baadf00d12345678]
[85000] [MASTER DRIVER] READ mst_id=1 s_id=0 araddr=10dbcf20 arid=0 arlen=1 arsize=3 arburst=1 rid=[00] rresp=[00] rdata=[baadf00d12345678baadf00d12345678]
[85000] MASTER 0 W_VALID_RDY Handshake beat=1 wlast=0
[85000] MASTER 0 R_VALID_RDY Handshake beat=1 rlast=1
[85000] [MASTER MONITOR] READ mst_id=0 s_id=0 araddr=699d30 arid=0 arlen=1 arsize=3 arburst=1 rid=[00] rresp=[00] rdata=[baadf00d12345678baadf00d12345678]
[85000] MASTER 1 R_VALID_RDY Handshake beat=1 rlast=1
[85000] [MASTER MONITOR] READ mst_id=1 s_id=1 araddr=10dbcf20 arid=0 arlen=1 arsize=3 arburst=1 rid=[00] rresp=[00] rdata=[baadf00d12345678baadf00d12345678]
[85000] ARB MONITOR: slave=0 m0_req=0 m1_req=1 winner=1
[85000] SLAVE 1 R_VALID_RDY Handshake beat=0 rlast=0
[85000] MEMORY READ MISS beat=1 addr=14f2c7b0 -> default data id=17
[85000] AXI S0_ARVALID_RDY HANDSHAKE
[85000] MEMORY READ MISS beat=0 addr=be2ab30 -> default data id=18
[85000] S1 MEMORY WRITE beat=0 addr=14d84e70 data=2157f44aea884388 id=0a
[85000] SCOREBOARD MATCH: decode_err expected = 0, actual =0
[85000] SCOREBOARD MATCH: slave_id expected = 0, actual =0
[85000] SCOREBOARD MATCH: araddr passthrough expected = 699d30, actual =699d30
[85000] SCOREBOARD MATCH: arlen passthrough expected = 1, actual =1
[85000] SCOREBOARD MATCH: arsize passthrough expected = 3, actual =3
[85000] SCOREBOARD MATCH: arburst passthrough expected = 1, actual =1
[85000] SCOREBOARD MATCH: rdata size check expected = 2, actual =2
[85000] SCOREBOARD MATCH: rdata passthrough beat=0 expected = baadf00d12345678, actual =baadf00d12345678
[85000] SCOREBOARD MATCH: rdata passthrough beat=1 expected = baadf00d12345678, actual =baadf00d12345678
[85000] SCOREBOARD MATCH: rresp size check expected = 2, actual =2
[85000] SCOREBOARD MATCH: rresp passthrough beat=0 expected = 0, actual =0
[85000] SCOREBOARD MATCH: rresp passthrough beat=1 expected = 0, actual =0
[85000] SCOREBOARD MATCH: response routed to correct master (read beat 0) expected = 0, actual =0
[85000] SCOREBOARD MATCH: response routed to correct master (read beat 1) expected = 0, actual =0
[85000] [SCOREBOARD-M] READ mst_id=0 s_id=0 araddr=699d30 arid=0 arlen=1 arsize=3 arburst=1 rid=[00] rresp=[00] rdata=[baadf00d12345678baadf00d12345678]
[85000] [SCOREBOARD-S] READ mst_id=0 s_id=0 araddr=699d30 arid=0 arlen=1 arsize=3 arburst=1 rid=[00] rresp=[00] rdata=[baadf00d12345678baadf00d12345678]
[85000] SCOREBOARD: Transaction 1 received. pass=14 fail=0
[85000] ALL PASS. Total transactions: 1
[85000] SCOREBOARD MATCH: decode_err expected = 0, actual =0
[85000] SCOREBOARD MATCH: slave_id expected = 1, actual =1
[85000] SCOREBOARD MATCH: araddr passthrough expected = 10dbcf20, actual =10dbcf20
[85000] SCOREBOARD MATCH: arlen passthrough expected = 1, actual =1
[85000] SCOREBOARD MATCH: arsize passthrough expected = 3, actual =3
[85000] SCOREBOARD MATCH: arburst passthrough expected = 1, actual =1
[85000] SCOREBOARD MATCH: rdata size check expected = 2, actual =2
[85000] SCOREBOARD MATCH: rdata passthrough beat=0 expected = baadf00d12345678, actual =baadf00d12345678
[85000] SCOREBOARD MATCH: rdata passthrough beat=1 expected = baadf00d12345678, actual =baadf00d12345678
[85000] SCOREBOARD MATCH: rresp size check expected = 2, actual =2
[85000] SCOREBOARD MATCH: rresp passthrough beat=0 expected = 0, actual =0
[85000] SCOREBOARD MATCH: rresp passthrough beat=1 expected = 0, actual =0
[85000] SCOREBOARD MATCH: response routed to correct master (read beat 0) expected = 1, actual =1
[85000] SCOREBOARD MATCH: response routed to correct master (read beat 1) expected = 1, actual =1
[85000] [SCOREBOARD-M] READ mst_id=1 s_id=1 araddr=10dbcf20 arid=0 arlen=1 arsize=3 arburst=1 rid=[00] rresp=[00] rdata=[baadf00d12345678baadf00d12345678]
[85000] [SCOREBOARD-S] READ mst_id=1 s_id=1 araddr=10dbcf20 arid=0 arlen=1 arsize=3 arburst=1 rid=[1010] rresp=[00] rdata=[baadf00d12345678baadf00d12345678]
[85000] SCOREBOARD: Transaction 2 received. pass=28 fail=0
[85000] ALL PASS. Total transactions: 2
[95000] S1 MEMORY WRITE beat=1 addr=14d84ef0 data=8fc3ed04e020a098 id=0a
[95000] MEMORY READ MISS beat=1 addr=be2ab38 -> default data id=18
[95000] SLAVE 0 R_VALID_RDY Handshake beat=0 rlast=0
[95000] SLAVE 1 R_VALID_RDY Handshake beat=1 rlast=1
[95000] [SLAVE MONITOR] READ mst_id=1 s_id=1 araddr=14f2c7a8 arid=1 arlen=1 arsize=3 arburst=1 rid=[1111] rresp=[00] rdata=[baadf00d12345678baadf00d12345678]
[95000] MASTER 0 W_VALID_RDY Handshake beat=2 wlast=0
[105000] MASTER 0 W_VALID_RDY Handshake beat=3 wlast=0
[105000] MASTER 1 R_VALID_RDY Handshake beat=0 rlast=0
[105000] SLAVE 0 R_VALID_RDY Handshake beat=1 rlast=1
[105000] [SLAVE MONITOR] READ mst_id=1 s_id=0 araddr=be2ab30 arid=2 arlen=1 arsize=3 arburst=1 rid=[1212] rresp=[00] rdata=[baadf00d12345678baadf00d12345678]
[105000] S1 MEMORY WRITE beat=2 addr=14d84f70 data=f6d4d156faaa98ad id=0a
[115000] S1 MEMORY WRITE beat=3 addr=14d84ff0 data=e532dc36db9aa04e id=0a
[115000] MASTER 1 R_VALID_RDY Handshake beat=1 rlast=1
[115000] [MASTER MONITOR] READ mst_id=1 s_id=1 araddr=14f2c7a8 arid=1 arlen=1 arsize=3 arburst=1 rid=[11] rresp=[00] rdata=[baadf00d12345678baadf00d12345678]
[115000] MASTER 0 W_VALID_RDY Handshake beat=4 wlast=0
[115000] [MASTER DRIVER] READ mst_id=1 s_id=0 araddr=14f2c7a8 arid=1 arlen=1 arsize=3 arburst=1 rid=[11] rresp=[00] rdata=[baadf00d12345678baadf00d12345678]
[115000] SCOREBOARD MATCH: decode_err expected = 0, actual =0
[115000] SCOREBOARD MATCH: slave_id expected = 1, actual =1
[115000] SCOREBOARD MATCH: araddr passthrough expected = 14f2c7a8, actual =14f2c7a8
[115000] SCOREBOARD MATCH: arlen passthrough expected = 1, actual =1
[115000] SCOREBOARD MATCH: arsize passthrough expected = 3, actual =3
[115000] SCOREBOARD MATCH: arburst passthrough expected = 1, actual =1
[115000] SCOREBOARD MATCH: rdata size check expected = 2, actual =2
[115000] SCOREBOARD MATCH: rdata passthrough beat=0 expected = baadf00d12345678, actual =baadf00d12345678
[115000] SCOREBOARD MATCH: rdata passthrough beat=1 expected = baadf00d12345678, actual =baadf00d12345678
[115000] SCOREBOARD MATCH: rresp size check expected = 2, actual =2
[115000] SCOREBOARD MATCH: rresp passthrough beat=0 expected = 0, actual =0
[115000] SCOREBOARD MATCH: rresp passthrough beat=1 expected = 0, actual =0
[115000] SCOREBOARD MATCH: response routed to correct master (read beat 0) expected = 1, actual =1
[115000] SCOREBOARD MATCH: response routed to correct master (read beat 1) expected = 1, actual =1
[115000] [SCOREBOARD-M] READ mst_id=1 s_id=1 araddr=14f2c7a8 arid=1 arlen=1 arsize=3 arburst=1 rid=[11] rresp=[00] rdata=[baadf00d12345678baadf00d12345678]
[115000] [SCOREBOARD-S] READ mst_id=1 s_id=1 araddr=14f2c7a8 arid=1 arlen=1 arsize=3 arburst=1 rid=[1111] rresp=[00] rdata=[baadf00d12345678baadf00d12345678]
[115000] SCOREBOARD: Transaction 3 received. pass=42 fail=0
[115000] ALL PASS. Total transactions: 3
[125000] MASTER 0 W_VALID_RDY Handshake beat=5 wlast=0
[125000] S1 MEMORY WRITE beat=4 addr=14d85070 data=bbbb40e6982cc5a0 id=0a
[135000] S1 MEMORY WRITE beat=5 addr=14d850f0 data=12d75e4ef4f6c93a id=0a
[135000] MASTER 1 R_VALID_RDY Handshake beat=0 rlast=0
[135000] MASTER 0 W_VALID_RDY Handshake beat=6 wlast=0
[145000] [MASTER DRIVER] READ mst_id=1 s_id=0 araddr=be2ab30 arid=2 arlen=1 arsize=3 arburst=1 rid=[22] rresp=[00] rdata=[baadf00d12345678baadf00d12345678]
[145000] MASTER 0 W_VALID_RDY Handshake beat=7 wlast=0
[145000] MASTER 1 R_VALID_RDY Handshake beat=1 rlast=1
[145000] [MASTER MONITOR] READ mst_id=1 s_id=0 araddr=be2ab30 arid=2 arlen=1 arsize=3 arburst=1 rid=[22] rresp=[00] rdata=[baadf00d12345678baadf00d12345678]
[145000] S1 MEMORY WRITE beat=6 addr=14d85170 data=d09169893290123d id=0a
[145000] SCOREBOARD MATCH: decode_err expected = 0, actual =0
[145000] SCOREBOARD MATCH: slave_id expected = 0, actual =0
[145000] SCOREBOARD MATCH: araddr passthrough expected = be2ab30, actual =be2ab30
[145000] SCOREBOARD MATCH: arlen passthrough expected = 1, actual =1
[145000] SCOREBOARD MATCH: arsize passthrough expected = 3, actual =3
[145000] SCOREBOARD MATCH: arburst passthrough expected = 1, actual =1
[145000] SCOREBOARD MATCH: rdata size check expected = 2, actual =2
[145000] SCOREBOARD MATCH: rdata passthrough beat=0 expected = baadf00d12345678, actual =baadf00d12345678
[145000] SCOREBOARD MATCH: rdata passthrough beat=1 expected = baadf00d12345678, actual =baadf00d12345678
[145000] SCOREBOARD MATCH: rresp size check expected = 2, actual =2
[145000] SCOREBOARD MATCH: rresp passthrough beat=0 expected = 0, actual =0
[145000] SCOREBOARD MATCH: rresp passthrough beat=1 expected = 0, actual =0
[145000] SCOREBOARD MATCH: response routed to correct master (read beat 0) expected = 1, actual =1
[145000] SCOREBOARD MATCH: response routed to correct master (read beat 1) expected = 1, actual =1
[145000] [SCOREBOARD-M] READ mst_id=1 s_id=0 araddr=be2ab30 arid=2 arlen=1 arsize=3 arburst=1 rid=[22] rresp=[00] rdata=[baadf00d12345678baadf00d12345678]
[145000] [SCOREBOARD-S] READ mst_id=1 s_id=0 araddr=be2ab30 arid=2 arlen=1 arsize=3 arburst=1 rid=[1212] rresp=[00] rdata=[baadf00d12345678baadf00d12345678]
[145000] SCOREBOARD: Transaction 4 received. pass=56 fail=0
[145000] ALL PASS. Total transactions: 4
[155000] S1 MEMORY WRITE beat=7 addr=14d851f0 data=cabcd7ddf80a3a84 id=0a
[155000] MASTER 0 W_VALID_RDY Handshake beat=8 wlast=0
[165000] MASTER 0 W_VALID_RDY Handshake beat=9 wlast=0
[165000] S1 MEMORY WRITE beat=8 addr=14d85270 data=ed0103be8c4caa6f id=0a
[175000] S1 MEMORY WRITE beat=9 addr=14d852f0 data=bedcbcacdd94362b id=0a
[175000] MASTER 0 W_VALID_RDY Handshake beat=10 wlast=0
[185000] MASTER 0 W_VALID_RDY Handshake beat=11 wlast=0
[185000] S1 MEMORY WRITE beat=10 addr=14d85370 data=d59e70afbd926d47 id=0a
[195000] S1 MEMORY WRITE beat=11 addr=14d853f0 data=c9df17b70999948a id=0a
[195000] MASTER 0 W_VALID_RDY Handshake beat=12 wlast=0
[205000] MASTER 0 W_VALID_RDY Handshake beat=13 wlast=0
[205000] S1 MEMORY WRITE beat=12 addr=14d85470 data=e72dcab5c29f746e id=0a
[215000] S1 MEMORY WRITE beat=13 addr=14d854f0 data=8031e1b588bbd463 id=0a
[215000] MASTER 0 W_VALID_RDY Handshake beat=14 wlast=0
[225000] MASTER 0 W_VALID_RDY Handshake beat=15 wlast=0
[225000] S1 MEMORY WRITE beat=14 addr=14d85570 data=925568ed3ccc3b65 id=0a
[235000] S1 MEMORY WRITE beat=15 addr=14d855f0 data=ff6bafd3ca10f96c id=0a
[235000] MASTER 0 W_VALID_RDY Handshake beat=16 wlast=0
[245000] MASTER 0 W_VALID_RDY Handshake beat=17 wlast=0
[245000] S1 MEMORY WRITE beat=16 addr=14d85670 data=d2cccdd0f98333a3 id=0a
[255000] S1 MEMORY WRITE beat=17 addr=14d856f0 data=364f6f08ff9d9188 id=0a
[255000] MASTER 0 W_VALID_RDY Handshake beat=18 wlast=0
[265000] MASTER 0 W_VALID_RDY Handshake beat=19 wlast=0
[265000] S1 MEMORY WRITE beat=18 addr=14d85770 data=c9ae8af5e52236bd id=0a
[275000] S1 MEMORY WRITE beat=19 addr=14d857f0 data=dea56a6035bb1edb id=0a
[275000] MASTER 0 W_VALID_RDY Handshake beat=20 wlast=0
[285000] MASTER 0 W_VALID_RDY Handshake beat=21 wlast=0
[285000] S1 MEMORY WRITE beat=20 addr=14d85870 data=b558b0631c7b58c5 id=0a
[295000] S1 MEMORY WRITE beat=21 addr=14d858f0 data=819d8f8294f4d968 id=0a
[295000] MASTER 0 W_VALID_RDY Handshake beat=22 wlast=0
[305000] MASTER 0 W_VALID_RDY Handshake beat=23 wlast=0
[305000] S1 MEMORY WRITE beat=22 addr=14d85970 data=caaff843ff073b58 id=0a
[315000] S1 MEMORY WRITE beat=23 addr=14d859f0 data=9b82941de042f9e3 id=0a
[315000] MASTER 0 W_VALID_RDY Handshake beat=24 wlast=0
[325000] MASTER 0 W_VALID_RDY Handshake beat=25 wlast=0
[325000] S1 MEMORY WRITE beat=24 addr=14d85a70 data=f537d34b0008a8a7 id=0a
[335000] S1 MEMORY WRITE beat=25 addr=14d85af0 data=ff0fe3ff1d2023a0 id=0a
[335000] MASTER 0 W_VALID_RDY Handshake beat=26 wlast=0
[345000] MASTER 0 W_VALID_RDY Handshake beat=27 wlast=0
[345000] S1 MEMORY WRITE beat=26 addr=14d85b70 data=fd631d833fe7cb8f id=0a
[355000] S1 MEMORY WRITE beat=27 addr=14d85bf0 data=3ff074361a92781d id=0a
[355000] MASTER 0 W_VALID_RDY Handshake beat=28 wlast=0
[365000] MASTER 0 W_VALID_RDY Handshake beat=29 wlast=0
[365000] S1 MEMORY WRITE beat=28 addr=14d85c70 data=37b29bbdf29af0ce id=0a
[375000] S1 MEMORY WRITE beat=29 addr=14d85cf0 data=b282bc5dbf005835 id=0a
[375000] MASTER 0 W_VALID_RDY Handshake beat=30 wlast=0
[385000] MASTER 0 W_VALID_RDY Handshake beat=31 wlast=0
[385000] S1 MEMORY WRITE beat=30 addr=14d85d70 data=d992d0523515b940 id=0a
[395000] S1 MEMORY WRITE beat=31 addr=14d85df0 data=a7b0aa0ef2733093 id=0a
[395000] MASTER 0 W_VALID_RDY Handshake beat=32 wlast=0
[405000] MASTER 0 W_VALID_RDY Handshake beat=33 wlast=0
[405000] S1 MEMORY WRITE beat=32 addr=14d85e70 data=317388c991456c0f id=0a
[415000] S1 MEMORY WRITE beat=33 addr=14d85ef0 data=c65b254fda33666c id=0a
[415000] MASTER 0 W_VALID_RDY Handshake beat=34 wlast=0
[425000] MASTER 0 W_VALID_RDY Handshake beat=35 wlast=0
[425000] S1 MEMORY WRITE beat=34 addr=14d85f70 data=cca696ff8b06591b id=0a
[435000] S1 MEMORY WRITE beat=35 addr=14d85ff0 data=1c4bc52bee0bcf5e id=0a
[435000] MASTER 0 W_VALID_RDY Handshake beat=36 wlast=0
[445000] MASTER 0 W_VALID_RDY Handshake beat=37 wlast=0
[445000] S1 MEMORY WRITE beat=36 addr=14d86070 data=c83f35cafe1a1fc8 id=0a
[455000] S1 MEMORY WRITE beat=37 addr=14d860f0 data=092078e4e2a6ea7a id=0a
[455000] MASTER 0 W_VALID_RDY Handshake beat=38 wlast=0
[465000] MASTER 0 W_VALID_RDY Handshake beat=39 wlast=0
[465000] S1 MEMORY WRITE beat=38 addr=14d86170 data=d0b2b9d894e5ccc9 id=0a
[475000] S1 MEMORY WRITE beat=39 addr=14d861f0 data=12ffec92256c3e0f id=0a
[475000] MASTER 0 W_VALID_RDY Handshake beat=40 wlast=0
[485000] MASTER 0 W_VALID_RDY Handshake beat=41 wlast=0
[485000] S1 MEMORY WRITE beat=40 addr=14d86270 data=8813288998f1efa2 id=0a
[495000] S1 MEMORY WRITE beat=41 addr=14d862f0 data=2dd7bc6c1c206576 id=0a
[495000] MASTER 0 W_VALID_RDY Handshake beat=42 wlast=0
[505000] MASTER 0 W_VALID_RDY Handshake beat=43 wlast=0
[505000] S1 MEMORY WRITE beat=42 addr=14d86370 data=c18ca385d8c5e262 id=0a
[515000] S1 MEMORY WRITE beat=43 addr=14d863f0 data=f1b7d204c0d7a8fe id=0a
[515000] MASTER 0 W_VALID_RDY Handshake beat=44 wlast=0
[525000] MASTER 0 W_VALID_RDY Handshake beat=45 wlast=0
[525000] S1 MEMORY WRITE beat=44 addr=14d86470 data=dcf80e74c99fcc0e id=0a
[535000] S1 MEMORY WRITE beat=45 addr=14d864f0 data=a265ae709f8f8e70 id=0a
[535000] MASTER 0 W_VALID_RDY Handshake beat=46 wlast=0
[545000] MASTER 0 W_VALID_RDY Handshake beat=47 wlast=0
[545000] S1 MEMORY WRITE beat=46 addr=14d86570 data=e067376e1e84b1f9 id=0a
[555000] S1 MEMORY WRITE beat=47 addr=14d865f0 data=e8247e07141d8075 id=0a
[555000] MASTER 0 W_VALID_RDY Handshake beat=48 wlast=0
[565000] MASTER 0 W_VALID_RDY Handshake beat=49 wlast=0
[565000] S1 MEMORY WRITE beat=48 addr=14d86670 data=b3ad0ee5bd5f45e2 id=0a
[575000] S1 MEMORY WRITE beat=49 addr=14d866f0 data=dbe3f7db0a8a2c78 id=0a
[575000] MASTER 0 W_VALID_RDY Handshake beat=50 wlast=0
[585000] MASTER 0 W_VALID_RDY Handshake beat=51 wlast=0
[585000] S1 MEMORY WRITE beat=50 addr=14d86770 data=1ea7aced14144654 id=0a
[595000] S1 MEMORY WRITE beat=51 addr=14d867f0 data=d1738c36c40875e3 id=0a
[595000] MASTER 0 W_VALID_RDY Handshake beat=52 wlast=0
[605000] MASTER 0 W_VALID_RDY Handshake beat=53 wlast=0
[605000] S1 MEMORY WRITE beat=52 addr=14d86870 data=ce92a25bd254bbd2 id=0a
[615000] S1 MEMORY WRITE beat=53 addr=14d868f0 data=e66902262d578412 id=0a
[615000] MASTER 0 W_VALID_RDY Handshake beat=54 wlast=0
[625000] MASTER 0 W_VALID_RDY Handshake beat=55 wlast=0
[625000] S1 MEMORY WRITE beat=54 addr=14d86970 data=f15ff9f5ed3a4f48 id=0a
[635000] S1 MEMORY WRITE beat=55 addr=14d869f0 data=bf8f0b1a37dc8e5d id=0a
[635000] MASTER 0 W_VALID_RDY Handshake beat=56 wlast=0
[645000] MASTER 0 W_VALID_RDY Handshake beat=57 wlast=0
[645000] S1 MEMORY WRITE beat=56 addr=14d86a70 data=e534126f3ff29c50 id=0a
[655000] S1 MEMORY WRITE beat=57 addr=14d86af0 data=2d2ceb9825f80d41 id=0a
[655000] MASTER 0 W_VALID_RDY Handshake beat=58 wlast=0
[665000] MASTER 0 W_VALID_RDY Handshake beat=59 wlast=0
[665000] S1 MEMORY WRITE beat=58 addr=14d86b70 data=ddd49b9ed6940c64 id=0a
[675000] S1 MEMORY WRITE beat=59 addr=14d86bf0 data=1686a8b4ecbbf6b2 id=0a
[675000] MASTER 0 W_VALID_RDY Handshake beat=60 wlast=0
[685000] MASTER 0 W_VALID_RDY Handshake beat=61 wlast=0
[685000] S1 MEMORY WRITE beat=60 addr=14d86c70 data=92b403f3c308ae0d id=0a
[695000] S1 MEMORY WRITE beat=61 addr=14d86cf0 data=199cba71c3b3944c id=0a
[695000] MASTER 0 W_VALID_RDY Handshake beat=62 wlast=0
[705000] MASTER 0 W_VALID_RDY Handshake beat=63 wlast=0
[705000] S1 MEMORY WRITE beat=62 addr=14d86d70 data=b06f8afef0889f91 id=0a
[715000] S1 MEMORY WRITE beat=63 addr=14d86df0 data=b3914d9e30236325 id=0a
[715000] MASTER 0 W_VALID_RDY Handshake beat=64 wlast=0
[725000] MASTER 0 W_VALID_RDY Handshake beat=65 wlast=0
[725000] S1 MEMORY WRITE beat=64 addr=14d86e70 data=f3d6f771c3238ef2 id=0a
[735000] S1 MEMORY WRITE beat=65 addr=14d86ef0 data=b3ac2e83cd2e080f id=0a
[735000] MASTER 0 W_VALID_RDY Handshake beat=66 wlast=0
[745000] MASTER 0 W_VALID_RDY Handshake beat=67 wlast=0
[745000] S1 MEMORY WRITE beat=66 addr=14d86f70 data=fd516b34a446826f id=0a
[755000] S1 MEMORY WRITE beat=67 addr=14d86ff0 data=e76a1161e73d7c22 id=0a
[755000] MASTER 0 W_VALID_RDY Handshake beat=68 wlast=0
[765000] MASTER 0 W_VALID_RDY Handshake beat=69 wlast=0
[765000] S1 MEMORY WRITE beat=68 addr=14d87070 data=b46b8431f12862a5 id=0a
[775000] S1 MEMORY WRITE beat=69 addr=14d870f0 data=156ee5151b163fe5 id=0a
[775000] MASTER 0 W_VALID_RDY Handshake beat=70 wlast=0
[785000] MASTER 0 W_VALID_RDY Handshake beat=71 wlast=0
[785000] S1 MEMORY WRITE beat=70 addr=14d87170 data=0253bc0731bcef66 id=0a
[795000] S1 MEMORY WRITE beat=71 addr=14d871f0 data=a2e5520bfcd8f676 id=0a
[795000] MASTER 0 W_VALID_RDY Handshake beat=72 wlast=0
[805000] MASTER 0 W_VALID_RDY Handshake beat=73 wlast=0
[805000] S1 MEMORY WRITE beat=72 addr=14d87270 data=97ef365bb6bf4038 id=0a
[815000] S1 MEMORY WRITE beat=73 addr=14d872f0 data=e87c2f9eb8543720 id=0a
[815000] MASTER 0 W_VALID_RDY Handshake beat=74 wlast=0
[825000] MASTER 0 W_VALID_RDY Handshake beat=75 wlast=0
[825000] S1 MEMORY WRITE beat=74 addr=14d87370 data=352d2d979a42f262 id=0a
[835000] S1 MEMORY WRITE beat=75 addr=14d873f0 data=d102329b0b6181aa id=0a
[835000] MASTER 0 W_VALID_RDY Handshake beat=76 wlast=0
[845000] MASTER 0 W_VALID_RDY Handshake beat=77 wlast=0
[845000] S1 MEMORY WRITE beat=76 addr=14d87470 data=c3b5b8cacd1c63f2 id=0a
[855000] S1 MEMORY WRITE beat=77 addr=14d874f0 data=e75f5655b97e6239 id=0a
[855000] MASTER 0 W_VALID_RDY Handshake beat=78 wlast=0
[865000] MASTER 0 W_VALID_RDY Handshake beat=79 wlast=0
[865000] S1 MEMORY WRITE beat=78 addr=14d87570 data=c4dfe3e3f8e2e661 id=0a
[875000] S1 MEMORY WRITE beat=79 addr=14d875f0 data=c5ff4a54386188f0 id=0a
[875000] MASTER 0 W_VALID_RDY Handshake beat=80 wlast=0
[885000] MASTER 0 W_VALID_RDY Handshake beat=81 wlast=0
[885000] S1 MEMORY WRITE beat=80 addr=14d87670 data=f1dfeb2908959cae id=0a
[895000] S1 MEMORY WRITE beat=81 addr=14d876f0 data=8178830f2d5ea0a9 id=0a
[895000] MASTER 0 W_VALID_RDY Handshake beat=82 wlast=0
[905000] MASTER 0 W_VALID_RDY Handshake beat=83 wlast=0
[905000] S1 MEMORY WRITE beat=82 addr=14d87770 data=e5c0299936bfcf0d id=0a
[915000] S1 MEMORY WRITE beat=83 addr=14d877f0 data=3f556bbbc777cd63 id=0a
[915000] MASTER 0 W_VALID_RDY Handshake beat=84 wlast=0
[925000] MASTER 0 W_VALID_RDY Handshake beat=85 wlast=0
[925000] S1 MEMORY WRITE beat=84 addr=14d87870 data=f4d66e0cd7a014c2 id=0a
[935000] S1 MEMORY WRITE beat=85 addr=14d878f0 data=8e5fe3cfc0cdeeca id=0a
[935000] MASTER 0 W_VALID_RDY Handshake beat=86 wlast=0
[945000] MASTER 0 W_VALID_RDY Handshake beat=87 wlast=0
[945000] S1 MEMORY WRITE beat=86 addr=14d87970 data=0845bc2eda9697a5 id=0a
[955000] S1 MEMORY WRITE beat=87 addr=14d879f0 data=3236ac68cdb54f8a id=0a
[955000] MASTER 0 W_VALID_RDY Handshake beat=88 wlast=0
[965000] MASTER 0 W_VALID_RDY Handshake beat=89 wlast=0
[965000] S1 MEMORY WRITE beat=88 addr=14d87a70 data=0e833e55fd1c2a3a id=0a
[975000] S1 MEMORY WRITE beat=89 addr=14d87af0 data=d7b2c1e0c0969037 id=0a
[975000] MASTER 0 W_VALID_RDY Handshake beat=90 wlast=0
[985000] MASTER 0 W_VALID_RDY Handshake beat=91 wlast=0
[985000] S1 MEMORY WRITE beat=90 addr=14d87b70 data=0e4bdfc216c8fa83 id=0a
[995000] S1 MEMORY WRITE beat=91 addr=14d87bf0 data=93e524bd09e96e48 id=0a
[995000] MASTER 0 W_VALID_RDY Handshake beat=92 wlast=0
[1005000] MASTER 0 W_VALID_RDY Handshake beat=93 wlast=0
[1005000] S1 MEMORY WRITE beat=92 addr=14d87c70 data=ca7ffe7f1ccf1e17 id=0a
[1015000] S1 MEMORY WRITE beat=93 addr=14d87cf0 data=3398189aeb97e69d id=0a
[1015000] MASTER 0 W_VALID_RDY Handshake beat=94 wlast=0
[1025000] MASTER 0 W_VALID_RDY Handshake beat=95 wlast=0
[1025000] S1 MEMORY WRITE beat=94 addr=14d87d70 data=f58154e5d8cbde41 id=0a
[1035000] S1 MEMORY WRITE beat=95 addr=14d87df0 data=f59afc58c77d3d57 id=0a
[1035000] MASTER 0 W_VALID_RDY Handshake beat=96 wlast=0
[1045000] MASTER 0 W_VALID_RDY Handshake beat=97 wlast=0
[1045000] S1 MEMORY WRITE beat=96 addr=14d87e70 data=331523f5c0015365 id=0a
[1055000] S1 MEMORY WRITE beat=97 addr=14d87ef0 data=98cd31a6a93314f2 id=0a
[1055000] MASTER 0 W_VALID_RDY Handshake beat=98 wlast=0
[1065000] MASTER 0 W_VALID_RDY Handshake beat=99 wlast=0
[1065000] S1 MEMORY WRITE beat=98 addr=14d87f70 data=f0b0524aa89678da id=0a
[1075000] S1 MEMORY WRITE beat=99 addr=14d87ff0 data=e897cc3f0e682dff id=0a
[1075000] MASTER 0 W_VALID_RDY Handshake beat=100 wlast=0
[1085000] MASTER 0 W_VALID_RDY Handshake beat=101 wlast=0
[1085000] S1 MEMORY WRITE beat=100 addr=14d88070 data=b79b42f123c5763f id=0a
[1095000] S1 MEMORY WRITE beat=101 addr=14d880f0 data=cc5bef190164fde6 id=0a
[1095000] MASTER 0 W_VALID_RDY Handshake beat=102 wlast=0
[1105000] MASTER 0 W_VALID_RDY Handshake beat=103 wlast=0
[1105000] S1 MEMORY WRITE beat=102 addr=14d88170 data=0fcd2be5a84b953b id=0a
[1115000] S1 MEMORY WRITE beat=103 addr=14d881f0 data=cc110b7a34f3bb59 id=0a
[1115000] MASTER 0 W_VALID_RDY Handshake beat=104 wlast=0
[1125000] MASTER 0 W_VALID_RDY Handshake beat=105 wlast=0
[1125000] S1 MEMORY WRITE beat=104 addr=14d88270 data=3658b93fc7686ed6 id=0a
[1135000] S1 MEMORY WRITE beat=105 addr=14d882f0 data=efb40412186cfa94 id=0a
[1135000] MASTER 0 W_VALID_RDY Handshake beat=106 wlast=0
[1145000] MASTER 0 W_VALID_RDY Handshake beat=107 wlast=0
[1145000] S1 MEMORY WRITE beat=106 addr=14d88370 data=cd60b5edc625e524 id=0a
[1155000] S1 MEMORY WRITE beat=107 addr=14d883f0 data=8d8e53fabbc50f8c id=0a
[1155000] MASTER 0 W_VALID_RDY Handshake beat=108 wlast=0
[1165000] MASTER 0 W_VALID_RDY Handshake beat=109 wlast=0
[1165000] S1 MEMORY WRITE beat=108 addr=14d88470 data=d4320a2003b96f2c id=0a
[1175000] S1 MEMORY WRITE beat=109 addr=14d884f0 data=c9df5450fd42580c id=0a
[1175000] MASTER 0 W_VALID_RDY Handshake beat=110 wlast=0
[1185000] MASTER 0 W_VALID_RDY Handshake beat=111 wlast=0
[1185000] S1 MEMORY WRITE beat=110 addr=14d88570 data=39076799a192c00d id=0a
[1195000] S1 MEMORY WRITE beat=111 addr=14d885f0 data=a54c2f39d76da84a id=0a
[1195000] MASTER 0 W_VALID_RDY Handshake beat=112 wlast=0
[1205000] MASTER 0 W_VALID_RDY Handshake beat=113 wlast=0
[1205000] S1 MEMORY WRITE beat=112 addr=14d88670 data=d4b000578d3971b9 id=0a
[1215000] S1 MEMORY WRITE beat=113 addr=14d886f0 data=2ecc31c7ef2b8389 id=0a
[1215000] MASTER 0 W_VALID_RDY Handshake beat=114 wlast=0
[1225000] MASTER 0 W_VALID_RDY Handshake beat=115 wlast=0
[1225000] S1 MEMORY WRITE beat=114 addr=14d88770 data=c6992bd40db767f0 id=0a
[1235000] S1 MEMORY WRITE beat=115 addr=14d887f0 data=9af0d9a9d4186100 id=0a
[1235000] MASTER 0 W_VALID_RDY Handshake beat=116 wlast=0
[1245000] MASTER 0 W_VALID_RDY Handshake beat=117 wlast=0
[1245000] S1 MEMORY WRITE beat=116 addr=14d88870 data=c343e48a1b492c2b id=0a
[1255000] S1 MEMORY WRITE beat=117 addr=14d888f0 data=2900941bc9bd0b70 id=0a
[1255000] MASTER 0 W_VALID_RDY Handshake beat=118 wlast=0
[1265000] MASTER 0 W_VALID_RDY Handshake beat=119 wlast=0
[1265000] S1 MEMORY WRITE beat=118 addr=14d88970 data=1dd56c7109dd105e id=0a
[1275000] S1 MEMORY WRITE beat=119 addr=14d889f0 data=25263c89c3f16dc4 id=0a
[1275000] MASTER 0 W_VALID_RDY Handshake beat=120 wlast=0
[1285000] MASTER 0 W_VALID_RDY Handshake beat=121 wlast=0
[1285000] S1 MEMORY WRITE beat=120 addr=14d88a70 data=0dae7935e11950fb id=0a
[1295000] S1 MEMORY WRITE beat=121 addr=14d88af0 data=eaf66159ce26d0a4 id=0a
[1295000] MASTER 0 W_VALID_RDY Handshake beat=122 wlast=0
[1305000] MASTER 0 W_VALID_RDY Handshake beat=123 wlast=0
[1305000] S1 MEMORY WRITE beat=122 addr=14d88b70 data=92183e682b83e5a6 id=0a
[1315000] S1 MEMORY WRITE beat=123 addr=14d88bf0 data=0c9d36a1101c9de2 id=0a
[1315000] MASTER 0 W_VALID_RDY Handshake beat=124 wlast=0
[1325000] MASTER 0 W_VALID_RDY Handshake beat=125 wlast=0
[1325000] S1 MEMORY WRITE beat=124 addr=14d88c70 data=de436e869fc6b79d id=0a
[1335000] S1 MEMORY WRITE beat=125 addr=14d88cf0 data=cb4a9d43f79397fa id=0a
[1335000] MASTER 0 W_VALID_RDY Handshake beat=126 wlast=0
[1345000] MASTER 0 W_VALID_RDY Handshake beat=127 wlast=0
[1345000] S1 MEMORY WRITE beat=126 addr=14d88d70 data=07b035dcf05bacee id=0a
[1355000] S1 MEMORY WRITE beat=127 addr=14d88df0 data=1022648cd7e7d3e4 id=0a
[1355000] MASTER 0 W_VALID_RDY Handshake beat=128 wlast=0
[1365000] MASTER 0 W_VALID_RDY Handshake beat=129 wlast=0
[1365000] S1 MEMORY WRITE beat=128 addr=14d88e70 data=cf7b6bdee5f3a462 id=0a
[1375000] S1 MEMORY WRITE beat=129 addr=14d88ef0 data=d64f5150db6d01cf id=0a
[1375000] MASTER 0 W_VALID_RDY Handshake beat=130 wlast=0
[1385000] MASTER 0 W_VALID_RDY Handshake beat=131 wlast=0
[1385000] S1 MEMORY WRITE beat=130 addr=14d88f70 data=3354d5b4d72ba1ba id=0a
[1395000] S1 MEMORY WRITE beat=131 addr=14d88ff0 data=bd1f461ce671b5dc id=0a
[1395000] MASTER 0 W_VALID_RDY Handshake beat=132 wlast=0
[1405000] MASTER 0 W_VALID_RDY Handshake beat=133 wlast=0
[1405000] S1 MEMORY WRITE beat=132 addr=14d89070 data=c1deb7ac82d04192 id=0a
[1415000] S1 MEMORY WRITE beat=133 addr=14d890f0 data=d9fbe34d136e976d id=0a
[1415000] MASTER 0 W_VALID_RDY Handshake beat=134 wlast=0
[1425000] MASTER 0 W_VALID_RDY Handshake beat=135 wlast=0
[1425000] S1 MEMORY WRITE beat=134 addr=14d89170 data=f9e04d49f5338d60 id=0a
[1435000] S1 MEMORY WRITE beat=135 addr=14d891f0 data=f803cef2971b2969 id=0a
[1435000] MASTER 0 W_VALID_RDY Handshake beat=136 wlast=0
[1445000] MASTER 0 W_VALID_RDY Handshake beat=137 wlast=0
[1445000] S1 MEMORY WRITE beat=136 addr=14d89270 data=aa89c0d6bbbf04f5 id=0a
[1455000] S1 MEMORY WRITE beat=137 addr=14d892f0 data=b0f29255d1ffb23f id=0a
[1455000] MASTER 0 W_VALID_RDY Handshake beat=138 wlast=0
[1465000] MASTER 0 W_VALID_RDY Handshake beat=139 wlast=1
[1465000] S1 MEMORY WRITE beat=138 addr=14d89370 data=e91adba9246a0e20 id=0a
[1475000] S1 MEMORY WRITE beat=139 addr=14d893f0 data=e029131528f66148 id=0a
[1485000] SLAVE1 sent B resp, id=10
[1495000] [SLAVE MONITOR] mst_id=0 s_id=1 awaddr=14d84e70 awid=1010 awlen=139 awsize=7 awburst=1 wdata=[2157f44aea884388 8fc3ed04e020a098 f6d4d156faaa98ad e532dc36db9aa04e bbbb40e6982cc5a0 12d75e4ef4f6c93a d09169893290123d cabcd7ddf80a3a84 ed0103be8c4caa6f bedcbcacdd94362b d59e70afbd926d47 c9df17b70999948a e72dcab5c29f746e 8031e1b588bbd463 925568ed3ccc3b65 ff6bafd3ca10f96c d2cccdd0f98333a3 364f6f08ff9d9188 c9ae8af5e52236bd dea56a6035bb1edb b558b0631c7b58c5 819d8f8294f4d968 caaff843ff073b58 9b82941de042f9e3 f537d34b0008a8a7 ff0fe3ff1d2023a0 fd631d833fe7cb8f 3ff074361a92781d 37b29bbdf29af0ce b282bc5dbf005835 d992d0523515b940 a7b0aa0ef2733093 317388c991456c0f c65b254fda33666c cca696ff8b06591b 1c4bc52bee0bcf5e c83f35cafe1a1fc8 92078e4e2a6ea7a d0b2b9d894e5ccc9 12ffec92256c3e0f 8813288998f1efa2 2dd7bc6c1c206576 c18ca385d8c5e262 f1b7d204c0d7a8fe dcf80e74c99fcc0e a265ae709f8f8e70 e067376e1e84b1f9 e8247e07141d8075 b3ad0ee5bd5f45e2 dbe3f7db0a8a2c78 1ea7aced14144654 d1738c36c40875e3 ce92a25bd254bbd2 e66902262d578412 f15ff9f5ed3a4f48 bf8f0b1a37dc8e5d e534126f3ff29c50 2d2ceb9825f80d41 ddd49b9ed6940c64 1686a8b4ecbbf6b2 92b403f3c308ae0d 199cba71c3b3944c b06f8afef0889f91 b3914d9e30236325 f3d6f771c3238ef2 b3ac2e83cd2e080f fd516b34a446826f e76a1161e73d7c22 b46b8431f12862a5 156ee5151b163fe5 253bc0731bcef66 a2e5520bfcd8f676 97ef365bb6bf4038 e87c2f9eb8543720 352d2d979a42f262 d102329b0b6181aa c3b5b8cacd1c63f2 e75f5655b97e6239 c4dfe3e3f8e2e661 c5ff4a54386188f0 f1dfeb2908959cae 8178830f2d5ea0a9 e5c0299936bfcf0d 3f556bbbc777cd63 f4d66e0cd7a014c2 8e5fe3cfc0cdeeca 845bc2eda9697a5 3236ac68cdb54f8a e833e55fd1c2a3a d7b2c1e0c0969037 e4bdfc216c8fa83 93e524bd09e96e48 ca7ffe7f1ccf1e17 3398189aeb97e69d f58154e5d8cbde41 f59afc58c77d3d57 331523f5c0015365 98cd31a6a93314f2 f0b0524aa89678da e897cc3f0e682dff b79b42f123c5763f cc5bef190164fde6 fcd2be5a84b953b cc110b7a34f3bb59 3658b93fc7686ed6 efb40412186cfa94 cd60b5edc625e524 8d8e53fabbc50f8c d4320a2003b96f2c c9df5450fd42580c 39076799a192c00d a54c2f39d76da84a d4b000578d3971b9 2ecc31c7ef2b8389 c6992bd40db767f0 9af0d9a9d4186100 c343e48a1b492c2b 2900941bc9bd0b70 1dd56c7109dd105e 25263c89c3f16dc4 dae7935e11950fb eaf66159ce26d0a4 92183e682b83e5a6 c9d36a1101c9de2 de436e869fc6b79d cb4a9d43f79397fa 7b035dcf05bacee 1022648cd7e7d3e4 cf7b6bdee5f3a462 d64f5150db6d01cf 3354d5b4d72ba1ba bd1f461ce671b5dc c1deb7ac82d04192 d9fbe34d136e976d f9e04d49f5338d60 f803cef2971b2969 aa89c0d6bbbf04f5 b0f29255d1ffb23f e91adba9246a0e20 e029131528f66148 ] wstrb=[7f 87 6b 9f 30 b3 b5 b0 3a 20 4f 6b d3 4 1b d 24 6a 78 f7 6f 93 5 93 fe 7d 8b 6d 11 90 0 f d 8b 7c 1e 1b 7c 2d 29 8 a9 47 23 26 75 4c 2e 1e 94 51 44 9 9e 72 27 32 c4 6c 3b 62 de 62 94 a2 ce cf 4 ad 31 98 4f 0 67 54 ad 99 ec fc 99 54 50 46 ed 3d 42 86 91 93 cc 7e d0 e 4 61 a1 d0 df 71 de e3 d2 80 b3 b1 f1 91 94 c4 11 47 75 3 d9 a c7 ea 51 3c ed 2a 46 b4 15 98 f1 2 c2 37 b7 d7 cf a8 da 92 df 91 69 af 39 ] bresp=0 bid=1010
[1505000] MASTER 0 RECEIVED BRESP. BRESP=0
[1505000] [MASTER DRIVER] mst_id=0 s_id=0 awaddr=14d84e70 awid=1010 awlen=139 awsize=7 awburst=1 wdata=[2157f44aea884388 8fc3ed04e020a098 f6d4d156faaa98ad e532dc36db9aa04e bbbb40e6982cc5a0 12d75e4ef4f6c93a d09169893290123d cabcd7ddf80a3a84 ed0103be8c4caa6f bedcbcacdd94362b d59e70afbd926d47 c9df17b70999948a e72dcab5c29f746e 8031e1b588bbd463 925568ed3ccc3b65 ff6bafd3ca10f96c d2cccdd0f98333a3 364f6f08ff9d9188 c9ae8af5e52236bd dea56a6035bb1edb b558b0631c7b58c5 819d8f8294f4d968 caaff843ff073b58 9b82941de042f9e3 f537d34b0008a8a7 ff0fe3ff1d2023a0 fd631d833fe7cb8f 3ff074361a92781d 37b29bbdf29af0ce b282bc5dbf005835 d992d0523515b940 a7b0aa0ef2733093 317388c991456c0f c65b254fda33666c cca696ff8b06591b 1c4bc52bee0bcf5e c83f35cafe1a1fc8 92078e4e2a6ea7a d0b2b9d894e5ccc9 12ffec92256c3e0f 8813288998f1efa2 2dd7bc6c1c206576 c18ca385d8c5e262 f1b7d204c0d7a8fe dcf80e74c99fcc0e a265ae709f8f8e70 e067376e1e84b1f9 e8247e07141d8075 b3ad0ee5bd5f45e2 dbe3f7db0a8a2c78 1ea7aced14144654 d1738c36c40875e3 ce92a25bd254bbd2 e66902262d578412 f15ff9f5ed3a4f48 bf8f0b1a37dc8e5d e534126f3ff29c50 2d2ceb9825f80d41 ddd49b9ed6940c64 1686a8b4ecbbf6b2 92b403f3c308ae0d 199cba71c3b3944c b06f8afef0889f91 b3914d9e30236325 f3d6f771c3238ef2 b3ac2e83cd2e080f fd516b34a446826f e76a1161e73d7c22 b46b8431f12862a5 156ee5151b163fe5 253bc0731bcef66 a2e5520bfcd8f676 97ef365bb6bf4038 e87c2f9eb8543720 352d2d979a42f262 d102329b0b6181aa c3b5b8cacd1c63f2 e75f5655b97e6239 c4dfe3e3f8e2e661 c5ff4a54386188f0 f1dfeb2908959cae 8178830f2d5ea0a9 e5c0299936bfcf0d 3f556bbbc777cd63 f4d66e0cd7a014c2 8e5fe3cfc0cdeeca 845bc2eda9697a5 3236ac68cdb54f8a e833e55fd1c2a3a d7b2c1e0c0969037 e4bdfc216c8fa83 93e524bd09e96e48 ca7ffe7f1ccf1e17 3398189aeb97e69d f58154e5d8cbde41 f59afc58c77d3d57 331523f5c0015365 98cd31a6a93314f2 f0b0524aa89678da e897cc3f0e682dff b79b42f123c5763f cc5bef190164fde6 fcd2be5a84b953b cc110b7a34f3bb59 3658b93fc7686ed6 efb40412186cfa94 cd60b5edc625e524 8d8e53fabbc50f8c d4320a2003b96f2c c9df5450fd42580c 39076799a192c00d a54c2f39d76da84a d4b000578d3971b9 2ecc31c7ef2b8389 c6992bd40db767f0 9af0d9a9d4186100 c343e48a1b492c2b 2900941bc9bd0b70 1dd56c7109dd105e 25263c89c3f16dc4 dae7935e11950fb eaf66159ce26d0a4 92183e682b83e5a6 c9d36a1101c9de2 de436e869fc6b79d cb4a9d43f79397fa 7b035dcf05bacee 1022648cd7e7d3e4 cf7b6bdee5f3a462 d64f5150db6d01cf 3354d5b4d72ba1ba bd1f461ce671b5dc c1deb7ac82d04192 d9fbe34d136e976d f9e04d49f5338d60 f803cef2971b2969 aa89c0d6bbbf04f5 b0f29255d1ffb23f e91adba9246a0e20 e029131528f66148 ] wstrb=[7f 87 6b 9f 30 b3 b5 b0 3a 20 4f 6b d3 4 1b d 24 6a 78 f7 6f 93 5 93 fe 7d 8b 6d 11 90 0 f d 8b 7c 1e 1b 7c 2d 29 8 a9 47 23 26 75 4c 2e 1e 94 51 44 9 9e 72 27 32 c4 6c 3b 62 de 62 94 a2 ce cf 4 ad 31 98 4f 0 67 54 ad 99 ec fc 99 54 50 46 ed 3d 42 86 91 93 cc 7e d0 e 4 61 a1 d0 df 71 de e3 d2 80 b3 b1 f1 91 94 c4 11 47 75 3 d9 a c7 ea 51 3c ed 2a 46 b4 15 98 f1 2 c2 37 b7 d7 cf a8 da 92 df 91 69 af 39 ] bresp=0 bid=1010
[1505000] MASTER 0 B_VALID_RDY Handshake
[1505000] [MASTER MONITOR] mst_id=0 s_id=1 awaddr=14d84e70 awid=1010 awlen=139 awsize=7 awburst=1 wdata=[2157f44aea884388 8fc3ed04e020a098 f6d4d156faaa98ad e532dc36db9aa04e bbbb40e6982cc5a0 12d75e4ef4f6c93a d09169893290123d cabcd7ddf80a3a84 ed0103be8c4caa6f bedcbcacdd94362b d59e70afbd926d47 c9df17b70999948a e72dcab5c29f746e 8031e1b588bbd463 925568ed3ccc3b65 ff6bafd3ca10f96c d2cccdd0f98333a3 364f6f08ff9d9188 c9ae8af5e52236bd dea56a6035bb1edb b558b0631c7b58c5 819d8f8294f4d968 caaff843ff073b58 9b82941de042f9e3 f537d34b0008a8a7 ff0fe3ff1d2023a0 fd631d833fe7cb8f 3ff074361a92781d 37b29bbdf29af0ce b282bc5dbf005835 d992d0523515b940 a7b0aa0ef2733093 317388c991456c0f c65b254fda33666c cca696ff8b06591b 1c4bc52bee0bcf5e c83f35cafe1a1fc8 92078e4e2a6ea7a d0b2b9d894e5ccc9 12ffec92256c3e0f 8813288998f1efa2 2dd7bc6c1c206576 c18ca385d8c5e262 f1b7d204c0d7a8fe dcf80e74c99fcc0e a265ae709f8f8e70 e067376e1e84b1f9 e8247e07141d8075 b3ad0ee5bd5f45e2 dbe3f7db0a8a2c78 1ea7aced14144654 d1738c36c40875e3 ce92a25bd254bbd2 e66902262d578412 f15ff9f5ed3a4f48 bf8f0b1a37dc8e5d e534126f3ff29c50 2d2ceb9825f80d41 ddd49b9ed6940c64 1686a8b4ecbbf6b2 92b403f3c308ae0d 199cba71c3b3944c b06f8afef0889f91 b3914d9e30236325 f3d6f771c3238ef2 b3ac2e83cd2e080f fd516b34a446826f e76a1161e73d7c22 b46b8431f12862a5 156ee5151b163fe5 253bc0731bcef66 a2e5520bfcd8f676 97ef365bb6bf4038 e87c2f9eb8543720 352d2d979a42f262 d102329b0b6181aa c3b5b8cacd1c63f2 e75f5655b97e6239 c4dfe3e3f8e2e661 c5ff4a54386188f0 f1dfeb2908959cae 8178830f2d5ea0a9 e5c0299936bfcf0d 3f556bbbc777cd63 f4d66e0cd7a014c2 8e5fe3cfc0cdeeca 845bc2eda9697a5 3236ac68cdb54f8a e833e55fd1c2a3a d7b2c1e0c0969037 e4bdfc216c8fa83 93e524bd09e96e48 ca7ffe7f1ccf1e17 3398189aeb97e69d f58154e5d8cbde41 f59afc58c77d3d57 331523f5c0015365 98cd31a6a93314f2 f0b0524aa89678da e897cc3f0e682dff b79b42f123c5763f cc5bef190164fde6 fcd2be5a84b953b cc110b7a34f3bb59 3658b93fc7686ed6 efb40412186cfa94 cd60b5edc625e524 8d8e53fabbc50f8c d4320a2003b96f2c c9df5450fd42580c 39076799a192c00d a54c2f39d76da84a d4b000578d3971b9 2ecc31c7ef2b8389 c6992bd40db767f0 9af0d9a9d4186100 c343e48a1b492c2b 2900941bc9bd0b70 1dd56c7109dd105e 25263c89c3f16dc4 dae7935e11950fb eaf66159ce26d0a4 92183e682b83e5a6 c9d36a1101c9de2 de436e869fc6b79d cb4a9d43f79397fa 7b035dcf05bacee 1022648cd7e7d3e4 cf7b6bdee5f3a462 d64f5150db6d01cf 3354d5b4d72ba1ba bd1f461ce671b5dc c1deb7ac82d04192 d9fbe34d136e976d f9e04d49f5338d60 f803cef2971b2969 aa89c0d6bbbf04f5 b0f29255d1ffb23f e91adba9246a0e20 e029131528f66148 ] wstrb=[7f 87 6b 9f 30 b3 b5 b0 3a 20 4f 6b d3 4 1b d 24 6a 78 f7 6f 93 5 93 fe 7d 8b 6d 11 90 0 f d 8b 7c 1e 1b 7c 2d 29 8 a9 47 23 26 75 4c 2e 1e 94 51 44 9 9e 72 27 32 c4 6c 3b 62 de 62 94 a2 ce cf 4 ad 31 98 4f 0 67 54 ad 99 ec fc 99 54 50 46 ed 3d 42 86 91 93 cc 7e d0 e 4 61 a1 d0 df 71 de e3 d2 80 b3 b1 f1 91 94 c4 11 47 75 3 d9 a c7 ea 51 3c ed 2a 46 b4 15 98 f1 2 c2 37 b7 d7 cf a8 da 92 df 91 69 af 39 ] bresp=0 bid=1010
[1505000] SCOREBOARD MATCH: decode_err expected = 0, actual =0
[1505000] SCOREBOARD MATCH: slave_id expected = 1, actual =1
[1505000] SCOREBOARD MATCH: awaddr passthrough expected = 14d84e70, actual =14d84e70
[1505000] SCOREBOARD MATCH: awlen passthrough expected = 139, actual =139
[1505000] SCOREBOARD MATCH: awsize passthrough expected = 7, actual =7
[1505000] SCOREBOARD MATCH: awburst passthrough expected = 1, actual =1
[1505000] SCOREBOARD MATCH: wdata size check expected = 8c, actual =8c
[1505000] SCOREBOARD MATCH: wdata passthrough beat=0 expected = 2157f44aea884388, actual =2157f44aea884388
[1505000] SCOREBOARD MATCH: wdata passthrough beat=1 expected = 8fc3ed04e020a098, actual =8fc3ed04e020a098
[1505000] SCOREBOARD MATCH: wdata passthrough beat=2 expected = f6d4d156faaa98ad, actual =f6d4d156faaa98ad
[1505000] SCOREBOARD MATCH: wdata passthrough beat=3 expected = e532dc36db9aa04e, actual =e532dc36db9aa04e
[1505000] SCOREBOARD MATCH: wdata passthrough beat=4 expected = bbbb40e6982cc5a0, actual =bbbb40e6982cc5a0
[1505000] SCOREBOARD MATCH: wdata passthrough beat=5 expected = 12d75e4ef4f6c93a, actual =12d75e4ef4f6c93a
[1505000] SCOREBOARD MATCH: wdata passthrough beat=6 expected = d09169893290123d, actual =d09169893290123d
[1505000] SCOREBOARD MATCH: wdata passthrough beat=7 expected = cabcd7ddf80a3a84, actual =cabcd7ddf80a3a84
[1505000] SCOREBOARD MATCH: wdata passthrough beat=8 expected = ed0103be8c4caa6f, actual =ed0103be8c4caa6f
[1505000] SCOREBOARD MATCH: wdata passthrough beat=9 expected = bedcbcacdd94362b, actual =bedcbcacdd94362b
[1505000] SCOREBOARD MATCH: wdata passthrough beat=10 expected = d59e70afbd926d47, actual =d59e70afbd926d47
[1505000] SCOREBOARD MATCH: wdata passthrough beat=11 expected = c9df17b70999948a, actual =c9df17b70999948a
[1505000] SCOREBOARD MATCH: wdata passthrough beat=12 expected = e72dcab5c29f746e, actual =e72dcab5c29f746e
[1505000] SCOREBOARD MATCH: wdata passthrough beat=13 expected = 8031e1b588bbd463, actual =8031e1b588bbd463
[1505000] SCOREBOARD MATCH: wdata passthrough beat=14 expected = 925568ed3ccc3b65, actual =925568ed3ccc3b65
[1505000] SCOREBOARD MATCH: wdata passthrough beat=15 expected = ff6bafd3ca10f96c, actual =ff6bafd3ca10f96c
[1505000] SCOREBOARD MATCH: wdata passthrough beat=16 expected = d2cccdd0f98333a3, actual =d2cccdd0f98333a3
[1505000] SCOREBOARD MATCH: wdata passthrough beat=17 expected = 364f6f08ff9d9188, actual =364f6f08ff9d9188
[1505000] SCOREBOARD MATCH: wdata passthrough beat=18 expected = c9ae8af5e52236bd, actual =c9ae8af5e52236bd
[1505000] SCOREBOARD MATCH: wdata passthrough beat=19 expected = dea56a6035bb1edb, actual =dea56a6035bb1edb
[1505000] SCOREBOARD MATCH: wdata passthrough beat=20 expected = b558b0631c7b58c5, actual =b558b0631c7b58c5
[1505000] SCOREBOARD MATCH: wdata passthrough beat=21 expected = 819d8f8294f4d968, actual =819d8f8294f4d968
[1505000] SCOREBOARD MATCH: wdata passthrough beat=22 expected = caaff843ff073b58, actual =caaff843ff073b58
[1505000] SCOREBOARD MATCH: wdata passthrough beat=23 expected = 9b82941de042f9e3, actual =9b82941de042f9e3
[1505000] SCOREBOARD MATCH: wdata passthrough beat=24 expected = f537d34b0008a8a7, actual =f537d34b0008a8a7
[1505000] SCOREBOARD MATCH: wdata passthrough beat=25 expected = ff0fe3ff1d2023a0, actual =ff0fe3ff1d2023a0
[1505000] SCOREBOARD MATCH: wdata passthrough beat=26 expected = fd631d833fe7cb8f, actual =fd631d833fe7cb8f
[1505000] SCOREBOARD MATCH: wdata passthrough beat=27 expected = 3ff074361a92781d, actual =3ff074361a92781d
[1505000] SCOREBOARD MATCH: wdata passthrough beat=28 expected = 37b29bbdf29af0ce, actual =37b29bbdf29af0ce
[1505000] SCOREBOARD MATCH: wdata passthrough beat=29 expected = b282bc5dbf005835, actual =b282bc5dbf005835
[1505000] SCOREBOARD MATCH: wdata passthrough beat=30 expected = d992d0523515b940, actual =d992d0523515b940
[1505000] SCOREBOARD MATCH: wdata passthrough beat=31 expected = a7b0aa0ef2733093, actual =a7b0aa0ef2733093
[1505000] SCOREBOARD MATCH: wdata passthrough beat=32 expected = 317388c991456c0f, actual =317388c991456c0f
[1505000] SCOREBOARD MATCH: wdata passthrough beat=33 expected = c65b254fda33666c, actual =c65b254fda33666c
[1505000] SCOREBOARD MATCH: wdata passthrough beat=34 expected = cca696ff8b06591b, actual =cca696ff8b06591b
[1505000] SCOREBOARD MATCH: wdata passthrough beat=35 expected = 1c4bc52bee0bcf5e, actual =1c4bc52bee0bcf5e
[1505000] SCOREBOARD MATCH: wdata passthrough beat=36 expected = c83f35cafe1a1fc8, actual =c83f35cafe1a1fc8
[1505000] SCOREBOARD MATCH: wdata passthrough beat=37 expected = 92078e4e2a6ea7a, actual =92078e4e2a6ea7a
[1505000] SCOREBOARD MATCH: wdata passthrough beat=38 expected = d0b2b9d894e5ccc9, actual =d0b2b9d894e5ccc9
[1505000] SCOREBOARD MATCH: wdata passthrough beat=39 expected = 12ffec92256c3e0f, actual =12ffec92256c3e0f
[1505000] SCOREBOARD MATCH: wdata passthrough beat=40 expected = 8813288998f1efa2, actual =8813288998f1efa2
[1505000] SCOREBOARD MATCH: wdata passthrough beat=41 expected = 2dd7bc6c1c206576, actual =2dd7bc6c1c206576
[1505000] SCOREBOARD MATCH: wdata passthrough beat=42 expected = c18ca385d8c5e262, actual =c18ca385d8c5e262
[1505000] SCOREBOARD MATCH: wdata passthrough beat=43 expected = f1b7d204c0d7a8fe, actual =f1b7d204c0d7a8fe
[1505000] SCOREBOARD MATCH: wdata passthrough beat=44 expected = dcf80e74c99fcc0e, actual =dcf80e74c99fcc0e
[1505000] SCOREBOARD MATCH: wdata passthrough beat=45 expected = a265ae709f8f8e70, actual =a265ae709f8f8e70
[1505000] SCOREBOARD MATCH: wdata passthrough beat=46 expected = e067376e1e84b1f9, actual =e067376e1e84b1f9
[1505000] SCOREBOARD MATCH: wdata passthrough beat=47 expected = e8247e07141d8075, actual =e8247e07141d8075
[1505000] SCOREBOARD MATCH: wdata passthrough beat=48 expected = b3ad0ee5bd5f45e2, actual =b3ad0ee5bd5f45e2
[1505000] SCOREBOARD MATCH: wdata passthrough beat=49 expected = dbe3f7db0a8a2c78, actual =dbe3f7db0a8a2c78
[1505000] SCOREBOARD MATCH: wdata passthrough beat=50 expected = 1ea7aced14144654, actual =1ea7aced14144654
[1505000] SCOREBOARD MATCH: wdata passthrough beat=51 expected = d1738c36c40875e3, actual =d1738c36c40875e3
[1505000] SCOREBOARD MATCH: wdata passthrough beat=52 expected = ce92a25bd254bbd2, actual =ce92a25bd254bbd2
[1505000] SCOREBOARD MATCH: wdata passthrough beat=53 expected = e66902262d578412, actual =e66902262d578412
[1505000] SCOREBOARD MATCH: wdata passthrough beat=54 expected = f15ff9f5ed3a4f48, actual =f15ff9f5ed3a4f48
[1505000] SCOREBOARD MATCH: wdata passthrough beat=55 expected = bf8f0b1a37dc8e5d, actual =bf8f0b1a37dc8e5d
[1505000] SCOREBOARD MATCH: wdata passthrough beat=56 expected = e534126f3ff29c50, actual =e534126f3ff29c50
[1505000] SCOREBOARD MATCH: wdata passthrough beat=57 expected = 2d2ceb9825f80d41, actual =2d2ceb9825f80d41
[1505000] SCOREBOARD MATCH: wdata passthrough beat=58 expected = ddd49b9ed6940c64, actual =ddd49b9ed6940c64
[1505000] SCOREBOARD MATCH: wdata passthrough beat=59 expected = 1686a8b4ecbbf6b2, actual =1686a8b4ecbbf6b2
[1505000] SCOREBOARD MATCH: wdata passthrough beat=60 expected = 92b403f3c308ae0d, actual =92b403f3c308ae0d
[1505000] SCOREBOARD MATCH: wdata passthrough beat=61 expected = 199cba71c3b3944c, actual =199cba71c3b3944c
[1505000] SCOREBOARD MATCH: wdata passthrough beat=62 expected = b06f8afef0889f91, actual =b06f8afef0889f91
[1505000] SCOREBOARD MATCH: wdata passthrough beat=63 expected = b3914d9e30236325, actual =b3914d9e30236325
[1505000] SCOREBOARD MATCH: wdata passthrough beat=64 expected = f3d6f771c3238ef2, actual =f3d6f771c3238ef2
[1505000] SCOREBOARD MATCH: wdata passthrough beat=65 expected = b3ac2e83cd2e080f, actual =b3ac2e83cd2e080f
[1505000] SCOREBOARD MATCH: wdata passthrough beat=66 expected = fd516b34a446826f, actual =fd516b34a446826f
[1505000] SCOREBOARD MATCH: wdata passthrough beat=67 expected = e76a1161e73d7c22, actual =e76a1161e73d7c22
[1505000] SCOREBOARD MATCH: wdata passthrough beat=68 expected = b46b8431f12862a5, actual =b46b8431f12862a5
[1505000] SCOREBOARD MATCH: wdata passthrough beat=69 expected = 156ee5151b163fe5, actual =156ee5151b163fe5
[1505000] SCOREBOARD MATCH: wdata passthrough beat=70 expected = 253bc0731bcef66, actual =253bc0731bcef66
[1505000] SCOREBOARD MATCH: wdata passthrough beat=71 expected = a2e5520bfcd8f676, actual =a2e5520bfcd8f676
[1505000] SCOREBOARD MATCH: wdata passthrough beat=72 expected = 97ef365bb6bf4038, actual =97ef365bb6bf4038
[1505000] SCOREBOARD MATCH: wdata passthrough beat=73 expected = e87c2f9eb8543720, actual =e87c2f9eb8543720
[1505000] SCOREBOARD MATCH: wdata passthrough beat=74 expected = 352d2d979a42f262, actual =352d2d979a42f262
[1505000] SCOREBOARD MATCH: wdata passthrough beat=75 expected = d102329b0b6181aa, actual =d102329b0b6181aa
[1505000] SCOREBOARD MATCH: wdata passthrough beat=76 expected = c3b5b8cacd1c63f2, actual =c3b5b8cacd1c63f2
[1505000] SCOREBOARD MATCH: wdata passthrough beat=77 expected = e75f5655b97e6239, actual =e75f5655b97e6239
[1505000] SCOREBOARD MATCH: wdata passthrough beat=78 expected = c4dfe3e3f8e2e661, actual =c4dfe3e3f8e2e661
[1505000] SCOREBOARD MATCH: wdata passthrough beat=79 expected = c5ff4a54386188f0, actual =c5ff4a54386188f0
[1505000] SCOREBOARD MATCH: wdata passthrough beat=80 expected = f1dfeb2908959cae, actual =f1dfeb2908959cae
[1505000] SCOREBOARD MATCH: wdata passthrough beat=81 expected = 8178830f2d5ea0a9, actual =8178830f2d5ea0a9
[1505000] SCOREBOARD MATCH: wdata passthrough beat=82 expected = e5c0299936bfcf0d, actual =e5c0299936bfcf0d
[1505000] SCOREBOARD MATCH: wdata passthrough beat=83 expected = 3f556bbbc777cd63, actual =3f556bbbc777cd63
[1505000] SCOREBOARD MATCH: wdata passthrough beat=84 expected = f4d66e0cd7a014c2, actual =f4d66e0cd7a014c2
[1505000] SCOREBOARD MATCH: wdata passthrough beat=85 expected = 8e5fe3cfc0cdeeca, actual =8e5fe3cfc0cdeeca
[1505000] SCOREBOARD MATCH: wdata passthrough beat=86 expected = 845bc2eda9697a5, actual =845bc2eda9697a5
[1505000] SCOREBOARD MATCH: wdata passthrough beat=87 expected = 3236ac68cdb54f8a, actual =3236ac68cdb54f8a
[1505000] SCOREBOARD MATCH: wdata passthrough beat=88 expected = e833e55fd1c2a3a, actual =e833e55fd1c2a3a
[1505000] SCOREBOARD MATCH: wdata passthrough beat=89 expected = d7b2c1e0c0969037, actual =d7b2c1e0c0969037
[1505000] SCOREBOARD MATCH: wdata passthrough beat=90 expected = e4bdfc216c8fa83, actual =e4bdfc216c8fa83
[1505000] SCOREBOARD MATCH: wdata passthrough beat=91 expected = 93e524bd09e96e48, actual =93e524bd09e96e48
[1505000] SCOREBOARD MATCH: wdata passthrough beat=92 expected = ca7ffe7f1ccf1e17, actual =ca7ffe7f1ccf1e17
[1505000] SCOREBOARD MATCH: wdata passthrough beat=93 expected = 3398189aeb97e69d, actual =3398189aeb97e69d
[1505000] SCOREBOARD MATCH: wdata passthrough beat=94 expected = f58154e5d8cbde41, actual =f58154e5d8cbde41
[1505000] SCOREBOARD MATCH: wdata passthrough beat=95 expected = f59afc58c77d3d57, actual =f59afc58c77d3d57
[1505000] SCOREBOARD MATCH: wdata passthrough beat=96 expected = 331523f5c0015365, actual =331523f5c0015365
[1505000] SCOREBOARD MATCH: wdata passthrough beat=97 expected = 98cd31a6a93314f2, actual =98cd31a6a93314f2
[1505000] SCOREBOARD MATCH: wdata passthrough beat=98 expected = f0b0524aa89678da, actual =f0b0524aa89678da
[1505000] SCOREBOARD MATCH: wdata passthrough beat=99 expected = e897cc3f0e682dff, actual =e897cc3f0e682dff
[1505000] SCOREBOARD MATCH: wdata passthrough beat=100 expected = b79b42f123c5763f, actual =b79b42f123c5763f
[1505000] SCOREBOARD MATCH: wdata passthrough beat=101 expected = cc5bef190164fde6, actual =cc5bef190164fde6
[1505000] SCOREBOARD MATCH: wdata passthrough beat=102 expected = fcd2be5a84b953b, actual =fcd2be5a84b953b
[1505000] SCOREBOARD MATCH: wdata passthrough beat=103 expected = cc110b7a34f3bb59, actual =cc110b7a34f3bb59
[1505000] SCOREBOARD MATCH: wdata passthrough beat=104 expected = 3658b93fc7686ed6, actual =3658b93fc7686ed6
[1505000] SCOREBOARD MATCH: wdata passthrough beat=105 expected = efb40412186cfa94, actual =efb40412186cfa94
[1505000] SCOREBOARD MATCH: wdata passthrough beat=106 expected = cd60b5edc625e524, actual =cd60b5edc625e524
[1505000] SCOREBOARD MATCH: wdata passthrough beat=107 expected = 8d8e53fabbc50f8c, actual =8d8e53fabbc50f8c
[1505000] SCOREBOARD MATCH: wdata passthrough beat=108 expected = d4320a2003b96f2c, actual =d4320a2003b96f2c
[1505000] SCOREBOARD MATCH: wdata passthrough beat=109 expected = c9df5450fd42580c, actual =c9df5450fd42580c
[1505000] SCOREBOARD MATCH: wdata passthrough beat=110 expected = 39076799a192c00d, actual =39076799a192c00d
[1505000] SCOREBOARD MATCH: wdata passthrough beat=111 expected = a54c2f39d76da84a, actual =a54c2f39d76da84a
[1505000] SCOREBOARD MATCH: wdata passthrough beat=112 expected = d4b000578d3971b9, actual =d4b000578d3971b9
[1505000] SCOREBOARD MATCH: wdata passthrough beat=113 expected = 2ecc31c7ef2b8389, actual =2ecc31c7ef2b8389
[1505000] SCOREBOARD MATCH: wdata passthrough beat=114 expected = c6992bd40db767f0, actual =c6992bd40db767f0
[1505000] SCOREBOARD MATCH: wdata passthrough beat=115 expected = 9af0d9a9d4186100, actual =9af0d9a9d4186100
[1505000] SCOREBOARD MATCH: wdata passthrough beat=116 expected = c343e48a1b492c2b, actual =c343e48a1b492c2b
[1505000] SCOREBOARD MATCH: wdata passthrough beat=117 expected = 2900941bc9bd0b70, actual =2900941bc9bd0b70
[1505000] SCOREBOARD MATCH: wdata passthrough beat=118 expected = 1dd56c7109dd105e, actual =1dd56c7109dd105e
[1505000] SCOREBOARD MATCH: wdata passthrough beat=119 expected = 25263c89c3f16dc4, actual =25263c89c3f16dc4
[1505000] SCOREBOARD MATCH: wdata passthrough beat=120 expected = dae7935e11950fb, actual =dae7935e11950fb
[1505000] SCOREBOARD MATCH: wdata passthrough beat=121 expected = eaf66159ce26d0a4, actual =eaf66159ce26d0a4
[1505000] SCOREBOARD MATCH: wdata passthrough beat=122 expected = 92183e682b83e5a6, actual =92183e682b83e5a6
[1505000] SCOREBOARD MATCH: wdata passthrough beat=123 expected = c9d36a1101c9de2, actual =c9d36a1101c9de2
[1505000] SCOREBOARD MATCH: wdata passthrough beat=124 expected = de436e869fc6b79d, actual =de436e869fc6b79d
[1505000] SCOREBOARD MATCH: wdata passthrough beat=125 expected = cb4a9d43f79397fa, actual =cb4a9d43f79397fa
[1505000] SCOREBOARD MATCH: wdata passthrough beat=126 expected = 7b035dcf05bacee, actual =7b035dcf05bacee
[1505000] SCOREBOARD MATCH: wdata passthrough beat=127 expected = 1022648cd7e7d3e4, actual =1022648cd7e7d3e4
[1505000] SCOREBOARD MATCH: wdata passthrough beat=128 expected = cf7b6bdee5f3a462, actual =cf7b6bdee5f3a462
[1505000] SCOREBOARD MATCH: wdata passthrough beat=129 expected = d64f5150db6d01cf, actual =d64f5150db6d01cf
[1505000] SCOREBOARD MATCH: wdata passthrough beat=130 expected = 3354d5b4d72ba1ba, actual =3354d5b4d72ba1ba
[1505000] SCOREBOARD MATCH: wdata passthrough beat=131 expected = bd1f461ce671b5dc, actual =bd1f461ce671b5dc
[1505000] SCOREBOARD MATCH: wdata passthrough beat=132 expected = c1deb7ac82d04192, actual =c1deb7ac82d04192
[1505000] SCOREBOARD MATCH: wdata passthrough beat=133 expected = d9fbe34d136e976d, actual =d9fbe34d136e976d
[1505000] SCOREBOARD MATCH: wdata passthrough beat=134 expected = f9e04d49f5338d60, actual =f9e04d49f5338d60
[1505000] SCOREBOARD MATCH: wdata passthrough beat=135 expected = f803cef2971b2969, actual =f803cef2971b2969
[1505000] SCOREBOARD MATCH: wdata passthrough beat=136 expected = aa89c0d6bbbf04f5, actual =aa89c0d6bbbf04f5
[1505000] SCOREBOARD MATCH: wdata passthrough beat=137 expected = b0f29255d1ffb23f, actual =b0f29255d1ffb23f
[1505000] SCOREBOARD MATCH: wdata passthrough beat=138 expected = e91adba9246a0e20, actual =e91adba9246a0e20
[1505000] SCOREBOARD MATCH: wdata passthrough beat=139 expected = e029131528f66148, actual =e029131528f66148
[1505000] SCOREBOARD MATCH: wstrb size check expected = 8c, actual =8c
[1505000] SCOREBOARD MATCH: wstrb passthrough beat=0 expected = 7f, actual =7f
[1505000] SCOREBOARD MATCH: wstrb passthrough beat=1 expected = 87, actual =87
[1505000] SCOREBOARD MATCH: wstrb passthrough beat=2 expected = 6b, actual =6b
[1505000] SCOREBOARD MATCH: wstrb passthrough beat=3 expected = 9f, actual =9f
[1505000] SCOREBOARD MATCH: wstrb passthrough beat=4 expected = 30, actual =30
[1505000] SCOREBOARD MATCH: wstrb passthrough beat=5 expected = b3, actual =b3
[1505000] SCOREBOARD MATCH: wstrb passthrough beat=6 expected = b5, actual =b5
[1505000] SCOREBOARD MATCH: wstrb passthrough beat=7 expected = b0, actual =b0
[1505000] SCOREBOARD MATCH: wstrb passthrough beat=8 expected = 3a, actual =3a
[1505000] SCOREBOARD MATCH: wstrb passthrough beat=9 expected = 20, actual =20
[1505000] SCOREBOARD MATCH: wstrb passthrough beat=10 expected = 4f, actual =4f
[1505000] SCOREBOARD MATCH: wstrb passthrough beat=11 expected = 6b, actual =6b
[1505000] SCOREBOARD MATCH: wstrb passthrough beat=12 expected = d3, actual =d3
[1505000] SCOREBOARD MATCH: wstrb passthrough beat=13 expected = 4, actual =4
[1505000] SCOREBOARD MATCH: wstrb passthrough beat=14 expected = 1b, actual =1b
[1505000] SCOREBOARD MATCH: wstrb passthrough beat=15 expected = d, actual =d
[1505000] SCOREBOARD MATCH: wstrb passthrough beat=16 expected = 24, actual =24
[1505000] SCOREBOARD MATCH: wstrb passthrough beat=17 expected = 6a, actual =6a
[1505000] SCOREBOARD MATCH: wstrb passthrough beat=18 expected = 78, actual =78
[1505000] SCOREBOARD MATCH: wstrb passthrough beat=19 expected = f7, actual =f7
[1505000] SCOREBOARD MATCH: wstrb passthrough beat=20 expected = 6f, actual =6f
[1505000] SCOREBOARD MATCH: wstrb passthrough beat=21 expected = 93, actual =93
[1505000] SCOREBOARD MATCH: wstrb passthrough beat=22 expected = 5, actual =5
[1505000] SCOREBOARD MATCH: wstrb passthrough beat=23 expected = 93, actual =93
[1505000] SCOREBOARD MATCH: wstrb passthrough beat=24 expected = fe, actual =fe
[1505000] SCOREBOARD MATCH: wstrb passthrough beat=25 expected = 7d, actual =7d
[1505000] SCOREBOARD MATCH: wstrb passthrough beat=26 expected = 8b, actual =8b
[1505000] SCOREBOARD MATCH: wstrb passthrough beat=27 expected = 6d, actual =6d
[1505000] SCOREBOARD MATCH: wstrb passthrough beat=28 expected = 11, actual =11
[1505000] SCOREBOARD MATCH: wstrb passthrough beat=29 expected = 90, actual =90
[1505000] SCOREBOARD MATCH: wstrb passthrough beat=30 expected = 0, actual =0
[1505000] SCOREBOARD MATCH: wstrb passthrough beat=31 expected = f, actual =f
[1505000] SCOREBOARD MATCH: wstrb passthrough beat=32 expected = d, actual =d
[1505000] SCOREBOARD MATCH: wstrb passthrough beat=33 expected = 8b, actual =8b
[1505000] SCOREBOARD MATCH: wstrb passthrough beat=34 expected = 7c, actual =7c
[1505000] SCOREBOARD MATCH: wstrb passthrough beat=35 expected = 1e, actual =1e
[1505000] SCOREBOARD MATCH: wstrb passthrough beat=36 expected = 1b, actual =1b
[1505000] SCOREBOARD MATCH: wstrb passthrough beat=37 expected = 7c, actual =7c
[1505000] SCOREBOARD MATCH: wstrb passthrough beat=38 expected = 2d, actual =2d
[1505000] SCOREBOARD MATCH: wstrb passthrough beat=39 expected = 29, actual =29
[1505000] SCOREBOARD MATCH: wstrb passthrough beat=40 expected = 8, actual =8
[1505000] SCOREBOARD MATCH: wstrb passthrough beat=41 expected = a9, actual =a9
[1505000] SCOREBOARD MATCH: wstrb passthrough beat=42 expected = 47, actual =47
[1505000] SCOREBOARD MATCH: wstrb passthrough beat=43 expected = 23, actual =23
[1505000] SCOREBOARD MATCH: wstrb passthrough beat=44 expected = 26, actual =26
[1505000] SCOREBOARD MATCH: wstrb passthrough beat=45 expected = 75, actual =75
[1505000] SCOREBOARD MATCH: wstrb passthrough beat=46 expected = 4c, actual =4c
[1505000] SCOREBOARD MATCH: wstrb passthrough beat=47 expected = 2e, actual =2e
[1505000] SCOREBOARD MATCH: wstrb passthrough beat=48 expected = 1e, actual =1e
[1505000] SCOREBOARD MATCH: wstrb passthrough beat=49 expected = 94, actual =94
[1505000] SCOREBOARD MATCH: wstrb passthrough beat=50 expected = 51, actual =51
[1505000] SCOREBOARD MATCH: wstrb passthrough beat=51 expected = 44, actual =44
[1505000] SCOREBOARD MATCH: wstrb passthrough beat=52 expected = 9, actual =9
[1505000] SCOREBOARD MATCH: wstrb passthrough beat=53 expected = 9e, actual =9e
[1505000] SCOREBOARD MATCH: wstrb passthrough beat=54 expected = 72, actual =72
[1505000] SCOREBOARD MATCH: wstrb passthrough beat=55 expected = 27, actual =27
[1505000] SCOREBOARD MATCH: wstrb passthrough beat=56 expected = 32, actual =32
[1505000] SCOREBOARD MATCH: wstrb passthrough beat=57 expected = c4, actual =c4
[1505000] SCOREBOARD MATCH: wstrb passthrough beat=58 expected = 6c, actual =6c
[1505000] SCOREBOARD MATCH: wstrb passthrough beat=59 expected = 3b, actual =3b
[1505000] SCOREBOARD MATCH: wstrb passthrough beat=60 expected = 62, actual =62
[1505000] SCOREBOARD MATCH: wstrb passthrough beat=61 expected = de, actual =de
[1505000] SCOREBOARD MATCH: wstrb passthrough beat=62 expected = 62, actual =62
[1505000] SCOREBOARD MATCH: wstrb passthrough beat=63 expected = 94, actual =94
[1505000] SCOREBOARD MATCH: wstrb passthrough beat=64 expected = a2, actual =a2
[1505000] SCOREBOARD MATCH: wstrb passthrough beat=65 expected = ce, actual =ce
[1505000] SCOREBOARD MATCH: wstrb passthrough beat=66 expected = cf, actual =cf
[1505000] SCOREBOARD MATCH: wstrb passthrough beat=67 expected = 4, actual =4
[1505000] SCOREBOARD MATCH: wstrb passthrough beat=68 expected = ad, actual =ad
[1505000] SCOREBOARD MATCH: wstrb passthrough beat=69 expected = 31, actual =31
[1505000] SCOREBOARD MATCH: wstrb passthrough beat=70 expected = 98, actual =98
[1505000] SCOREBOARD MATCH: wstrb passthrough beat=71 expected = 4f, actual =4f
[1505000] SCOREBOARD MATCH: wstrb passthrough beat=72 expected = 0, actual =0
[1505000] SCOREBOARD MATCH: wstrb passthrough beat=73 expected = 67, actual =67
[1505000] SCOREBOARD MATCH: wstrb passthrough beat=74 expected = 54, actual =54
[1505000] SCOREBOARD MATCH: wstrb passthrough beat=75 expected = ad, actual =ad
[1505000] SCOREBOARD MATCH: wstrb passthrough beat=76 expected = 99, actual =99
[1505000] SCOREBOARD MATCH: wstrb passthrough beat=77 expected = ec, actual =ec
[1505000] SCOREBOARD MATCH: wstrb passthrough beat=78 expected = fc, actual =fc
[1505000] SCOREBOARD MATCH: wstrb passthrough beat=79 expected = 99, actual =99
[1505000] SCOREBOARD MATCH: wstrb passthrough beat=80 expected = 54, actual =54
[1505000] SCOREBOARD MATCH: wstrb passthrough beat=81 expected = 50, actual =50
[1505000] SCOREBOARD MATCH: wstrb passthrough beat=82 expected = 46, actual =46
[1505000] SCOREBOARD MATCH: wstrb passthrough beat=83 expected = ed, actual =ed
[1505000] SCOREBOARD MATCH: wstrb passthrough beat=84 expected = 3d, actual =3d
[1505000] SCOREBOARD MATCH: wstrb passthrough beat=85 expected = 42, actual =42
[1505000] SCOREBOARD MATCH: wstrb passthrough beat=86 expected = 86, actual =86
[1505000] SCOREBOARD MATCH: wstrb passthrough beat=87 expected = 91, actual =91
[1505000] SCOREBOARD MATCH: wstrb passthrough beat=88 expected = 93, actual =93
[1505000] SCOREBOARD MATCH: wstrb passthrough beat=89 expected = cc, actual =cc
[1505000] SCOREBOARD MATCH: wstrb passthrough beat=90 expected = 7e, actual =7e
[1505000] SCOREBOARD MATCH: wstrb passthrough beat=91 expected = d0, actual =d0
[1505000] SCOREBOARD MATCH: wstrb passthrough beat=92 expected = e, actual =e
[1505000] SCOREBOARD MATCH: wstrb passthrough beat=93 expected = 4, actual =4
[1505000] SCOREBOARD MATCH: wstrb passthrough beat=94 expected = 61, actual =61
[1505000] SCOREBOARD MATCH: wstrb passthrough beat=95 expected = a1, actual =a1
[1505000] SCOREBOARD MATCH: wstrb passthrough beat=96 expected = d0, actual =d0
[1505000] SCOREBOARD MATCH: wstrb passthrough beat=97 expected = df, actual =df
[1505000] SCOREBOARD MATCH: wstrb passthrough beat=98 expected = 71, actual =71
[1505000] SCOREBOARD MATCH: wstrb passthrough beat=99 expected = de, actual =de
[1505000] SCOREBOARD MATCH: wstrb passthrough beat=100 expected = e3, actual =e3
[1505000] SCOREBOARD MATCH: wstrb passthrough beat=101 expected = d2, actual =d2
[1505000] SCOREBOARD MATCH: wstrb passthrough beat=102 expected = 80, actual =80
[1505000] SCOREBOARD MATCH: wstrb passthrough beat=103 expected = b3, actual =b3
[1505000] SCOREBOARD MATCH: wstrb passthrough beat=104 expected = b1, actual =b1
[1505000] SCOREBOARD MATCH: wstrb passthrough beat=105 expected = f1, actual =f1
[1505000] SCOREBOARD MATCH: wstrb passthrough beat=106 expected = 91, actual =91
[1505000] SCOREBOARD MATCH: wstrb passthrough beat=107 expected = 94, actual =94
[1505000] SCOREBOARD MATCH: wstrb passthrough beat=108 expected = c4, actual =c4
[1505000] SCOREBOARD MATCH: wstrb passthrough beat=109 expected = 11, actual =11
[1505000] SCOREBOARD MATCH: wstrb passthrough beat=110 expected = 47, actual =47
[1505000] SCOREBOARD MATCH: wstrb passthrough beat=111 expected = 75, actual =75
[1505000] SCOREBOARD MATCH: wstrb passthrough beat=112 expected = 3, actual =3
[1505000] SCOREBOARD MATCH: wstrb passthrough beat=113 expected = d9, actual =d9
[1505000] SCOREBOARD MATCH: wstrb passthrough beat=114 expected = a, actual =a
[1505000] SCOREBOARD MATCH: wstrb passthrough beat=115 expected = c7, actual =c7
[1505000] SCOREBOARD MATCH: wstrb passthrough beat=116 expected = ea, actual =ea
[1505000] SCOREBOARD MATCH: wstrb passthrough beat=117 expected = 51, actual =51
[1505000] SCOREBOARD MATCH: wstrb passthrough beat=118 expected = 3c, actual =3c
[1505000] SCOREBOARD MATCH: wstrb passthrough beat=119 expected = ed, actual =ed
[1505000] SCOREBOARD MATCH: wstrb passthrough beat=120 expected = 2a, actual =2a
[1505000] SCOREBOARD MATCH: wstrb passthrough beat=121 expected = 46, actual =46
[1505000] SCOREBOARD MATCH: wstrb passthrough beat=122 expected = b4, actual =b4
[1505000] SCOREBOARD MATCH: wstrb passthrough beat=123 expected = 15, actual =15
[1505000] SCOREBOARD MATCH: wstrb passthrough beat=124 expected = 98, actual =98
[1505000] SCOREBOARD MATCH: wstrb passthrough beat=125 expected = f1, actual =f1
[1505000] SCOREBOARD MATCH: wstrb passthrough beat=126 expected = 2, actual =2
[1505000] SCOREBOARD MATCH: wstrb passthrough beat=127 expected = c2, actual =c2
[1505000] SCOREBOARD MATCH: wstrb passthrough beat=128 expected = 37, actual =37
[1505000] SCOREBOARD MATCH: wstrb passthrough beat=129 expected = b7, actual =b7
[1505000] SCOREBOARD MATCH: wstrb passthrough beat=130 expected = d7, actual =d7
[1505000] SCOREBOARD MATCH: wstrb passthrough beat=131 expected = cf, actual =cf
[1505000] SCOREBOARD MATCH: wstrb passthrough beat=132 expected = a8, actual =a8
[1505000] SCOREBOARD MATCH: wstrb passthrough beat=133 expected = da, actual =da
[1505000] SCOREBOARD MATCH: wstrb passthrough beat=134 expected = 92, actual =92
[1505000] SCOREBOARD MATCH: wstrb passthrough beat=135 expected = df, actual =df
[1505000] SCOREBOARD MATCH: wstrb passthrough beat=136 expected = 91, actual =91
[1505000] SCOREBOARD MATCH: wstrb passthrough beat=137 expected = 69, actual =69
[1505000] SCOREBOARD MATCH: wstrb passthrough beat=138 expected = af, actual =af
[1505000] SCOREBOARD MATCH: wstrb passthrough beat=139 expected = 39, actual =39
[1505000] SCOREBOARD MATCH: bresp passthrough expected = 0, actual =0
[1505000] SCOREBOARD MATCH: response routed to correct master (write) expected = 0, actual =0
[1505000] [SCOREBOARD-M] mst_id=0 s_id=1 awaddr=14d84e70 awid=1010 awlen=139 awsize=7 awburst=1 wdata=[2157f44aea884388 8fc3ed04e020a098 f6d4d156faaa98ad e532dc36db9aa04e bbbb40e6982cc5a0 12d75e4ef4f6c93a d09169893290123d cabcd7ddf80a3a84 ed0103be8c4caa6f bedcbcacdd94362b d59e70afbd926d47 c9df17b70999948a e72dcab5c29f746e 8031e1b588bbd463 925568ed3ccc3b65 ff6bafd3ca10f96c d2cccdd0f98333a3 364f6f08ff9d9188 c9ae8af5e52236bd dea56a6035bb1edb b558b0631c7b58c5 819d8f8294f4d968 caaff843ff073b58 9b82941de042f9e3 f537d34b0008a8a7 ff0fe3ff1d2023a0 fd631d833fe7cb8f 3ff074361a92781d 37b29bbdf29af0ce b282bc5dbf005835 d992d0523515b940 a7b0aa0ef2733093 317388c991456c0f c65b254fda33666c cca696ff8b06591b 1c4bc52bee0bcf5e c83f35cafe1a1fc8 92078e4e2a6ea7a d0b2b9d894e5ccc9 12ffec92256c3e0f 8813288998f1efa2 2dd7bc6c1c206576 c18ca385d8c5e262 f1b7d204c0d7a8fe dcf80e74c99fcc0e a265ae709f8f8e70 e067376e1e84b1f9 e8247e07141d8075 b3ad0ee5bd5f45e2 dbe3f7db0a8a2c78 1ea7aced14144654 d1738c36c40875e3 ce92a25bd254bbd2 e66902262d578412 f15ff9f5ed3a4f48 bf8f0b1a37dc8e5d e534126f3ff29c50 2d2ceb9825f80d41 ddd49b9ed6940c64 1686a8b4ecbbf6b2 92b403f3c308ae0d 199cba71c3b3944c b06f8afef0889f91 b3914d9e30236325 f3d6f771c3238ef2 b3ac2e83cd2e080f fd516b34a446826f e76a1161e73d7c22 b46b8431f12862a5 156ee5151b163fe5 253bc0731bcef66 a2e5520bfcd8f676 97ef365bb6bf4038 e87c2f9eb8543720 352d2d979a42f262 d102329b0b6181aa c3b5b8cacd1c63f2 e75f5655b97e6239 c4dfe3e3f8e2e661 c5ff4a54386188f0 f1dfeb2908959cae 8178830f2d5ea0a9 e5c0299936bfcf0d 3f556bbbc777cd63 f4d66e0cd7a014c2 8e5fe3cfc0cdeeca 845bc2eda9697a5 3236ac68cdb54f8a e833e55fd1c2a3a d7b2c1e0c0969037 e4bdfc216c8fa83 93e524bd09e96e48 ca7ffe7f1ccf1e17 3398189aeb97e69d f58154e5d8cbde41 f59afc58c77d3d57 331523f5c0015365 98cd31a6a93314f2 f0b0524aa89678da e897cc3f0e682dff b79b42f123c5763f cc5bef190164fde6 fcd2be5a84b953b cc110b7a34f3bb59 3658b93fc7686ed6 efb40412186cfa94 cd60b5edc625e524 8d8e53fabbc50f8c d4320a2003b96f2c c9df5450fd42580c 39076799a192c00d a54c2f39d76da84a d4b000578d3971b9 2ecc31c7ef2b8389 c6992bd40db767f0 9af0d9a9d4186100 c343e48a1b492c2b 2900941bc9bd0b70 1dd56c7109dd105e 25263c89c3f16dc4 dae7935e11950fb eaf66159ce26d0a4 92183e682b83e5a6 c9d36a1101c9de2 de436e869fc6b79d cb4a9d43f79397fa 7b035dcf05bacee 1022648cd7e7d3e4 cf7b6bdee5f3a462 d64f5150db6d01cf 3354d5b4d72ba1ba bd1f461ce671b5dc c1deb7ac82d04192 d9fbe34d136e976d f9e04d49f5338d60 f803cef2971b2969 aa89c0d6bbbf04f5 b0f29255d1ffb23f e91adba9246a0e20 e029131528f66148 ] wstrb=[7f 87 6b 9f 30 b3 b5 b0 3a 20 4f 6b d3 4 1b d 24 6a 78 f7 6f 93 5 93 fe 7d 8b 6d 11 90 0 f d 8b 7c 1e 1b 7c 2d 29 8 a9 47 23 26 75 4c 2e 1e 94 51 44 9 9e 72 27 32 c4 6c 3b 62 de 62 94 a2 ce cf 4 ad 31 98 4f 0 67 54 ad 99 ec fc 99 54 50 46 ed 3d 42 86 91 93 cc 7e d0 e 4 61 a1 d0 df 71 de e3 d2 80 b3 b1 f1 91 94 c4 11 47 75 3 d9 a c7 ea 51 3c ed 2a 46 b4 15 98 f1 2 c2 37 b7 d7 cf a8 da 92 df 91 69 af 39 ] bresp=0 bid=1010
[1505000] [SCOREBOARD-S] mst_id=0 s_id=1 awaddr=14d84e70 awid=1010 awlen=139 awsize=7 awburst=1 wdata=[2157f44aea884388 8fc3ed04e020a098 f6d4d156faaa98ad e532dc36db9aa04e bbbb40e6982cc5a0 12d75e4ef4f6c93a d09169893290123d cabcd7ddf80a3a84 ed0103be8c4caa6f bedcbcacdd94362b d59e70afbd926d47 c9df17b70999948a e72dcab5c29f746e 8031e1b588bbd463 925568ed3ccc3b65 ff6bafd3ca10f96c d2cccdd0f98333a3 364f6f08ff9d9188 c9ae8af5e52236bd dea56a6035bb1edb b558b0631c7b58c5 819d8f8294f4d968 caaff843ff073b58 9b82941de042f9e3 f537d34b0008a8a7 ff0fe3ff1d2023a0 fd631d833fe7cb8f 3ff074361a92781d 37b29bbdf29af0ce b282bc5dbf005835 d992d0523515b940 a7b0aa0ef2733093 317388c991456c0f c65b254fda33666c cca696ff8b06591b 1c4bc52bee0bcf5e c83f35cafe1a1fc8 92078e4e2a6ea7a d0b2b9d894e5ccc9 12ffec92256c3e0f 8813288998f1efa2 2dd7bc6c1c206576 c18ca385d8c5e262 f1b7d204c0d7a8fe dcf80e74c99fcc0e a265ae709f8f8e70 e067376e1e84b1f9 e8247e07141d8075 b3ad0ee5bd5f45e2 dbe3f7db0a8a2c78 1ea7aced14144654 d1738c36c40875e3 ce92a25bd254bbd2 e66902262d578412 f15ff9f5ed3a4f48 bf8f0b1a37dc8e5d e534126f3ff29c50 2d2ceb9825f80d41 ddd49b9ed6940c64 1686a8b4ecbbf6b2 92b403f3c308ae0d 199cba71c3b3944c b06f8afef0889f91 b3914d9e30236325 f3d6f771c3238ef2 b3ac2e83cd2e080f fd516b34a446826f e76a1161e73d7c22 b46b8431f12862a5 156ee5151b163fe5 253bc0731bcef66 a2e5520bfcd8f676 97ef365bb6bf4038 e87c2f9eb8543720 352d2d979a42f262 d102329b0b6181aa c3b5b8cacd1c63f2 e75f5655b97e6239 c4dfe3e3f8e2e661 c5ff4a54386188f0 f1dfeb2908959cae 8178830f2d5ea0a9 e5c0299936bfcf0d 3f556bbbc777cd63 f4d66e0cd7a014c2 8e5fe3cfc0cdeeca 845bc2eda9697a5 3236ac68cdb54f8a e833e55fd1c2a3a d7b2c1e0c0969037 e4bdfc216c8fa83 93e524bd09e96e48 ca7ffe7f1ccf1e17 3398189aeb97e69d f58154e5d8cbde41 f59afc58c77d3d57 331523f5c0015365 98cd31a6a93314f2 f0b0524aa89678da e897cc3f0e682dff b79b42f123c5763f cc5bef190164fde6 fcd2be5a84b953b cc110b7a34f3bb59 3658b93fc7686ed6 efb40412186cfa94 cd60b5edc625e524 8d8e53fabbc50f8c d4320a2003b96f2c c9df5450fd42580c 39076799a192c00d a54c2f39d76da84a d4b000578d3971b9 2ecc31c7ef2b8389 c6992bd40db767f0 9af0d9a9d4186100 c343e48a1b492c2b 2900941bc9bd0b70 1dd56c7109dd105e 25263c89c3f16dc4 dae7935e11950fb eaf66159ce26d0a4 92183e682b83e5a6 c9d36a1101c9de2 de436e869fc6b79d cb4a9d43f79397fa 7b035dcf05bacee 1022648cd7e7d3e4 cf7b6bdee5f3a462 d64f5150db6d01cf 3354d5b4d72ba1ba bd1f461ce671b5dc c1deb7ac82d04192 d9fbe34d136e976d f9e04d49f5338d60 f803cef2971b2969 aa89c0d6bbbf04f5 b0f29255d1ffb23f e91adba9246a0e20 e029131528f66148 ] wstrb=[7f 87 6b 9f 30 b3 b5 b0 3a 20 4f 6b d3 4 1b d 24 6a 78 f7 6f 93 5 93 fe 7d 8b 6d 11 90 0 f d 8b 7c 1e 1b 7c 2d 29 8 a9 47 23 26 75 4c 2e 1e 94 51 44 9 9e 72 27 32 c4 6c 3b 62 de 62 94 a2 ce cf 4 ad 31 98 4f 0 67 54 ad 99 ec fc 99 54 50 46 ed 3d 42 86 91 93 cc 7e d0 e 4 61 a1 d0 df 71 de e3 d2 80 b3 b1 f1 91 94 c4 11 47 75 3 d9 a c7 ea 51 3c ed 2a 46 b4 15 98 f1 2 c2 37 b7 d7 cf a8 da 92 df 91 69 af 39 ] bresp=0 bid=1010
[1505000] SCOREBOARD: Transaction 5 received. pass=346 fail=0
[1505000] SCOREBOARD: Expected 5 transactions completed, PASS=346 FAIL=0
[1505000] ALL PASS. Total transactions: 5
[1505000] ALL TRANSACTIONS MONITORED
$finish called at time : 1525 ns : File "/home/nashita/Desktop/practice/axi_xbar/tb/top/axi_tb_top.sv" Line 220
exit
INFO: xsimkernel Simulation Memory Usage: 289464 KB (Peak: 337864 KB), Simulation CPU Usage: 1180 ms
INFO: [Common 17-206] Exiting xsim at Thu Sep 10 18:27:10 2026...
