#-----------------------------------------------------------
# xsim v2025.2 (64-bit)
# SW Build 6299465 on Fri Nov 14 12:34:56 MST 2025
# IP Build 6300035 on Fri Nov 14 10:48:45 MST 2025
# SharedData Build 6298862 on Thu Nov 13 04:50:51 MST 2025
# Start of session at: Fri Sep 11 12:12:33 2026
# Process ID         : 773841
# Current directory  : /home/nashita/Desktop/practice/axi_xbar/sim
# Command line       : xsim -log regress_results/BT_run166.log -mode tcl -source {xsim.dir/tb_top_snap/xsim_script.tcl}
# Log file           : /home/nashita/Desktop/practice/axi_xbar/sim/regress_results/BT_run166.log
# Journal file       : /home/nashita/Desktop/practice/axi_xbar/sim/xsim.jou
# Running On         : vlsi-vivado
# Platform           : Ubuntu
# Operating System   : Ubuntu 24.04.4 LTS
# Processor Detail   : Intel(R) Core(TM) i5-10400 CPU @ 2.90GHz
# CPU Frequency      : 4000.146 MHz
# CPU Physical cores : 6
# CPU Logical cores  : 12
# Host memory        : 41875 MB
# Swap memory        : 27648 MB
# Total Virtual      : 69524 MB
# Available Virtual  : 62555 MB
#-----------------------------------------------------------
source xsim.dir/tb_top_snap/xsim_script.tcl
# xsim {tb_top_snap} -testplusarg BT -autoloadwcfg -runall -sv_seed 167
Time resolution is 1 ps
run -all
[0] RUNNING BASE TEST
[0] INSIDE THE BASE TEST CONSTRUCTOR
[0] ENV: before agent
[0] SLAVE CONSTRUCTED
[0] MASTER MONITOR CONSTRUCTED
[0] MASTER MONITOR CONSTRUCTED
[0] SLAVE MONITOR CONSTRUCTED
[0] SLAVE MONITOR CONSTRUCTED
[0] ARB MONITOR CONSTRUCTED
GENERATOR CONSTRUCTED
[0] ENV: after agent
[0] ENV: before scoreboard
[0] ENV: after scoreboard
[15000] [SEQUENCER] mst_id=1 s_id=0 awaddr=d66c490 awid=10 awlen=82 awsize=5 awburst=1 wdata=[c6dee4bfcf0b8002 89a070cfecaa5d51 6227da386e95534 d5f4d537d99fa198 c649fee9cd016262 d3eab797df954606 3934e79fcc6c7c8c 196ddeef29df8cce 8974d2d4ff7ee688 cbeb6315ed589686 17382354c2a9ba73 c228a0fce5594204 d2b1d88aa0acf628 e356b09c0e140411 f36d4615e9e9fbde 8a96f206257f5198 339355a9c61f1e9f 30091a7dededa2a2 936cf43a27009bbe ed1fba5dbaa00c83 288daf26c70049e3 ee00e5a11d28d4da d7c8e15dbbfaa360 2faed44db209ffe f84974d880569083 3c5133e4f0fbd2e5 cc1c72e4d0125636 d068e6b93f4c2128 b047f40dc465e7bc 94783df28cba1a9d cc063bc5fc6466f1 c0ca4eaee4e124ac f19b3f49fc4e2fd3 f8b296c4d5428ca0 ba23b14c3da17b0f 39efaae2b97ce572 ebf72132bbef096 e9606ba5b2a241a6 ec1f2719c8e3235f f4a213f523501687 d5f2582dfade992c c3c1bc8bde027f9a 81529621c2117f46 bcf018723863d081 9666501bd744ee4f 99566d9500b1d4fe 3915a57f17b8e63d eefdd48cd6468608 d6f85b06cf7bf59a e734dbd788544221 de9ac829100e0085 df89f61fd632b063 de86f285b593232f c5a123b4c6bed1f7 9cf1825abd21baae f2b4ddde252b19d4 ebe9ebcbfb7874df 389a2f8eb8560192 dd811b6688db6e25 453e3052b4f0d6c e3a50efec96b0731 d24675573cee1293 e83d1fffc1262a65 8a913196d69a585c 13886aefcbe22efd 8d085962dcd7a6ed b371ff49fbc58aee c7a7b9eb17998af9 f47131e6c6fa6a38 c2bff526d4b0134e ec499e4727e33130 eedd9b680a67af12 df17c260e0bad02d 889e015d319d908f 3c053fa1cb6160a7 ac1c30d4f77b9cc6 29192d551b1d0201 e67e62a834ba3232 2c35cef8e51e6cf6 3b6ef7929a937c c754c5aed54efc4d 3a6d6943e6b9d19f f954651bf38a94a6 ] wstrb=[3a f3 ca d9 36 70 f4 70 64 be 49 9a 2f 3e b 93 fc 54 2d 2b 92 38 be 8f 8d ec ba 1f 24 79 ae b1 65 69 d1 89 e2 7f 3b 47 e8 c d0 ca 8b b 11 74 17 e2 3e a3 ed 50 17 5 32 55 a8 1f a5 bf 24 d7 14 cc f7 ba 8b 1b 91 a0 e8 88 5a 73 a4 eb 13 8c 74 6d ff ] bresp=0 bid=0
[15000] [SEQUENCER] mst_id=0 s_id=0 awaddr=1c2634f0 awid=1011 awlen=133 awsize=3 awburst=1 wdata=[d2a7d19a334d9bfd feba85e2384ee8f7 f4d3670cae2c9838 e17a34359cf12fdc d54018d3c77b38a6 f5a7d0dfe034ba17 fd25e9f4ca137fdf 118eb886d7220514 3756bf2cd26602c7 1c7982a707368965 de588e79347ca920 86e2abe72e083b2d 353ec49295af4da5 ca2bf6c5a35c2e8e d16469bb9397530b 2946a0b1d10ea2ad f46ad13b86a32e4d 1a3a8159f3729776 c4813a23c5cf3af7 cc726944c381220a b6f3b98038ec0b5f febb4656e6acea9d aa2e0ca7fb74f3a4 3460ff03cb2daf9a 31da9a38e121c628 dc96b9cc331c4559 fe49f4f3dc08a6df bd2a6d0710f7b8cf c413fe28b0248f2b c2d360b99c126d3 aab8dfa2c25df31b f2828247c957a312 e318c9e6eeccddca 312ad0e6feafb852 c8075b648dd1a988 fc9e875323ad532d 225d0b7fab20254a 38f1ced32dc95839 d176ab66ea6466e3 15848c2e35905626 e359ae5ff3d3b6e5 de381dc8ce765b01 406b12734d059c5 28a410aaf3bca9f6 c23304f7e7605f86 1c30b94b86dc2e72 fa98d869c639b61e ad9a15a4c4d4c9f5 cbb0f867bccbdd60 305937fc9caceef 8e9f98e4c649d0d0 315ae31b09fa923 fa6a7813da50914c a09a621c061b41b0 b6baead3890a10f7 e35aa243a3b0104d a9cb51fdb12562e6 3a2f73de03f50460 a7a514ade0863cd1 91ab9fb79d8a1621 a17f1a81d17066ab 31f6a37ccbdb1395 e96529b7c9242f2f 1a9495dac3a24333 f7d56c98ae44438 d4087367cc8b3956 902d7c89f8e28080 83c6c4b8ee9d0941 bb2842979faad352 988d53d2d7cf3820 c66c4161cb55bf21 eb0092731c54188b f42350ab019483f9 ccea431a038de646 1fe1fed1ba8f920c bc241605b7ead58d bb78bbd314054f7c ce94e188890e591f c0f92eaddb5abaa4 ef600a200ab8f78e 93c750adfc71ea80 d7cca5253df4eba9 c8ade337d4c07f5a d13269dbc72caf45 85219aeedc7533e4 3135b33f28ff0f00 f02bbe45cdcf7e25 2a44b20a02681d1a 2b672c1af54d5934 c31cd759db7a6549 dde282639b92ea5f 90e04393ed618963 c8dbeeac0949ae7d a4dc98dcd3fd1aed c15ea450a6be710f b0081f8c35bcdc70 9b9f75d0a3a92fd b0f9040cd4e4b869 aa194d9cb189bad d5532eaae1012399 35e5dc02145b8c36 df7427e3064c32b7 e74d5650c08770db d4e2fd1134c7568e 3b1389451d333252 ddbaa32db45724f4 e91e7b822260df95 3f9411e7329da03e e6f4c532a43204c7 c692e45c1d4eb514 cfec5552d01340b5 f445457c8626f643 a375ab57b6e11a84 86f45b393ad829d9 c0ff201cf36200a9 2a431b2efb39a0b6 3611ca8fe474cb74 d7d6cc1db1377667 ac71171df710eaab db85b61f8219e74b 33515db3e282e1ac d993cc58335c823d b5766988dfc274d0 c245567db5198277 e87604b4e8c7c73b c88a3c0c1bd922d5 d0f2a54c1dec6e3d 86b435780acf9289 26a8b55e3968aa01 d755183ecf3e7184 da0e040df79b5aaa b10404abde094db6 2d47bf3b80b6b96b f852141688591ce9 ] wstrb=[48 a0 c1 b4 db ab ca 23 4b 8b d7 26 36 a1 49 81 2d 21 a7 63 c2 f1 e5 ef 12 8c 53 d4 7d 38 c4 8f c4 17 64 42 4f 28 d1 13 3f 35 55 8e 5d 27 a1 9c 5c f7 2a ba 1e cc 56 7a c3 81 34 e1 4d 8b 5b 10 c 90 f1 59 1b 4c 69 27 dc 5a 80 f7 a6 e9 1e 83 43 9e 7a e9 87 99 6c ca 37 e7 b4 bf 80 20 89 b7 7 3d 76 87 5e 0 3f 65 3d b5 ed 9b b5 2c 1 f3 e1 ee 8e 97 1a 8f 8a fb 7d 18 92 97 a8 1c 93 25 35 25 bd dd 42 50 ] bresp=0 bid=0
[15000] [SEQUENCER] READ mst_id=0 s_id=0 araddr=ac29a78 arid=1 arlen=1 arsize=3 arburst=1 rid=[] rresp=[] rdata=[]
[15000] [SEQUENCER] READ mst_id=1 s_id=0 araddr=136dece0 arid=1 arlen=1 arsize=3 arburst=1 rid=[] rresp=[] rdata=[]
[15000] [SEQUENCER] mst_id=1 s_id=0 awaddr=7cafe28 awid=10 awlen=154 awsize=6 awburst=1 wdata=[9a5d71663a791a6a e5e05537909e2ccb e7451b98d6c90009 91421a73f640efca 86df1c9581a28cfe d86b8d08f7226fab ed635f75ee24382d efc6c52ce9ada77b e0d01726f4427c0a e266b438c8325234 b1dff9afce33769b c275f2a6d22d7964 1a5fcb9812b010d6 e0e3877124dca6de f70a2042cc3fc547 deefd61da3597a17 c83620f51169ebda dda9b1213fd35d8f e32cd7a6bf404137 d0aa2d113c99873f fc6ce4ce2b62f89c eaa339d32e53de33 eaed6572df99bc74 8afcb5103b4d66e5 e9a14518e75a4a40 c6f406b4f59feee4 30ed55c9d48eaa8a 3be8f4cad1f0bbc5 c790aaa91a8e9ae1 ef1d456b82dcfb7e d4cdb743f87e0072 130c9b532b063a35 ade335b39c5e61ec 94dc625e0229e0be 2d301af302b0ecf7 9f0f4ee3a7e8fdb1 aa12de6fdb1350a6 ddc43d9d33ebb142 dbd4aef3d742f962 32564a09fcd38c81 30bf3dc305e78d63 dd2a86c5901a87a6 8cee14278c93ecb6 927b7a198f80d0ce 1f9b5875bdad51ea ca413ea1efa600df ff26d1adac896c9c ea36be87dcbcb8ba cc62b9999ec22a22 cb4b96bf3477fd28 9134b5e2cb898b47 ea4bb56935825546 e9fa526edd976f7c 2920fac3b5974c28 eb19a16efb2f0850 d8c677cc936cb02c c903fc55d513f3dc d042fc2d81e7728f 155422bcb41d9dc3 93191a0a90973f9 2af0e689de581f11 9275bcd4d9748dcd 827e01c6c0450945 1e9d28569ba74e74 f51bdc41ad6ee84f edb3f194b112e52a ccba339ff799de08 a508c6578c5119ea 3d63ff15c1d60fe0 b96fede812bcb7ec 9f0dd1d60a1e32b4 cbf44294de78b440 f1356c2cdc71d0eb e690039f0564307d e3dce4bd90433e02 ecb50eee32844634 37e876b1d51250e9 e5558eebd345128d 85c958c11bc55b6e f0d7ac57d20a9dd9 254fb067bdb1cf72 d9772ae0d62d3b42 2837d91cab190928 e8cad89bca4ed737 207c127acd878983 f8a092abc242037b c90dab3c8b3eb96 163b7519e16b6b46 23ad6ec22d0ced2d f5c0d8c38edc07c4 f047730b303e4975 dd4b36a20bfc4ddc 9ad855a013f4e1cd c4332b42d30c0f65 df085d418b1fc8ab 9f14aa78217e61e4 f48a7149f9e0b2e1 5007b8de347d5ba 84c6379ed392ce8a cd73816ba4152605 75cfbc0f950a8e7 cce37771d273fcf8 f68922fe8c23335e 573dc461a56f8dd eccaf5d5fde61ebe 8a09521cd25753b7 ecae4c94e35418d3 e13a37918f7d2e62 e1d4821ad979426a bccd5b3deb4389ae fac0b810ce82ceae a7fc11181e0792cf 94b1c7ddc953a2a 2b1808d9e4c96c56 2d0ff25840bd48d e0a10eb8d31419f1 b7dd86470c1c1ba2 9027f02f0bb91791 decd3182baae856c c6caa10ef0c8fee7 fc82167816aab7ca d1593d36d6f2913e c7bb9025db4f47fb f1f9ffc51823de45 ef166f83c43da69e 1f8cee99c3533cfb db771b40b6d1ffa8 fb0fa6461186ee5e d4da2b59ca8d8ac3 15f8a6c9a9c94df ac23833d3051469a faded15dfc6f30b2 170bc59200fdae97 314ef531fc3e5bc9 f8ad8c7cc32f48cf c42cf766ac2dc68e 286c22580fb9520e d2e89addf57bec97 21a9b3262119aed4 30d300e217159244 8c917edbca15d57e eb2f845283bb9bbf 9ad12e03ae3b3201 f851077f1c028534 9fbe20f32762acdf d59ddee0e3808bd1 ff8311053a8f4ef7 e1f1fbd6cdeee660 b16f72311f4131f9 d9d080f0b78fdab6 857ec11630f28337 d033b5303bc27cc6 f352577c36ee3348 e7e0b67f2a043620 e5c6b2e6f8d11893 ] wstrb=[af db 62 cf 5a f5 b5 9 d0 17 d8 2a d 8d 33 dd a4 b 8 b1 98 3b 8f 3d 47 97 ee df d2 7d 1c 19 14 b f9 e7 88 15 0 9d 20 f9 84 a9 f 84 46 2f 7e ca d8 8d 4e 1e bc cc e8 95 59 37 b3 16 3 9c ab 5d d3 5e 73 d6 fa 1e 33 cd 7c a6 a4 77 c4 d7 44 41 7e e8 b8 42 c0 fc 83 3e e5 3b 80 a5 38 4 e3 1d 3f 63 c2 77 67 a5 94 a7 8 56 1e 70 fb b3 17 4 9 35 74 5 e8 8b 9 f2 c0 7d f7 a9 8 0 9b c8 7d 92 71 85 92 c 4d f 9e bf 94 30 cb e1 3f 6a a0 d3 9a 6c b5 da d6 55 ad ] bresp=0 bid=0
[15000] MASTER_DRIVER1 received transaction, op=AXI_WRITE
[15000] MASTER_DRIVER0 received transaction, op=AXI_WRITE
[35000] MASTER 1 AW_VALID_RDY Handshake
[35000] MASTER 0 AW_VALID_RDY Handshake
[45000] ARB MONITOR: slave=0 m0_req=0 m1_req=1 winner=1
[45000] ARB MONITOR: slave=1 m0_req=1 m1_req=0 winner=0
[45000] AXI S1_AWVALID_RDY HANDSHAKE
[45000] AXI S0_AWVALID_RDY HANDSHAKE
[55000] MASTER 1 W_VALID_RDY Handshake beat=0 wlast=0
[55000] MASTER 0 W_VALID_RDY Handshake beat=0 wlast=0
[65000] MASTER 0 W_VALID_RDY Handshake beat=1 wlast=0
[65000] MASTER 1 W_VALID_RDY Handshake beat=1 wlast=0
[65000] S1 MEMORY WRITE beat=0 addr=1c2634f0 data=d2a7d19a334d9bfd id=0b
[65000] AXI S0_WVALID_RDY HANDSHAKE
[65000] S0 MEMORY WRITE beat=0 addr=0d66c490 data=c6dee4bfcf0b8002 id=12
[75000] AXI S0_WVALID_RDY HANDSHAKE
[75000] S0 MEMORY WRITE beat=1 addr=0d66c4b0 data=89a070cfecaa5d51 id=12
[75000] S1 MEMORY WRITE beat=1 addr=1c2634f8 data=feba85e2384ee8f7 id=0b
[75000] MASTER 1 W_VALID_RDY Handshake beat=2 wlast=0
[75000] MASTER 0 W_VALID_RDY Handshake beat=2 wlast=0
[85000] MASTER 0 W_VALID_RDY Handshake beat=3 wlast=0
[85000] MASTER 1 W_VALID_RDY Handshake beat=3 wlast=0
[85000] S1 MEMORY WRITE beat=2 addr=1c263500 data=f4d3670cae2c9838 id=0b
[85000] AXI S0_WVALID_RDY HANDSHAKE
[85000] S0 MEMORY WRITE beat=2 addr=0d66c4d0 data=06227da386e95534 id=12
[95000] AXI S0_WVALID_RDY HANDSHAKE
[95000] S0 MEMORY WRITE beat=3 addr=0d66c4f0 data=d5f4d537d99fa198 id=12
[95000] S1 MEMORY WRITE beat=3 addr=1c263508 data=e17a34359cf12fdc id=0b
[95000] MASTER 1 W_VALID_RDY Handshake beat=4 wlast=0
[95000] MASTER 0 W_VALID_RDY Handshake beat=4 wlast=0
[105000] MASTER 0 W_VALID_RDY Handshake beat=5 wlast=0
[105000] MASTER 1 W_VALID_RDY Handshake beat=5 wlast=0
[105000] S1 MEMORY WRITE beat=4 addr=1c263510 data=d54018d3c77b38a6 id=0b
[105000] AXI S0_WVALID_RDY HANDSHAKE
[105000] S0 MEMORY WRITE beat=4 addr=0d66c510 data=c649fee9cd016262 id=12
[115000] AXI S0_WVALID_RDY HANDSHAKE
[115000] S0 MEMORY WRITE beat=5 addr=0d66c530 data=d3eab797df954606 id=12
[115000] S1 MEMORY WRITE beat=5 addr=1c263518 data=f5a7d0dfe034ba17 id=0b
[115000] MASTER 1 W_VALID_RDY Handshake beat=6 wlast=0
[115000] MASTER 0 W_VALID_RDY Handshake beat=6 wlast=0
[125000] MASTER 0 W_VALID_RDY Handshake beat=7 wlast=0
[125000] MASTER 1 W_VALID_RDY Handshake beat=7 wlast=0
[125000] S1 MEMORY WRITE beat=6 addr=1c263520 data=fd25e9f4ca137fdf id=0b
[125000] AXI S0_WVALID_RDY HANDSHAKE
[125000] S0 MEMORY WRITE beat=6 addr=0d66c550 data=3934e79fcc6c7c8c id=12
[135000] AXI S0_WVALID_RDY HANDSHAKE
[135000] S0 MEMORY WRITE beat=7 addr=0d66c570 data=196ddeef29df8cce id=12
[135000] S1 MEMORY WRITE beat=7 addr=1c263528 data=118eb886d7220514 id=0b
[135000] MASTER 1 W_VALID_RDY Handshake beat=8 wlast=0
[135000] MASTER 0 W_VALID_RDY Handshake beat=8 wlast=0
[145000] MASTER 0 W_VALID_RDY Handshake beat=9 wlast=0
[145000] MASTER 1 W_VALID_RDY Handshake beat=9 wlast=0
[145000] S1 MEMORY WRITE beat=8 addr=1c263530 data=3756bf2cd26602c7 id=0b
[145000] AXI S0_WVALID_RDY HANDSHAKE
[145000] S0 MEMORY WRITE beat=8 addr=0d66c590 data=8974d2d4ff7ee688 id=12
[155000] AXI S0_WVALID_RDY HANDSHAKE
[155000] S0 MEMORY WRITE beat=9 addr=0d66c5b0 data=cbeb6315ed589686 id=12
[155000] S1 MEMORY WRITE beat=9 addr=1c263538 data=1c7982a707368965 id=0b
[155000] MASTER 1 W_VALID_RDY Handshake beat=10 wlast=0
[155000] MASTER 0 W_VALID_RDY Handshake beat=10 wlast=0
[165000] MASTER 0 W_VALID_RDY Handshake beat=11 wlast=0
[165000] MASTER 1 W_VALID_RDY Handshake beat=11 wlast=0
[165000] S1 MEMORY WRITE beat=10 addr=1c263540 data=de588e79347ca920 id=0b
[165000] AXI S0_WVALID_RDY HANDSHAKE
[165000] S0 MEMORY WRITE beat=10 addr=0d66c5d0 data=17382354c2a9ba73 id=12
[175000] AXI S0_WVALID_RDY HANDSHAKE
[175000] S0 MEMORY WRITE beat=11 addr=0d66c5f0 data=c228a0fce5594204 id=12
[175000] S1 MEMORY WRITE beat=11 addr=1c263548 data=86e2abe72e083b2d id=0b
[175000] MASTER 1 W_VALID_RDY Handshake beat=12 wlast=0
[175000] MASTER 0 W_VALID_RDY Handshake beat=12 wlast=0
[185000] MASTER 0 W_VALID_RDY Handshake beat=13 wlast=0
[185000] MASTER 1 W_VALID_RDY Handshake beat=13 wlast=0
[185000] S1 MEMORY WRITE beat=12 addr=1c263550 data=353ec49295af4da5 id=0b
[185000] AXI S0_WVALID_RDY HANDSHAKE
[185000] S0 MEMORY WRITE beat=12 addr=0d66c610 data=d2b1d88aa0acf628 id=12
[195000] AXI S0_WVALID_RDY HANDSHAKE
[195000] S0 MEMORY WRITE beat=13 addr=0d66c630 data=e356b09c0e140411 id=12
[195000] S1 MEMORY WRITE beat=13 addr=1c263558 data=ca2bf6c5a35c2e8e id=0b
[195000] MASTER 1 W_VALID_RDY Handshake beat=14 wlast=0
[195000] MASTER 0 W_VALID_RDY Handshake beat=14 wlast=0
[205000] MASTER 0 W_VALID_RDY Handshake beat=15 wlast=0
[205000] MASTER 1 W_VALID_RDY Handshake beat=15 wlast=0
[205000] S1 MEMORY WRITE beat=14 addr=1c263560 data=d16469bb9397530b id=0b
[205000] AXI S0_WVALID_RDY HANDSHAKE
[205000] S0 MEMORY WRITE beat=14 addr=0d66c650 data=f36d4615e9e9fbde id=12
[215000] AXI S0_WVALID_RDY HANDSHAKE
[215000] S0 MEMORY WRITE beat=15 addr=0d66c670 data=8a96f206257f5198 id=12
[215000] S1 MEMORY WRITE beat=15 addr=1c263568 data=2946a0b1d10ea2ad id=0b
[215000] MASTER 1 W_VALID_RDY Handshake beat=16 wlast=0
[215000] MASTER 0 W_VALID_RDY Handshake beat=16 wlast=0
[225000] MASTER 0 W_VALID_RDY Handshake beat=17 wlast=0
[225000] MASTER 1 W_VALID_RDY Handshake beat=17 wlast=0
[225000] S1 MEMORY WRITE beat=16 addr=1c263570 data=f46ad13b86a32e4d id=0b
[225000] AXI S0_WVALID_RDY HANDSHAKE
[225000] S0 MEMORY WRITE beat=16 addr=0d66c690 data=339355a9c61f1e9f id=12
[235000] AXI S0_WVALID_RDY HANDSHAKE
[235000] S0 MEMORY WRITE beat=17 addr=0d66c6b0 data=30091a7dededa2a2 id=12
[235000] S1 MEMORY WRITE beat=17 addr=1c263578 data=1a3a8159f3729776 id=0b
[235000] MASTER 1 W_VALID_RDY Handshake beat=18 wlast=0
[235000] MASTER 0 W_VALID_RDY Handshake beat=18 wlast=0
[245000] MASTER 0 W_VALID_RDY Handshake beat=19 wlast=0
[245000] MASTER 1 W_VALID_RDY Handshake beat=19 wlast=0
[245000] S1 MEMORY WRITE beat=18 addr=1c263580 data=c4813a23c5cf3af7 id=0b
[245000] AXI S0_WVALID_RDY HANDSHAKE
[245000] S0 MEMORY WRITE beat=18 addr=0d66c6d0 data=936cf43a27009bbe id=12
[255000] AXI S0_WVALID_RDY HANDSHAKE
[255000] S0 MEMORY WRITE beat=19 addr=0d66c6f0 data=ed1fba5dbaa00c83 id=12
[255000] S1 MEMORY WRITE beat=19 addr=1c263588 data=cc726944c381220a id=0b
[255000] MASTER 1 W_VALID_RDY Handshake beat=20 wlast=0
[255000] MASTER 0 W_VALID_RDY Handshake beat=20 wlast=0
[265000] MASTER 0 W_VALID_RDY Handshake beat=21 wlast=0
[265000] MASTER 1 W_VALID_RDY Handshake beat=21 wlast=0
[265000] S1 MEMORY WRITE beat=20 addr=1c263590 data=b6f3b98038ec0b5f id=0b
[265000] AXI S0_WVALID_RDY HANDSHAKE
[265000] S0 MEMORY WRITE beat=20 addr=0d66c710 data=288daf26c70049e3 id=12
[275000] AXI S0_WVALID_RDY HANDSHAKE
[275000] S0 MEMORY WRITE beat=21 addr=0d66c730 data=ee00e5a11d28d4da id=12
[275000] S1 MEMORY WRITE beat=21 addr=1c263598 data=febb4656e6acea9d id=0b
[275000] MASTER 1 W_VALID_RDY Handshake beat=22 wlast=0
[275000] MASTER 0 W_VALID_RDY Handshake beat=22 wlast=0
[285000] MASTER 0 W_VALID_RDY Handshake beat=23 wlast=0
[285000] MASTER 1 W_VALID_RDY Handshake beat=23 wlast=0
[285000] S1 MEMORY WRITE beat=22 addr=1c2635a0 data=aa2e0ca7fb74f3a4 id=0b
[285000] AXI S0_WVALID_RDY HANDSHAKE
[285000] S0 MEMORY WRITE beat=22 addr=0d66c750 data=d7c8e15dbbfaa360 id=12
[295000] AXI S0_WVALID_RDY HANDSHAKE
[295000] S0 MEMORY WRITE beat=23 addr=0d66c770 data=02faed44db209ffe id=12
[295000] S1 MEMORY WRITE beat=23 addr=1c2635a8 data=3460ff03cb2daf9a id=0b
[295000] MASTER 1 W_VALID_RDY Handshake beat=24 wlast=0
[295000] MASTER 0 W_VALID_RDY Handshake beat=24 wlast=0
[305000] MASTER 0 W_VALID_RDY Handshake beat=25 wlast=0
[305000] MASTER 1 W_VALID_RDY Handshake beat=25 wlast=0
[305000] S1 MEMORY WRITE beat=24 addr=1c2635b0 data=31da9a38e121c628 id=0b
[305000] AXI S0_WVALID_RDY HANDSHAKE
[305000] S0 MEMORY WRITE beat=24 addr=0d66c790 data=f84974d880569083 id=12
[315000] AXI S0_WVALID_RDY HANDSHAKE
[315000] S0 MEMORY WRITE beat=25 addr=0d66c7b0 data=3c5133e4f0fbd2e5 id=12
[315000] S1 MEMORY WRITE beat=25 addr=1c2635b8 data=dc96b9cc331c4559 id=0b
[315000] MASTER 1 W_VALID_RDY Handshake beat=26 wlast=0
[315000] MASTER 0 W_VALID_RDY Handshake beat=26 wlast=0
[325000] MASTER 0 W_VALID_RDY Handshake beat=27 wlast=0
[325000] MASTER 1 W_VALID_RDY Handshake beat=27 wlast=0
[325000] S1 MEMORY WRITE beat=26 addr=1c2635c0 data=fe49f4f3dc08a6df id=0b
[325000] AXI S0_WVALID_RDY HANDSHAKE
[325000] S0 MEMORY WRITE beat=26 addr=0d66c7d0 data=cc1c72e4d0125636 id=12
[335000] AXI S0_WVALID_RDY HANDSHAKE
[335000] S0 MEMORY WRITE beat=27 addr=0d66c7f0 data=d068e6b93f4c2128 id=12
[335000] S1 MEMORY WRITE beat=27 addr=1c2635c8 data=bd2a6d0710f7b8cf id=0b
[335000] MASTER 1 W_VALID_RDY Handshake beat=28 wlast=0
[335000] MASTER 0 W_VALID_RDY Handshake beat=28 wlast=0
[345000] MASTER 0 W_VALID_RDY Handshake beat=29 wlast=0
[345000] MASTER 1 W_VALID_RDY Handshake beat=29 wlast=0
[345000] S1 MEMORY WRITE beat=28 addr=1c2635d0 data=c413fe28b0248f2b id=0b
[345000] AXI S0_WVALID_RDY HANDSHAKE
[345000] S0 MEMORY WRITE beat=28 addr=0d66c810 data=b047f40dc465e7bc id=12
[355000] AXI S0_WVALID_RDY HANDSHAKE
[355000] S0 MEMORY WRITE beat=29 addr=0d66c830 data=94783df28cba1a9d id=12
[355000] S1 MEMORY WRITE beat=29 addr=1c2635d8 data=0c2d360b99c126d3 id=0b
[355000] MASTER 1 W_VALID_RDY Handshake beat=30 wlast=0
[355000] MASTER 0 W_VALID_RDY Handshake beat=30 wlast=0
[365000] MASTER 0 W_VALID_RDY Handshake beat=31 wlast=0
[365000] MASTER 1 W_VALID_RDY Handshake beat=31 wlast=0
[365000] S1 MEMORY WRITE beat=30 addr=1c2635e0 data=aab8dfa2c25df31b id=0b
[365000] AXI S0_WVALID_RDY HANDSHAKE
[365000] S0 MEMORY WRITE beat=30 addr=0d66c850 data=cc063bc5fc6466f1 id=12
[375000] AXI S0_WVALID_RDY HANDSHAKE
[375000] S0 MEMORY WRITE beat=31 addr=0d66c870 data=c0ca4eaee4e124ac id=12
[375000] S1 MEMORY WRITE beat=31 addr=1c2635e8 data=f2828247c957a312 id=0b
[375000] MASTER 1 W_VALID_RDY Handshake beat=32 wlast=0
[375000] MASTER 0 W_VALID_RDY Handshake beat=32 wlast=0
[385000] MASTER 0 W_VALID_RDY Handshake beat=33 wlast=0
[385000] MASTER 1 W_VALID_RDY Handshake beat=33 wlast=0
[385000] S1 MEMORY WRITE beat=32 addr=1c2635f0 data=e318c9e6eeccddca id=0b
[385000] AXI S0_WVALID_RDY HANDSHAKE
[385000] S0 MEMORY WRITE beat=32 addr=0d66c890 data=f19b3f49fc4e2fd3 id=12
[395000] AXI S0_WVALID_RDY HANDSHAKE
[395000] S0 MEMORY WRITE beat=33 addr=0d66c8b0 data=f8b296c4d5428ca0 id=12
[395000] S1 MEMORY WRITE beat=33 addr=1c2635f8 data=312ad0e6feafb852 id=0b
[395000] MASTER 1 W_VALID_RDY Handshake beat=34 wlast=0
[395000] MASTER 0 W_VALID_RDY Handshake beat=34 wlast=0
[405000] MASTER 0 W_VALID_RDY Handshake beat=35 wlast=0
[405000] MASTER 1 W_VALID_RDY Handshake beat=35 wlast=0
[405000] S1 MEMORY WRITE beat=34 addr=1c263600 data=c8075b648dd1a988 id=0b
[405000] AXI S0_WVALID_RDY HANDSHAKE
[405000] S0 MEMORY WRITE beat=34 addr=0d66c8d0 data=ba23b14c3da17b0f id=12
[415000] AXI S0_WVALID_RDY HANDSHAKE
[415000] S0 MEMORY WRITE beat=35 addr=0d66c8f0 data=39efaae2b97ce572 id=12
[415000] S1 MEMORY WRITE beat=35 addr=1c263608 data=fc9e875323ad532d id=0b
[415000] MASTER 1 W_VALID_RDY Handshake beat=36 wlast=0
[415000] MASTER 0 W_VALID_RDY Handshake beat=36 wlast=0
[425000] MASTER 0 W_VALID_RDY Handshake beat=37 wlast=0
[425000] MASTER 1 W_VALID_RDY Handshake beat=37 wlast=0
[425000] S1 MEMORY WRITE beat=36 addr=1c263610 data=225d0b7fab20254a id=0b
[425000] AXI S0_WVALID_RDY HANDSHAKE
[425000] S0 MEMORY WRITE beat=36 addr=0d66c910 data=0ebf72132bbef096 id=12
[435000] AXI S0_WVALID_RDY HANDSHAKE
[435000] S0 MEMORY WRITE beat=37 addr=0d66c930 data=e9606ba5b2a241a6 id=12
[435000] S1 MEMORY WRITE beat=37 addr=1c263618 data=38f1ced32dc95839 id=0b
[435000] MASTER 1 W_VALID_RDY Handshake beat=38 wlast=0
[435000] MASTER 0 W_VALID_RDY Handshake beat=38 wlast=0
[445000] MASTER 0 W_VALID_RDY Handshake beat=39 wlast=0
[445000] MASTER 1 W_VALID_RDY Handshake beat=39 wlast=0
[445000] S1 MEMORY WRITE beat=38 addr=1c263620 data=d176ab66ea6466e3 id=0b
[445000] AXI S0_WVALID_RDY HANDSHAKE
[445000] S0 MEMORY WRITE beat=38 addr=0d66c950 data=ec1f2719c8e3235f id=12
[455000] AXI S0_WVALID_RDY HANDSHAKE
[455000] S0 MEMORY WRITE beat=39 addr=0d66c970 data=f4a213f523501687 id=12
[455000] S1 MEMORY WRITE beat=39 addr=1c263628 data=15848c2e35905626 id=0b
[455000] MASTER 1 W_VALID_RDY Handshake beat=40 wlast=0
[455000] MASTER 0 W_VALID_RDY Handshake beat=40 wlast=0
[465000] MASTER 0 W_VALID_RDY Handshake beat=41 wlast=0
[465000] MASTER 1 W_VALID_RDY Handshake beat=41 wlast=0
[465000] S1 MEMORY WRITE beat=40 addr=1c263630 data=e359ae5ff3d3b6e5 id=0b
[465000] AXI S0_WVALID_RDY HANDSHAKE
[465000] S0 MEMORY WRITE beat=40 addr=0d66c990 data=d5f2582dfade992c id=12
[475000] AXI S0_WVALID_RDY HANDSHAKE
[475000] S0 MEMORY WRITE beat=41 addr=0d66c9b0 data=c3c1bc8bde027f9a id=12
[475000] S1 MEMORY WRITE beat=41 addr=1c263638 data=de381dc8ce765b01 id=0b
[475000] MASTER 1 W_VALID_RDY Handshake beat=42 wlast=0
[475000] MASTER 0 W_VALID_RDY Handshake beat=42 wlast=0
[485000] MASTER 0 W_VALID_RDY Handshake beat=43 wlast=0
[485000] MASTER 1 W_VALID_RDY Handshake beat=43 wlast=0
[485000] S1 MEMORY WRITE beat=42 addr=1c263640 data=0406b12734d059c5 id=0b
[485000] AXI S0_WVALID_RDY HANDSHAKE
[485000] S0 MEMORY WRITE beat=42 addr=0d66c9d0 data=81529621c2117f46 id=12
[495000] AXI S0_WVALID_RDY HANDSHAKE
[495000] S0 MEMORY WRITE beat=43 addr=0d66c9f0 data=bcf018723863d081 id=12
[495000] S1 MEMORY WRITE beat=43 addr=1c263648 data=28a410aaf3bca9f6 id=0b
[495000] MASTER 1 W_VALID_RDY Handshake beat=44 wlast=0
[495000] MASTER 0 W_VALID_RDY Handshake beat=44 wlast=0
[505000] MASTER 0 W_VALID_RDY Handshake beat=45 wlast=0
[505000] MASTER 1 W_VALID_RDY Handshake beat=45 wlast=0
[505000] S1 MEMORY WRITE beat=44 addr=1c263650 data=c23304f7e7605f86 id=0b
[505000] AXI S0_WVALID_RDY HANDSHAKE
[505000] S0 MEMORY WRITE beat=44 addr=0d66ca10 data=9666501bd744ee4f id=12
[515000] AXI S0_WVALID_RDY HANDSHAKE
[515000] S0 MEMORY WRITE beat=45 addr=0d66ca30 data=99566d9500b1d4fe id=12
[515000] S1 MEMORY WRITE beat=45 addr=1c263658 data=1c30b94b86dc2e72 id=0b
[515000] MASTER 1 W_VALID_RDY Handshake beat=46 wlast=0
[515000] MASTER 0 W_VALID_RDY Handshake beat=46 wlast=0
[525000] MASTER 0 W_VALID_RDY Handshake beat=47 wlast=0
[525000] MASTER 1 W_VALID_RDY Handshake beat=47 wlast=0
[525000] S1 MEMORY WRITE beat=46 addr=1c263660 data=fa98d869c639b61e id=0b
[525000] AXI S0_WVALID_RDY HANDSHAKE
[525000] S0 MEMORY WRITE beat=46 addr=0d66ca50 data=3915a57f17b8e63d id=12
[535000] AXI S0_WVALID_RDY HANDSHAKE
[535000] S0 MEMORY WRITE beat=47 addr=0d66ca70 data=eefdd48cd6468608 id=12
[535000] S1 MEMORY WRITE beat=47 addr=1c263668 data=ad9a15a4c4d4c9f5 id=0b
[535000] MASTER 1 W_VALID_RDY Handshake beat=48 wlast=0
[535000] MASTER 0 W_VALID_RDY Handshake beat=48 wlast=0
[545000] MASTER 0 W_VALID_RDY Handshake beat=49 wlast=0
[545000] MASTER 1 W_VALID_RDY Handshake beat=49 wlast=0
[545000] S1 MEMORY WRITE beat=48 addr=1c263670 data=cbb0f867bccbdd60 id=0b
[545000] AXI S0_WVALID_RDY HANDSHAKE
[545000] S0 MEMORY WRITE beat=48 addr=0d66ca90 data=d6f85b06cf7bf59a id=12
[555000] AXI S0_WVALID_RDY HANDSHAKE
[555000] S0 MEMORY WRITE beat=49 addr=0d66cab0 data=e734dbd788544221 id=12
[555000] S1 MEMORY WRITE beat=49 addr=1c263678 data=0305937fc9caceef id=0b
[555000] MASTER 1 W_VALID_RDY Handshake beat=50 wlast=0
[555000] MASTER 0 W_VALID_RDY Handshake beat=50 wlast=0
[565000] MASTER 0 W_VALID_RDY Handshake beat=51 wlast=0
[565000] MASTER 1 W_VALID_RDY Handshake beat=51 wlast=0
[565000] S1 MEMORY WRITE beat=50 addr=1c263680 data=8e9f98e4c649d0d0 id=0b
[565000] AXI S0_WVALID_RDY HANDSHAKE
[565000] S0 MEMORY WRITE beat=50 addr=0d66cad0 data=de9ac829100e0085 id=12
[575000] AXI S0_WVALID_RDY HANDSHAKE
[575000] S0 MEMORY WRITE beat=51 addr=0d66caf0 data=df89f61fd632b063 id=12
[575000] S1 MEMORY WRITE beat=51 addr=1c263688 data=0315ae31b09fa923 id=0b
[575000] MASTER 1 W_VALID_RDY Handshake beat=52 wlast=0
[575000] MASTER 0 W_VALID_RDY Handshake beat=52 wlast=0
[585000] MASTER 0 W_VALID_RDY Handshake beat=53 wlast=0
[585000] MASTER 1 W_VALID_RDY Handshake beat=53 wlast=0
[585000] S1 MEMORY WRITE beat=52 addr=1c263690 data=fa6a7813da50914c id=0b
[585000] AXI S0_WVALID_RDY HANDSHAKE
[585000] S0 MEMORY WRITE beat=52 addr=0d66cb10 data=de86f285b593232f id=12
[595000] AXI S0_WVALID_RDY HANDSHAKE
[595000] S0 MEMORY WRITE beat=53 addr=0d66cb30 data=c5a123b4c6bed1f7 id=12
[595000] S1 MEMORY WRITE beat=53 addr=1c263698 data=a09a621c061b41b0 id=0b
[595000] MASTER 1 W_VALID_RDY Handshake beat=54 wlast=0
[595000] MASTER 0 W_VALID_RDY Handshake beat=54 wlast=0
[605000] MASTER 0 W_VALID_RDY Handshake beat=55 wlast=0
[605000] MASTER 1 W_VALID_RDY Handshake beat=55 wlast=0
[605000] S1 MEMORY WRITE beat=54 addr=1c2636a0 data=b6baead3890a10f7 id=0b
[605000] AXI S0_WVALID_RDY HANDSHAKE
[605000] S0 MEMORY WRITE beat=54 addr=0d66cb50 data=9cf1825abd21baae id=12
[615000] AXI S0_WVALID_RDY HANDSHAKE
[615000] S0 MEMORY WRITE beat=55 addr=0d66cb70 data=f2b4ddde252b19d4 id=12
[615000] S1 MEMORY WRITE beat=55 addr=1c2636a8 data=e35aa243a3b0104d id=0b
[615000] MASTER 1 W_VALID_RDY Handshake beat=56 wlast=0
[615000] MASTER 0 W_VALID_RDY Handshake beat=56 wlast=0
[625000] MASTER 0 W_VALID_RDY Handshake beat=57 wlast=0
[625000] MASTER 1 W_VALID_RDY Handshake beat=57 wlast=0
[625000] S1 MEMORY WRITE beat=56 addr=1c2636b0 data=a9cb51fdb12562e6 id=0b
[625000] AXI S0_WVALID_RDY HANDSHAKE
[625000] S0 MEMORY WRITE beat=56 addr=0d66cb90 data=ebe9ebcbfb7874df id=12
[635000] AXI S0_WVALID_RDY HANDSHAKE
[635000] S0 MEMORY WRITE beat=57 addr=0d66cbb0 data=389a2f8eb8560192 id=12
[635000] S1 MEMORY WRITE beat=57 addr=1c2636b8 data=3a2f73de03f50460 id=0b
[635000] MASTER 1 W_VALID_RDY Handshake beat=58 wlast=0
[635000] MASTER 0 W_VALID_RDY Handshake beat=58 wlast=0
[645000] MASTER 0 W_VALID_RDY Handshake beat=59 wlast=0
[645000] MASTER 1 W_VALID_RDY Handshake beat=59 wlast=0
[645000] S1 MEMORY WRITE beat=58 addr=1c2636c0 data=a7a514ade0863cd1 id=0b
[645000] AXI S0_WVALID_RDY HANDSHAKE
[645000] S0 MEMORY WRITE beat=58 addr=0d66cbd0 data=dd811b6688db6e25 id=12
[655000] AXI S0_WVALID_RDY HANDSHAKE
[655000] S0 MEMORY WRITE beat=59 addr=0d66cbf0 data=0453e3052b4f0d6c id=12
[655000] S1 MEMORY WRITE beat=59 addr=1c2636c8 data=91ab9fb79d8a1621 id=0b
[655000] MASTER 1 W_VALID_RDY Handshake beat=60 wlast=0
[655000] MASTER 0 W_VALID_RDY Handshake beat=60 wlast=0
[665000] MASTER 0 W_VALID_RDY Handshake beat=61 wlast=0
[665000] MASTER 1 W_VALID_RDY Handshake beat=61 wlast=0
[665000] S1 MEMORY WRITE beat=60 addr=1c2636d0 data=a17f1a81d17066ab id=0b
[665000] AXI S0_WVALID_RDY HANDSHAKE
[665000] S0 MEMORY WRITE beat=60 addr=0d66cc10 data=e3a50efec96b0731 id=12
[675000] AXI S0_WVALID_RDY HANDSHAKE
[675000] S0 MEMORY WRITE beat=61 addr=0d66cc30 data=d24675573cee1293 id=12
[675000] S1 MEMORY WRITE beat=61 addr=1c2636d8 data=31f6a37ccbdb1395 id=0b
[675000] MASTER 1 W_VALID_RDY Handshake beat=62 wlast=0
[675000] MASTER 0 W_VALID_RDY Handshake beat=62 wlast=0
[685000] MASTER 0 W_VALID_RDY Handshake beat=63 wlast=0
[685000] MASTER 1 W_VALID_RDY Handshake beat=63 wlast=0
[685000] S1 MEMORY WRITE beat=62 addr=1c2636e0 data=e96529b7c9242f2f id=0b
[685000] AXI S0_WVALID_RDY HANDSHAKE
[685000] S0 MEMORY WRITE beat=62 addr=0d66cc50 data=e83d1fffc1262a65 id=12
[695000] AXI S0_WVALID_RDY HANDSHAKE
[695000] S0 MEMORY WRITE beat=63 addr=0d66cc70 data=8a913196d69a585c id=12
[695000] S1 MEMORY WRITE beat=63 addr=1c2636e8 data=1a9495dac3a24333 id=0b
[695000] MASTER 1 W_VALID_RDY Handshake beat=64 wlast=0
[695000] MASTER 0 W_VALID_RDY Handshake beat=64 wlast=0
[705000] MASTER 0 W_VALID_RDY Handshake beat=65 wlast=0
[705000] MASTER 1 W_VALID_RDY Handshake beat=65 wlast=0
[705000] S1 MEMORY WRITE beat=64 addr=1c2636f0 data=0f7d56c98ae44438 id=0b
[705000] AXI S0_WVALID_RDY HANDSHAKE
[705000] S0 MEMORY WRITE beat=64 addr=0d66cc90 data=13886aefcbe22efd id=12
[715000] AXI S0_WVALID_RDY HANDSHAKE
[715000] S0 MEMORY WRITE beat=65 addr=0d66ccb0 data=8d085962dcd7a6ed id=12
[715000] S1 MEMORY WRITE beat=65 addr=1c2636f8 data=d4087367cc8b3956 id=0b
[715000] MASTER 1 W_VALID_RDY Handshake beat=66 wlast=0
[715000] MASTER 0 W_VALID_RDY Handshake beat=66 wlast=0
[725000] MASTER 0 W_VALID_RDY Handshake beat=67 wlast=0
[725000] MASTER 1 W_VALID_RDY Handshake beat=67 wlast=0
[725000] S1 MEMORY WRITE beat=66 addr=1c263700 data=902d7c89f8e28080 id=0b
[725000] AXI S0_WVALID_RDY HANDSHAKE
[725000] S0 MEMORY WRITE beat=66 addr=0d66ccd0 data=b371ff49fbc58aee id=12
[735000] AXI S0_WVALID_RDY HANDSHAKE
[735000] S0 MEMORY WRITE beat=67 addr=0d66ccf0 data=c7a7b9eb17998af9 id=12
[735000] S1 MEMORY WRITE beat=67 addr=1c263708 data=83c6c4b8ee9d0941 id=0b
[735000] MASTER 1 W_VALID_RDY Handshake beat=68 wlast=0
[735000] MASTER 0 W_VALID_RDY Handshake beat=68 wlast=0
[745000] MASTER 0 W_VALID_RDY Handshake beat=69 wlast=0
[745000] MASTER 1 W_VALID_RDY Handshake beat=69 wlast=0
[745000] S1 MEMORY WRITE beat=68 addr=1c263710 data=bb2842979faad352 id=0b
[745000] AXI S0_WVALID_RDY HANDSHAKE
[745000] S0 MEMORY WRITE beat=68 addr=0d66cd10 data=f47131e6c6fa6a38 id=12
[755000] AXI S0_WVALID_RDY HANDSHAKE
[755000] S0 MEMORY WRITE beat=69 addr=0d66cd30 data=c2bff526d4b0134e id=12
[755000] S1 MEMORY WRITE beat=69 addr=1c263718 data=988d53d2d7cf3820 id=0b
[755000] MASTER 1 W_VALID_RDY Handshake beat=70 wlast=0
[755000] MASTER 0 W_VALID_RDY Handshake beat=70 wlast=0
[765000] MASTER 0 W_VALID_RDY Handshake beat=71 wlast=0
[765000] MASTER 1 W_VALID_RDY Handshake beat=71 wlast=0
[765000] S1 MEMORY WRITE beat=70 addr=1c263720 data=c66c4161cb55bf21 id=0b
[765000] AXI S0_WVALID_RDY HANDSHAKE
[765000] S0 MEMORY WRITE beat=70 addr=0d66cd50 data=ec499e4727e33130 id=12
[775000] AXI S0_WVALID_RDY HANDSHAKE
[775000] S0 MEMORY WRITE beat=71 addr=0d66cd70 data=eedd9b680a67af12 id=12
[775000] S1 MEMORY WRITE beat=71 addr=1c263728 data=eb0092731c54188b id=0b
[775000] MASTER 1 W_VALID_RDY Handshake beat=72 wlast=0
[775000] MASTER 0 W_VALID_RDY Handshake beat=72 wlast=0
[785000] MASTER 0 W_VALID_RDY Handshake beat=73 wlast=0
[785000] MASTER 1 W_VALID_RDY Handshake beat=73 wlast=0
[785000] S1 MEMORY WRITE beat=72 addr=1c263730 data=f42350ab019483f9 id=0b
[785000] AXI S0_WVALID_RDY HANDSHAKE
[785000] S0 MEMORY WRITE beat=72 addr=0d66cd90 data=df17c260e0bad02d id=12
[795000] AXI S0_WVALID_RDY HANDSHAKE
[795000] S0 MEMORY WRITE beat=73 addr=0d66cdb0 data=889e015d319d908f id=12
[795000] S1 MEMORY WRITE beat=73 addr=1c263738 data=ccea431a038de646 id=0b
[795000] MASTER 1 W_VALID_RDY Handshake beat=74 wlast=0
[795000] MASTER 0 W_VALID_RDY Handshake beat=74 wlast=0
[805000] MASTER 0 W_VALID_RDY Handshake beat=75 wlast=0
[805000] MASTER 1 W_VALID_RDY Handshake beat=75 wlast=0
[805000] S1 MEMORY WRITE beat=74 addr=1c263740 data=1fe1fed1ba8f920c id=0b
[805000] AXI S0_WVALID_RDY HANDSHAKE
[805000] S0 MEMORY WRITE beat=74 addr=0d66cdd0 data=3c053fa1cb6160a7 id=12
[815000] AXI S0_WVALID_RDY HANDSHAKE
[815000] S0 MEMORY WRITE beat=75 addr=0d66cdf0 data=ac1c30d4f77b9cc6 id=12
[815000] S1 MEMORY WRITE beat=75 addr=1c263748 data=bc241605b7ead58d id=0b
[815000] MASTER 1 W_VALID_RDY Handshake beat=76 wlast=0
[815000] MASTER 0 W_VALID_RDY Handshake beat=76 wlast=0
[825000] MASTER 0 W_VALID_RDY Handshake beat=77 wlast=0
[825000] MASTER 1 W_VALID_RDY Handshake beat=77 wlast=0
[825000] S1 MEMORY WRITE beat=76 addr=1c263750 data=bb78bbd314054f7c id=0b
[825000] AXI S0_WVALID_RDY HANDSHAKE
[825000] S0 MEMORY WRITE beat=76 addr=0d66ce10 data=29192d551b1d0201 id=12
[835000] AXI S0_WVALID_RDY HANDSHAKE
[835000] S0 MEMORY WRITE beat=77 addr=0d66ce30 data=e67e62a834ba3232 id=12
[835000] S1 MEMORY WRITE beat=77 addr=1c263758 data=ce94e188890e591f id=0b
[835000] MASTER 1 W_VALID_RDY Handshake beat=78 wlast=0
[835000] MASTER 0 W_VALID_RDY Handshake beat=78 wlast=0
[845000] MASTER 0 W_VALID_RDY Handshake beat=79 wlast=0
[845000] MASTER 1 W_VALID_RDY Handshake beat=79 wlast=0
[845000] S1 MEMORY WRITE beat=78 addr=1c263760 data=c0f92eaddb5abaa4 id=0b
[845000] AXI S0_WVALID_RDY HANDSHAKE
[845000] S0 MEMORY WRITE beat=78 addr=0d66ce50 data=2c35cef8e51e6cf6 id=12
[855000] AXI S0_WVALID_RDY HANDSHAKE
[855000] S0 MEMORY WRITE beat=79 addr=0d66ce70 data=003b6ef7929a937c id=12
[855000] S1 MEMORY WRITE beat=79 addr=1c263768 data=ef600a200ab8f78e id=0b
[855000] MASTER 1 W_VALID_RDY Handshake beat=80 wlast=0
[855000] MASTER 0 W_VALID_RDY Handshake beat=80 wlast=0
[865000] MASTER 0 W_VALID_RDY Handshake beat=81 wlast=0
[865000] MASTER 1 W_VALID_RDY Handshake beat=81 wlast=0
[865000] S1 MEMORY WRITE beat=80 addr=1c263770 data=93c750adfc71ea80 id=0b
[865000] AXI S0_WVALID_RDY HANDSHAKE
[865000] S0 MEMORY WRITE beat=80 addr=0d66ce90 data=c754c5aed54efc4d id=12
[875000] AXI S0_WVALID_RDY HANDSHAKE
[875000] S0 MEMORY WRITE beat=81 addr=0d66ceb0 data=3a6d6943e6b9d19f id=12
[875000] S1 MEMORY WRITE beat=81 addr=1c263778 data=d7cca5253df4eba9 id=0b
[875000] MASTER 1 W_VALID_RDY Handshake beat=82 wlast=1
[875000] MASTER 0 W_VALID_RDY Handshake beat=82 wlast=0
[875000] MASTER_DRIVER1 received transaction, op=AXI_READ
[885000] MASTER 0 W_VALID_RDY Handshake beat=83 wlast=0
[885000] S1 MEMORY WRITE beat=82 addr=1c263780 data=c8ade337d4c07f5a id=0b
[885000] AXI S0_WVALID_RDY HANDSHAKE
[885000] S0 MEMORY WRITE beat=82 addr=0d66ced0 data=f954651bf38a94a6 id=12
[895000] SLAVE0 sent B resp, id=2
[895000] S1 MEMORY WRITE beat=83 addr=1c263788 data=d13269dbc72caf45 id=0b
[895000] [SLAVE MONITOR] mst_id=1 s_id=0 awaddr=d66c490 awid=10 awlen=82 awsize=5 awburst=1 wdata=[c6dee4bfcf0b8002 89a070cfecaa5d51 6227da386e95534 d5f4d537d99fa198 c649fee9cd016262 d3eab797df954606 3934e79fcc6c7c8c 196ddeef29df8cce 8974d2d4ff7ee688 cbeb6315ed589686 17382354c2a9ba73 c228a0fce5594204 d2b1d88aa0acf628 e356b09c0e140411 f36d4615e9e9fbde 8a96f206257f5198 339355a9c61f1e9f 30091a7dededa2a2 936cf43a27009bbe ed1fba5dbaa00c83 288daf26c70049e3 ee00e5a11d28d4da d7c8e15dbbfaa360 2faed44db209ffe f84974d880569083 3c5133e4f0fbd2e5 cc1c72e4d0125636 d068e6b93f4c2128 b047f40dc465e7bc 94783df28cba1a9d cc063bc5fc6466f1 c0ca4eaee4e124ac f19b3f49fc4e2fd3 f8b296c4d5428ca0 ba23b14c3da17b0f 39efaae2b97ce572 ebf72132bbef096 e9606ba5b2a241a6 ec1f2719c8e3235f f4a213f523501687 d5f2582dfade992c c3c1bc8bde027f9a 81529621c2117f46 bcf018723863d081 9666501bd744ee4f 99566d9500b1d4fe 3915a57f17b8e63d eefdd48cd6468608 d6f85b06cf7bf59a e734dbd788544221 de9ac829100e0085 df89f61fd632b063 de86f285b593232f c5a123b4c6bed1f7 9cf1825abd21baae f2b4ddde252b19d4 ebe9ebcbfb7874df 389a2f8eb8560192 dd811b6688db6e25 453e3052b4f0d6c e3a50efec96b0731 d24675573cee1293 e83d1fffc1262a65 8a913196d69a585c 13886aefcbe22efd 8d085962dcd7a6ed b371ff49fbc58aee c7a7b9eb17998af9 f47131e6c6fa6a38 c2bff526d4b0134e ec499e4727e33130 eedd9b680a67af12 df17c260e0bad02d 889e015d319d908f 3c053fa1cb6160a7 ac1c30d4f77b9cc6 29192d551b1d0201 e67e62a834ba3232 2c35cef8e51e6cf6 3b6ef7929a937c c754c5aed54efc4d 3a6d6943e6b9d19f f954651bf38a94a6 ] wstrb=[3a f3 ca d9 36 70 f4 70 64 be 49 9a 2f 3e b 93 fc 54 2d 2b 92 38 be 8f 8d ec ba 1f 24 79 ae b1 65 69 d1 89 e2 7f 3b 47 e8 c d0 ca 8b b 11 74 17 e2 3e a3 ed 50 17 5 32 55 a8 1f a5 bf 24 d7 14 cc f7 ba 8b 1b 91 a0 e8 88 5a 73 a4 eb 13 8c 74 6d ff ] bresp=0 bid=10010
[895000] MASTER 0 W_VALID_RDY Handshake beat=84 wlast=0
[895000] MASTER_DRIVER1 received transaction, op=AXI_WRITE
[905000] MASTER 0 W_VALID_RDY Handshake beat=85 wlast=0
[905000] ARB MONITOR: slave=1 m0_req=0 m1_req=1 winner=1
[905000] AXI S0_ARVALID_RDY HANDSHAKE
[905000] MEMORY READ MISS beat=0 addr=136dece0 -> default data id=17
[905000] S1 MEMORY WRITE beat=84 addr=1c263790 data=85219aeedc7533e4 id=0b
[915000] S1 MEMORY WRITE beat=85 addr=1c263798 data=3135b33f28ff0f00 id=0b
[915000] MEMORY READ MISS beat=1 addr=136dece8 -> default data id=17
[915000] SLAVE 1 R_VALID_RDY Handshake beat=0 rlast=0
[915000] MASTER 1 AW_VALID_RDY Handshake
[915000] MASTER 1 B_VALID_RDY Handshake
[915000] [MASTER MONITOR] mst_id=1 s_id=0 awaddr=d66c490 awid=10 awlen=82 awsize=5 awburst=1 wdata=[c6dee4bfcf0b8002 89a070cfecaa5d51 6227da386e95534 d5f4d537d99fa198 c649fee9cd016262 d3eab797df954606 3934e79fcc6c7c8c 196ddeef29df8cce 8974d2d4ff7ee688 cbeb6315ed589686 17382354c2a9ba73 c228a0fce5594204 d2b1d88aa0acf628 e356b09c0e140411 f36d4615e9e9fbde 8a96f206257f5198 339355a9c61f1e9f 30091a7dededa2a2 936cf43a27009bbe ed1fba5dbaa00c83 288daf26c70049e3 ee00e5a11d28d4da d7c8e15dbbfaa360 2faed44db209ffe f84974d880569083 3c5133e4f0fbd2e5 cc1c72e4d0125636 d068e6b93f4c2128 b047f40dc465e7bc 94783df28cba1a9d cc063bc5fc6466f1 c0ca4eaee4e124ac f19b3f49fc4e2fd3 f8b296c4d5428ca0 ba23b14c3da17b0f 39efaae2b97ce572 ebf72132bbef096 e9606ba5b2a241a6 ec1f2719c8e3235f f4a213f523501687 d5f2582dfade992c c3c1bc8bde027f9a 81529621c2117f46 bcf018723863d081 9666501bd744ee4f 99566d9500b1d4fe 3915a57f17b8e63d eefdd48cd6468608 d6f85b06cf7bf59a e734dbd788544221 de9ac829100e0085 df89f61fd632b063 de86f285b593232f c5a123b4c6bed1f7 9cf1825abd21baae f2b4ddde252b19d4 ebe9ebcbfb7874df 389a2f8eb8560192 dd811b6688db6e25 453e3052b4f0d6c e3a50efec96b0731 d24675573cee1293 e83d1fffc1262a65 8a913196d69a585c 13886aefcbe22efd 8d085962dcd7a6ed b371ff49fbc58aee c7a7b9eb17998af9 f47131e6c6fa6a38 c2bff526d4b0134e ec499e4727e33130 eedd9b680a67af12 df17c260e0bad02d 889e015d319d908f 3c053fa1cb6160a7 ac1c30d4f77b9cc6 29192d551b1d0201 e67e62a834ba3232 2c35cef8e51e6cf6 3b6ef7929a937c c754c5aed54efc4d 3a6d6943e6b9d19f f954651bf38a94a6 ] wstrb=[3a f3 ca d9 36 70 f4 70 64 be 49 9a 2f 3e b 93 fc 54 2d 2b 92 38 be 8f 8d ec ba 1f 24 79 ae b1 65 69 d1 89 e2 7f 3b 47 e8 c d0 ca 8b b 11 74 17 e2 3e a3 ed 50 17 5 32 55 a8 1f a5 bf 24 d7 14 cc f7 ba 8b 1b 91 a0 e8 88 5a 73 a4 eb 13 8c 74 6d ff ] bresp=0 bid=10
[915000] MASTER 0 W_VALID_RDY Handshake beat=86 wlast=0
[915000] MASTER 1 RECEIVED BRESP. BRESP=0
[915000] [MASTER DRIVER] mst_id=1 s_id=0 awaddr=d66c490 awid=10 awlen=82 awsize=5 awburst=1 wdata=[c6dee4bfcf0b8002 89a070cfecaa5d51 6227da386e95534 d5f4d537d99fa198 c649fee9cd016262 d3eab797df954606 3934e79fcc6c7c8c 196ddeef29df8cce 8974d2d4ff7ee688 cbeb6315ed589686 17382354c2a9ba73 c228a0fce5594204 d2b1d88aa0acf628 e356b09c0e140411 f36d4615e9e9fbde 8a96f206257f5198 339355a9c61f1e9f 30091a7dededa2a2 936cf43a27009bbe ed1fba5dbaa00c83 288daf26c70049e3 ee00e5a11d28d4da d7c8e15dbbfaa360 2faed44db209ffe f84974d880569083 3c5133e4f0fbd2e5 cc1c72e4d0125636 d068e6b93f4c2128 b047f40dc465e7bc 94783df28cba1a9d cc063bc5fc6466f1 c0ca4eaee4e124ac f19b3f49fc4e2fd3 f8b296c4d5428ca0 ba23b14c3da17b0f 39efaae2b97ce572 ebf72132bbef096 e9606ba5b2a241a6 ec1f2719c8e3235f f4a213f523501687 d5f2582dfade992c c3c1bc8bde027f9a 81529621c2117f46 bcf018723863d081 9666501bd744ee4f 99566d9500b1d4fe 3915a57f17b8e63d eefdd48cd6468608 d6f85b06cf7bf59a e734dbd788544221 de9ac829100e0085 df89f61fd632b063 de86f285b593232f c5a123b4c6bed1f7 9cf1825abd21baae f2b4ddde252b19d4 ebe9ebcbfb7874df 389a2f8eb8560192 dd811b6688db6e25 453e3052b4f0d6c e3a50efec96b0731 d24675573cee1293 e83d1fffc1262a65 8a913196d69a585c 13886aefcbe22efd 8d085962dcd7a6ed b371ff49fbc58aee c7a7b9eb17998af9 f47131e6c6fa6a38 c2bff526d4b0134e ec499e4727e33130 eedd9b680a67af12 df17c260e0bad02d 889e015d319d908f 3c053fa1cb6160a7 ac1c30d4f77b9cc6 29192d551b1d0201 e67e62a834ba3232 2c35cef8e51e6cf6 3b6ef7929a937c c754c5aed54efc4d 3a6d6943e6b9d19f f954651bf38a94a6 ] wstrb=[3a f3 ca d9 36 70 f4 70 64 be 49 9a 2f 3e b 93 fc 54 2d 2b 92 38 be 8f 8d ec ba 1f 24 79 ae b1 65 69 d1 89 e2 7f 3b 47 e8 c d0 ca 8b b 11 74 17 e2 3e a3 ed 50 17 5 32 55 a8 1f a5 bf 24 d7 14 cc f7 ba 8b 1b 91 a0 e8 88 5a 73 a4 eb 13 8c 74 6d ff ] bresp=0 bid=10
[915000] SCOREBOARD MATCH: decode_err expected = 0, actual =0
[915000] SCOREBOARD MATCH: slave_id expected = 0, actual =0
[915000] SCOREBOARD MATCH: awaddr passthrough expected = d66c490, actual =d66c490
[915000] SCOREBOARD MATCH: awlen passthrough expected = 82, actual =82
[915000] SCOREBOARD MATCH: awsize passthrough expected = 5, actual =5
[915000] SCOREBOARD MATCH: awburst passthrough expected = 1, actual =1
[915000] SCOREBOARD MATCH: wdata size check expected = 53, actual =53
[915000] SCOREBOARD MATCH: wdata passthrough beat=0 expected = c6dee4bfcf0b8002, actual =c6dee4bfcf0b8002
[915000] SCOREBOARD MATCH: wdata passthrough beat=1 expected = 89a070cfecaa5d51, actual =89a070cfecaa5d51
[915000] SCOREBOARD MATCH: wdata passthrough beat=2 expected = 6227da386e95534, actual =6227da386e95534
[915000] SCOREBOARD MATCH: wdata passthrough beat=3 expected = d5f4d537d99fa198, actual =d5f4d537d99fa198
[915000] SCOREBOARD MATCH: wdata passthrough beat=4 expected = c649fee9cd016262, actual =c649fee9cd016262
[915000] SCOREBOARD MATCH: wdata passthrough beat=5 expected = d3eab797df954606, actual =d3eab797df954606
[915000] SCOREBOARD MATCH: wdata passthrough beat=6 expected = 3934e79fcc6c7c8c, actual =3934e79fcc6c7c8c
[915000] SCOREBOARD MATCH: wdata passthrough beat=7 expected = 196ddeef29df8cce, actual =196ddeef29df8cce
[915000] SCOREBOARD MATCH: wdata passthrough beat=8 expected = 8974d2d4ff7ee688, actual =8974d2d4ff7ee688
[915000] SCOREBOARD MATCH: wdata passthrough beat=9 expected = cbeb6315ed589686, actual =cbeb6315ed589686
[915000] SCOREBOARD MATCH: wdata passthrough beat=10 expected = 17382354c2a9ba73, actual =17382354c2a9ba73
[915000] SCOREBOARD MATCH: wdata passthrough beat=11 expected = c228a0fce5594204, actual =c228a0fce5594204
[915000] SCOREBOARD MATCH: wdata passthrough beat=12 expected = d2b1d88aa0acf628, actual =d2b1d88aa0acf628
[915000] SCOREBOARD MATCH: wdata passthrough beat=13 expected = e356b09c0e140411, actual =e356b09c0e140411
[915000] SCOREBOARD MATCH: wdata passthrough beat=14 expected = f36d4615e9e9fbde, actual =f36d4615e9e9fbde
[915000] SCOREBOARD MATCH: wdata passthrough beat=15 expected = 8a96f206257f5198, actual =8a96f206257f5198
[915000] SCOREBOARD MATCH: wdata passthrough beat=16 expected = 339355a9c61f1e9f, actual =339355a9c61f1e9f
[915000] SCOREBOARD MATCH: wdata passthrough beat=17 expected = 30091a7dededa2a2, actual =30091a7dededa2a2
[915000] SCOREBOARD MATCH: wdata passthrough beat=18 expected = 936cf43a27009bbe, actual =936cf43a27009bbe
[915000] SCOREBOARD MATCH: wdata passthrough beat=19 expected = ed1fba5dbaa00c83, actual =ed1fba5dbaa00c83
[915000] SCOREBOARD MATCH: wdata passthrough beat=20 expected = 288daf26c70049e3, actual =288daf26c70049e3
[915000] SCOREBOARD MATCH: wdata passthrough beat=21 expected = ee00e5a11d28d4da, actual =ee00e5a11d28d4da
[915000] SCOREBOARD MATCH: wdata passthrough beat=22 expected = d7c8e15dbbfaa360, actual =d7c8e15dbbfaa360
[915000] SCOREBOARD MATCH: wdata passthrough beat=23 expected = 2faed44db209ffe, actual =2faed44db209ffe
[915000] SCOREBOARD MATCH: wdata passthrough beat=24 expected = f84974d880569083, actual =f84974d880569083
[915000] SCOREBOARD MATCH: wdata passthrough beat=25 expected = 3c5133e4f0fbd2e5, actual =3c5133e4f0fbd2e5
[915000] SCOREBOARD MATCH: wdata passthrough beat=26 expected = cc1c72e4d0125636, actual =cc1c72e4d0125636
[915000] SCOREBOARD MATCH: wdata passthrough beat=27 expected = d068e6b93f4c2128, actual =d068e6b93f4c2128
[915000] SCOREBOARD MATCH: wdata passthrough beat=28 expected = b047f40dc465e7bc, actual =b047f40dc465e7bc
[915000] SCOREBOARD MATCH: wdata passthrough beat=29 expected = 94783df28cba1a9d, actual =94783df28cba1a9d
[915000] SCOREBOARD MATCH: wdata passthrough beat=30 expected = cc063bc5fc6466f1, actual =cc063bc5fc6466f1
[915000] SCOREBOARD MATCH: wdata passthrough beat=31 expected = c0ca4eaee4e124ac, actual =c0ca4eaee4e124ac
[915000] SCOREBOARD MATCH: wdata passthrough beat=32 expected = f19b3f49fc4e2fd3, actual =f19b3f49fc4e2fd3
[915000] SCOREBOARD MATCH: wdata passthrough beat=33 expected = f8b296c4d5428ca0, actual =f8b296c4d5428ca0
[915000] SCOREBOARD MATCH: wdata passthrough beat=34 expected = ba23b14c3da17b0f, actual =ba23b14c3da17b0f
[915000] SCOREBOARD MATCH: wdata passthrough beat=35 expected = 39efaae2b97ce572, actual =39efaae2b97ce572
[915000] SCOREBOARD MATCH: wdata passthrough beat=36 expected = ebf72132bbef096, actual =ebf72132bbef096
[915000] SCOREBOARD MATCH: wdata passthrough beat=37 expected = e9606ba5b2a241a6, actual =e9606ba5b2a241a6
[915000] SCOREBOARD MATCH: wdata passthrough beat=38 expected = ec1f2719c8e3235f, actual =ec1f2719c8e3235f
[915000] SCOREBOARD MATCH: wdata passthrough beat=39 expected = f4a213f523501687, actual =f4a213f523501687
[915000] SCOREBOARD MATCH: wdata passthrough beat=40 expected = d5f2582dfade992c, actual =d5f2582dfade992c
[915000] SCOREBOARD MATCH: wdata passthrough beat=41 expected = c3c1bc8bde027f9a, actual =c3c1bc8bde027f9a
[915000] SCOREBOARD MATCH: wdata passthrough beat=42 expected = 81529621c2117f46, actual =81529621c2117f46
[915000] SCOREBOARD MATCH: wdata passthrough beat=43 expected = bcf018723863d081, actual =bcf018723863d081
[915000] SCOREBOARD MATCH: wdata passthrough beat=44 expected = 9666501bd744ee4f, actual =9666501bd744ee4f
[915000] SCOREBOARD MATCH: wdata passthrough beat=45 expected = 99566d9500b1d4fe, actual =99566d9500b1d4fe
[915000] SCOREBOARD MATCH: wdata passthrough beat=46 expected = 3915a57f17b8e63d, actual =3915a57f17b8e63d
[915000] SCOREBOARD MATCH: wdata passthrough beat=47 expected = eefdd48cd6468608, actual =eefdd48cd6468608
[915000] SCOREBOARD MATCH: wdata passthrough beat=48 expected = d6f85b06cf7bf59a, actual =d6f85b06cf7bf59a
[915000] SCOREBOARD MATCH: wdata passthrough beat=49 expected = e734dbd788544221, actual =e734dbd788544221
[915000] SCOREBOARD MATCH: wdata passthrough beat=50 expected = de9ac829100e0085, actual =de9ac829100e0085
[915000] SCOREBOARD MATCH: wdata passthrough beat=51 expected = df89f61fd632b063, actual =df89f61fd632b063
[915000] SCOREBOARD MATCH: wdata passthrough beat=52 expected = de86f285b593232f, actual =de86f285b593232f
[915000] SCOREBOARD MATCH: wdata passthrough beat=53 expected = c5a123b4c6bed1f7, actual =c5a123b4c6bed1f7
[915000] SCOREBOARD MATCH: wdata passthrough beat=54 expected = 9cf1825abd21baae, actual =9cf1825abd21baae
[915000] SCOREBOARD MATCH: wdata passthrough beat=55 expected = f2b4ddde252b19d4, actual =f2b4ddde252b19d4
[915000] SCOREBOARD MATCH: wdata passthrough beat=56 expected = ebe9ebcbfb7874df, actual =ebe9ebcbfb7874df
[915000] SCOREBOARD MATCH: wdata passthrough beat=57 expected = 389a2f8eb8560192, actual =389a2f8eb8560192
[915000] SCOREBOARD MATCH: wdata passthrough beat=58 expected = dd811b6688db6e25, actual =dd811b6688db6e25
[915000] SCOREBOARD MATCH: wdata passthrough beat=59 expected = 453e3052b4f0d6c, actual =453e3052b4f0d6c
[915000] SCOREBOARD MATCH: wdata passthrough beat=60 expected = e3a50efec96b0731, actual =e3a50efec96b0731
[915000] SCOREBOARD MATCH: wdata passthrough beat=61 expected = d24675573cee1293, actual =d24675573cee1293
[915000] SCOREBOARD MATCH: wdata passthrough beat=62 expected = e83d1fffc1262a65, actual =e83d1fffc1262a65
[915000] SCOREBOARD MATCH: wdata passthrough beat=63 expected = 8a913196d69a585c, actual =8a913196d69a585c
[915000] SCOREBOARD MATCH: wdata passthrough beat=64 expected = 13886aefcbe22efd, actual =13886aefcbe22efd
[915000] SCOREBOARD MATCH: wdata passthrough beat=65 expected = 8d085962dcd7a6ed, actual =8d085962dcd7a6ed
[915000] SCOREBOARD MATCH: wdata passthrough beat=66 expected = b371ff49fbc58aee, actual =b371ff49fbc58aee
[915000] SCOREBOARD MATCH: wdata passthrough beat=67 expected = c7a7b9eb17998af9, actual =c7a7b9eb17998af9
[915000] SCOREBOARD MATCH: wdata passthrough beat=68 expected = f47131e6c6fa6a38, actual =f47131e6c6fa6a38
[915000] SCOREBOARD MATCH: wdata passthrough beat=69 expected = c2bff526d4b0134e, actual =c2bff526d4b0134e
[915000] SCOREBOARD MATCH: wdata passthrough beat=70 expected = ec499e4727e33130, actual =ec499e4727e33130
[915000] SCOREBOARD MATCH: wdata passthrough beat=71 expected = eedd9b680a67af12, actual =eedd9b680a67af12
[915000] SCOREBOARD MATCH: wdata passthrough beat=72 expected = df17c260e0bad02d, actual =df17c260e0bad02d
[915000] SCOREBOARD MATCH: wdata passthrough beat=73 expected = 889e015d319d908f, actual =889e015d319d908f
[915000] SCOREBOARD MATCH: wdata passthrough beat=74 expected = 3c053fa1cb6160a7, actual =3c053fa1cb6160a7
[915000] SCOREBOARD MATCH: wdata passthrough beat=75 expected = ac1c30d4f77b9cc6, actual =ac1c30d4f77b9cc6
[915000] SCOREBOARD MATCH: wdata passthrough beat=76 expected = 29192d551b1d0201, actual =29192d551b1d0201
[915000] SCOREBOARD MATCH: wdata passthrough beat=77 expected = e67e62a834ba3232, actual =e67e62a834ba3232
[915000] SCOREBOARD MATCH: wdata passthrough beat=78 expected = 2c35cef8e51e6cf6, actual =2c35cef8e51e6cf6
[915000] SCOREBOARD MATCH: wdata passthrough beat=79 expected = 3b6ef7929a937c, actual =3b6ef7929a937c
[915000] SCOREBOARD MATCH: wdata passthrough beat=80 expected = c754c5aed54efc4d, actual =c754c5aed54efc4d
[915000] SCOREBOARD MATCH: wdata passthrough beat=81 expected = 3a6d6943e6b9d19f, actual =3a6d6943e6b9d19f
[915000] SCOREBOARD MATCH: wdata passthrough beat=82 expected = f954651bf38a94a6, actual =f954651bf38a94a6
[915000] SCOREBOARD MATCH: wstrb size check expected = 53, actual =53
[915000] SCOREBOARD MATCH: wstrb passthrough beat=0 expected = 3a, actual =3a
[915000] SCOREBOARD MATCH: wstrb passthrough beat=1 expected = f3, actual =f3
[915000] SCOREBOARD MATCH: wstrb passthrough beat=2 expected = ca, actual =ca
[915000] SCOREBOARD MATCH: wstrb passthrough beat=3 expected = d9, actual =d9
[915000] SCOREBOARD MATCH: wstrb passthrough beat=4 expected = 36, actual =36
[915000] SCOREBOARD MATCH: wstrb passthrough beat=5 expected = 70, actual =70
[915000] SCOREBOARD MATCH: wstrb passthrough beat=6 expected = f4, actual =f4
[915000] SCOREBOARD MATCH: wstrb passthrough beat=7 expected = 70, actual =70
[915000] SCOREBOARD MATCH: wstrb passthrough beat=8 expected = 64, actual =64
[915000] SCOREBOARD MATCH: wstrb passthrough beat=9 expected = be, actual =be
[915000] SCOREBOARD MATCH: wstrb passthrough beat=10 expected = 49, actual =49
[915000] SCOREBOARD MATCH: wstrb passthrough beat=11 expected = 9a, actual =9a
[915000] SCOREBOARD MATCH: wstrb passthrough beat=12 expected = 2f, actual =2f
[915000] SCOREBOARD MATCH: wstrb passthrough beat=13 expected = 3e, actual =3e
[915000] SCOREBOARD MATCH: wstrb passthrough beat=14 expected = b, actual =b
[915000] SCOREBOARD MATCH: wstrb passthrough beat=15 expected = 93, actual =93
[915000] SCOREBOARD MATCH: wstrb passthrough beat=16 expected = fc, actual =fc
[915000] SCOREBOARD MATCH: wstrb passthrough beat=17 expected = 54, actual =54
[915000] SCOREBOARD MATCH: wstrb passthrough beat=18 expected = 2d, actual =2d
[915000] SCOREBOARD MATCH: wstrb passthrough beat=19 expected = 2b, actual =2b
[915000] SCOREBOARD MATCH: wstrb passthrough beat=20 expected = 92, actual =92
[915000] SCOREBOARD MATCH: wstrb passthrough beat=21 expected = 38, actual =38
[915000] SCOREBOARD MATCH: wstrb passthrough beat=22 expected = be, actual =be
[915000] SCOREBOARD MATCH: wstrb passthrough beat=23 expected = 8f, actual =8f
[915000] SCOREBOARD MATCH: wstrb passthrough beat=24 expected = 8d, actual =8d
[915000] SCOREBOARD MATCH: wstrb passthrough beat=25 expected = ec, actual =ec
[915000] SCOREBOARD MATCH: wstrb passthrough beat=26 expected = ba, actual =ba
[915000] SCOREBOARD MATCH: wstrb passthrough beat=27 expected = 1f, actual =1f
[915000] SCOREBOARD MATCH: wstrb passthrough beat=28 expected = 24, actual =24
[915000] SCOREBOARD MATCH: wstrb passthrough beat=29 expected = 79, actual =79
[915000] SCOREBOARD MATCH: wstrb passthrough beat=30 expected = ae, actual =ae
[915000] SCOREBOARD MATCH: wstrb passthrough beat=31 expected = b1, actual =b1
[915000] SCOREBOARD MATCH: wstrb passthrough beat=32 expected = 65, actual =65
[915000] SCOREBOARD MATCH: wstrb passthrough beat=33 expected = 69, actual =69
[915000] SCOREBOARD MATCH: wstrb passthrough beat=34 expected = d1, actual =d1
[915000] SCOREBOARD MATCH: wstrb passthrough beat=35 expected = 89, actual =89
[915000] SCOREBOARD MATCH: wstrb passthrough beat=36 expected = e2, actual =e2
[915000] SCOREBOARD MATCH: wstrb passthrough beat=37 expected = 7f, actual =7f
[915000] SCOREBOARD MATCH: wstrb passthrough beat=38 expected = 3b, actual =3b
[915000] SCOREBOARD MATCH: wstrb passthrough beat=39 expected = 47, actual =47
[915000] SCOREBOARD MATCH: wstrb passthrough beat=40 expected = e8, actual =e8
[915000] SCOREBOARD MATCH: wstrb passthrough beat=41 expected = c, actual =c
[915000] SCOREBOARD MATCH: wstrb passthrough beat=42 expected = d0, actual =d0
[915000] SCOREBOARD MATCH: wstrb passthrough beat=43 expected = ca, actual =ca
[915000] SCOREBOARD MATCH: wstrb passthrough beat=44 expected = 8b, actual =8b
[915000] SCOREBOARD MATCH: wstrb passthrough beat=45 expected = b, actual =b
[915000] SCOREBOARD MATCH: wstrb passthrough beat=46 expected = 11, actual =11
[915000] SCOREBOARD MATCH: wstrb passthrough beat=47 expected = 74, actual =74
[915000] SCOREBOARD MATCH: wstrb passthrough beat=48 expected = 17, actual =17
[915000] SCOREBOARD MATCH: wstrb passthrough beat=49 expected = e2, actual =e2
[915000] SCOREBOARD MATCH: wstrb passthrough beat=50 expected = 3e, actual =3e
[915000] SCOREBOARD MATCH: wstrb passthrough beat=51 expected = a3, actual =a3
[915000] SCOREBOARD MATCH: wstrb passthrough beat=52 expected = ed, actual =ed
[915000] SCOREBOARD MATCH: wstrb passthrough beat=53 expected = 50, actual =50
[915000] SCOREBOARD MATCH: wstrb passthrough beat=54 expected = 17, actual =17
[915000] SCOREBOARD MATCH: wstrb passthrough beat=55 expected = 5, actual =5
[915000] SCOREBOARD MATCH: wstrb passthrough beat=56 expected = 32, actual =32
[915000] SCOREBOARD MATCH: wstrb passthrough beat=57 expected = 55, actual =55
[915000] SCOREBOARD MATCH: wstrb passthrough beat=58 expected = a8, actual =a8
[915000] SCOREBOARD MATCH: wstrb passthrough beat=59 expected = 1f, actual =1f
[915000] SCOREBOARD MATCH: wstrb passthrough beat=60 expected = a5, actual =a5
[915000] SCOREBOARD MATCH: wstrb passthrough beat=61 expected = bf, actual =bf
[915000] SCOREBOARD MATCH: wstrb passthrough beat=62 expected = 24, actual =24
[915000] SCOREBOARD MATCH: wstrb passthrough beat=63 expected = d7, actual =d7
[915000] SCOREBOARD MATCH: wstrb passthrough beat=64 expected = 14, actual =14
[915000] SCOREBOARD MATCH: wstrb passthrough beat=65 expected = cc, actual =cc
[915000] SCOREBOARD MATCH: wstrb passthrough beat=66 expected = f7, actual =f7
[915000] SCOREBOARD MATCH: wstrb passthrough beat=67 expected = ba, actual =ba
[915000] SCOREBOARD MATCH: wstrb passthrough beat=68 expected = 8b, actual =8b
[915000] SCOREBOARD MATCH: wstrb passthrough beat=69 expected = 1b, actual =1b
[915000] SCOREBOARD MATCH: wstrb passthrough beat=70 expected = 91, actual =91
[915000] SCOREBOARD MATCH: wstrb passthrough beat=71 expected = a0, actual =a0
[915000] SCOREBOARD MATCH: wstrb passthrough beat=72 expected = e8, actual =e8
[915000] SCOREBOARD MATCH: wstrb passthrough beat=73 expected = 88, actual =88
[915000] SCOREBOARD MATCH: wstrb passthrough beat=74 expected = 5a, actual =5a
[915000] SCOREBOARD MATCH: wstrb passthrough beat=75 expected = 73, actual =73
[915000] SCOREBOARD MATCH: wstrb passthrough beat=76 expected = a4, actual =a4
[915000] SCOREBOARD MATCH: wstrb passthrough beat=77 expected = eb, actual =eb
[915000] SCOREBOARD MATCH: wstrb passthrough beat=78 expected = 13, actual =13
[915000] SCOREBOARD MATCH: wstrb passthrough beat=79 expected = 8c, actual =8c
[915000] SCOREBOARD MATCH: wstrb passthrough beat=80 expected = 74, actual =74
[915000] SCOREBOARD MATCH: wstrb passthrough beat=81 expected = 6d, actual =6d
[915000] SCOREBOARD MATCH: wstrb passthrough beat=82 expected = ff, actual =ff
[915000] SCOREBOARD MATCH: bresp passthrough expected = 0, actual =0
[915000] SCOREBOARD MATCH: response routed to correct master (write) expected = 1, actual =1
[915000] [SCOREBOARD-M] mst_id=1 s_id=0 awaddr=d66c490 awid=10 awlen=82 awsize=5 awburst=1 wdata=[c6dee4bfcf0b8002 89a070cfecaa5d51 6227da386e95534 d5f4d537d99fa198 c649fee9cd016262 d3eab797df954606 3934e79fcc6c7c8c 196ddeef29df8cce 8974d2d4ff7ee688 cbeb6315ed589686 17382354c2a9ba73 c228a0fce5594204 d2b1d88aa0acf628 e356b09c0e140411 f36d4615e9e9fbde 8a96f206257f5198 339355a9c61f1e9f 30091a7dededa2a2 936cf43a27009bbe ed1fba5dbaa00c83 288daf26c70049e3 ee00e5a11d28d4da d7c8e15dbbfaa360 2faed44db209ffe f84974d880569083 3c5133e4f0fbd2e5 cc1c72e4d0125636 d068e6b93f4c2128 b047f40dc465e7bc 94783df28cba1a9d cc063bc5fc6466f1 c0ca4eaee4e124ac f19b3f49fc4e2fd3 f8b296c4d5428ca0 ba23b14c3da17b0f 39efaae2b97ce572 ebf72132bbef096 e9606ba5b2a241a6 ec1f2719c8e3235f f4a213f523501687 d5f2582dfade992c c3c1bc8bde027f9a 81529621c2117f46 bcf018723863d081 9666501bd744ee4f 99566d9500b1d4fe 3915a57f17b8e63d eefdd48cd6468608 d6f85b06cf7bf59a e734dbd788544221 de9ac829100e0085 df89f61fd632b063 de86f285b593232f c5a123b4c6bed1f7 9cf1825abd21baae f2b4ddde252b19d4 ebe9ebcbfb7874df 389a2f8eb8560192 dd811b6688db6e25 453e3052b4f0d6c e3a50efec96b0731 d24675573cee1293 e83d1fffc1262a65 8a913196d69a585c 13886aefcbe22efd 8d085962dcd7a6ed b371ff49fbc58aee c7a7b9eb17998af9 f47131e6c6fa6a38 c2bff526d4b0134e ec499e4727e33130 eedd9b680a67af12 df17c260e0bad02d 889e015d319d908f 3c053fa1cb6160a7 ac1c30d4f77b9cc6 29192d551b1d0201 e67e62a834ba3232 2c35cef8e51e6cf6 3b6ef7929a937c c754c5aed54efc4d 3a6d6943e6b9d19f f954651bf38a94a6 ] wstrb=[3a f3 ca d9 36 70 f4 70 64 be 49 9a 2f 3e b 93 fc 54 2d 2b 92 38 be 8f 8d ec ba 1f 24 79 ae b1 65 69 d1 89 e2 7f 3b 47 e8 c d0 ca 8b b 11 74 17 e2 3e a3 ed 50 17 5 32 55 a8 1f a5 bf 24 d7 14 cc f7 ba 8b 1b 91 a0 e8 88 5a 73 a4 eb 13 8c 74 6d ff ] bresp=0 bid=10
[915000] [SCOREBOARD-S] mst_id=1 s_id=0 awaddr=d66c490 awid=10 awlen=82 awsize=5 awburst=1 wdata=[c6dee4bfcf0b8002 89a070cfecaa5d51 6227da386e95534 d5f4d537d99fa198 c649fee9cd016262 d3eab797df954606 3934e79fcc6c7c8c 196ddeef29df8cce 8974d2d4ff7ee688 cbeb6315ed589686 17382354c2a9ba73 c228a0fce5594204 d2b1d88aa0acf628 e356b09c0e140411 f36d4615e9e9fbde 8a96f206257f5198 339355a9c61f1e9f 30091a7dededa2a2 936cf43a27009bbe ed1fba5dbaa00c83 288daf26c70049e3 ee00e5a11d28d4da d7c8e15dbbfaa360 2faed44db209ffe f84974d880569083 3c5133e4f0fbd2e5 cc1c72e4d0125636 d068e6b93f4c2128 b047f40dc465e7bc 94783df28cba1a9d cc063bc5fc6466f1 c0ca4eaee4e124ac f19b3f49fc4e2fd3 f8b296c4d5428ca0 ba23b14c3da17b0f 39efaae2b97ce572 ebf72132bbef096 e9606ba5b2a241a6 ec1f2719c8e3235f f4a213f523501687 d5f2582dfade992c c3c1bc8bde027f9a 81529621c2117f46 bcf018723863d081 9666501bd744ee4f 99566d9500b1d4fe 3915a57f17b8e63d eefdd48cd6468608 d6f85b06cf7bf59a e734dbd788544221 de9ac829100e0085 df89f61fd632b063 de86f285b593232f c5a123b4c6bed1f7 9cf1825abd21baae f2b4ddde252b19d4 ebe9ebcbfb7874df 389a2f8eb8560192 dd811b6688db6e25 453e3052b4f0d6c e3a50efec96b0731 d24675573cee1293 e83d1fffc1262a65 8a913196d69a585c 13886aefcbe22efd 8d085962dcd7a6ed b371ff49fbc58aee c7a7b9eb17998af9 f47131e6c6fa6a38 c2bff526d4b0134e ec499e4727e33130 eedd9b680a67af12 df17c260e0bad02d 889e015d319d908f 3c053fa1cb6160a7 ac1c30d4f77b9cc6 29192d551b1d0201 e67e62a834ba3232 2c35cef8e51e6cf6 3b6ef7929a937c c754c5aed54efc4d 3a6d6943e6b9d19f f954651bf38a94a6 ] wstrb=[3a f3 ca d9 36 70 f4 70 64 be 49 9a 2f 3e b 93 fc 54 2d 2b 92 38 be 8f 8d ec ba 1f 24 79 ae b1 65 69 d1 89 e2 7f 3b 47 e8 c d0 ca 8b b 11 74 17 e2 3e a3 ed 50 17 5 32 55 a8 1f a5 bf 24 d7 14 cc f7 ba 8b 1b 91 a0 e8 88 5a 73 a4 eb 13 8c 74 6d ff ] bresp=0 bid=10010
[915000] SCOREBOARD: Transaction 1 received. pass=176 fail=0
[915000] ALL PASS. Total transactions: 1
[925000] MASTER 0 W_VALID_RDY Handshake beat=87 wlast=0
[925000] ARB MONITOR: slave=0 m0_req=0 m1_req=1 winner=1
[925000] SLAVE 1 R_VALID_RDY Handshake beat=1 rlast=1
[925000] [SLAVE MONITOR] READ mst_id=1 s_id=1 araddr=136dece0 arid=1 arlen=1 arsize=3 arburst=1 rid=[1111] rresp=[00] rdata=[baadf00d12345678baadf00d12345678]
[925000] S1 MEMORY WRITE beat=86 addr=1c2637a0 data=f02bbe45cdcf7e25 id=0b
[925000] AXI S0_AWVALID_RDY HANDSHAKE
[935000] S1 MEMORY WRITE beat=87 addr=1c2637a8 data=2a44b20a02681d1a id=0b
[935000] MASTER 1 R_VALID_RDY Handshake beat=0 rlast=0
[935000] MASTER 1 W_VALID_RDY Handshake beat=0 wlast=0
[935000] MASTER 0 W_VALID_RDY Handshake beat=88 wlast=0
[945000] [MASTER DRIVER] READ mst_id=1 s_id=0 araddr=136dece0 arid=1 arlen=1 arsize=3 arburst=1 rid=[11] rresp=[00] rdata=[baadf00d12345678baadf00d12345678]
[945000] MASTER 0 W_VALID_RDY Handshake beat=89 wlast=0
[945000] MASTER 1 W_VALID_RDY Handshake beat=1 wlast=0
[945000] MASTER 1 R_VALID_RDY Handshake beat=1 rlast=1
[945000] [MASTER MONITOR] READ mst_id=1 s_id=1 araddr=136dece0 arid=1 arlen=1 arsize=3 arburst=1 rid=[11] rresp=[00] rdata=[baadf00d12345678baadf00d12345678]
[945000] S1 MEMORY WRITE beat=88 addr=1c2637b0 data=2b672c1af54d5934 id=0b
[945000] AXI S0_WVALID_RDY HANDSHAKE
[945000] S0 MEMORY WRITE beat=0 addr=07cafe28 data=9a5d71663a791a6a id=12
[945000] SCOREBOARD MATCH: decode_err expected = 0, actual =0
[945000] SCOREBOARD MATCH: slave_id expected = 1, actual =1
[945000] SCOREBOARD MATCH: araddr passthrough expected = 136dece0, actual =136dece0
[945000] SCOREBOARD MATCH: arlen passthrough expected = 1, actual =1
[945000] SCOREBOARD MATCH: arsize passthrough expected = 3, actual =3
[945000] SCOREBOARD MATCH: arburst passthrough expected = 1, actual =1
[945000] SCOREBOARD MATCH: rdata size check expected = 2, actual =2
[945000] SCOREBOARD MATCH: rdata passthrough beat=0 expected = baadf00d12345678, actual =baadf00d12345678
[945000] SCOREBOARD MATCH: rdata passthrough beat=1 expected = baadf00d12345678, actual =baadf00d12345678
[945000] SCOREBOARD MATCH: rresp size check expected = 2, actual =2
[945000] SCOREBOARD MATCH: rresp passthrough beat=0 expected = 0, actual =0
[945000] SCOREBOARD MATCH: rresp passthrough beat=1 expected = 0, actual =0
[945000] SCOREBOARD MATCH: response routed to correct master (read beat 0) expected = 1, actual =1
[945000] SCOREBOARD MATCH: response routed to correct master (read beat 1) expected = 1, actual =1
[945000] [SCOREBOARD-M] READ mst_id=1 s_id=1 araddr=136dece0 arid=1 arlen=1 arsize=3 arburst=1 rid=[11] rresp=[00] rdata=[baadf00d12345678baadf00d12345678]
[945000] [SCOREBOARD-S] READ mst_id=1 s_id=1 araddr=136dece0 arid=1 arlen=1 arsize=3 arburst=1 rid=[1111] rresp=[00] rdata=[baadf00d12345678baadf00d12345678]
[945000] SCOREBOARD: Transaction 2 received. pass=190 fail=0
[945000] ALL PASS. Total transactions: 2
[955000] AXI S0_WVALID_RDY HANDSHAKE
[955000] S0 MEMORY WRITE beat=1 addr=07cafe68 data=e5e05537909e2ccb id=12
[955000] S1 MEMORY WRITE beat=89 addr=1c2637b8 data=c31cd759db7a6549 id=0b
[955000] MASTER 1 W_VALID_RDY Handshake beat=2 wlast=0
[955000] MASTER 0 W_VALID_RDY Handshake beat=90 wlast=0
[965000] MASTER 0 W_VALID_RDY Handshake beat=91 wlast=0
[965000] MASTER 1 W_VALID_RDY Handshake beat=3 wlast=0
[965000] S1 MEMORY WRITE beat=90 addr=1c2637c0 data=dde282639b92ea5f id=0b
[965000] AXI S0_WVALID_RDY HANDSHAKE
[965000] S0 MEMORY WRITE beat=2 addr=07cafea8 data=e7451b98d6c90009 id=12
[975000] AXI S0_WVALID_RDY HANDSHAKE
[975000] S0 MEMORY WRITE beat=3 addr=07cafee8 data=91421a73f640efca id=12
[975000] S1 MEMORY WRITE beat=91 addr=1c2637c8 data=90e04393ed618963 id=0b
[975000] MASTER 1 W_VALID_RDY Handshake beat=4 wlast=0
[975000] MASTER 0 W_VALID_RDY Handshake beat=92 wlast=0
[985000] MASTER 0 W_VALID_RDY Handshake beat=93 wlast=0
[985000] MASTER 1 W_VALID_RDY Handshake beat=5 wlast=0
[985000] S1 MEMORY WRITE beat=92 addr=1c2637d0 data=c8dbeeac0949ae7d id=0b
[985000] AXI S0_WVALID_RDY HANDSHAKE
[985000] S0 MEMORY WRITE beat=4 addr=07caff28 data=86df1c9581a28cfe id=12
[995000] AXI S0_WVALID_RDY HANDSHAKE
[995000] S0 MEMORY WRITE beat=5 addr=07caff68 data=d86b8d08f7226fab id=12
[995000] S1 MEMORY WRITE beat=93 addr=1c2637d8 data=a4dc98dcd3fd1aed id=0b
[995000] MASTER 1 W_VALID_RDY Handshake beat=6 wlast=0
[995000] MASTER 0 W_VALID_RDY Handshake beat=94 wlast=0
[1005000] MASTER 0 W_VALID_RDY Handshake beat=95 wlast=0
[1005000] MASTER 1 W_VALID_RDY Handshake beat=7 wlast=0
[1005000] S1 MEMORY WRITE beat=94 addr=1c2637e0 data=c15ea450a6be710f id=0b
[1005000] AXI S0_WVALID_RDY HANDSHAKE
[1005000] S0 MEMORY WRITE beat=6 addr=07caffa8 data=ed635f75ee24382d id=12
[1015000] AXI S0_WVALID_RDY HANDSHAKE
[1015000] S0 MEMORY WRITE beat=7 addr=07caffe8 data=efc6c52ce9ada77b id=12
[1015000] S1 MEMORY WRITE beat=95 addr=1c2637e8 data=b0081f8c35bcdc70 id=0b
[1015000] MASTER 1 W_VALID_RDY Handshake beat=8 wlast=0
[1015000] MASTER 0 W_VALID_RDY Handshake beat=96 wlast=0
[1025000] MASTER 0 W_VALID_RDY Handshake beat=97 wlast=0
[1025000] MASTER 1 W_VALID_RDY Handshake beat=9 wlast=0
[1025000] S1 MEMORY WRITE beat=96 addr=1c2637f0 data=09b9f75d0a3a92fd id=0b
[1025000] AXI S0_WVALID_RDY HANDSHAKE
[1025000] S0 MEMORY WRITE beat=8 addr=07cb0028 data=e0d01726f4427c0a id=12
[1035000] AXI S0_WVALID_RDY HANDSHAKE
[1035000] S0 MEMORY WRITE beat=9 addr=07cb0068 data=e266b438c8325234 id=12
[1035000] S1 MEMORY WRITE beat=97 addr=1c2637f8 data=b0f9040cd4e4b869 id=0b
[1035000] MASTER 1 W_VALID_RDY Handshake beat=10 wlast=0
[1035000] MASTER 0 W_VALID_RDY Handshake beat=98 wlast=0
[1045000] MASTER 0 W_VALID_RDY Handshake beat=99 wlast=0
[1045000] MASTER 1 W_VALID_RDY Handshake beat=11 wlast=0
[1045000] S1 MEMORY WRITE beat=98 addr=1c263800 data=0aa194d9cb189bad id=0b
[1045000] AXI S0_WVALID_RDY HANDSHAKE
[1045000] S0 MEMORY WRITE beat=10 addr=07cb00a8 data=b1dff9afce33769b id=12
[1055000] AXI S0_WVALID_RDY HANDSHAKE
[1055000] S0 MEMORY WRITE beat=11 addr=07cb00e8 data=c275f2a6d22d7964 id=12
[1055000] S1 MEMORY WRITE beat=99 addr=1c263808 data=d5532eaae1012399 id=0b
[1055000] MASTER 1 W_VALID_RDY Handshake beat=12 wlast=0
[1055000] MASTER 0 W_VALID_RDY Handshake beat=100 wlast=0
[1065000] MASTER 0 W_VALID_RDY Handshake beat=101 wlast=0
[1065000] MASTER 1 W_VALID_RDY Handshake beat=13 wlast=0
[1065000] S1 MEMORY WRITE beat=100 addr=1c263810 data=35e5dc02145b8c36 id=0b
[1065000] AXI S0_WVALID_RDY HANDSHAKE
[1065000] S0 MEMORY WRITE beat=12 addr=07cb0128 data=1a5fcb9812b010d6 id=12
[1075000] AXI S0_WVALID_RDY HANDSHAKE
[1075000] S0 MEMORY WRITE beat=13 addr=07cb0168 data=e0e3877124dca6de id=12
[1075000] S1 MEMORY WRITE beat=101 addr=1c263818 data=df7427e3064c32b7 id=0b
[1075000] MASTER 1 W_VALID_RDY Handshake beat=14 wlast=0
[1075000] MASTER 0 W_VALID_RDY Handshake beat=102 wlast=0
[1085000] MASTER 0 W_VALID_RDY Handshake beat=103 wlast=0
[1085000] MASTER 1 W_VALID_RDY Handshake beat=15 wlast=0
[1085000] S1 MEMORY WRITE beat=102 addr=1c263820 data=e74d5650c08770db id=0b
[1085000] AXI S0_WVALID_RDY HANDSHAKE
[1085000] S0 MEMORY WRITE beat=14 addr=07cb01a8 data=f70a2042cc3fc547 id=12
[1095000] AXI S0_WVALID_RDY HANDSHAKE
[1095000] S0 MEMORY WRITE beat=15 addr=07cb01e8 data=deefd61da3597a17 id=12
[1095000] S1 MEMORY WRITE beat=103 addr=1c263828 data=d4e2fd1134c7568e id=0b
[1095000] MASTER 1 W_VALID_RDY Handshake beat=16 wlast=0
[1095000] MASTER 0 W_VALID_RDY Handshake beat=104 wlast=0
[1105000] MASTER 0 W_VALID_RDY Handshake beat=105 wlast=0
[1105000] MASTER 1 W_VALID_RDY Handshake beat=17 wlast=0
[1105000] S1 MEMORY WRITE beat=104 addr=1c263830 data=3b1389451d333252 id=0b
[1105000] AXI S0_WVALID_RDY HANDSHAKE
[1105000] S0 MEMORY WRITE beat=16 addr=07cb0228 data=c83620f51169ebda id=12
[1115000] AXI S0_WVALID_RDY HANDSHAKE
[1115000] S0 MEMORY WRITE beat=17 addr=07cb0268 data=dda9b1213fd35d8f id=12
[1115000] S1 MEMORY WRITE beat=105 addr=1c263838 data=ddbaa32db45724f4 id=0b
[1115000] MASTER 1 W_VALID_RDY Handshake beat=18 wlast=0
[1115000] MASTER 0 W_VALID_RDY Handshake beat=106 wlast=0
[1125000] MASTER 0 W_VALID_RDY Handshake beat=107 wlast=0
[1125000] MASTER 1 W_VALID_RDY Handshake beat=19 wlast=0
[1125000] S1 MEMORY WRITE beat=106 addr=1c263840 data=e91e7b822260df95 id=0b
[1125000] AXI S0_WVALID_RDY HANDSHAKE
[1125000] S0 MEMORY WRITE beat=18 addr=07cb02a8 data=e32cd7a6bf404137 id=12
[1135000] AXI S0_WVALID_RDY HANDSHAKE
[1135000] S0 MEMORY WRITE beat=19 addr=07cb02e8 data=d0aa2d113c99873f id=12
[1135000] S1 MEMORY WRITE beat=107 addr=1c263848 data=3f9411e7329da03e id=0b
[1135000] MASTER 1 W_VALID_RDY Handshake beat=20 wlast=0
[1135000] MASTER 0 W_VALID_RDY Handshake beat=108 wlast=0
[1145000] MASTER 0 W_VALID_RDY Handshake beat=109 wlast=0
[1145000] MASTER 1 W_VALID_RDY Handshake beat=21 wlast=0
[1145000] S1 MEMORY WRITE beat=108 addr=1c263850 data=e6f4c532a43204c7 id=0b
[1145000] AXI S0_WVALID_RDY HANDSHAKE
[1145000] S0 MEMORY WRITE beat=20 addr=07cb0328 data=fc6ce4ce2b62f89c id=12
[1155000] AXI S0_WVALID_RDY HANDSHAKE
[1155000] S0 MEMORY WRITE beat=21 addr=07cb0368 data=eaa339d32e53de33 id=12
[1155000] S1 MEMORY WRITE beat=109 addr=1c263858 data=c692e45c1d4eb514 id=0b
[1155000] MASTER 1 W_VALID_RDY Handshake beat=22 wlast=0
[1155000] MASTER 0 W_VALID_RDY Handshake beat=110 wlast=0
[1165000] MASTER 0 W_VALID_RDY Handshake beat=111 wlast=0
[1165000] MASTER 1 W_VALID_RDY Handshake beat=23 wlast=0
[1165000] S1 MEMORY WRITE beat=110 addr=1c263860 data=cfec5552d01340b5 id=0b
[1165000] AXI S0_WVALID_RDY HANDSHAKE
[1165000] S0 MEMORY WRITE beat=22 addr=07cb03a8 data=eaed6572df99bc74 id=12
[1175000] AXI S0_WVALID_RDY HANDSHAKE
[1175000] S0 MEMORY WRITE beat=23 addr=07cb03e8 data=8afcb5103b4d66e5 id=12
[1175000] S1 MEMORY WRITE beat=111 addr=1c263868 data=f445457c8626f643 id=0b
[1175000] MASTER 1 W_VALID_RDY Handshake beat=24 wlast=0
[1175000] MASTER 0 W_VALID_RDY Handshake beat=112 wlast=0
[1185000] MASTER 0 W_VALID_RDY Handshake beat=113 wlast=0
[1185000] MASTER 1 W_VALID_RDY Handshake beat=25 wlast=0
[1185000] S1 MEMORY WRITE beat=112 addr=1c263870 data=a375ab57b6e11a84 id=0b
[1185000] AXI S0_WVALID_RDY HANDSHAKE
[1185000] S0 MEMORY WRITE beat=24 addr=07cb0428 data=e9a14518e75a4a40 id=12
[1195000] AXI S0_WVALID_RDY HANDSHAKE
[1195000] S0 MEMORY WRITE beat=25 addr=07cb0468 data=c6f406b4f59feee4 id=12
[1195000] S1 MEMORY WRITE beat=113 addr=1c263878 data=86f45b393ad829d9 id=0b
[1195000] MASTER 1 W_VALID_RDY Handshake beat=26 wlast=0
[1195000] MASTER 0 W_VALID_RDY Handshake beat=114 wlast=0
[1205000] MASTER 0 W_VALID_RDY Handshake beat=115 wlast=0
[1205000] MASTER 1 W_VALID_RDY Handshake beat=27 wlast=0
[1205000] S1 MEMORY WRITE beat=114 addr=1c263880 data=c0ff201cf36200a9 id=0b
[1205000] AXI S0_WVALID_RDY HANDSHAKE
[1205000] S0 MEMORY WRITE beat=26 addr=07cb04a8 data=30ed55c9d48eaa8a id=12
[1215000] AXI S0_WVALID_RDY HANDSHAKE
[1215000] S0 MEMORY WRITE beat=27 addr=07cb04e8 data=3be8f4cad1f0bbc5 id=12
[1215000] S1 MEMORY WRITE beat=115 addr=1c263888 data=2a431b2efb39a0b6 id=0b
[1215000] MASTER 1 W_VALID_RDY Handshake beat=28 wlast=0
[1215000] MASTER 0 W_VALID_RDY Handshake beat=116 wlast=0
[1225000] MASTER 0 W_VALID_RDY Handshake beat=117 wlast=0
[1225000] MASTER 1 W_VALID_RDY Handshake beat=29 wlast=0
[1225000] S1 MEMORY WRITE beat=116 addr=1c263890 data=3611ca8fe474cb74 id=0b
[1225000] AXI S0_WVALID_RDY HANDSHAKE
[1225000] S0 MEMORY WRITE beat=28 addr=07cb0528 data=c790aaa91a8e9ae1 id=12
[1235000] AXI S0_WVALID_RDY HANDSHAKE
[1235000] S0 MEMORY WRITE beat=29 addr=07cb0568 data=ef1d456b82dcfb7e id=12
[1235000] S1 MEMORY WRITE beat=117 addr=1c263898 data=d7d6cc1db1377667 id=0b
[1235000] MASTER 1 W_VALID_RDY Handshake beat=30 wlast=0
[1235000] MASTER 0 W_VALID_RDY Handshake beat=118 wlast=0
[1245000] MASTER 0 W_VALID_RDY Handshake beat=119 wlast=0
[1245000] MASTER 1 W_VALID_RDY Handshake beat=31 wlast=0
[1245000] S1 MEMORY WRITE beat=118 addr=1c2638a0 data=ac71171df710eaab id=0b
[1245000] AXI S0_WVALID_RDY HANDSHAKE
[1245000] S0 MEMORY WRITE beat=30 addr=07cb05a8 data=d4cdb743f87e0072 id=12
[1255000] AXI S0_WVALID_RDY HANDSHAKE
[1255000] S0 MEMORY WRITE beat=31 addr=07cb05e8 data=130c9b532b063a35 id=12
[1255000] S1 MEMORY WRITE beat=119 addr=1c2638a8 data=db85b61f8219e74b id=0b
[1255000] MASTER 1 W_VALID_RDY Handshake beat=32 wlast=0
[1255000] MASTER 0 W_VALID_RDY Handshake beat=120 wlast=0
[1265000] MASTER 0 W_VALID_RDY Handshake beat=121 wlast=0
[1265000] MASTER 1 W_VALID_RDY Handshake beat=33 wlast=0
[1265000] S1 MEMORY WRITE beat=120 addr=1c2638b0 data=33515db3e282e1ac id=0b
[1265000] AXI S0_WVALID_RDY HANDSHAKE
[1265000] S0 MEMORY WRITE beat=32 addr=07cb0628 data=ade335b39c5e61ec id=12
[1275000] AXI S0_WVALID_RDY HANDSHAKE
[1275000] S0 MEMORY WRITE beat=33 addr=07cb0668 data=94dc625e0229e0be id=12
[1275000] S1 MEMORY WRITE beat=121 addr=1c2638b8 data=d993cc58335c823d id=0b
[1275000] MASTER 1 W_VALID_RDY Handshake beat=34 wlast=0
[1275000] MASTER 0 W_VALID_RDY Handshake beat=122 wlast=0
[1285000] MASTER 0 W_VALID_RDY Handshake beat=123 wlast=0
[1285000] MASTER 1 W_VALID_RDY Handshake beat=35 wlast=0
[1285000] S1 MEMORY WRITE beat=122 addr=1c2638c0 data=b5766988dfc274d0 id=0b
[1285000] AXI S0_WVALID_RDY HANDSHAKE
[1285000] S0 MEMORY WRITE beat=34 addr=07cb06a8 data=2d301af302b0ecf7 id=12
[1295000] AXI S0_WVALID_RDY HANDSHAKE
[1295000] S0 MEMORY WRITE beat=35 addr=07cb06e8 data=9f0f4ee3a7e8fdb1 id=12
[1295000] S1 MEMORY WRITE beat=123 addr=1c2638c8 data=c245567db5198277 id=0b
[1295000] MASTER 1 W_VALID_RDY Handshake beat=36 wlast=0
[1295000] MASTER 0 W_VALID_RDY Handshake beat=124 wlast=0
[1305000] MASTER 0 W_VALID_RDY Handshake beat=125 wlast=0
[1305000] MASTER 1 W_VALID_RDY Handshake beat=37 wlast=0
[1305000] S1 MEMORY WRITE beat=124 addr=1c2638d0 data=e87604b4e8c7c73b id=0b
[1305000] AXI S0_WVALID_RDY HANDSHAKE
[1305000] S0 MEMORY WRITE beat=36 addr=07cb0728 data=aa12de6fdb1350a6 id=12
[1315000] AXI S0_WVALID_RDY HANDSHAKE
[1315000] S0 MEMORY WRITE beat=37 addr=07cb0768 data=ddc43d9d33ebb142 id=12
[1315000] S1 MEMORY WRITE beat=125 addr=1c2638d8 data=c88a3c0c1bd922d5 id=0b
[1315000] MASTER 1 W_VALID_RDY Handshake beat=38 wlast=0
[1315000] MASTER 0 W_VALID_RDY Handshake beat=126 wlast=0
[1325000] MASTER 0 W_VALID_RDY Handshake beat=127 wlast=0
[1325000] MASTER 1 W_VALID_RDY Handshake beat=39 wlast=0
[1325000] S1 MEMORY WRITE beat=126 addr=1c2638e0 data=d0f2a54c1dec6e3d id=0b
[1325000] AXI S0_WVALID_RDY HANDSHAKE
[1325000] S0 MEMORY WRITE beat=38 addr=07cb07a8 data=dbd4aef3d742f962 id=12
[1335000] AXI S0_WVALID_RDY HANDSHAKE
[1335000] S0 MEMORY WRITE beat=39 addr=07cb07e8 data=32564a09fcd38c81 id=12
[1335000] S1 MEMORY WRITE beat=127 addr=1c2638e8 data=86b435780acf9289 id=0b
[1335000] MASTER 1 W_VALID_RDY Handshake beat=40 wlast=0
[1335000] MASTER 0 W_VALID_RDY Handshake beat=128 wlast=0
[1345000] MASTER 0 W_VALID_RDY Handshake beat=129 wlast=0
[1345000] MASTER 1 W_VALID_RDY Handshake beat=41 wlast=0
[1345000] S1 MEMORY WRITE beat=128 addr=1c2638f0 data=26a8b55e3968aa01 id=0b
[1345000] AXI S0_WVALID_RDY HANDSHAKE
[1345000] S0 MEMORY WRITE beat=40 addr=07cb0828 data=30bf3dc305e78d63 id=12
[1355000] AXI S0_WVALID_RDY HANDSHAKE
[1355000] S0 MEMORY WRITE beat=41 addr=07cb0868 data=dd2a86c5901a87a6 id=12
[1355000] S1 MEMORY WRITE beat=129 addr=1c2638f8 data=d755183ecf3e7184 id=0b
[1355000] MASTER 1 W_VALID_RDY Handshake beat=42 wlast=0
[1355000] MASTER 0 W_VALID_RDY Handshake beat=130 wlast=0
[1365000] MASTER 0 W_VALID_RDY Handshake beat=131 wlast=0
[1365000] MASTER 1 W_VALID_RDY Handshake beat=43 wlast=0
[1365000] S1 MEMORY WRITE beat=130 addr=1c263900 data=da0e040df79b5aaa id=0b
[1365000] AXI S0_WVALID_RDY HANDSHAKE
[1365000] S0 MEMORY WRITE beat=42 addr=07cb08a8 data=8cee14278c93ecb6 id=12
[1375000] AXI S0_WVALID_RDY HANDSHAKE
[1375000] S0 MEMORY WRITE beat=43 addr=07cb08e8 data=927b7a198f80d0ce id=12
[1375000] S1 MEMORY WRITE beat=131 addr=1c263908 data=b10404abde094db6 id=0b
[1375000] MASTER 1 W_VALID_RDY Handshake beat=44 wlast=0
[1375000] MASTER 0 W_VALID_RDY Handshake beat=132 wlast=0
[1385000] MASTER_DRIVER0 received transaction, op=AXI_READ
[1385000] MASTER 0 W_VALID_RDY Handshake beat=133 wlast=1
[1385000] MASTER 1 W_VALID_RDY Handshake beat=45 wlast=0
[1385000] S1 MEMORY WRITE beat=132 addr=1c263910 data=2d47bf3b80b6b96b id=0b
[1385000] AXI S0_WVALID_RDY HANDSHAKE
[1385000] S0 MEMORY WRITE beat=44 addr=07cb0928 data=1f9b5875bdad51ea id=12
[1395000] AXI S0_WVALID_RDY HANDSHAKE
[1395000] S0 MEMORY WRITE beat=45 addr=07cb0968 data=ca413ea1efa600df id=12
[1395000] S1 MEMORY WRITE beat=133 addr=1c263918 data=f852141688591ce9 id=0b
[1395000] MASTER 1 W_VALID_RDY Handshake beat=46 wlast=0
[1405000] MASTER 1 W_VALID_RDY Handshake beat=47 wlast=0
[1405000] SLAVE1 sent B resp, id=11
[1405000] AXI S0_WVALID_RDY HANDSHAKE
[1405000] S0 MEMORY WRITE beat=46 addr=07cb09a8 data=ff26d1adac896c9c id=12
[1415000] AXI S0_WVALID_RDY HANDSHAKE
[1415000] S0 MEMORY WRITE beat=47 addr=07cb09e8 data=ea36be87dcbcb8ba id=12
[1415000] AXI S0_ARVALID_RDY HANDSHAKE
[1415000] MEMORY READ MISS beat=0 addr=ac29a78 -> default data id=1
[1415000] [SLAVE MONITOR] mst_id=0 s_id=1 awaddr=1c2634f0 awid=1011 awlen=133 awsize=3 awburst=1 wdata=[d2a7d19a334d9bfd feba85e2384ee8f7 f4d3670cae2c9838 e17a34359cf12fdc d54018d3c77b38a6 f5a7d0dfe034ba17 fd25e9f4ca137fdf 118eb886d7220514 3756bf2cd26602c7 1c7982a707368965 de588e79347ca920 86e2abe72e083b2d 353ec49295af4da5 ca2bf6c5a35c2e8e d16469bb9397530b 2946a0b1d10ea2ad f46ad13b86a32e4d 1a3a8159f3729776 c4813a23c5cf3af7 cc726944c381220a b6f3b98038ec0b5f febb4656e6acea9d aa2e0ca7fb74f3a4 3460ff03cb2daf9a 31da9a38e121c628 dc96b9cc331c4559 fe49f4f3dc08a6df bd2a6d0710f7b8cf c413fe28b0248f2b c2d360b99c126d3 aab8dfa2c25df31b f2828247c957a312 e318c9e6eeccddca 312ad0e6feafb852 c8075b648dd1a988 fc9e875323ad532d 225d0b7fab20254a 38f1ced32dc95839 d176ab66ea6466e3 15848c2e35905626 e359ae5ff3d3b6e5 de381dc8ce765b01 406b12734d059c5 28a410aaf3bca9f6 c23304f7e7605f86 1c30b94b86dc2e72 fa98d869c639b61e ad9a15a4c4d4c9f5 cbb0f867bccbdd60 305937fc9caceef 8e9f98e4c649d0d0 315ae31b09fa923 fa6a7813da50914c a09a621c061b41b0 b6baead3890a10f7 e35aa243a3b0104d a9cb51fdb12562e6 3a2f73de03f50460 a7a514ade0863cd1 91ab9fb79d8a1621 a17f1a81d17066ab 31f6a37ccbdb1395 e96529b7c9242f2f 1a9495dac3a24333 f7d56c98ae44438 d4087367cc8b3956 902d7c89f8e28080 83c6c4b8ee9d0941 bb2842979faad352 988d53d2d7cf3820 c66c4161cb55bf21 eb0092731c54188b f42350ab019483f9 ccea431a038de646 1fe1fed1ba8f920c bc241605b7ead58d bb78bbd314054f7c ce94e188890e591f c0f92eaddb5abaa4 ef600a200ab8f78e 93c750adfc71ea80 d7cca5253df4eba9 c8ade337d4c07f5a d13269dbc72caf45 85219aeedc7533e4 3135b33f28ff0f00 f02bbe45cdcf7e25 2a44b20a02681d1a 2b672c1af54d5934 c31cd759db7a6549 dde282639b92ea5f 90e04393ed618963 c8dbeeac0949ae7d a4dc98dcd3fd1aed c15ea450a6be710f b0081f8c35bcdc70 9b9f75d0a3a92fd b0f9040cd4e4b869 aa194d9cb189bad d5532eaae1012399 35e5dc02145b8c36 df7427e3064c32b7 e74d5650c08770db d4e2fd1134c7568e 3b1389451d333252 ddbaa32db45724f4 e91e7b822260df95 3f9411e7329da03e e6f4c532a43204c7 c692e45c1d4eb514 cfec5552d01340b5 f445457c8626f643 a375ab57b6e11a84 86f45b393ad829d9 c0ff201cf36200a9 2a431b2efb39a0b6 3611ca8fe474cb74 d7d6cc1db1377667 ac71171df710eaab db85b61f8219e74b 33515db3e282e1ac d993cc58335c823d b5766988dfc274d0 c245567db5198277 e87604b4e8c7c73b c88a3c0c1bd922d5 d0f2a54c1dec6e3d 86b435780acf9289 26a8b55e3968aa01 d755183ecf3e7184 da0e040df79b5aaa b10404abde094db6 2d47bf3b80b6b96b f852141688591ce9 ] wstrb=[48 a0 c1 b4 db ab ca 23 4b 8b d7 26 36 a1 49 81 2d 21 a7 63 c2 f1 e5 ef 12 8c 53 d4 7d 38 c4 8f c4 17 64 42 4f 28 d1 13 3f 35 55 8e 5d 27 a1 9c 5c f7 2a ba 1e cc 56 7a c3 81 34 e1 4d 8b 5b 10 c 90 f1 59 1b 4c 69 27 dc 5a 80 f7 a6 e9 1e 83 43 9e 7a e9 87 99 6c ca 37 e7 b4 bf 80 20 89 b7 7 3d 76 87 5e 0 3f 65 3d b5 ed 9b b5 2c 1 f3 e1 ee 8e 97 1a 8f 8a fb 7d 18 92 97 a8 1c 93 25 35 25 bd dd 42 50 ] bresp=0 bid=1011
[1415000] ARB MONITOR: slave=0 m0_req=1 m1_req=0 winner=0
[1415000] MASTER 1 W_VALID_RDY Handshake beat=48 wlast=0
[1425000] MASTER 0 RECEIVED BRESP. BRESP=0
[1425000] [MASTER DRIVER] mst_id=0 s_id=0 awaddr=1c2634f0 awid=1011 awlen=133 awsize=3 awburst=1 wdata=[d2a7d19a334d9bfd feba85e2384ee8f7 f4d3670cae2c9838 e17a34359cf12fdc d54018d3c77b38a6 f5a7d0dfe034ba17 fd25e9f4ca137fdf 118eb886d7220514 3756bf2cd26602c7 1c7982a707368965 de588e79347ca920 86e2abe72e083b2d 353ec49295af4da5 ca2bf6c5a35c2e8e d16469bb9397530b 2946a0b1d10ea2ad f46ad13b86a32e4d 1a3a8159f3729776 c4813a23c5cf3af7 cc726944c381220a b6f3b98038ec0b5f febb4656e6acea9d aa2e0ca7fb74f3a4 3460ff03cb2daf9a 31da9a38e121c628 dc96b9cc331c4559 fe49f4f3dc08a6df bd2a6d0710f7b8cf c413fe28b0248f2b c2d360b99c126d3 aab8dfa2c25df31b f2828247c957a312 e318c9e6eeccddca 312ad0e6feafb852 c8075b648dd1a988 fc9e875323ad532d 225d0b7fab20254a 38f1ced32dc95839 d176ab66ea6466e3 15848c2e35905626 e359ae5ff3d3b6e5 de381dc8ce765b01 406b12734d059c5 28a410aaf3bca9f6 c23304f7e7605f86 1c30b94b86dc2e72 fa98d869c639b61e ad9a15a4c4d4c9f5 cbb0f867bccbdd60 305937fc9caceef 8e9f98e4c649d0d0 315ae31b09fa923 fa6a7813da50914c a09a621c061b41b0 b6baead3890a10f7 e35aa243a3b0104d a9cb51fdb12562e6 3a2f73de03f50460 a7a514ade0863cd1 91ab9fb79d8a1621 a17f1a81d17066ab 31f6a37ccbdb1395 e96529b7c9242f2f 1a9495dac3a24333 f7d56c98ae44438 d4087367cc8b3956 902d7c89f8e28080 83c6c4b8ee9d0941 bb2842979faad352 988d53d2d7cf3820 c66c4161cb55bf21 eb0092731c54188b f42350ab019483f9 ccea431a038de646 1fe1fed1ba8f920c bc241605b7ead58d bb78bbd314054f7c ce94e188890e591f c0f92eaddb5abaa4 ef600a200ab8f78e 93c750adfc71ea80 d7cca5253df4eba9 c8ade337d4c07f5a d13269dbc72caf45 85219aeedc7533e4 3135b33f28ff0f00 f02bbe45cdcf7e25 2a44b20a02681d1a 2b672c1af54d5934 c31cd759db7a6549 dde282639b92ea5f 90e04393ed618963 c8dbeeac0949ae7d a4dc98dcd3fd1aed c15ea450a6be710f b0081f8c35bcdc70 9b9f75d0a3a92fd b0f9040cd4e4b869 aa194d9cb189bad d5532eaae1012399 35e5dc02145b8c36 df7427e3064c32b7 e74d5650c08770db d4e2fd1134c7568e 3b1389451d333252 ddbaa32db45724f4 e91e7b822260df95 3f9411e7329da03e e6f4c532a43204c7 c692e45c1d4eb514 cfec5552d01340b5 f445457c8626f643 a375ab57b6e11a84 86f45b393ad829d9 c0ff201cf36200a9 2a431b2efb39a0b6 3611ca8fe474cb74 d7d6cc1db1377667 ac71171df710eaab db85b61f8219e74b 33515db3e282e1ac d993cc58335c823d b5766988dfc274d0 c245567db5198277 e87604b4e8c7c73b c88a3c0c1bd922d5 d0f2a54c1dec6e3d 86b435780acf9289 26a8b55e3968aa01 d755183ecf3e7184 da0e040df79b5aaa b10404abde094db6 2d47bf3b80b6b96b f852141688591ce9 ] wstrb=[48 a0 c1 b4 db ab ca 23 4b 8b d7 26 36 a1 49 81 2d 21 a7 63 c2 f1 e5 ef 12 8c 53 d4 7d 38 c4 8f c4 17 64 42 4f 28 d1 13 3f 35 55 8e 5d 27 a1 9c 5c f7 2a ba 1e cc 56 7a c3 81 34 e1 4d 8b 5b 10 c 90 f1 59 1b 4c 69 27 dc 5a 80 f7 a6 e9 1e 83 43 9e 7a e9 87 99 6c ca 37 e7 b4 bf 80 20 89 b7 7 3d 76 87 5e 0 3f 65 3d b5 ed 9b b5 2c 1 f3 e1 ee 8e 97 1a 8f 8a fb 7d 18 92 97 a8 1c 93 25 35 25 bd dd 42 50 ] bresp=0 bid=1011
[1425000] MASTER 0 B_VALID_RDY Handshake
[1425000] [MASTER MONITOR] mst_id=0 s_id=1 awaddr=1c2634f0 awid=1011 awlen=133 awsize=3 awburst=1 wdata=[d2a7d19a334d9bfd feba85e2384ee8f7 f4d3670cae2c9838 e17a34359cf12fdc d54018d3c77b38a6 f5a7d0dfe034ba17 fd25e9f4ca137fdf 118eb886d7220514 3756bf2cd26602c7 1c7982a707368965 de588e79347ca920 86e2abe72e083b2d 353ec49295af4da5 ca2bf6c5a35c2e8e d16469bb9397530b 2946a0b1d10ea2ad f46ad13b86a32e4d 1a3a8159f3729776 c4813a23c5cf3af7 cc726944c381220a b6f3b98038ec0b5f febb4656e6acea9d aa2e0ca7fb74f3a4 3460ff03cb2daf9a 31da9a38e121c628 dc96b9cc331c4559 fe49f4f3dc08a6df bd2a6d0710f7b8cf c413fe28b0248f2b c2d360b99c126d3 aab8dfa2c25df31b f2828247c957a312 e318c9e6eeccddca 312ad0e6feafb852 c8075b648dd1a988 fc9e875323ad532d 225d0b7fab20254a 38f1ced32dc95839 d176ab66ea6466e3 15848c2e35905626 e359ae5ff3d3b6e5 de381dc8ce765b01 406b12734d059c5 28a410aaf3bca9f6 c23304f7e7605f86 1c30b94b86dc2e72 fa98d869c639b61e ad9a15a4c4d4c9f5 cbb0f867bccbdd60 305937fc9caceef 8e9f98e4c649d0d0 315ae31b09fa923 fa6a7813da50914c a09a621c061b41b0 b6baead3890a10f7 e35aa243a3b0104d a9cb51fdb12562e6 3a2f73de03f50460 a7a514ade0863cd1 91ab9fb79d8a1621 a17f1a81d17066ab 31f6a37ccbdb1395 e96529b7c9242f2f 1a9495dac3a24333 f7d56c98ae44438 d4087367cc8b3956 902d7c89f8e28080 83c6c4b8ee9d0941 bb2842979faad352 988d53d2d7cf3820 c66c4161cb55bf21 eb0092731c54188b f42350ab019483f9 ccea431a038de646 1fe1fed1ba8f920c bc241605b7ead58d bb78bbd314054f7c ce94e188890e591f c0f92eaddb5abaa4 ef600a200ab8f78e 93c750adfc71ea80 d7cca5253df4eba9 c8ade337d4c07f5a d13269dbc72caf45 85219aeedc7533e4 3135b33f28ff0f00 f02bbe45cdcf7e25 2a44b20a02681d1a 2b672c1af54d5934 c31cd759db7a6549 dde282639b92ea5f 90e04393ed618963 c8dbeeac0949ae7d a4dc98dcd3fd1aed c15ea450a6be710f b0081f8c35bcdc70 9b9f75d0a3a92fd b0f9040cd4e4b869 aa194d9cb189bad d5532eaae1012399 35e5dc02145b8c36 df7427e3064c32b7 e74d5650c08770db d4e2fd1134c7568e 3b1389451d333252 ddbaa32db45724f4 e91e7b822260df95 3f9411e7329da03e e6f4c532a43204c7 c692e45c1d4eb514 cfec5552d01340b5 f445457c8626f643 a375ab57b6e11a84 86f45b393ad829d9 c0ff201cf36200a9 2a431b2efb39a0b6 3611ca8fe474cb74 d7d6cc1db1377667 ac71171df710eaab db85b61f8219e74b 33515db3e282e1ac d993cc58335c823d b5766988dfc274d0 c245567db5198277 e87604b4e8c7c73b c88a3c0c1bd922d5 d0f2a54c1dec6e3d 86b435780acf9289 26a8b55e3968aa01 d755183ecf3e7184 da0e040df79b5aaa b10404abde094db6 2d47bf3b80b6b96b f852141688591ce9 ] wstrb=[48 a0 c1 b4 db ab ca 23 4b 8b d7 26 36 a1 49 81 2d 21 a7 63 c2 f1 e5 ef 12 8c 53 d4 7d 38 c4 8f c4 17 64 42 4f 28 d1 13 3f 35 55 8e 5d 27 a1 9c 5c f7 2a ba 1e cc 56 7a c3 81 34 e1 4d 8b 5b 10 c 90 f1 59 1b 4c 69 27 dc 5a 80 f7 a6 e9 1e 83 43 9e 7a e9 87 99 6c ca 37 e7 b4 bf 80 20 89 b7 7 3d 76 87 5e 0 3f 65 3d b5 ed 9b b5 2c 1 f3 e1 ee 8e 97 1a 8f 8a fb 7d 18 92 97 a8 1c 93 25 35 25 bd dd 42 50 ] bresp=0 bid=1011
[1425000] MASTER 1 W_VALID_RDY Handshake beat=49 wlast=0
[1425000] SLAVE 0 R_VALID_RDY Handshake beat=0 rlast=0
[1425000] MEMORY READ MISS beat=1 addr=ac29a80 -> default data id=1
[1425000] AXI S0_WVALID_RDY HANDSHAKE
[1425000] S0 MEMORY WRITE beat=48 addr=07cb0a28 data=cc62b9999ec22a22 id=12
[1425000] SCOREBOARD MATCH: decode_err expected = 0, actual =0
[1425000] SCOREBOARD MATCH: slave_id expected = 1, actual =1
[1425000] SCOREBOARD MATCH: awaddr passthrough expected = 1c2634f0, actual =1c2634f0
[1425000] SCOREBOARD MATCH: awlen passthrough expected = 133, actual =133
[1425000] SCOREBOARD MATCH: awsize passthrough expected = 3, actual =3
[1425000] SCOREBOARD MATCH: awburst passthrough expected = 1, actual =1
[1425000] SCOREBOARD MATCH: wdata size check expected = 86, actual =86
[1425000] SCOREBOARD MATCH: wdata passthrough beat=0 expected = d2a7d19a334d9bfd, actual =d2a7d19a334d9bfd
[1425000] SCOREBOARD MATCH: wdata passthrough beat=1 expected = feba85e2384ee8f7, actual =feba85e2384ee8f7
[1425000] SCOREBOARD MATCH: wdata passthrough beat=2 expected = f4d3670cae2c9838, actual =f4d3670cae2c9838
[1425000] SCOREBOARD MATCH: wdata passthrough beat=3 expected = e17a34359cf12fdc, actual =e17a34359cf12fdc
[1425000] SCOREBOARD MATCH: wdata passthrough beat=4 expected = d54018d3c77b38a6, actual =d54018d3c77b38a6
[1425000] SCOREBOARD MATCH: wdata passthrough beat=5 expected = f5a7d0dfe034ba17, actual =f5a7d0dfe034ba17
[1425000] SCOREBOARD MATCH: wdata passthrough beat=6 expected = fd25e9f4ca137fdf, actual =fd25e9f4ca137fdf
[1425000] SCOREBOARD MATCH: wdata passthrough beat=7 expected = 118eb886d7220514, actual =118eb886d7220514
[1425000] SCOREBOARD MATCH: wdata passthrough beat=8 expected = 3756bf2cd26602c7, actual =3756bf2cd26602c7
[1425000] SCOREBOARD MATCH: wdata passthrough beat=9 expected = 1c7982a707368965, actual =1c7982a707368965
[1425000] SCOREBOARD MATCH: wdata passthrough beat=10 expected = de588e79347ca920, actual =de588e79347ca920
[1425000] SCOREBOARD MATCH: wdata passthrough beat=11 expected = 86e2abe72e083b2d, actual =86e2abe72e083b2d
[1425000] SCOREBOARD MATCH: wdata passthrough beat=12 expected = 353ec49295af4da5, actual =353ec49295af4da5
[1425000] SCOREBOARD MATCH: wdata passthrough beat=13 expected = ca2bf6c5a35c2e8e, actual =ca2bf6c5a35c2e8e
[1425000] SCOREBOARD MATCH: wdata passthrough beat=14 expected = d16469bb9397530b, actual =d16469bb9397530b
[1425000] SCOREBOARD MATCH: wdata passthrough beat=15 expected = 2946a0b1d10ea2ad, actual =2946a0b1d10ea2ad
[1425000] SCOREBOARD MATCH: wdata passthrough beat=16 expected = f46ad13b86a32e4d, actual =f46ad13b86a32e4d
[1425000] SCOREBOARD MATCH: wdata passthrough beat=17 expected = 1a3a8159f3729776, actual =1a3a8159f3729776
[1425000] SCOREBOARD MATCH: wdata passthrough beat=18 expected = c4813a23c5cf3af7, actual =c4813a23c5cf3af7
[1425000] SCOREBOARD MATCH: wdata passthrough beat=19 expected = cc726944c381220a, actual =cc726944c381220a
[1425000] SCOREBOARD MATCH: wdata passthrough beat=20 expected = b6f3b98038ec0b5f, actual =b6f3b98038ec0b5f
[1425000] SCOREBOARD MATCH: wdata passthrough beat=21 expected = febb4656e6acea9d, actual =febb4656e6acea9d
[1425000] SCOREBOARD MATCH: wdata passthrough beat=22 expected = aa2e0ca7fb74f3a4, actual =aa2e0ca7fb74f3a4
[1425000] SCOREBOARD MATCH: wdata passthrough beat=23 expected = 3460ff03cb2daf9a, actual =3460ff03cb2daf9a
[1425000] SCOREBOARD MATCH: wdata passthrough beat=24 expected = 31da9a38e121c628, actual =31da9a38e121c628
[1425000] SCOREBOARD MATCH: wdata passthrough beat=25 expected = dc96b9cc331c4559, actual =dc96b9cc331c4559
[1425000] SCOREBOARD MATCH: wdata passthrough beat=26 expected = fe49f4f3dc08a6df, actual =fe49f4f3dc08a6df
[1425000] SCOREBOARD MATCH: wdata passthrough beat=27 expected = bd2a6d0710f7b8cf, actual =bd2a6d0710f7b8cf
[1425000] SCOREBOARD MATCH: wdata passthrough beat=28 expected = c413fe28b0248f2b, actual =c413fe28b0248f2b
[1425000] SCOREBOARD MATCH: wdata passthrough beat=29 expected = c2d360b99c126d3, actual =c2d360b99c126d3
[1425000] SCOREBOARD MATCH: wdata passthrough beat=30 expected = aab8dfa2c25df31b, actual =aab8dfa2c25df31b
[1425000] SCOREBOARD MATCH: wdata passthrough beat=31 expected = f2828247c957a312, actual =f2828247c957a312
[1425000] SCOREBOARD MATCH: wdata passthrough beat=32 expected = e318c9e6eeccddca, actual =e318c9e6eeccddca
[1425000] SCOREBOARD MATCH: wdata passthrough beat=33 expected = 312ad0e6feafb852, actual =312ad0e6feafb852
[1425000] SCOREBOARD MATCH: wdata passthrough beat=34 expected = c8075b648dd1a988, actual =c8075b648dd1a988
[1425000] SCOREBOARD MATCH: wdata passthrough beat=35 expected = fc9e875323ad532d, actual =fc9e875323ad532d
[1425000] SCOREBOARD MATCH: wdata passthrough beat=36 expected = 225d0b7fab20254a, actual =225d0b7fab20254a
[1425000] SCOREBOARD MATCH: wdata passthrough beat=37 expected = 38f1ced32dc95839, actual =38f1ced32dc95839
[1425000] SCOREBOARD MATCH: wdata passthrough beat=38 expected = d176ab66ea6466e3, actual =d176ab66ea6466e3
[1425000] SCOREBOARD MATCH: wdata passthrough beat=39 expected = 15848c2e35905626, actual =15848c2e35905626
[1425000] SCOREBOARD MATCH: wdata passthrough beat=40 expected = e359ae5ff3d3b6e5, actual =e359ae5ff3d3b6e5
[1425000] SCOREBOARD MATCH: wdata passthrough beat=41 expected = de381dc8ce765b01, actual =de381dc8ce765b01
[1425000] SCOREBOARD MATCH: wdata passthrough beat=42 expected = 406b12734d059c5, actual =406b12734d059c5
[1425000] SCOREBOARD MATCH: wdata passthrough beat=43 expected = 28a410aaf3bca9f6, actual =28a410aaf3bca9f6
[1425000] SCOREBOARD MATCH: wdata passthrough beat=44 expected = c23304f7e7605f86, actual =c23304f7e7605f86
[1425000] SCOREBOARD MATCH: wdata passthrough beat=45 expected = 1c30b94b86dc2e72, actual =1c30b94b86dc2e72
[1425000] SCOREBOARD MATCH: wdata passthrough beat=46 expected = fa98d869c639b61e, actual =fa98d869c639b61e
[1425000] SCOREBOARD MATCH: wdata passthrough beat=47 expected = ad9a15a4c4d4c9f5, actual =ad9a15a4c4d4c9f5
[1425000] SCOREBOARD MATCH: wdata passthrough beat=48 expected = cbb0f867bccbdd60, actual =cbb0f867bccbdd60
[1425000] SCOREBOARD MATCH: wdata passthrough beat=49 expected = 305937fc9caceef, actual =305937fc9caceef
[1425000] SCOREBOARD MATCH: wdata passthrough beat=50 expected = 8e9f98e4c649d0d0, actual =8e9f98e4c649d0d0
[1425000] SCOREBOARD MATCH: wdata passthrough beat=51 expected = 315ae31b09fa923, actual =315ae31b09fa923
[1425000] SCOREBOARD MATCH: wdata passthrough beat=52 expected = fa6a7813da50914c, actual =fa6a7813da50914c
[1425000] SCOREBOARD MATCH: wdata passthrough beat=53 expected = a09a621c061b41b0, actual =a09a621c061b41b0
[1425000] SCOREBOARD MATCH: wdata passthrough beat=54 expected = b6baead3890a10f7, actual =b6baead3890a10f7
[1425000] SCOREBOARD MATCH: wdata passthrough beat=55 expected = e35aa243a3b0104d, actual =e35aa243a3b0104d
[1425000] SCOREBOARD MATCH: wdata passthrough beat=56 expected = a9cb51fdb12562e6, actual =a9cb51fdb12562e6
[1425000] SCOREBOARD MATCH: wdata passthrough beat=57 expected = 3a2f73de03f50460, actual =3a2f73de03f50460
[1425000] SCOREBOARD MATCH: wdata passthrough beat=58 expected = a7a514ade0863cd1, actual =a7a514ade0863cd1
[1425000] SCOREBOARD MATCH: wdata passthrough beat=59 expected = 91ab9fb79d8a1621, actual =91ab9fb79d8a1621
[1425000] SCOREBOARD MATCH: wdata passthrough beat=60 expected = a17f1a81d17066ab, actual =a17f1a81d17066ab
[1425000] SCOREBOARD MATCH: wdata passthrough beat=61 expected = 31f6a37ccbdb1395, actual =31f6a37ccbdb1395
[1425000] SCOREBOARD MATCH: wdata passthrough beat=62 expected = e96529b7c9242f2f, actual =e96529b7c9242f2f
[1425000] SCOREBOARD MATCH: wdata passthrough beat=63 expected = 1a9495dac3a24333, actual =1a9495dac3a24333
[1425000] SCOREBOARD MATCH: wdata passthrough beat=64 expected = f7d56c98ae44438, actual =f7d56c98ae44438
[1425000] SCOREBOARD MATCH: wdata passthrough beat=65 expected = d4087367cc8b3956, actual =d4087367cc8b3956
[1425000] SCOREBOARD MATCH: wdata passthrough beat=66 expected = 902d7c89f8e28080, actual =902d7c89f8e28080
[1425000] SCOREBOARD MATCH: wdata passthrough beat=67 expected = 83c6c4b8ee9d0941, actual =83c6c4b8ee9d0941
[1425000] SCOREBOARD MATCH: wdata passthrough beat=68 expected = bb2842979faad352, actual =bb2842979faad352
[1425000] SCOREBOARD MATCH: wdata passthrough beat=69 expected = 988d53d2d7cf3820, actual =988d53d2d7cf3820
[1425000] SCOREBOARD MATCH: wdata passthrough beat=70 expected = c66c4161cb55bf21, actual =c66c4161cb55bf21
[1425000] SCOREBOARD MATCH: wdata passthrough beat=71 expected = eb0092731c54188b, actual =eb0092731c54188b
[1425000] SCOREBOARD MATCH: wdata passthrough beat=72 expected = f42350ab019483f9, actual =f42350ab019483f9
[1425000] SCOREBOARD MATCH: wdata passthrough beat=73 expected = ccea431a038de646, actual =ccea431a038de646
[1425000] SCOREBOARD MATCH: wdata passthrough beat=74 expected = 1fe1fed1ba8f920c, actual =1fe1fed1ba8f920c
[1425000] SCOREBOARD MATCH: wdata passthrough beat=75 expected = bc241605b7ead58d, actual =bc241605b7ead58d
[1425000] SCOREBOARD MATCH: wdata passthrough beat=76 expected = bb78bbd314054f7c, actual =bb78bbd314054f7c
[1425000] SCOREBOARD MATCH: wdata passthrough beat=77 expected = ce94e188890e591f, actual =ce94e188890e591f
[1425000] SCOREBOARD MATCH: wdata passthrough beat=78 expected = c0f92eaddb5abaa4, actual =c0f92eaddb5abaa4
[1425000] SCOREBOARD MATCH: wdata passthrough beat=79 expected = ef600a200ab8f78e, actual =ef600a200ab8f78e
[1425000] SCOREBOARD MATCH: wdata passthrough beat=80 expected = 93c750adfc71ea80, actual =93c750adfc71ea80
[1425000] SCOREBOARD MATCH: wdata passthrough beat=81 expected = d7cca5253df4eba9, actual =d7cca5253df4eba9
[1425000] SCOREBOARD MATCH: wdata passthrough beat=82 expected = c8ade337d4c07f5a, actual =c8ade337d4c07f5a
[1425000] SCOREBOARD MATCH: wdata passthrough beat=83 expected = d13269dbc72caf45, actual =d13269dbc72caf45
[1425000] SCOREBOARD MATCH: wdata passthrough beat=84 expected = 85219aeedc7533e4, actual =85219aeedc7533e4
[1425000] SCOREBOARD MATCH: wdata passthrough beat=85 expected = 3135b33f28ff0f00, actual =3135b33f28ff0f00
[1425000] SCOREBOARD MATCH: wdata passthrough beat=86 expected = f02bbe45cdcf7e25, actual =f02bbe45cdcf7e25
[1425000] SCOREBOARD MATCH: wdata passthrough beat=87 expected = 2a44b20a02681d1a, actual =2a44b20a02681d1a
[1425000] SCOREBOARD MATCH: wdata passthrough beat=88 expected = 2b672c1af54d5934, actual =2b672c1af54d5934
[1425000] SCOREBOARD MATCH: wdata passthrough beat=89 expected = c31cd759db7a6549, actual =c31cd759db7a6549
[1425000] SCOREBOARD MATCH: wdata passthrough beat=90 expected = dde282639b92ea5f, actual =dde282639b92ea5f
[1425000] SCOREBOARD MATCH: wdata passthrough beat=91 expected = 90e04393ed618963, actual =90e04393ed618963
[1425000] SCOREBOARD MATCH: wdata passthrough beat=92 expected = c8dbeeac0949ae7d, actual =c8dbeeac0949ae7d
[1425000] SCOREBOARD MATCH: wdata passthrough beat=93 expected = a4dc98dcd3fd1aed, actual =a4dc98dcd3fd1aed
[1425000] SCOREBOARD MATCH: wdata passthrough beat=94 expected = c15ea450a6be710f, actual =c15ea450a6be710f
[1425000] SCOREBOARD MATCH: wdata passthrough beat=95 expected = b0081f8c35bcdc70, actual =b0081f8c35bcdc70
[1425000] SCOREBOARD MATCH: wdata passthrough beat=96 expected = 9b9f75d0a3a92fd, actual =9b9f75d0a3a92fd
[1425000] SCOREBOARD MATCH: wdata passthrough beat=97 expected = b0f9040cd4e4b869, actual =b0f9040cd4e4b869
[1425000] SCOREBOARD MATCH: wdata passthrough beat=98 expected = aa194d9cb189bad, actual =aa194d9cb189bad
[1425000] SCOREBOARD MATCH: wdata passthrough beat=99 expected = d5532eaae1012399, actual =d5532eaae1012399
[1425000] SCOREBOARD MATCH: wdata passthrough beat=100 expected = 35e5dc02145b8c36, actual =35e5dc02145b8c36
[1425000] SCOREBOARD MATCH: wdata passthrough beat=101 expected = df7427e3064c32b7, actual =df7427e3064c32b7
[1425000] SCOREBOARD MATCH: wdata passthrough beat=102 expected = e74d5650c08770db, actual =e74d5650c08770db
[1425000] SCOREBOARD MATCH: wdata passthrough beat=103 expected = d4e2fd1134c7568e, actual =d4e2fd1134c7568e
[1425000] SCOREBOARD MATCH: wdata passthrough beat=104 expected = 3b1389451d333252, actual =3b1389451d333252
[1425000] SCOREBOARD MATCH: wdata passthrough beat=105 expected = ddbaa32db45724f4, actual =ddbaa32db45724f4
[1425000] SCOREBOARD MATCH: wdata passthrough beat=106 expected = e91e7b822260df95, actual =e91e7b822260df95
[1425000] SCOREBOARD MATCH: wdata passthrough beat=107 expected = 3f9411e7329da03e, actual =3f9411e7329da03e
[1425000] SCOREBOARD MATCH: wdata passthrough beat=108 expected = e6f4c532a43204c7, actual =e6f4c532a43204c7
[1425000] SCOREBOARD MATCH: wdata passthrough beat=109 expected = c692e45c1d4eb514, actual =c692e45c1d4eb514
[1425000] SCOREBOARD MATCH: wdata passthrough beat=110 expected = cfec5552d01340b5, actual =cfec5552d01340b5
[1425000] SCOREBOARD MATCH: wdata passthrough beat=111 expected = f445457c8626f643, actual =f445457c8626f643
[1425000] SCOREBOARD MATCH: wdata passthrough beat=112 expected = a375ab57b6e11a84, actual =a375ab57b6e11a84
[1425000] SCOREBOARD MATCH: wdata passthrough beat=113 expected = 86f45b393ad829d9, actual =86f45b393ad829d9
[1425000] SCOREBOARD MATCH: wdata passthrough beat=114 expected = c0ff201cf36200a9, actual =c0ff201cf36200a9
[1425000] SCOREBOARD MATCH: wdata passthrough beat=115 expected = 2a431b2efb39a0b6, actual =2a431b2efb39a0b6
[1425000] SCOREBOARD MATCH: wdata passthrough beat=116 expected = 3611ca8fe474cb74, actual =3611ca8fe474cb74
