#-----------------------------------------------------------
# xsim v2025.2 (64-bit)
# SW Build 6299465 on Fri Nov 14 12:34:56 MST 2025
# IP Build 6300035 on Fri Nov 14 10:48:45 MST 2025
# SharedData Build 6298862 on Thu Nov 13 04:50:51 MST 2025
# Start of session at: Thu Sep 10 18:42:31 2026
# Process ID         : 3665982
# Current directory  : /home/nashita/Desktop/practice/axi_xbar/sim
# Command line       : xsim -log regress_results/BT_run414.log -mode tcl -source {xsim.dir/tb_top_snap/xsim_script.tcl}
# Log file           : /home/nashita/Desktop/practice/axi_xbar/sim/regress_results/BT_run414.log
# Journal file       : /home/nashita/Desktop/practice/axi_xbar/sim/xsim.jou
# Running On         : vlsi-vivado
# Platform           : Ubuntu
# Operating System   : Ubuntu 24.04.4 LTS
# Processor Detail   : Intel(R) Core(TM) i5-10400 CPU @ 2.90GHz
# CPU Frequency      : 3999.779 MHz
# CPU Physical cores : 6
# CPU Logical cores  : 12
# Host memory        : 41875 MB
# Swap memory        : 27648 MB
# Total Virtual      : 69524 MB
# Available Virtual  : 62703 MB
#-----------------------------------------------------------
source xsim.dir/tb_top_snap/xsim_script.tcl
# xsim {tb_top_snap} -testplusarg BT -autoloadwcfg -runall -sv_seed 415
Time resolution is 1 ps
run -all
[0] RUNNING BASE TEST
[0] INSIDE THE BASE TEST CONSTRUCTOR
[0] ENV: before agent
[0] SLAVE CONSTRUCTED
[0] MASTER MONITOR CONSTRUCTED
[0] MASTER MONITOR CONSTRUCTED
[0] SLAVE MONITOR CONSTRUCTED
[0] SLAVE MONITOR CONSTRUCTED
[0] ARB MONITOR CONSTRUCTED
GENERATOR CONSTRUCTED
[0] ENV: after agent
[0] ENV: before scoreboard
[0] ENV: after scoreboard
[15000] [SEQUENCER] mst_id=1 s_id=0 awaddr=f4f6e48 awid=110 awlen=2 awsize=6 awburst=0 wdata=[cdbfcd62f10ecfb6 e3389f8ea26c8af fbf28fd7d393d0a1 ] wstrb=[9c 57 39 ] bresp=0 bid=0
[15000] [SEQUENCER] READ mst_id=0 s_id=0 araddr=1cd92e80 arid=0 arlen=1 arsize=3 arburst=1 rid=[] rresp=[] rdata=[]
[15000] [SEQUENCER] mst_id=0 s_id=0 awaddr=81d1858 awid=111 awlen=186 awsize=4 awburst=1 wdata=[c1055c6c9004dbd3 a5087eded8b8ea4a 2cda1693c08ec876 d093a44a95eba7a3 eea491ededdf72ff 2e6e3b76f59c2328 b87cacc9b7ea880 95e1b80ff01dfc0 f49e02e8fa2c5cb9 15ab053a37cc56f6 36ce36b68025cdb4 fa522a6e1f0920ba d6d577b0ab6c399e 2b9207530ffd2fa8 2f0650620da3ae66 b90fe80425e431c1 35e1616905dbc812 137f7678e4a1ef57 8a862118e4e7b1cb eac379ddcc8f5e7c 31314dd4c0678281 a54f344cfe42f055 cad24ed1bbb76eec fc1ef16e9012ae29 8e559e7efc039ca5 37bb0b92a16e25ba 3180d3e4d927ed50 d52b89f533d9fd00 d54822babfd67262 98fe5fb28ce69587 c0c0928786c8f69e c69f6901ee29e9a8 fb107f2f1608b542 9cd1abe0df9dc8b3 cdc7b25b3bd111b7 d1d9c6f9e37114e1 c30edd95c8d8318b 4a94342eeab72d9 d21c87bb90d68ff0 d9aec17bd6830a3b c52e7d14152b6550 a601f540de5804bd b4db0ef8974b04cf ac766a1fffb0b6bc de08bb79fa098c0d 915490dcd2785f60 d229161c12e3ca72 ced567f3dcafafc 10435a5cb031d195 c3159c079e41e75b dc0ce257e26c7078 929e420dd002f286 ee44d9e2ec503cb3 cebcad2bd5b3de15 a5b6d09bca51bc39 36a1f8ede15aef39 370ecd4e93fbaa7d de4d66b7855ea618 e6b99551dcc59de9 f0c1486714ef5fa4 9a4e05bc9dc8629f fa8e0089cf0eaf1e e3fe0ec201079b0e 9ecffdadeb4f48f0 3a5df80efe4c147e ff53af8c995dfe36 84ad47261e5c06d0 9ca81b4e1e23ad3a b781ab70bf0b3f34 dd6746041bfbcadb 3a1f78153c2ef297 fb3a31cbfa0f6153 160b2c2ef1a12385 add0161cd8a177d0 d2b0d923d02aa443 c1cbc7c8290a47e8 1abbfb8e8bc0551 38e6a994ef9bdde5 18a625cdd45c98db 3d189e2cfab2715c ea4e4f411a51e585 eeae7e60f5ff47c0 f0b1b91c82f4750e 9d465a932bc71c8c 21c6644cdb00085e ddf47d6c8bf4d8f3 b7bbf57f92781d68 ed7825c6fb3ad800 872fb0f3d98259cb ebfa7734cb6ca333 c6a77b333eeba673 986e003ed9729cfa a4df402dcdd72c26 8cc2d29984687772 dddb146deb86bb60 395de7872530d2d8 a9994a4a82ba549a ee410ffbc620ba20 eb518cf887745eb7 a2eb352279ef782 edbfb1a214ead743 9c5f35faf86fc34d 200ebacfd9113e9b edfc15dea68de94c 9efdac998dce6c71 e6dfab0c8a5b4bd8 30e93525bf0c6768 ccdad3dad4dbc0ea df370cc3cfe6e1be ef34927b3ba7ee6 8963fd1102041e8 e00723a6dbce1d01 8f889be7e7cd4c94 f7ed8e7ceefa6ccd cac889ce981edbb8 ffec284cd7f4b222 c6ef1ef0da5125b6 f270016ef7d9b6c8 cfce68eb91b7a8be ec08ce74f25c29bb ea35e08316bd87db a8753099de78cfe3 d0d4f99eba04496e d0c1d149147dff0e f2f6cef1bb0ada21 f50f2390f93701e3 db500f1c3cbc88f fed6a2b0c5d0f4d9 bf07f6bc00abcfe2 c4779871f3e5c640 39b6bb1accbcf7ad cd68c78fc34e3b21 37340162f8beb1d6 c57ba98491e06000 d52e9b22f0eabc7c e9a96e5292e47113 24c4d1140c629c84 fd4d5900af2517d6 c20988eaf9f36c36 65608bae6f6c752 161bdf29e6ce59fe e0c1c63403a361ba ea9a290cd8256813 3ef3c211e717ceee eabb30a880b60835 d8db70481fb58845 6cd5733d55559b4 d60b61ea97cf3259 b784ba9ef18887db c6dde18faee6d232 c6b6048cbe5211d1 afda99ac9ce94379 cbd015acfe3abf2a 3c8cd0fcf6b87b3c 93a1beb512861a38 90c0d962ec676aa8 e31fe5e4df71d461 f1f7ee99cd4daa5e 39b51507f6c1a49a d63378fb02b8c7fc d006725a9cd4faeb 93969f85c82b6795 cae42f9189bb8761 2690824de9ca1881 31f580169aeaa1eb 24a6294dba2721d2 a3f13a53fcd9afa7 97c45192cb36ab9a 855dcd6cd5e6ba69 d2c06a10bc6a7adf 87a12679294f07c0 ff35c229ea84bba3 a6ef36820cfef3e6 364dfba6d1f62c3a 3c7ae7dd2e905cfc 3b8f50e2b583bdcf 8779ea09e36a1e5f 91fa7b5bf1dd4c88 a7610a57c3f4d1e6 275ef046cd89cc3d bf6718c52edaf461 f2cfc647b9596ba1 6e337dfe6c8231d 15a3177e9a2eb68d d388222fc64a50a4 ad1273c18872ddc5 22a19453da6b5a0e ] wstrb=[3f b2 82 5 74 90 58 b3 42 da b8 b6 6a 10 6a ac ea 22 63 54 33 cd 1 1d ef 64 72 22 31 73 40 20 d7 b2 43 8 25 83 28 fc 35 6b 4 5a ee 2c 56 23 98 5a 7d 86 86 d3 aa 1e 2d 27 a5 b4 fb 4f d2 28 76 77 dc 71 c6 af 9a 3d 26 76 ae ed 25 48 2a 4c bf d8 39 e4 21 63 30 e0 3b 69 c4 5c cc f5 3c 8 5e 1 64 2b f6 a1 33 54 a2 97 7f 98 38 b2 ec da 4a 6c 72 82 1e 5f 5d 68 cb cf eb e9 2e 48 52 f9 17 3d e3 46 85 35 3f 9c 72 22 e2 f7 57 22 93 c9 44 76 c0 9c 98 54 65 dc ca 26 78 62 7a de 3e 44 4 b7 a6 7e 95 e4 c2 99 9b 68 17 30 4c d9 c9 e8 41 e0 18 8d b9 e2 75 fa c2 8e 88 ] bresp=0 bid=0
[15000] [SEQUENCER] READ mst_id=0 s_id=0 araddr=2852340 arid=2 arlen=1 arsize=3 arburst=1 rid=[] rresp=[] rdata=[]
[15000] [SEQUENCER] mst_id=1 s_id=0 awaddr=1039bb50 awid=1111 awlen=4 awsize=0 awburst=2 wdata=[e4c8ef0ec77c7193 8bc49614e4653309 e96371229ad02678 e24c980be04e90ad c4b3c3b6ce2c6031 ] wstrb=[20 a9 d9 cd b5 ] bresp=0 bid=0
[15000] MASTER_DRIVER1 received transaction, op=AXI_WRITE
[15000] MASTER_DRIVER0 received transaction, op=AXI_READ
[35000] MASTER 1 AW_VALID_RDY Handshake
[35000] MASTER_DRIVER0 received transaction, op=AXI_WRITE
[45000] ARB MONITOR: slave=0 m0_req=0 m1_req=1 winner=1
[45000] ARB MONITOR: slave=1 m0_req=1 m1_req=0 winner=0
[45000] AXI S0_ARVALID_RDY HANDSHAKE
[45000] MEMORY READ MISS beat=0 addr=1cd92e80 -> default data id=0
[45000] AXI S0_AWVALID_RDY HANDSHAKE
[55000] MEMORY READ MISS beat=1 addr=1cd92e88 -> default data id=0
[55000] SLAVE 1 R_VALID_RDY Handshake beat=0 rlast=0
[55000] MASTER 1 W_VALID_RDY Handshake beat=0 wlast=0
[55000] MASTER 0 AW_VALID_RDY Handshake
[65000] MASTER 1 W_VALID_RDY Handshake beat=1 wlast=0
[65000] SLAVE 1 R_VALID_RDY Handshake beat=1 rlast=1
[65000] [SLAVE MONITOR] READ mst_id=0 s_id=1 araddr=1cd92e80 arid=0 arlen=1 arsize=3 arburst=1 rid=[00] rresp=[00] rdata=[baadf00d12345678baadf00d12345678]
[65000] AXI S0_WVALID_RDY HANDSHAKE
[65000] S0 MEMORY WRITE beat=0 addr=0f4f6e48 data=cdbfcd62f10ecfb6 id=16
[75000] AXI S0_WVALID_RDY HANDSHAKE
[75000] S0 MEMORY WRITE beat=1 addr=0f4f6e48 data=0e3389f8ea26c8af id=16
[75000] MASTER 1 W_VALID_RDY Handshake beat=2 wlast=1
[75000] MASTER 0 R_VALID_RDY Handshake beat=0 rlast=0
[75000] MASTER 0 W_VALID_RDY Handshake beat=0 wlast=0
[75000] MASTER_DRIVER1 received transaction, op=AXI_WRITE
[85000] [MASTER DRIVER] READ mst_id=0 s_id=0 araddr=1cd92e80 arid=0 arlen=1 arsize=3 arburst=1 rid=[00] rresp=[00] rdata=[baadf00d12345678baadf00d12345678]
[85000] MASTER 0 W_VALID_RDY Handshake beat=1 wlast=0
[85000] MASTER 0 R_VALID_RDY Handshake beat=1 rlast=1
[85000] [MASTER MONITOR] READ mst_id=0 s_id=1 araddr=1cd92e80 arid=0 arlen=1 arsize=3 arburst=1 rid=[00] rresp=[00] rdata=[baadf00d12345678baadf00d12345678]
[85000] AXI S0_WVALID_RDY HANDSHAKE
[85000] S0 MEMORY WRITE beat=2 addr=0f4f6e48 data=fbf28fd7d393d0a1 id=16
[85000] SCOREBOARD MATCH: decode_err expected = 0, actual =0
[85000] SCOREBOARD MATCH: slave_id expected = 1, actual =1
[85000] SCOREBOARD MATCH: araddr passthrough expected = 1cd92e80, actual =1cd92e80
[85000] SCOREBOARD MATCH: arlen passthrough expected = 1, actual =1
[85000] SCOREBOARD MATCH: arsize passthrough expected = 3, actual =3
[85000] SCOREBOARD MATCH: arburst passthrough expected = 1, actual =1
[85000] SCOREBOARD MATCH: rdata size check expected = 2, actual =2
[85000] SCOREBOARD MATCH: rdata passthrough beat=0 expected = baadf00d12345678, actual =baadf00d12345678
[85000] SCOREBOARD MATCH: rdata passthrough beat=1 expected = baadf00d12345678, actual =baadf00d12345678
[85000] SCOREBOARD MATCH: rresp size check expected = 2, actual =2
[85000] SCOREBOARD MATCH: rresp passthrough beat=0 expected = 0, actual =0
[85000] SCOREBOARD MATCH: rresp passthrough beat=1 expected = 0, actual =0
[85000] SCOREBOARD MATCH: response routed to correct master (read beat 0) expected = 0, actual =0
[85000] SCOREBOARD MATCH: response routed to correct master (read beat 1) expected = 0, actual =0
[85000] [SCOREBOARD-M] READ mst_id=0 s_id=1 araddr=1cd92e80 arid=0 arlen=1 arsize=3 arburst=1 rid=[00] rresp=[00] rdata=[baadf00d12345678baadf00d12345678]
[85000] [SCOREBOARD-S] READ mst_id=0 s_id=1 araddr=1cd92e80 arid=0 arlen=1 arsize=3 arburst=1 rid=[00] rresp=[00] rdata=[baadf00d12345678baadf00d12345678]
[85000] SCOREBOARD: Transaction 1 received. pass=14 fail=0
[85000] ALL PASS. Total transactions: 1
[95000] SLAVE0 sent B resp, id=6
[95000] [SLAVE MONITOR] mst_id=1 s_id=0 awaddr=f4f6e48 awid=110 awlen=2 awsize=6 awburst=0 wdata=[cdbfcd62f10ecfb6 e3389f8ea26c8af fbf28fd7d393d0a1 ] wstrb=[9c 57 39 ] bresp=0 bid=10110
[95000] MASTER 1 AW_VALID_RDY Handshake
[95000] MASTER 0 W_VALID_RDY Handshake beat=2 wlast=0
[105000] MASTER 0 W_VALID_RDY Handshake beat=3 wlast=0
[105000] ARB MONITOR: slave=0 m0_req=1 m1_req=0 winner=0
[105000] ARB MONITOR: slave=1 m0_req=0 m1_req=1 winner=1
[105000] AXI S1_AWVALID_RDY HANDSHAKE
[105000] AXI S0_AWVALID_RDY HANDSHAKE
[115000] AXI S0_WVALID_RDY HANDSHAKE
[115000] S0 MEMORY WRITE beat=0 addr=081d1858 data=c1055c6c9004dbd3 id=07
[115000] MASTER 1 W_VALID_RDY Handshake beat=0 wlast=0
[115000] MASTER 1 B_VALID_RDY Handshake
[115000] [MASTER MONITOR] mst_id=1 s_id=0 awaddr=f4f6e48 awid=110 awlen=2 awsize=6 awburst=0 wdata=[cdbfcd62f10ecfb6 e3389f8ea26c8af fbf28fd7d393d0a1 ] wstrb=[9c 57 39 ] bresp=0 bid=110
[115000] MASTER 0 W_VALID_RDY Handshake beat=4 wlast=0
[115000] MASTER 1 RECEIVED BRESP. BRESP=0
[115000] [MASTER DRIVER] mst_id=1 s_id=0 awaddr=f4f6e48 awid=110 awlen=2 awsize=6 awburst=0 wdata=[cdbfcd62f10ecfb6 e3389f8ea26c8af fbf28fd7d393d0a1 ] wstrb=[9c 57 39 ] bresp=0 bid=110
[115000] SCOREBOARD MATCH: decode_err expected = 0, actual =0
[115000] SCOREBOARD MATCH: slave_id expected = 0, actual =0
[115000] SCOREBOARD MATCH: awaddr passthrough expected = f4f6e48, actual =f4f6e48
[115000] SCOREBOARD MATCH: awlen passthrough expected = 2, actual =2
[115000] SCOREBOARD MATCH: awsize passthrough expected = 6, actual =6
[115000] SCOREBOARD MATCH: awburst passthrough expected = 0, actual =0
[115000] SCOREBOARD MATCH: wdata size check expected = 3, actual =3
[115000] SCOREBOARD MATCH: wdata passthrough beat=0 expected = cdbfcd62f10ecfb6, actual =cdbfcd62f10ecfb6
[115000] SCOREBOARD MATCH: wdata passthrough beat=1 expected = e3389f8ea26c8af, actual =e3389f8ea26c8af
[115000] SCOREBOARD MATCH: wdata passthrough beat=2 expected = fbf28fd7d393d0a1, actual =fbf28fd7d393d0a1
[115000] SCOREBOARD MATCH: wstrb size check expected = 3, actual =3
[115000] SCOREBOARD MATCH: wstrb passthrough beat=0 expected = 9c, actual =9c
[115000] SCOREBOARD MATCH: wstrb passthrough beat=1 expected = 57, actual =57
[115000] SCOREBOARD MATCH: wstrb passthrough beat=2 expected = 39, actual =39
[115000] SCOREBOARD MATCH: bresp passthrough expected = 0, actual =0
[115000] SCOREBOARD MATCH: response routed to correct master (write) expected = 1, actual =1
[115000] [SCOREBOARD-M] mst_id=1 s_id=0 awaddr=f4f6e48 awid=110 awlen=2 awsize=6 awburst=0 wdata=[cdbfcd62f10ecfb6 e3389f8ea26c8af fbf28fd7d393d0a1 ] wstrb=[9c 57 39 ] bresp=0 bid=110
[115000] [SCOREBOARD-S] mst_id=1 s_id=0 awaddr=f4f6e48 awid=110 awlen=2 awsize=6 awburst=0 wdata=[cdbfcd62f10ecfb6 e3389f8ea26c8af fbf28fd7d393d0a1 ] wstrb=[9c 57 39 ] bresp=0 bid=10110
[115000] SCOREBOARD: Transaction 2 received. pass=30 fail=0
[115000] ALL PASS. Total transactions: 2
[125000] MASTER 0 W_VALID_RDY Handshake beat=5 wlast=0
[125000] MASTER 1 W_VALID_RDY Handshake beat=1 wlast=0
[125000] S1 MEMORY WRITE beat=0 addr=1039bb50 data=e4c8ef0ec77c7193 id=1f
[125000] AXI S0_WVALID_RDY HANDSHAKE
[125000] S0 MEMORY WRITE beat=1 addr=081d1868 data=a5087eded8b8ea4a id=07
[135000] AXI S0_WVALID_RDY HANDSHAKE
[135000] S0 MEMORY WRITE beat=2 addr=081d1878 data=2cda1693c08ec876 id=07
[135000] S1 MEMORY WRITE beat=1 addr=1039bb51 data=8bc49614e4653309 id=1f
[135000] MASTER 1 W_VALID_RDY Handshake beat=2 wlast=0
[135000] MASTER 0 W_VALID_RDY Handshake beat=6 wlast=0
[145000] MASTER 0 W_VALID_RDY Handshake beat=7 wlast=0
[145000] MASTER 1 W_VALID_RDY Handshake beat=3 wlast=0
[145000] S1 MEMORY WRITE beat=2 addr=1039bb52 data=e96371229ad02678 id=1f
[145000] AXI S0_WVALID_RDY HANDSHAKE
[145000] S0 MEMORY WRITE beat=3 addr=081d1888 data=d093a44a95eba7a3 id=07
[155000] AXI S0_WVALID_RDY HANDSHAKE
[155000] S0 MEMORY WRITE beat=4 addr=081d1898 data=eea491ededdf72ff id=07
[155000] S1 MEMORY WRITE beat=3 addr=1039bb53 data=e24c980be04e90ad id=1f
[155000] MASTER 1 W_VALID_RDY Handshake beat=4 wlast=1
[155000] MASTER 0 W_VALID_RDY Handshake beat=8 wlast=0
[165000] MASTER 0 W_VALID_RDY Handshake beat=9 wlast=0
[165000] S1 MEMORY WRITE beat=4 addr=1039bb54 data=c4b3c3b6ce2c6031 id=1f
[165000] AXI S0_WVALID_RDY HANDSHAKE
[165000] S0 MEMORY WRITE beat=5 addr=081d18a8 data=2e6e3b76f59c2328 id=07
[175000] AXI S0_WVALID_RDY HANDSHAKE
[175000] S0 MEMORY WRITE beat=6 addr=081d18b8 data=0b87cacc9b7ea880 id=07
[175000] SLAVE1 sent B resp, id=15
[175000] [SLAVE MONITOR] mst_id=1 s_id=1 awaddr=1039bb50 awid=1111 awlen=4 awsize=0 awburst=2 wdata=[e4c8ef0ec77c7193 8bc49614e4653309 e96371229ad02678 e24c980be04e90ad c4b3c3b6ce2c6031 ] wstrb=[20 a9 d9 cd b5 ] bresp=0 bid=11111
[175000] MASTER 0 W_VALID_RDY Handshake beat=10 wlast=0
[185000] MASTER 0 W_VALID_RDY Handshake beat=11 wlast=0
[185000] AXI S0_WVALID_RDY HANDSHAKE
[185000] S0 MEMORY WRITE beat=7 addr=081d18c8 data=095e1b80ff01dfc0 id=07
[195000] AXI S0_WVALID_RDY HANDSHAKE
[195000] S0 MEMORY WRITE beat=8 addr=081d18d8 data=f49e02e8fa2c5cb9 id=07
[195000] MASTER 1 B_VALID_RDY Handshake
[195000] [MASTER MONITOR] mst_id=1 s_id=1 awaddr=1039bb50 awid=1111 awlen=4 awsize=0 awburst=2 wdata=[e4c8ef0ec77c7193 8bc49614e4653309 e96371229ad02678 e24c980be04e90ad c4b3c3b6ce2c6031 ] wstrb=[20 a9 d9 cd b5 ] bresp=0 bid=1111
[195000] MASTER 0 W_VALID_RDY Handshake beat=12 wlast=0
[195000] MASTER 1 RECEIVED BRESP. BRESP=0
[195000] [MASTER DRIVER] mst_id=1 s_id=0 awaddr=1039bb50 awid=1111 awlen=4 awsize=0 awburst=2 wdata=[e4c8ef0ec77c7193 8bc49614e4653309 e96371229ad02678 e24c980be04e90ad c4b3c3b6ce2c6031 ] wstrb=[20 a9 d9 cd b5 ] bresp=0 bid=1111
[195000] SCOREBOARD MATCH: decode_err expected = 0, actual =0
[195000] SCOREBOARD MATCH: slave_id expected = 1, actual =1
[195000] SCOREBOARD MATCH: awaddr passthrough expected = 1039bb50, actual =1039bb50
[195000] SCOREBOARD MATCH: awlen passthrough expected = 4, actual =4
[195000] SCOREBOARD MATCH: awsize passthrough expected = 0, actual =0
[195000] SCOREBOARD MATCH: awburst passthrough expected = 2, actual =2
[195000] SCOREBOARD MATCH: wdata size check expected = 5, actual =5
[195000] SCOREBOARD MATCH: wdata passthrough beat=0 expected = e4c8ef0ec77c7193, actual =e4c8ef0ec77c7193
[195000] SCOREBOARD MATCH: wdata passthrough beat=1 expected = 8bc49614e4653309, actual =8bc49614e4653309
[195000] SCOREBOARD MATCH: wdata passthrough beat=2 expected = e96371229ad02678, actual =e96371229ad02678
[195000] SCOREBOARD MATCH: wdata passthrough beat=3 expected = e24c980be04e90ad, actual =e24c980be04e90ad
[195000] SCOREBOARD MATCH: wdata passthrough beat=4 expected = c4b3c3b6ce2c6031, actual =c4b3c3b6ce2c6031
[195000] SCOREBOARD MATCH: wstrb size check expected = 5, actual =5
[195000] SCOREBOARD MATCH: wstrb passthrough beat=0 expected = 20, actual =20
[195000] SCOREBOARD MATCH: wstrb passthrough beat=1 expected = a9, actual =a9
[195000] SCOREBOARD MATCH: wstrb passthrough beat=2 expected = d9, actual =d9
[195000] SCOREBOARD MATCH: wstrb passthrough beat=3 expected = cd, actual =cd
[195000] SCOREBOARD MATCH: wstrb passthrough beat=4 expected = b5, actual =b5
[195000] SCOREBOARD MATCH: bresp passthrough expected = 0, actual =0
[195000] SCOREBOARD MATCH: response routed to correct master (write) expected = 1, actual =1
[195000] [SCOREBOARD-M] mst_id=1 s_id=1 awaddr=1039bb50 awid=1111 awlen=4 awsize=0 awburst=2 wdata=[e4c8ef0ec77c7193 8bc49614e4653309 e96371229ad02678 e24c980be04e90ad c4b3c3b6ce2c6031 ] wstrb=[20 a9 d9 cd b5 ] bresp=0 bid=1111
[195000] [SCOREBOARD-S] mst_id=1 s_id=1 awaddr=1039bb50 awid=1111 awlen=4 awsize=0 awburst=2 wdata=[e4c8ef0ec77c7193 8bc49614e4653309 e96371229ad02678 e24c980be04e90ad c4b3c3b6ce2c6031 ] wstrb=[20 a9 d9 cd b5 ] bresp=0 bid=11111
[195000] SCOREBOARD: Transaction 3 received. pass=50 fail=0
[195000] ALL PASS. Total transactions: 3
[205000] MASTER 0 W_VALID_RDY Handshake beat=13 wlast=0
[205000] AXI S0_WVALID_RDY HANDSHAKE
[205000] S0 MEMORY WRITE beat=9 addr=081d18e8 data=15ab053a37cc56f6 id=07
[215000] AXI S0_WVALID_RDY HANDSHAKE
[215000] S0 MEMORY WRITE beat=10 addr=081d18f8 data=36ce36b68025cdb4 id=07
[215000] MASTER 0 W_VALID_RDY Handshake beat=14 wlast=0
[225000] MASTER 0 W_VALID_RDY Handshake beat=15 wlast=0
[225000] AXI S0_WVALID_RDY HANDSHAKE
[225000] S0 MEMORY WRITE beat=11 addr=081d1908 data=fa522a6e1f0920ba id=07
[235000] AXI S0_WVALID_RDY HANDSHAKE
[235000] S0 MEMORY WRITE beat=12 addr=081d1918 data=d6d577b0ab6c399e id=07
[235000] MASTER 0 W_VALID_RDY Handshake beat=16 wlast=0
[245000] MASTER 0 W_VALID_RDY Handshake beat=17 wlast=0
[245000] AXI S0_WVALID_RDY HANDSHAKE
[245000] S0 MEMORY WRITE beat=13 addr=081d1928 data=2b9207530ffd2fa8 id=07
[255000] AXI S0_WVALID_RDY HANDSHAKE
[255000] S0 MEMORY WRITE beat=14 addr=081d1938 data=2f0650620da3ae66 id=07
[255000] MASTER 0 W_VALID_RDY Handshake beat=18 wlast=0
[265000] MASTER 0 W_VALID_RDY Handshake beat=19 wlast=0
[265000] AXI S0_WVALID_RDY HANDSHAKE
[265000] S0 MEMORY WRITE beat=15 addr=081d1948 data=b90fe80425e431c1 id=07
[275000] AXI S0_WVALID_RDY HANDSHAKE
[275000] S0 MEMORY WRITE beat=16 addr=081d1958 data=35e1616905dbc812 id=07
[275000] MASTER 0 W_VALID_RDY Handshake beat=20 wlast=0
[285000] MASTER 0 W_VALID_RDY Handshake beat=21 wlast=0
[285000] AXI S0_WVALID_RDY HANDSHAKE
[285000] S0 MEMORY WRITE beat=17 addr=081d1968 data=137f7678e4a1ef57 id=07
[295000] AXI S0_WVALID_RDY HANDSHAKE
[295000] S0 MEMORY WRITE beat=18 addr=081d1978 data=8a862118e4e7b1cb id=07
[295000] MASTER 0 W_VALID_RDY Handshake beat=22 wlast=0
[305000] MASTER 0 W_VALID_RDY Handshake beat=23 wlast=0
[305000] AXI S0_WVALID_RDY HANDSHAKE
[305000] S0 MEMORY WRITE beat=19 addr=081d1988 data=eac379ddcc8f5e7c id=07
[315000] AXI S0_WVALID_RDY HANDSHAKE
[315000] S0 MEMORY WRITE beat=20 addr=081d1998 data=31314dd4c0678281 id=07
[315000] MASTER 0 W_VALID_RDY Handshake beat=24 wlast=0
[325000] MASTER 0 W_VALID_RDY Handshake beat=25 wlast=0
[325000] AXI S0_WVALID_RDY HANDSHAKE
[325000] S0 MEMORY WRITE beat=21 addr=081d19a8 data=a54f344cfe42f055 id=07
[335000] AXI S0_WVALID_RDY HANDSHAKE
[335000] S0 MEMORY WRITE beat=22 addr=081d19b8 data=cad24ed1bbb76eec id=07
[335000] MASTER 0 W_VALID_RDY Handshake beat=26 wlast=0
[345000] MASTER 0 W_VALID_RDY Handshake beat=27 wlast=0
[345000] AXI S0_WVALID_RDY HANDSHAKE
[345000] S0 MEMORY WRITE beat=23 addr=081d19c8 data=fc1ef16e9012ae29 id=07
[355000] AXI S0_WVALID_RDY HANDSHAKE
[355000] S0 MEMORY WRITE beat=24 addr=081d19d8 data=8e559e7efc039ca5 id=07
[355000] MASTER 0 W_VALID_RDY Handshake beat=28 wlast=0
[365000] MASTER 0 W_VALID_RDY Handshake beat=29 wlast=0
[365000] AXI S0_WVALID_RDY HANDSHAKE
[365000] S0 MEMORY WRITE beat=25 addr=081d19e8 data=37bb0b92a16e25ba id=07
[375000] AXI S0_WVALID_RDY HANDSHAKE
[375000] S0 MEMORY WRITE beat=26 addr=081d19f8 data=3180d3e4d927ed50 id=07
[375000] MASTER 0 W_VALID_RDY Handshake beat=30 wlast=0
[385000] MASTER 0 W_VALID_RDY Handshake beat=31 wlast=0
[385000] AXI S0_WVALID_RDY HANDSHAKE
[385000] S0 MEMORY WRITE beat=27 addr=081d1a08 data=d52b89f533d9fd00 id=07
[395000] AXI S0_WVALID_RDY HANDSHAKE
[395000] S0 MEMORY WRITE beat=28 addr=081d1a18 data=d54822babfd67262 id=07
[395000] MASTER 0 W_VALID_RDY Handshake beat=32 wlast=0
[405000] MASTER 0 W_VALID_RDY Handshake beat=33 wlast=0
[405000] AXI S0_WVALID_RDY HANDSHAKE
[405000] S0 MEMORY WRITE beat=29 addr=081d1a28 data=98fe5fb28ce69587 id=07
[415000] AXI S0_WVALID_RDY HANDSHAKE
[415000] S0 MEMORY WRITE beat=30 addr=081d1a38 data=c0c0928786c8f69e id=07
[415000] MASTER 0 W_VALID_RDY Handshake beat=34 wlast=0
[425000] MASTER 0 W_VALID_RDY Handshake beat=35 wlast=0
[425000] AXI S0_WVALID_RDY HANDSHAKE
[425000] S0 MEMORY WRITE beat=31 addr=081d1a48 data=c69f6901ee29e9a8 id=07
[435000] AXI S0_WVALID_RDY HANDSHAKE
[435000] S0 MEMORY WRITE beat=32 addr=081d1a58 data=fb107f2f1608b542 id=07
[435000] MASTER 0 W_VALID_RDY Handshake beat=36 wlast=0
[445000] MASTER 0 W_VALID_RDY Handshake beat=37 wlast=0
[445000] AXI S0_WVALID_RDY HANDSHAKE
[445000] S0 MEMORY WRITE beat=33 addr=081d1a68 data=9cd1abe0df9dc8b3 id=07
[455000] AXI S0_WVALID_RDY HANDSHAKE
[455000] S0 MEMORY WRITE beat=34 addr=081d1a78 data=cdc7b25b3bd111b7 id=07
[455000] MASTER 0 W_VALID_RDY Handshake beat=38 wlast=0
[465000] MASTER 0 W_VALID_RDY Handshake beat=39 wlast=0
[465000] AXI S0_WVALID_RDY HANDSHAKE
[465000] S0 MEMORY WRITE beat=35 addr=081d1a88 data=d1d9c6f9e37114e1 id=07
[475000] AXI S0_WVALID_RDY HANDSHAKE
[475000] S0 MEMORY WRITE beat=36 addr=081d1a98 data=c30edd95c8d8318b id=07
[475000] MASTER 0 W_VALID_RDY Handshake beat=40 wlast=0
[485000] MASTER 0 W_VALID_RDY Handshake beat=41 wlast=0
[485000] AXI S0_WVALID_RDY HANDSHAKE
[485000] S0 MEMORY WRITE beat=37 addr=081d1aa8 data=04a94342eeab72d9 id=07
[495000] AXI S0_WVALID_RDY HANDSHAKE
[495000] S0 MEMORY WRITE beat=38 addr=081d1ab8 data=d21c87bb90d68ff0 id=07
[495000] MASTER 0 W_VALID_RDY Handshake beat=42 wlast=0
[505000] MASTER 0 W_VALID_RDY Handshake beat=43 wlast=0
[505000] AXI S0_WVALID_RDY HANDSHAKE
[505000] S0 MEMORY WRITE beat=39 addr=081d1ac8 data=d9aec17bd6830a3b id=07
[515000] AXI S0_WVALID_RDY HANDSHAKE
[515000] S0 MEMORY WRITE beat=40 addr=081d1ad8 data=c52e7d14152b6550 id=07
[515000] MASTER 0 W_VALID_RDY Handshake beat=44 wlast=0
[525000] MASTER 0 W_VALID_RDY Handshake beat=45 wlast=0
[525000] AXI S0_WVALID_RDY HANDSHAKE
[525000] S0 MEMORY WRITE beat=41 addr=081d1ae8 data=a601f540de5804bd id=07
[535000] AXI S0_WVALID_RDY HANDSHAKE
[535000] S0 MEMORY WRITE beat=42 addr=081d1af8 data=b4db0ef8974b04cf id=07
[535000] MASTER 0 W_VALID_RDY Handshake beat=46 wlast=0
[545000] MASTER 0 W_VALID_RDY Handshake beat=47 wlast=0
[545000] AXI S0_WVALID_RDY HANDSHAKE
[545000] S0 MEMORY WRITE beat=43 addr=081d1b08 data=ac766a1fffb0b6bc id=07
[555000] AXI S0_WVALID_RDY HANDSHAKE
[555000] S0 MEMORY WRITE beat=44 addr=081d1b18 data=de08bb79fa098c0d id=07
[555000] MASTER 0 W_VALID_RDY Handshake beat=48 wlast=0
[565000] MASTER 0 W_VALID_RDY Handshake beat=49 wlast=0
[565000] AXI S0_WVALID_RDY HANDSHAKE
[565000] S0 MEMORY WRITE beat=45 addr=081d1b28 data=915490dcd2785f60 id=07
[575000] AXI S0_WVALID_RDY HANDSHAKE
[575000] S0 MEMORY WRITE beat=46 addr=081d1b38 data=d229161c12e3ca72 id=07
[575000] MASTER 0 W_VALID_RDY Handshake beat=50 wlast=0
[585000] MASTER 0 W_VALID_RDY Handshake beat=51 wlast=0
[585000] AXI S0_WVALID_RDY HANDSHAKE
[585000] S0 MEMORY WRITE beat=47 addr=081d1b48 data=0ced567f3dcafafc id=07
[595000] AXI S0_WVALID_RDY HANDSHAKE
[595000] S0 MEMORY WRITE beat=48 addr=081d1b58 data=10435a5cb031d195 id=07
[595000] MASTER 0 W_VALID_RDY Handshake beat=52 wlast=0
[605000] MASTER 0 W_VALID_RDY Handshake beat=53 wlast=0
[605000] AXI S0_WVALID_RDY HANDSHAKE
[605000] S0 MEMORY WRITE beat=49 addr=081d1b68 data=c3159c079e41e75b id=07
[615000] AXI S0_WVALID_RDY HANDSHAKE
[615000] S0 MEMORY WRITE beat=50 addr=081d1b78 data=dc0ce257e26c7078 id=07
[615000] MASTER 0 W_VALID_RDY Handshake beat=54 wlast=0
[625000] MASTER 0 W_VALID_RDY Handshake beat=55 wlast=0
[625000] AXI S0_WVALID_RDY HANDSHAKE
[625000] S0 MEMORY WRITE beat=51 addr=081d1b88 data=929e420dd002f286 id=07
[635000] AXI S0_WVALID_RDY HANDSHAKE
[635000] S0 MEMORY WRITE beat=52 addr=081d1b98 data=ee44d9e2ec503cb3 id=07
[635000] MASTER 0 W_VALID_RDY Handshake beat=56 wlast=0
[645000] MASTER 0 W_VALID_RDY Handshake beat=57 wlast=0
[645000] AXI S0_WVALID_RDY HANDSHAKE
[645000] S0 MEMORY WRITE beat=53 addr=081d1ba8 data=cebcad2bd5b3de15 id=07
[655000] AXI S0_WVALID_RDY HANDSHAKE
[655000] S0 MEMORY WRITE beat=54 addr=081d1bb8 data=a5b6d09bca51bc39 id=07
[655000] MASTER 0 W_VALID_RDY Handshake beat=58 wlast=0
[665000] MASTER 0 W_VALID_RDY Handshake beat=59 wlast=0
[665000] AXI S0_WVALID_RDY HANDSHAKE
[665000] S0 MEMORY WRITE beat=55 addr=081d1bc8 data=36a1f8ede15aef39 id=07
[675000] AXI S0_WVALID_RDY HANDSHAKE
[675000] S0 MEMORY WRITE beat=56 addr=081d1bd8 data=370ecd4e93fbaa7d id=07
[675000] MASTER 0 W_VALID_RDY Handshake beat=60 wlast=0
[685000] MASTER 0 W_VALID_RDY Handshake beat=61 wlast=0
[685000] AXI S0_WVALID_RDY HANDSHAKE
[685000] S0 MEMORY WRITE beat=57 addr=081d1be8 data=de4d66b7855ea618 id=07
[695000] AXI S0_WVALID_RDY HANDSHAKE
[695000] S0 MEMORY WRITE beat=58 addr=081d1bf8 data=e6b99551dcc59de9 id=07
[695000] MASTER 0 W_VALID_RDY Handshake beat=62 wlast=0
[705000] MASTER 0 W_VALID_RDY Handshake beat=63 wlast=0
[705000] AXI S0_WVALID_RDY HANDSHAKE
[705000] S0 MEMORY WRITE beat=59 addr=081d1c08 data=f0c1486714ef5fa4 id=07
[715000] AXI S0_WVALID_RDY HANDSHAKE
[715000] S0 MEMORY WRITE beat=60 addr=081d1c18 data=9a4e05bc9dc8629f id=07
[715000] MASTER 0 W_VALID_RDY Handshake beat=64 wlast=0
[725000] MASTER 0 W_VALID_RDY Handshake beat=65 wlast=0
[725000] AXI S0_WVALID_RDY HANDSHAKE
[725000] S0 MEMORY WRITE beat=61 addr=081d1c28 data=fa8e0089cf0eaf1e id=07
[735000] AXI S0_WVALID_RDY HANDSHAKE
[735000] S0 MEMORY WRITE beat=62 addr=081d1c38 data=e3fe0ec201079b0e id=07
[735000] MASTER 0 W_VALID_RDY Handshake beat=66 wlast=0
[745000] MASTER 0 W_VALID_RDY Handshake beat=67 wlast=0
[745000] AXI S0_WVALID_RDY HANDSHAKE
[745000] S0 MEMORY WRITE beat=63 addr=081d1c48 data=9ecffdadeb4f48f0 id=07
[755000] AXI S0_WVALID_RDY HANDSHAKE
[755000] S0 MEMORY WRITE beat=64 addr=081d1c58 data=3a5df80efe4c147e id=07
[755000] MASTER 0 W_VALID_RDY Handshake beat=68 wlast=0
[765000] MASTER 0 W_VALID_RDY Handshake beat=69 wlast=0
[765000] AXI S0_WVALID_RDY HANDSHAKE
[765000] S0 MEMORY WRITE beat=65 addr=081d1c68 data=ff53af8c995dfe36 id=07
[775000] AXI S0_WVALID_RDY HANDSHAKE
[775000] S0 MEMORY WRITE beat=66 addr=081d1c78 data=84ad47261e5c06d0 id=07
[775000] MASTER 0 W_VALID_RDY Handshake beat=70 wlast=0
[785000] MASTER 0 W_VALID_RDY Handshake beat=71 wlast=0
[785000] AXI S0_WVALID_RDY HANDSHAKE
[785000] S0 MEMORY WRITE beat=67 addr=081d1c88 data=9ca81b4e1e23ad3a id=07
[795000] AXI S0_WVALID_RDY HANDSHAKE
[795000] S0 MEMORY WRITE beat=68 addr=081d1c98 data=b781ab70bf0b3f34 id=07
[795000] MASTER 0 W_VALID_RDY Handshake beat=72 wlast=0
[805000] MASTER 0 W_VALID_RDY Handshake beat=73 wlast=0
[805000] AXI S0_WVALID_RDY HANDSHAKE
[805000] S0 MEMORY WRITE beat=69 addr=081d1ca8 data=dd6746041bfbcadb id=07
[815000] AXI S0_WVALID_RDY HANDSHAKE
[815000] S0 MEMORY WRITE beat=70 addr=081d1cb8 data=3a1f78153c2ef297 id=07
[815000] MASTER 0 W_VALID_RDY Handshake beat=74 wlast=0
[825000] MASTER 0 W_VALID_RDY Handshake beat=75 wlast=0
[825000] AXI S0_WVALID_RDY HANDSHAKE
[825000] S0 MEMORY WRITE beat=71 addr=081d1cc8 data=fb3a31cbfa0f6153 id=07
[835000] AXI S0_WVALID_RDY HANDSHAKE
[835000] S0 MEMORY WRITE beat=72 addr=081d1cd8 data=160b2c2ef1a12385 id=07
[835000] MASTER 0 W_VALID_RDY Handshake beat=76 wlast=0
[845000] MASTER 0 W_VALID_RDY Handshake beat=77 wlast=0
[845000] AXI S0_WVALID_RDY HANDSHAKE
[845000] S0 MEMORY WRITE beat=73 addr=081d1ce8 data=add0161cd8a177d0 id=07
[855000] AXI S0_WVALID_RDY HANDSHAKE
[855000] S0 MEMORY WRITE beat=74 addr=081d1cf8 data=d2b0d923d02aa443 id=07
[855000] MASTER 0 W_VALID_RDY Handshake beat=78 wlast=0
[865000] MASTER 0 W_VALID_RDY Handshake beat=79 wlast=0
[865000] AXI S0_WVALID_RDY HANDSHAKE
[865000] S0 MEMORY WRITE beat=75 addr=081d1d08 data=c1cbc7c8290a47e8 id=07
[875000] AXI S0_WVALID_RDY HANDSHAKE
[875000] S0 MEMORY WRITE beat=76 addr=081d1d18 data=01abbfb8e8bc0551 id=07
[875000] MASTER 0 W_VALID_RDY Handshake beat=80 wlast=0
[885000] MASTER 0 W_VALID_RDY Handshake beat=81 wlast=0
[885000] AXI S0_WVALID_RDY HANDSHAKE
[885000] S0 MEMORY WRITE beat=77 addr=081d1d28 data=38e6a994ef9bdde5 id=07
[895000] AXI S0_WVALID_RDY HANDSHAKE
[895000] S0 MEMORY WRITE beat=78 addr=081d1d38 data=18a625cdd45c98db id=07
[895000] MASTER 0 W_VALID_RDY Handshake beat=82 wlast=0
[905000] MASTER 0 W_VALID_RDY Handshake beat=83 wlast=0
[905000] AXI S0_WVALID_RDY HANDSHAKE
[905000] S0 MEMORY WRITE beat=79 addr=081d1d48 data=3d189e2cfab2715c id=07
[915000] AXI S0_WVALID_RDY HANDSHAKE
[915000] S0 MEMORY WRITE beat=80 addr=081d1d58 data=ea4e4f411a51e585 id=07
[915000] MASTER 0 W_VALID_RDY Handshake beat=84 wlast=0
[925000] MASTER 0 W_VALID_RDY Handshake beat=85 wlast=0
[925000] AXI S0_WVALID_RDY HANDSHAKE
[925000] S0 MEMORY WRITE beat=81 addr=081d1d68 data=eeae7e60f5ff47c0 id=07
[935000] AXI S0_WVALID_RDY HANDSHAKE
[935000] S0 MEMORY WRITE beat=82 addr=081d1d78 data=f0b1b91c82f4750e id=07
[935000] MASTER 0 W_VALID_RDY Handshake beat=86 wlast=0
[945000] MASTER 0 W_VALID_RDY Handshake beat=87 wlast=0
[945000] AXI S0_WVALID_RDY HANDSHAKE
[945000] S0 MEMORY WRITE beat=83 addr=081d1d88 data=9d465a932bc71c8c id=07
[955000] AXI S0_WVALID_RDY HANDSHAKE
[955000] S0 MEMORY WRITE beat=84 addr=081d1d98 data=21c6644cdb00085e id=07
[955000] MASTER 0 W_VALID_RDY Handshake beat=88 wlast=0
[965000] MASTER 0 W_VALID_RDY Handshake beat=89 wlast=0
[965000] AXI S0_WVALID_RDY HANDSHAKE
[965000] S0 MEMORY WRITE beat=85 addr=081d1da8 data=ddf47d6c8bf4d8f3 id=07
[975000] AXI S0_WVALID_RDY HANDSHAKE
[975000] S0 MEMORY WRITE beat=86 addr=081d1db8 data=b7bbf57f92781d68 id=07
[975000] MASTER 0 W_VALID_RDY Handshake beat=90 wlast=0
[985000] MASTER 0 W_VALID_RDY Handshake beat=91 wlast=0
[985000] AXI S0_WVALID_RDY HANDSHAKE
[985000] S0 MEMORY WRITE beat=87 addr=081d1dc8 data=ed7825c6fb3ad800 id=07
[995000] AXI S0_WVALID_RDY HANDSHAKE
[995000] S0 MEMORY WRITE beat=88 addr=081d1dd8 data=872fb0f3d98259cb id=07
[995000] MASTER 0 W_VALID_RDY Handshake beat=92 wlast=0
[1005000] MASTER 0 W_VALID_RDY Handshake beat=93 wlast=0
[1005000] AXI S0_WVALID_RDY HANDSHAKE
[1005000] S0 MEMORY WRITE beat=89 addr=081d1de8 data=ebfa7734cb6ca333 id=07
[1015000] AXI S0_WVALID_RDY HANDSHAKE
[1015000] S0 MEMORY WRITE beat=90 addr=081d1df8 data=c6a77b333eeba673 id=07
[1015000] MASTER 0 W_VALID_RDY Handshake beat=94 wlast=0
[1025000] MASTER 0 W_VALID_RDY Handshake beat=95 wlast=0
[1025000] AXI S0_WVALID_RDY HANDSHAKE
[1025000] S0 MEMORY WRITE beat=91 addr=081d1e08 data=986e003ed9729cfa id=07
[1035000] AXI S0_WVALID_RDY HANDSHAKE
[1035000] S0 MEMORY WRITE beat=92 addr=081d1e18 data=a4df402dcdd72c26 id=07
[1035000] MASTER 0 W_VALID_RDY Handshake beat=96 wlast=0
[1045000] MASTER 0 W_VALID_RDY Handshake beat=97 wlast=0
[1045000] AXI S0_WVALID_RDY HANDSHAKE
[1045000] S0 MEMORY WRITE beat=93 addr=081d1e28 data=8cc2d29984687772 id=07
[1055000] AXI S0_WVALID_RDY HANDSHAKE
[1055000] S0 MEMORY WRITE beat=94 addr=081d1e38 data=dddb146deb86bb60 id=07
[1055000] MASTER 0 W_VALID_RDY Handshake beat=98 wlast=0
[1065000] MASTER 0 W_VALID_RDY Handshake beat=99 wlast=0
[1065000] AXI S0_WVALID_RDY HANDSHAKE
[1065000] S0 MEMORY WRITE beat=95 addr=081d1e48 data=395de7872530d2d8 id=07
[1075000] AXI S0_WVALID_RDY HANDSHAKE
[1075000] S0 MEMORY WRITE beat=96 addr=081d1e58 data=a9994a4a82ba549a id=07
[1075000] MASTER 0 W_VALID_RDY Handshake beat=100 wlast=0
[1085000] MASTER 0 W_VALID_RDY Handshake beat=101 wlast=0
[1085000] AXI S0_WVALID_RDY HANDSHAKE
[1085000] S0 MEMORY WRITE beat=97 addr=081d1e68 data=ee410ffbc620ba20 id=07
[1095000] AXI S0_WVALID_RDY HANDSHAKE
[1095000] S0 MEMORY WRITE beat=98 addr=081d1e78 data=eb518cf887745eb7 id=07
[1095000] MASTER 0 W_VALID_RDY Handshake beat=102 wlast=0
[1105000] MASTER 0 W_VALID_RDY Handshake beat=103 wlast=0
[1105000] AXI S0_WVALID_RDY HANDSHAKE
[1105000] S0 MEMORY WRITE beat=99 addr=081d1e88 data=0a2eb352279ef782 id=07
[1115000] AXI S0_WVALID_RDY HANDSHAKE
[1115000] S0 MEMORY WRITE beat=100 addr=081d1e98 data=edbfb1a214ead743 id=07
[1115000] MASTER 0 W_VALID_RDY Handshake beat=104 wlast=0
[1125000] MASTER 0 W_VALID_RDY Handshake beat=105 wlast=0
[1125000] AXI S0_WVALID_RDY HANDSHAKE
[1125000] S0 MEMORY WRITE beat=101 addr=081d1ea8 data=9c5f35faf86fc34d id=07
[1135000] AXI S0_WVALID_RDY HANDSHAKE
[1135000] S0 MEMORY WRITE beat=102 addr=081d1eb8 data=200ebacfd9113e9b id=07
[1135000] MASTER 0 W_VALID_RDY Handshake beat=106 wlast=0
[1145000] MASTER 0 W_VALID_RDY Handshake beat=107 wlast=0
[1145000] AXI S0_WVALID_RDY HANDSHAKE
[1145000] S0 MEMORY WRITE beat=103 addr=081d1ec8 data=edfc15dea68de94c id=07
[1155000] AXI S0_WVALID_RDY HANDSHAKE
[1155000] S0 MEMORY WRITE beat=104 addr=081d1ed8 data=9efdac998dce6c71 id=07
[1155000] MASTER 0 W_VALID_RDY Handshake beat=108 wlast=0
[1165000] MASTER 0 W_VALID_RDY Handshake beat=109 wlast=0
[1165000] AXI S0_WVALID_RDY HANDSHAKE
[1165000] S0 MEMORY WRITE beat=105 addr=081d1ee8 data=e6dfab0c8a5b4bd8 id=07
[1175000] AXI S0_WVALID_RDY HANDSHAKE
[1175000] S0 MEMORY WRITE beat=106 addr=081d1ef8 data=30e93525bf0c6768 id=07
[1175000] MASTER 0 W_VALID_RDY Handshake beat=110 wlast=0
[1185000] MASTER 0 W_VALID_RDY Handshake beat=111 wlast=0
[1185000] AXI S0_WVALID_RDY HANDSHAKE
[1185000] S0 MEMORY WRITE beat=107 addr=081d1f08 data=ccdad3dad4dbc0ea id=07
[1195000] AXI S0_WVALID_RDY HANDSHAKE
[1195000] S0 MEMORY WRITE beat=108 addr=081d1f18 data=df370cc3cfe6e1be id=07
[1195000] MASTER 0 W_VALID_RDY Handshake beat=112 wlast=0
[1205000] MASTER 0 W_VALID_RDY Handshake beat=113 wlast=0
[1205000] AXI S0_WVALID_RDY HANDSHAKE
[1205000] S0 MEMORY WRITE beat=109 addr=081d1f28 data=0ef34927b3ba7ee6 id=07
[1215000] AXI S0_WVALID_RDY HANDSHAKE
[1215000] S0 MEMORY WRITE beat=110 addr=081d1f38 data=08963fd1102041e8 id=07
[1215000] MASTER 0 W_VALID_RDY Handshake beat=114 wlast=0
[1225000] MASTER 0 W_VALID_RDY Handshake beat=115 wlast=0
[1225000] AXI S0_WVALID_RDY HANDSHAKE
[1225000] S0 MEMORY WRITE beat=111 addr=081d1f48 data=e00723a6dbce1d01 id=07
[1235000] AXI S0_WVALID_RDY HANDSHAKE
[1235000] S0 MEMORY WRITE beat=112 addr=081d1f58 data=8f889be7e7cd4c94 id=07
[1235000] MASTER 0 W_VALID_RDY Handshake beat=116 wlast=0
[1245000] MASTER 0 W_VALID_RDY Handshake beat=117 wlast=0
[1245000] AXI S0_WVALID_RDY HANDSHAKE
[1245000] S0 MEMORY WRITE beat=113 addr=081d1f68 data=f7ed8e7ceefa6ccd id=07
[1255000] AXI S0_WVALID_RDY HANDSHAKE
[1255000] S0 MEMORY WRITE beat=114 addr=081d1f78 data=cac889ce981edbb8 id=07
[1255000] MASTER 0 W_VALID_RDY Handshake beat=118 wlast=0
[1265000] MASTER 0 W_VALID_RDY Handshake beat=119 wlast=0
[1265000] AXI S0_WVALID_RDY HANDSHAKE
[1265000] S0 MEMORY WRITE beat=115 addr=081d1f88 data=ffec284cd7f4b222 id=07
[1275000] AXI S0_WVALID_RDY HANDSHAKE
[1275000] S0 MEMORY WRITE beat=116 addr=081d1f98 data=c6ef1ef0da5125b6 id=07
[1275000] MASTER 0 W_VALID_RDY Handshake beat=120 wlast=0
[1285000] MASTER 0 W_VALID_RDY Handshake beat=121 wlast=0
[1285000] AXI S0_WVALID_RDY HANDSHAKE
[1285000] S0 MEMORY WRITE beat=117 addr=081d1fa8 data=f270016ef7d9b6c8 id=07
[1295000] AXI S0_WVALID_RDY HANDSHAKE
[1295000] S0 MEMORY WRITE beat=118 addr=081d1fb8 data=cfce68eb91b7a8be id=07
[1295000] MASTER 0 W_VALID_RDY Handshake beat=122 wlast=0
[1305000] MASTER 0 W_VALID_RDY Handshake beat=123 wlast=0
[1305000] AXI S0_WVALID_RDY HANDSHAKE
[1305000] S0 MEMORY WRITE beat=119 addr=081d1fc8 data=ec08ce74f25c29bb id=07
[1315000] AXI S0_WVALID_RDY HANDSHAKE
[1315000] S0 MEMORY WRITE beat=120 addr=081d1fd8 data=ea35e08316bd87db id=07
[1315000] MASTER 0 W_VALID_RDY Handshake beat=124 wlast=0
[1325000] MASTER 0 W_VALID_RDY Handshake beat=125 wlast=0
[1325000] AXI S0_WVALID_RDY HANDSHAKE
[1325000] S0 MEMORY WRITE beat=121 addr=081d1fe8 data=a8753099de78cfe3 id=07
[1335000] AXI S0_WVALID_RDY HANDSHAKE
[1335000] S0 MEMORY WRITE beat=122 addr=081d1ff8 data=d0d4f99eba04496e id=07
[1335000] MASTER 0 W_VALID_RDY Handshake beat=126 wlast=0
[1345000] MASTER 0 W_VALID_RDY Handshake beat=127 wlast=0
[1345000] AXI S0_WVALID_RDY HANDSHAKE
[1345000] S0 MEMORY WRITE beat=123 addr=081d2008 data=d0c1d149147dff0e id=07
[1355000] AXI S0_WVALID_RDY HANDSHAKE
[1355000] S0 MEMORY WRITE beat=124 addr=081d2018 data=f2f6cef1bb0ada21 id=07
[1355000] MASTER 0 W_VALID_RDY Handshake beat=128 wlast=0
[1365000] MASTER 0 W_VALID_RDY Handshake beat=129 wlast=0
[1365000] AXI S0_WVALID_RDY HANDSHAKE
[1365000] S0 MEMORY WRITE beat=125 addr=081d2028 data=f50f2390f93701e3 id=07
[1375000] AXI S0_WVALID_RDY HANDSHAKE
[1375000] S0 MEMORY WRITE beat=126 addr=081d2038 data=0db500f1c3cbc88f id=07
[1375000] MASTER 0 W_VALID_RDY Handshake beat=130 wlast=0
[1385000] MASTER 0 W_VALID_RDY Handshake beat=131 wlast=0
[1385000] AXI S0_WVALID_RDY HANDSHAKE
[1385000] S0 MEMORY WRITE beat=127 addr=081d2048 data=fed6a2b0c5d0f4d9 id=07
[1395000] AXI S0_WVALID_RDY HANDSHAKE
[1395000] S0 MEMORY WRITE beat=128 addr=081d2058 data=bf07f6bc00abcfe2 id=07
[1395000] MASTER 0 W_VALID_RDY Handshake beat=132 wlast=0
[1405000] MASTER 0 W_VALID_RDY Handshake beat=133 wlast=0
[1405000] AXI S0_WVALID_RDY HANDSHAKE
[1405000] S0 MEMORY WRITE beat=129 addr=081d2068 data=c4779871f3e5c640 id=07
[1415000] AXI S0_WVALID_RDY HANDSHAKE
[1415000] S0 MEMORY WRITE beat=130 addr=081d2078 data=39b6bb1accbcf7ad id=07
[1415000] MASTER 0 W_VALID_RDY Handshake beat=134 wlast=0
[1425000] MASTER 0 W_VALID_RDY Handshake beat=135 wlast=0
[1425000] AXI S0_WVALID_RDY HANDSHAKE
[1425000] S0 MEMORY WRITE beat=131 addr=081d2088 data=cd68c78fc34e3b21 id=07
[1435000] AXI S0_WVALID_RDY HANDSHAKE
[1435000] S0 MEMORY WRITE beat=132 addr=081d2098 data=37340162f8beb1d6 id=07
[1435000] MASTER 0 W_VALID_RDY Handshake beat=136 wlast=0
[1445000] MASTER 0 W_VALID_RDY Handshake beat=137 wlast=0
[1445000] AXI S0_WVALID_RDY HANDSHAKE
[1445000] S0 MEMORY WRITE beat=133 addr=081d20a8 data=c57ba98491e06000 id=07
[1455000] AXI S0_WVALID_RDY HANDSHAKE
[1455000] S0 MEMORY WRITE beat=134 addr=081d20b8 data=d52e9b22f0eabc7c id=07
[1455000] MASTER 0 W_VALID_RDY Handshake beat=138 wlast=0
[1465000] MASTER 0 W_VALID_RDY Handshake beat=139 wlast=0
[1465000] AXI S0_WVALID_RDY HANDSHAKE
[1465000] S0 MEMORY WRITE beat=135 addr=081d20c8 data=e9a96e5292e47113 id=07
[1475000] AXI S0_WVALID_RDY HANDSHAKE
[1475000] S0 MEMORY WRITE beat=136 addr=081d20d8 data=24c4d1140c629c84 id=07
[1475000] MASTER 0 W_VALID_RDY Handshake beat=140 wlast=0
[1485000] MASTER 0 W_VALID_RDY Handshake beat=141 wlast=0
[1485000] AXI S0_WVALID_RDY HANDSHAKE
[1485000] S0 MEMORY WRITE beat=137 addr=081d20e8 data=fd4d5900af2517d6 id=07
[1495000] AXI S0_WVALID_RDY HANDSHAKE
[1495000] S0 MEMORY WRITE beat=138 addr=081d20f8 data=c20988eaf9f36c36 id=07
[1495000] MASTER 0 W_VALID_RDY Handshake beat=142 wlast=0
[1505000] MASTER 0 W_VALID_RDY Handshake beat=143 wlast=0
[1505000] AXI S0_WVALID_RDY HANDSHAKE
[1505000] S0 MEMORY WRITE beat=139 addr=081d2108 data=065608bae6f6c752 id=07
[1515000] AXI S0_WVALID_RDY HANDSHAKE
[1515000] S0 MEMORY WRITE beat=140 addr=081d2118 data=161bdf29e6ce59fe id=07
[1515000] MASTER 0 W_VALID_RDY Handshake beat=144 wlast=0
[1525000] MASTER 0 W_VALID_RDY Handshake beat=145 wlast=0
[1525000] AXI S0_WVALID_RDY HANDSHAKE
[1525000] S0 MEMORY WRITE beat=141 addr=081d2128 data=e0c1c63403a361ba id=07
[1535000] AXI S0_WVALID_RDY HANDSHAKE
[1535000] S0 MEMORY WRITE beat=142 addr=081d2138 data=ea9a290cd8256813 id=07
[1535000] MASTER 0 W_VALID_RDY Handshake beat=146 wlast=0
[1545000] MASTER 0 W_VALID_RDY Handshake beat=147 wlast=0
[1545000] AXI S0_WVALID_RDY HANDSHAKE
[1545000] S0 MEMORY WRITE beat=143 addr=081d2148 data=3ef3c211e717ceee id=07
[1555000] AXI S0_WVALID_RDY HANDSHAKE
[1555000] S0 MEMORY WRITE beat=144 addr=081d2158 data=eabb30a880b60835 id=07
[1555000] MASTER 0 W_VALID_RDY Handshake beat=148 wlast=0
[1565000] MASTER 0 W_VALID_RDY Handshake beat=149 wlast=0
[1565000] AXI S0_WVALID_RDY HANDSHAKE
[1565000] S0 MEMORY WRITE beat=145 addr=081d2168 data=d8db70481fb58845 id=07
[1575000] AXI S0_WVALID_RDY HANDSHAKE
[1575000] S0 MEMORY WRITE beat=146 addr=081d2178 data=06cd5733d55559b4 id=07
[1575000] MASTER 0 W_VALID_RDY Handshake beat=150 wlast=0
[1585000] MASTER 0 W_VALID_RDY Handshake beat=151 wlast=0
[1585000] AXI S0_WVALID_RDY HANDSHAKE
[1585000] S0 MEMORY WRITE beat=147 addr=081d2188 data=d60b61ea97cf3259 id=07
[1595000] AXI S0_WVALID_RDY HANDSHAKE
[1595000] S0 MEMORY WRITE beat=148 addr=081d2198 data=b784ba9ef18887db id=07
[1595000] MASTER 0 W_VALID_RDY Handshake beat=152 wlast=0
[1605000] MASTER 0 W_VALID_RDY Handshake beat=153 wlast=0
[1605000] AXI S0_WVALID_RDY HANDSHAKE
[1605000] S0 MEMORY WRITE beat=149 addr=081d21a8 data=c6dde18faee6d232 id=07
[1615000] AXI S0_WVALID_RDY HANDSHAKE
[1615000] S0 MEMORY WRITE beat=150 addr=081d21b8 data=c6b6048cbe5211d1 id=07
[1615000] MASTER 0 W_VALID_RDY Handshake beat=154 wlast=0
[1625000] MASTER 0 W_VALID_RDY Handshake beat=155 wlast=0
[1625000] AXI S0_WVALID_RDY HANDSHAKE
[1625000] S0 MEMORY WRITE beat=151 addr=081d21c8 data=afda99ac9ce94379 id=07
[1635000] AXI S0_WVALID_RDY HANDSHAKE
[1635000] S0 MEMORY WRITE beat=152 addr=081d21d8 data=cbd015acfe3abf2a id=07
[1635000] MASTER 0 W_VALID_RDY Handshake beat=156 wlast=0
[1645000] MASTER 0 W_VALID_RDY Handshake beat=157 wlast=0
[1645000] AXI S0_WVALID_RDY HANDSHAKE
[1645000] S0 MEMORY WRITE beat=153 addr=081d21e8 data=3c8cd0fcf6b87b3c id=07
[1655000] AXI S0_WVALID_RDY HANDSHAKE
[1655000] S0 MEMORY WRITE beat=154 addr=081d21f8 data=93a1beb512861a38 id=07
[1655000] MASTER 0 W_VALID_RDY Handshake beat=158 wlast=0
[1665000] MASTER 0 W_VALID_RDY Handshake beat=159 wlast=0
[1665000] AXI S0_WVALID_RDY HANDSHAKE
[1665000] S0 MEMORY WRITE beat=155 addr=081d2208 data=90c0d962ec676aa8 id=07
[1675000] AXI S0_WVALID_RDY HANDSHAKE
[1675000] S0 MEMORY WRITE beat=156 addr=081d2218 data=e31fe5e4df71d461 id=07
[1675000] MASTER 0 W_VALID_RDY Handshake beat=160 wlast=0
[1685000] MASTER 0 W_VALID_RDY Handshake beat=161 wlast=0
[1685000] AXI S0_WVALID_RDY HANDSHAKE
[1685000] S0 MEMORY WRITE beat=157 addr=081d2228 data=f1f7ee99cd4daa5e id=07
[1695000] AXI S0_WVALID_RDY HANDSHAKE
[1695000] S0 MEMORY WRITE beat=158 addr=081d2238 data=39b51507f6c1a49a id=07
[1695000] MASTER 0 W_VALID_RDY Handshake beat=162 wlast=0
[1705000] MASTER 0 W_VALID_RDY Handshake beat=163 wlast=0
[1705000] AXI S0_WVALID_RDY HANDSHAKE
[1705000] S0 MEMORY WRITE beat=159 addr=081d2248 data=d63378fb02b8c7fc id=07
[1715000] AXI S0_WVALID_RDY HANDSHAKE
[1715000] S0 MEMORY WRITE beat=160 addr=081d2258 data=d006725a9cd4faeb id=07
[1715000] MASTER 0 W_VALID_RDY Handshake beat=164 wlast=0
[1725000] MASTER 0 W_VALID_RDY Handshake beat=165 wlast=0
[1725000] AXI S0_WVALID_RDY HANDSHAKE
[1725000] S0 MEMORY WRITE beat=161 addr=081d2268 data=93969f85c82b6795 id=07
[1735000] AXI S0_WVALID_RDY HANDSHAKE
[1735000] S0 MEMORY WRITE beat=162 addr=081d2278 data=cae42f9189bb8761 id=07
[1735000] MASTER 0 W_VALID_RDY Handshake beat=166 wlast=0
[1745000] MASTER 0 W_VALID_RDY Handshake beat=167 wlast=0
[1745000] AXI S0_WVALID_RDY HANDSHAKE
[1745000] S0 MEMORY WRITE beat=163 addr=081d2288 data=2690824de9ca1881 id=07
[1755000] AXI S0_WVALID_RDY HANDSHAKE
[1755000] S0 MEMORY WRITE beat=164 addr=081d2298 data=31f580169aeaa1eb id=07
[1755000] MASTER 0 W_VALID_RDY Handshake beat=168 wlast=0
[1765000] MASTER 0 W_VALID_RDY Handshake beat=169 wlast=0
[1765000] AXI S0_WVALID_RDY HANDSHAKE
[1765000] S0 MEMORY WRITE beat=165 addr=081d22a8 data=24a6294dba2721d2 id=07
[1775000] AXI S0_WVALID_RDY HANDSHAKE
[1775000] S0 MEMORY WRITE beat=166 addr=081d22b8 data=a3f13a53fcd9afa7 id=07
[1775000] MASTER 0 W_VALID_RDY Handshake beat=170 wlast=0
[1785000] MASTER 0 W_VALID_RDY Handshake beat=171 wlast=0
[1785000] AXI S0_WVALID_RDY HANDSHAKE
[1785000] S0 MEMORY WRITE beat=167 addr=081d22c8 data=97c45192cb36ab9a id=07
[1795000] AXI S0_WVALID_RDY HANDSHAKE
[1795000] S0 MEMORY WRITE beat=168 addr=081d22d8 data=855dcd6cd5e6ba69 id=07
[1795000] MASTER 0 W_VALID_RDY Handshake beat=172 wlast=0
[1805000] MASTER 0 W_VALID_RDY Handshake beat=173 wlast=0
[1805000] AXI S0_WVALID_RDY HANDSHAKE
[1805000] S0 MEMORY WRITE beat=169 addr=081d22e8 data=d2c06a10bc6a7adf id=07
[1815000] AXI S0_WVALID_RDY HANDSHAKE
[1815000] S0 MEMORY WRITE beat=170 addr=081d22f8 data=87a12679294f07c0 id=07
[1815000] MASTER 0 W_VALID_RDY Handshake beat=174 wlast=0
[1825000] MASTER 0 W_VALID_RDY Handshake beat=175 wlast=0
[1825000] AXI S0_WVALID_RDY HANDSHAKE
[1825000] S0 MEMORY WRITE beat=171 addr=081d2308 data=ff35c229ea84bba3 id=07
[1835000] AXI S0_WVALID_RDY HANDSHAKE
[1835000] S0 MEMORY WRITE beat=172 addr=081d2318 data=a6ef36820cfef3e6 id=07
[1835000] MASTER 0 W_VALID_RDY Handshake beat=176 wlast=0
[1845000] MASTER 0 W_VALID_RDY Handshake beat=177 wlast=0
[1845000] AXI S0_WVALID_RDY HANDSHAKE
[1845000] S0 MEMORY WRITE beat=173 addr=081d2328 data=364dfba6d1f62c3a id=07
[1855000] AXI S0_WVALID_RDY HANDSHAKE
[1855000] S0 MEMORY WRITE beat=174 addr=081d2338 data=3c7ae7dd2e905cfc id=07
[1855000] MASTER 0 W_VALID_RDY Handshake beat=178 wlast=0
[1865000] MASTER 0 W_VALID_RDY Handshake beat=179 wlast=0
[1865000] AXI S0_WVALID_RDY HANDSHAKE
[1865000] S0 MEMORY WRITE beat=175 addr=081d2348 data=3b8f50e2b583bdcf id=07
[1875000] AXI S0_WVALID_RDY HANDSHAKE
[1875000] S0 MEMORY WRITE beat=176 addr=081d2358 data=8779ea09e36a1e5f id=07
[1875000] MASTER 0 W_VALID_RDY Handshake beat=180 wlast=0
[1885000] MASTER 0 W_VALID_RDY Handshake beat=181 wlast=0
[1885000] AXI S0_WVALID_RDY HANDSHAKE
[1885000] S0 MEMORY WRITE beat=177 addr=081d2368 data=91fa7b5bf1dd4c88 id=07
[1895000] AXI S0_WVALID_RDY HANDSHAKE
[1895000] S0 MEMORY WRITE beat=178 addr=081d2378 data=a7610a57c3f4d1e6 id=07
[1895000] MASTER 0 W_VALID_RDY Handshake beat=182 wlast=0
[1905000] MASTER 0 W_VALID_RDY Handshake beat=183 wlast=0
[1905000] AXI S0_WVALID_RDY HANDSHAKE
[1905000] S0 MEMORY WRITE beat=179 addr=081d2388 data=275ef046cd89cc3d id=07
[1915000] AXI S0_WVALID_RDY HANDSHAKE
[1915000] S0 MEMORY WRITE beat=180 addr=081d2398 data=bf6718c52edaf461 id=07
[1915000] MASTER 0 W_VALID_RDY Handshake beat=184 wlast=0
[1925000] MASTER 0 W_VALID_RDY Handshake beat=185 wlast=0
[1925000] AXI S0_WVALID_RDY HANDSHAKE
[1925000] S0 MEMORY WRITE beat=181 addr=081d23a8 data=f2cfc647b9596ba1 id=07
[1935000] AXI S0_WVALID_RDY HANDSHAKE
[1935000] S0 MEMORY WRITE beat=182 addr=081d23b8 data=06e337dfe6c8231d id=07
[1935000] MASTER 0 W_VALID_RDY Handshake beat=186 wlast=1
[1935000] MASTER_DRIVER0 received transaction, op=AXI_READ
[1945000] AXI S0_WVALID_RDY HANDSHAKE
[1945000] S0 MEMORY WRITE beat=183 addr=081d23c8 data=15a3177e9a2eb68d id=07
[1955000] AXI S0_WVALID_RDY HANDSHAKE
[1955000] S0 MEMORY WRITE beat=184 addr=081d23d8 data=d388222fc64a50a4 id=07
[1965000] ARB MONITOR: slave=0 m0_req=1 m1_req=0 winner=0
[1965000] AXI S0_ARVALID_RDY HANDSHAKE
[1965000] MEMORY READ MISS beat=0 addr=2852340 -> default data id=2
[1965000] AXI S0_WVALID_RDY HANDSHAKE
[1965000] S0 MEMORY WRITE beat=185 addr=081d23e8 data=ad1273c18872ddc5 id=07
[1975000] AXI S0_WVALID_RDY HANDSHAKE
[1975000] S0 MEMORY WRITE beat=186 addr=081d23f8 data=22a19453da6b5a0e id=07
[1975000] MEMORY READ MISS beat=1 addr=2852348 -> default data id=2
[1975000] SLAVE 0 R_VALID_RDY Handshake beat=0 rlast=0
[1985000] SLAVE 0 R_VALID_RDY Handshake beat=1 rlast=1
[1985000] [SLAVE MONITOR] READ mst_id=0 s_id=0 araddr=2852340 arid=2 arlen=1 arsize=3 arburst=1 rid=[22] rresp=[00] rdata=[baadf00d12345678baadf00d12345678]
[1985000] SLAVE0 sent B resp, id=7
[1995000] [SLAVE MONITOR] mst_id=0 s_id=0 awaddr=81d1858 awid=111 awlen=186 awsize=4 awburst=1 wdata=[c1055c6c9004dbd3 a5087eded8b8ea4a 2cda1693c08ec876 d093a44a95eba7a3 eea491ededdf72ff 2e6e3b76f59c2328 b87cacc9b7ea880 95e1b80ff01dfc0 f49e02e8fa2c5cb9 15ab053a37cc56f6 36ce36b68025cdb4 fa522a6e1f0920ba d6d577b0ab6c399e 2b9207530ffd2fa8 2f0650620da3ae66 b90fe80425e431c1 35e1616905dbc812 137f7678e4a1ef57 8a862118e4e7b1cb eac379ddcc8f5e7c 31314dd4c0678281 a54f344cfe42f055 cad24ed1bbb76eec fc1ef16e9012ae29 8e559e7efc039ca5 37bb0b92a16e25ba 3180d3e4d927ed50 d52b89f533d9fd00 d54822babfd67262 98fe5fb28ce69587 c0c0928786c8f69e c69f6901ee29e9a8 fb107f2f1608b542 9cd1abe0df9dc8b3 cdc7b25b3bd111b7 d1d9c6f9e37114e1 c30edd95c8d8318b 4a94342eeab72d9 d21c87bb90d68ff0 d9aec17bd6830a3b c52e7d14152b6550 a601f540de5804bd b4db0ef8974b04cf ac766a1fffb0b6bc de08bb79fa098c0d 915490dcd2785f60 d229161c12e3ca72 ced567f3dcafafc 10435a5cb031d195 c3159c079e41e75b dc0ce257e26c7078 929e420dd002f286 ee44d9e2ec503cb3 cebcad2bd5b3de15 a5b6d09bca51bc39 36a1f8ede15aef39 370ecd4e93fbaa7d de4d66b7855ea618 e6b99551dcc59de9 f0c1486714ef5fa4 9a4e05bc9dc8629f fa8e0089cf0eaf1e e3fe0ec201079b0e 9ecffdadeb4f48f0 3a5df80efe4c147e ff53af8c995dfe36 84ad47261e5c06d0 9ca81b4e1e23ad3a b781ab70bf0b3f34 dd6746041bfbcadb 3a1f78153c2ef297 fb3a31cbfa0f6153 160b2c2ef1a12385 add0161cd8a177d0 d2b0d923d02aa443 c1cbc7c8290a47e8 1abbfb8e8bc0551 38e6a994ef9bdde5 18a625cdd45c98db 3d189e2cfab2715c ea4e4f411a51e585 eeae7e60f5ff47c0 f0b1b91c82f4750e 9d465a932bc71c8c 21c6644cdb00085e ddf47d6c8bf4d8f3 b7bbf57f92781d68 ed7825c6fb3ad800 872fb0f3d98259cb ebfa7734cb6ca333 c6a77b333eeba673 986e003ed9729cfa a4df402dcdd72c26 8cc2d29984687772 dddb146deb86bb60 395de7872530d2d8 a9994a4a82ba549a ee410ffbc620ba20 eb518cf887745eb7 a2eb352279ef782 edbfb1a214ead743 9c5f35faf86fc34d 200ebacfd9113e9b edfc15dea68de94c 9efdac998dce6c71 e6dfab0c8a5b4bd8 30e93525bf0c6768 ccdad3dad4dbc0ea df370cc3cfe6e1be ef34927b3ba7ee6 8963fd1102041e8 e00723a6dbce1d01 8f889be7e7cd4c94 f7ed8e7ceefa6ccd cac889ce981edbb8 ffec284cd7f4b222 c6ef1ef0da5125b6 f270016ef7d9b6c8 cfce68eb91b7a8be ec08ce74f25c29bb ea35e08316bd87db a8753099de78cfe3 d0d4f99eba04496e d0c1d149147dff0e f2f6cef1bb0ada21 f50f2390f93701e3 db500f1c3cbc88f fed6a2b0c5d0f4d9 bf07f6bc00abcfe2 c4779871f3e5c640 39b6bb1accbcf7ad cd68c78fc34e3b21 37340162f8beb1d6 c57ba98491e06000 d52e9b22f0eabc7c e9a96e5292e47113 24c4d1140c629c84 fd4d5900af2517d6 c20988eaf9f36c36 65608bae6f6c752 161bdf29e6ce59fe e0c1c63403a361ba ea9a290cd8256813 3ef3c211e717ceee eabb30a880b60835 d8db70481fb58845 6cd5733d55559b4 d60b61ea97cf3259 b784ba9ef18887db c6dde18faee6d232 c6b6048cbe5211d1 afda99ac9ce94379 cbd015acfe3abf2a 3c8cd0fcf6b87b3c 93a1beb512861a38 90c0d962ec676aa8 e31fe5e4df71d461 f1f7ee99cd4daa5e 39b51507f6c1a49a d63378fb02b8c7fc d006725a9cd4faeb 93969f85c82b6795 cae42f9189bb8761 2690824de9ca1881 31f580169aeaa1eb 24a6294dba2721d2 a3f13a53fcd9afa7 97c45192cb36ab9a 855dcd6cd5e6ba69 d2c06a10bc6a7adf 87a12679294f07c0 ff35c229ea84bba3 a6ef36820cfef3e6 364dfba6d1f62c3a 3c7ae7dd2e905cfc 3b8f50e2b583bdcf 8779ea09e36a1e5f 91fa7b5bf1dd4c88 a7610a57c3f4d1e6 275ef046cd89cc3d bf6718c52edaf461 f2cfc647b9596ba1 6e337dfe6c8231d 15a3177e9a2eb68d d388222fc64a50a4 ad1273c18872ddc5 22a19453da6b5a0e ] wstrb=[3f b2 82 5 74 90 58 b3 42 da b8 b6 6a 10 6a ac ea 22 63 54 33 cd 1 1d ef 64 72 22 31 73 40 20 d7 b2 43 8 25 83 28 fc 35 6b 4 5a ee 2c 56 23 98 5a 7d 86 86 d3 aa 1e 2d 27 a5 b4 fb 4f d2 28 76 77 dc 71 c6 af 9a 3d 26 76 ae ed 25 48 2a 4c bf d8 39 e4 21 63 30 e0 3b 69 c4 5c cc f5 3c 8 5e 1 64 2b f6 a1 33 54 a2 97 7f 98 38 b2 ec da 4a 6c 72 82 1e 5f 5d 68 cb cf eb e9 2e 48 52 f9 17 3d e3 46 85 35 3f 9c 72 22 e2 f7 57 22 93 c9 44 76 c0 9c 98 54 65 dc ca 26 78 62 7a de 3e 44 4 b7 a6 7e 95 e4 c2 99 9b 68 17 30 4c d9 c9 e8 41 e0 18 8d b9 e2 75 fa c2 8e 88 ] bresp=0 bid=111
[1995000] MASTER 0 R_VALID_RDY Handshake beat=0 rlast=0
[2005000] MASTER 0 RECEIVED BRESP. BRESP=0
[2005000] [MASTER DRIVER] mst_id=0 s_id=0 awaddr=81d1858 awid=111 awlen=186 awsize=4 awburst=1 wdata=[c1055c6c9004dbd3 a5087eded8b8ea4a 2cda1693c08ec876 d093a44a95eba7a3 eea491ededdf72ff 2e6e3b76f59c2328 b87cacc9b7ea880 95e1b80ff01dfc0 f49e02e8fa2c5cb9 15ab053a37cc56f6 36ce36b68025cdb4 fa522a6e1f0920ba d6d577b0ab6c399e 2b9207530ffd2fa8 2f0650620da3ae66 b90fe80425e431c1 35e1616905dbc812 137f7678e4a1ef57 8a862118e4e7b1cb eac379ddcc8f5e7c 31314dd4c0678281 a54f344cfe42f055 cad24ed1bbb76eec fc1ef16e9012ae29 8e559e7efc039ca5 37bb0b92a16e25ba 3180d3e4d927ed50 d52b89f533d9fd00 d54822babfd67262 98fe5fb28ce69587 c0c0928786c8f69e c69f6901ee29e9a8 fb107f2f1608b542 9cd1abe0df9dc8b3 cdc7b25b3bd111b7 d1d9c6f9e37114e1 c30edd95c8d8318b 4a94342eeab72d9 d21c87bb90d68ff0 d9aec17bd6830a3b c52e7d14152b6550 a601f540de5804bd b4db0ef8974b04cf ac766a1fffb0b6bc de08bb79fa098c0d 915490dcd2785f60 d229161c12e3ca72 ced567f3dcafafc 10435a5cb031d195 c3159c079e41e75b dc0ce257e26c7078 929e420dd002f286 ee44d9e2ec503cb3 cebcad2bd5b3de15 a5b6d09bca51bc39 36a1f8ede15aef39 370ecd4e93fbaa7d de4d66b7855ea618 e6b99551dcc59de9 f0c1486714ef5fa4 9a4e05bc9dc8629f fa8e0089cf0eaf1e e3fe0ec201079b0e 9ecffdadeb4f48f0 3a5df80efe4c147e ff53af8c995dfe36 84ad47261e5c06d0 9ca81b4e1e23ad3a b781ab70bf0b3f34 dd6746041bfbcadb 3a1f78153c2ef297 fb3a31cbfa0f6153 160b2c2ef1a12385 add0161cd8a177d0 d2b0d923d02aa443 c1cbc7c8290a47e8 1abbfb8e8bc0551 38e6a994ef9bdde5 18a625cdd45c98db 3d189e2cfab2715c ea4e4f411a51e585 eeae7e60f5ff47c0 f0b1b91c82f4750e 9d465a932bc71c8c 21c6644cdb00085e ddf47d6c8bf4d8f3 b7bbf57f92781d68 ed7825c6fb3ad800 872fb0f3d98259cb ebfa7734cb6ca333 c6a77b333eeba673 986e003ed9729cfa a4df402dcdd72c26 8cc2d29984687772 dddb146deb86bb60 395de7872530d2d8 a9994a4a82ba549a ee410ffbc620ba20 eb518cf887745eb7 a2eb352279ef782 edbfb1a214ead743 9c5f35faf86fc34d 200ebacfd9113e9b edfc15dea68de94c 9efdac998dce6c71 e6dfab0c8a5b4bd8 30e93525bf0c6768 ccdad3dad4dbc0ea df370cc3cfe6e1be ef34927b3ba7ee6 8963fd1102041e8 e00723a6dbce1d01 8f889be7e7cd4c94 f7ed8e7ceefa6ccd cac889ce981edbb8 ffec284cd7f4b222 c6ef1ef0da5125b6 f270016ef7d9b6c8 cfce68eb91b7a8be ec08ce74f25c29bb ea35e08316bd87db a8753099de78cfe3 d0d4f99eba04496e d0c1d149147dff0e f2f6cef1bb0ada21 f50f2390f93701e3 db500f1c3cbc88f fed6a2b0c5d0f4d9 bf07f6bc00abcfe2 c4779871f3e5c640 39b6bb1accbcf7ad cd68c78fc34e3b21 37340162f8beb1d6 c57ba98491e06000 d52e9b22f0eabc7c e9a96e5292e47113 24c4d1140c629c84 fd4d5900af2517d6 c20988eaf9f36c36 65608bae6f6c752 161bdf29e6ce59fe e0c1c63403a361ba ea9a290cd8256813 3ef3c211e717ceee eabb30a880b60835 d8db70481fb58845 6cd5733d55559b4 d60b61ea97cf3259 b784ba9ef18887db c6dde18faee6d232 c6b6048cbe5211d1 afda99ac9ce94379 cbd015acfe3abf2a 3c8cd0fcf6b87b3c 93a1beb512861a38 90c0d962ec676aa8 e31fe5e4df71d461 f1f7ee99cd4daa5e 39b51507f6c1a49a d63378fb02b8c7fc d006725a9cd4faeb 93969f85c82b6795 cae42f9189bb8761 2690824de9ca1881 31f580169aeaa1eb 24a6294dba2721d2 a3f13a53fcd9afa7 97c45192cb36ab9a 855dcd6cd5e6ba69 d2c06a10bc6a7adf 87a12679294f07c0 ff35c229ea84bba3 a6ef36820cfef3e6 364dfba6d1f62c3a 3c7ae7dd2e905cfc 3b8f50e2b583bdcf 8779ea09e36a1e5f 91fa7b5bf1dd4c88 a7610a57c3f4d1e6 275ef046cd89cc3d bf6718c52edaf461 f2cfc647b9596ba1 6e337dfe6c8231d 15a3177e9a2eb68d d388222fc64a50a4 ad1273c18872ddc5 22a19453da6b5a0e ] wstrb=[3f b2 82 5 74 90 58 b3 42 da b8 b6 6a 10 6a ac ea 22 63 54 33 cd 1 1d ef 64 72 22 31 73 40 20 d7 b2 43 8 25 83 28 fc 35 6b 4 5a ee 2c 56 23 98 5a 7d 86 86 d3 aa 1e 2d 27 a5 b4 fb 4f d2 28 76 77 dc 71 c6 af 9a 3d 26 76 ae ed 25 48 2a 4c bf d8 39 e4 21 63 30 e0 3b 69 c4 5c cc f5 3c 8 5e 1 64 2b f6 a1 33 54 a2 97 7f 98 38 b2 ec da 4a 6c 72 82 1e 5f 5d 68 cb cf eb e9 2e 48 52 f9 17 3d e3 46 85 35 3f 9c 72 22 e2 f7 57 22 93 c9 44 76 c0 9c 98 54 65 dc ca 26 78 62 7a de 3e 44 4 b7 a6 7e 95 e4 c2 99 9b 68 17 30 4c d9 c9 e8 41 e0 18 8d b9 e2 75 fa c2 8e 88 ] bresp=0 bid=111
[2005000] [MASTER DRIVER] READ mst_id=0 s_id=0 araddr=2852340 arid=2 arlen=1 arsize=3 arburst=1 rid=[22] rresp=[00] rdata=[baadf00d12345678baadf00d12345678]
[2005000] MASTER 0 B_VALID_RDY Handshake
[2005000] [MASTER MONITOR] mst_id=0 s_id=0 awaddr=81d1858 awid=111 awlen=186 awsize=4 awburst=1 wdata=[c1055c6c9004dbd3 a5087eded8b8ea4a 2cda1693c08ec876 d093a44a95eba7a3 eea491ededdf72ff 2e6e3b76f59c2328 b87cacc9b7ea880 95e1b80ff01dfc0 f49e02e8fa2c5cb9 15ab053a37cc56f6 36ce36b68025cdb4 fa522a6e1f0920ba d6d577b0ab6c399e 2b9207530ffd2fa8 2f0650620da3ae66 b90fe80425e431c1 35e1616905dbc812 137f7678e4a1ef57 8a862118e4e7b1cb eac379ddcc8f5e7c 31314dd4c0678281 a54f344cfe42f055 cad24ed1bbb76eec fc1ef16e9012ae29 8e559e7efc039ca5 37bb0b92a16e25ba 3180d3e4d927ed50 d52b89f533d9fd00 d54822babfd67262 98fe5fb28ce69587 c0c0928786c8f69e c69f6901ee29e9a8 fb107f2f1608b542 9cd1abe0df9dc8b3 cdc7b25b3bd111b7 d1d9c6f9e37114e1 c30edd95c8d8318b 4a94342eeab72d9 d21c87bb90d68ff0 d9aec17bd6830a3b c52e7d14152b6550 a601f540de5804bd b4db0ef8974b04cf ac766a1fffb0b6bc de08bb79fa098c0d 915490dcd2785f60 d229161c12e3ca72 ced567f3dcafafc 10435a5cb031d195 c3159c079e41e75b dc0ce257e26c7078 929e420dd002f286 ee44d9e2ec503cb3 cebcad2bd5b3de15 a5b6d09bca51bc39 36a1f8ede15aef39 370ecd4e93fbaa7d de4d66b7855ea618 e6b99551dcc59de9 f0c1486714ef5fa4 9a4e05bc9dc8629f fa8e0089cf0eaf1e e3fe0ec201079b0e 9ecffdadeb4f48f0 3a5df80efe4c147e ff53af8c995dfe36 84ad47261e5c06d0 9ca81b4e1e23ad3a b781ab70bf0b3f34 dd6746041bfbcadb 3a1f78153c2ef297 fb3a31cbfa0f6153 160b2c2ef1a12385 add0161cd8a177d0 d2b0d923d02aa443 c1cbc7c8290a47e8 1abbfb8e8bc0551 38e6a994ef9bdde5 18a625cdd45c98db 3d189e2cfab2715c ea4e4f411a51e585 eeae7e60f5ff47c0 f0b1b91c82f4750e 9d465a932bc71c8c 21c6644cdb00085e ddf47d6c8bf4d8f3 b7bbf57f92781d68 ed7825c6fb3ad800 872fb0f3d98259cb ebfa7734cb6ca333 c6a77b333eeba673 986e003ed9729cfa a4df402dcdd72c26 8cc2d29984687772 dddb146deb86bb60 395de7872530d2d8 a9994a4a82ba549a ee410ffbc620ba20 eb518cf887745eb7 a2eb352279ef782 edbfb1a214ead743 9c5f35faf86fc34d 200ebacfd9113e9b edfc15dea68de94c 9efdac998dce6c71 e6dfab0c8a5b4bd8 30e93525bf0c6768 ccdad3dad4dbc0ea df370cc3cfe6e1be ef34927b3ba7ee6 8963fd1102041e8 e00723a6dbce1d01 8f889be7e7cd4c94 f7ed8e7ceefa6ccd cac889ce981edbb8 ffec284cd7f4b222 c6ef1ef0da5125b6 f270016ef7d9b6c8 cfce68eb91b7a8be ec08ce74f25c29bb ea35e08316bd87db a8753099de78cfe3 d0d4f99eba04496e d0c1d149147dff0e f2f6cef1bb0ada21 f50f2390f93701e3 db500f1c3cbc88f fed6a2b0c5d0f4d9 bf07f6bc00abcfe2 c4779871f3e5c640 39b6bb1accbcf7ad cd68c78fc34e3b21 37340162f8beb1d6 c57ba98491e06000 d52e9b22f0eabc7c e9a96e5292e47113 24c4d1140c629c84 fd4d5900af2517d6 c20988eaf9f36c36 65608bae6f6c752 161bdf29e6ce59fe e0c1c63403a361ba ea9a290cd8256813 3ef3c211e717ceee eabb30a880b60835 d8db70481fb58845 6cd5733d55559b4 d60b61ea97cf3259 b784ba9ef18887db c6dde18faee6d232 c6b6048cbe5211d1 afda99ac9ce94379 cbd015acfe3abf2a 3c8cd0fcf6b87b3c 93a1beb512861a38 90c0d962ec676aa8 e31fe5e4df71d461 f1f7ee99cd4daa5e 39b51507f6c1a49a d63378fb02b8c7fc d006725a9cd4faeb 93969f85c82b6795 cae42f9189bb8761 2690824de9ca1881 31f580169aeaa1eb 24a6294dba2721d2 a3f13a53fcd9afa7 97c45192cb36ab9a 855dcd6cd5e6ba69 d2c06a10bc6a7adf 87a12679294f07c0 ff35c229ea84bba3 a6ef36820cfef3e6 364dfba6d1f62c3a 3c7ae7dd2e905cfc 3b8f50e2b583bdcf 8779ea09e36a1e5f 91fa7b5bf1dd4c88 a7610a57c3f4d1e6 275ef046cd89cc3d bf6718c52edaf461 f2cfc647b9596ba1 6e337dfe6c8231d 15a3177e9a2eb68d d388222fc64a50a4 ad1273c18872ddc5 22a19453da6b5a0e ] wstrb=[3f b2 82 5 74 90 58 b3 42 da b8 b6 6a 10 6a ac ea 22 63 54 33 cd 1 1d ef 64 72 22 31 73 40 20 d7 b2 43 8 25 83 28 fc 35 6b 4 5a ee 2c 56 23 98 5a 7d 86 86 d3 aa 1e 2d 27 a5 b4 fb 4f d2 28 76 77 dc 71 c6 af 9a 3d 26 76 ae ed 25 48 2a 4c bf d8 39 e4 21 63 30 e0 3b 69 c4 5c cc f5 3c 8 5e 1 64 2b f6 a1 33 54 a2 97 7f 98 38 b2 ec da 4a 6c 72 82 1e 5f 5d 68 cb cf eb e9 2e 48 52 f9 17 3d e3 46 85 35 3f 9c 72 22 e2 f7 57 22 93 c9 44 76 c0 9c 98 54 65 dc ca 26 78 62 7a de 3e 44 4 b7 a6 7e 95 e4 c2 99 9b 68 17 30 4c d9 c9 e8 41 e0 18 8d b9 e2 75 fa c2 8e 88 ] bresp=0 bid=111
[2005000] MASTER 0 R_VALID_RDY Handshake beat=1 rlast=1
[2005000] [MASTER MONITOR] READ mst_id=0 s_id=0 araddr=2852340 arid=2 arlen=1 arsize=3 arburst=1 rid=[22] rresp=[00] rdata=[baadf00d12345678baadf00d12345678]
[2005000] SCOREBOARD MATCH: decode_err expected = 0, actual =0
[2005000] SCOREBOARD MATCH: slave_id expected = 0, actual =0
[2005000] SCOREBOARD MATCH: awaddr passthrough expected = 81d1858, actual =81d1858
[2005000] SCOREBOARD MATCH: awlen passthrough expected = 186, actual =186
[2005000] SCOREBOARD MATCH: awsize passthrough expected = 4, actual =4
[2005000] SCOREBOARD MATCH: awburst passthrough expected = 1, actual =1
[2005000] SCOREBOARD MATCH: wdata size check expected = bb, actual =bb
[2005000] SCOREBOARD MATCH: wdata passthrough beat=0 expected = c1055c6c9004dbd3, actual =c1055c6c9004dbd3
[2005000] SCOREBOARD MATCH: wdata passthrough beat=1 expected = a5087eded8b8ea4a, actual =a5087eded8b8ea4a
[2005000] SCOREBOARD MATCH: wdata passthrough beat=2 expected = 2cda1693c08ec876, actual =2cda1693c08ec876
[2005000] SCOREBOARD MATCH: wdata passthrough beat=3 expected = d093a44a95eba7a3, actual =d093a44a95eba7a3
[2005000] SCOREBOARD MATCH: wdata passthrough beat=4 expected = eea491ededdf72ff, actual =eea491ededdf72ff
[2005000] SCOREBOARD MATCH: wdata passthrough beat=5 expected = 2e6e3b76f59c2328, actual =2e6e3b76f59c2328
[2005000] SCOREBOARD MATCH: wdata passthrough beat=6 expected = b87cacc9b7ea880, actual =b87cacc9b7ea880
[2005000] SCOREBOARD MATCH: wdata passthrough beat=7 expected = 95e1b80ff01dfc0, actual =95e1b80ff01dfc0
[2005000] SCOREBOARD MATCH: wdata passthrough beat=8 expected = f49e02e8fa2c5cb9, actual =f49e02e8fa2c5cb9
[2005000] SCOREBOARD MATCH: wdata passthrough beat=9 expected = 15ab053a37cc56f6, actual =15ab053a37cc56f6
[2005000] SCOREBOARD MATCH: wdata passthrough beat=10 expected = 36ce36b68025cdb4, actual =36ce36b68025cdb4
[2005000] SCOREBOARD MATCH: wdata passthrough beat=11 expected = fa522a6e1f0920ba, actual =fa522a6e1f0920ba
[2005000] SCOREBOARD MATCH: wdata passthrough beat=12 expected = d6d577b0ab6c399e, actual =d6d577b0ab6c399e
[2005000] SCOREBOARD MATCH: wdata passthrough beat=13 expected = 2b9207530ffd2fa8, actual =2b9207530ffd2fa8
[2005000] SCOREBOARD MATCH: wdata passthrough beat=14 expected = 2f0650620da3ae66, actual =2f0650620da3ae66
[2005000] SCOREBOARD MATCH: wdata passthrough beat=15 expected = b90fe80425e431c1, actual =b90fe80425e431c1
[2005000] SCOREBOARD MATCH: wdata passthrough beat=16 expected = 35e1616905dbc812, actual =35e1616905dbc812
[2005000] SCOREBOARD MATCH: wdata passthrough beat=17 expected = 137f7678e4a1ef57, actual =137f7678e4a1ef57
[2005000] SCOREBOARD MATCH: wdata passthrough beat=18 expected = 8a862118e4e7b1cb, actual =8a862118e4e7b1cb
[2005000] SCOREBOARD MATCH: wdata passthrough beat=19 expected = eac379ddcc8f5e7c, actual =eac379ddcc8f5e7c
[2005000] SCOREBOARD MATCH: wdata passthrough beat=20 expected = 31314dd4c0678281, actual =31314dd4c0678281
[2005000] SCOREBOARD MATCH: wdata passthrough beat=21 expected = a54f344cfe42f055, actual =a54f344cfe42f055
[2005000] SCOREBOARD MATCH: wdata passthrough beat=22 expected = cad24ed1bbb76eec, actual =cad24ed1bbb76eec
[2005000] SCOREBOARD MATCH: wdata passthrough beat=23 expected = fc1ef16e9012ae29, actual =fc1ef16e9012ae29
[2005000] SCOREBOARD MATCH: wdata passthrough beat=24 expected = 8e559e7efc039ca5, actual =8e559e7efc039ca5
[2005000] SCOREBOARD MATCH: wdata passthrough beat=25 expected = 37bb0b92a16e25ba, actual =37bb0b92a16e25ba
[2005000] SCOREBOARD MATCH: wdata passthrough beat=26 expected = 3180d3e4d927ed50, actual =3180d3e4d927ed50
[2005000] SCOREBOARD MATCH: wdata passthrough beat=27 expected = d52b89f533d9fd00, actual =d52b89f533d9fd00
[2005000] SCOREBOARD MATCH: wdata passthrough beat=28 expected = d54822babfd67262, actual =d54822babfd67262
[2005000] SCOREBOARD MATCH: wdata passthrough beat=29 expected = 98fe5fb28ce69587, actual =98fe5fb28ce69587
[2005000] SCOREBOARD MATCH: wdata passthrough beat=30 expected = c0c0928786c8f69e, actual =c0c0928786c8f69e
[2005000] SCOREBOARD MATCH: wdata passthrough beat=31 expected = c69f6901ee29e9a8, actual =c69f6901ee29e9a8
[2005000] SCOREBOARD MATCH: wdata passthrough beat=32 expected = fb107f2f1608b542, actual =fb107f2f1608b542
[2005000] SCOREBOARD MATCH: wdata passthrough beat=33 expected = 9cd1abe0df9dc8b3, actual =9cd1abe0df9dc8b3
[2005000] SCOREBOARD MATCH: wdata passthrough beat=34 expected = cdc7b25b3bd111b7, actual =cdc7b25b3bd111b7
[2005000] SCOREBOARD MATCH: wdata passthrough beat=35 expected = d1d9c6f9e37114e1, actual =d1d9c6f9e37114e1
[2005000] SCOREBOARD MATCH: wdata passthrough beat=36 expected = c30edd95c8d8318b, actual =c30edd95c8d8318b
[2005000] SCOREBOARD MATCH: wdata passthrough beat=37 expected = 4a94342eeab72d9, actual =4a94342eeab72d9
[2005000] SCOREBOARD MATCH: wdata passthrough beat=38 expected = d21c87bb90d68ff0, actual =d21c87bb90d68ff0
[2005000] SCOREBOARD MATCH: wdata passthrough beat=39 expected = d9aec17bd6830a3b, actual =d9aec17bd6830a3b
[2005000] SCOREBOARD MATCH: wdata passthrough beat=40 expected = c52e7d14152b6550, actual =c52e7d14152b6550
[2005000] SCOREBOARD MATCH: wdata passthrough beat=41 expected = a601f540de5804bd, actual =a601f540de5804bd
[2005000] SCOREBOARD MATCH: wdata passthrough beat=42 expected = b4db0ef8974b04cf, actual =b4db0ef8974b04cf
[2005000] SCOREBOARD MATCH: wdata passthrough beat=43 expected = ac766a1fffb0b6bc, actual =ac766a1fffb0b6bc
[2005000] SCOREBOARD MATCH: wdata passthrough beat=44 expected = de08bb79fa098c0d, actual =de08bb79fa098c0d
[2005000] SCOREBOARD MATCH: wdata passthrough beat=45 expected = 915490dcd2785f60, actual =915490dcd2785f60
[2005000] SCOREBOARD MATCH: wdata passthrough beat=46 expected = d229161c12e3ca72, actual =d229161c12e3ca72
[2005000] SCOREBOARD MATCH: wdata passthrough beat=47 expected = ced567f3dcafafc, actual =ced567f3dcafafc
[2005000] SCOREBOARD MATCH: wdata passthrough beat=48 expected = 10435a5cb031d195, actual =10435a5cb031d195
[2005000] SCOREBOARD MATCH: wdata passthrough beat=49 expected = c3159c079e41e75b, actual =c3159c079e41e75b
[2005000] SCOREBOARD MATCH: wdata passthrough beat=50 expected = dc0ce257e26c7078, actual =dc0ce257e26c7078
[2005000] SCOREBOARD MATCH: wdata passthrough beat=51 expected = 929e420dd002f286, actual =929e420dd002f286
[2005000] SCOREBOARD MATCH: wdata passthrough beat=52 expected = ee44d9e2ec503cb3, actual =ee44d9e2ec503cb3
[2005000] SCOREBOARD MATCH: wdata passthrough beat=53 expected = cebcad2bd5b3de15, actual =cebcad2bd5b3de15
[2005000] SCOREBOARD MATCH: wdata passthrough beat=54 expected = a5b6d09bca51bc39, actual =a5b6d09bca51bc39
[2005000] SCOREBOARD MATCH: wdata passthrough beat=55 expected = 36a1f8ede15aef39, actual =36a1f8ede15aef39
[2005000] SCOREBOARD MATCH: wdata passthrough beat=56 expected = 370ecd4e93fbaa7d, actual =370ecd4e93fbaa7d
[2005000] SCOREBOARD MATCH: wdata passthrough beat=57 expected = de4d66b7855ea618, actual =de4d66b7855ea618
[2005000] SCOREBOARD MATCH: wdata passthrough beat=58 expected = e6b99551dcc59de9, actual =e6b99551dcc59de9
[2005000] SCOREBOARD MATCH: wdata passthrough beat=59 expected = f0c1486714ef5fa4, actual =f0c1486714ef5fa4
[2005000] SCOREBOARD MATCH: wdata passthrough beat=60 expected = 9a4e05bc9dc8629f, actual =9a4e05bc9dc8629f
[2005000] SCOREBOARD MATCH: wdata passthrough beat=61 expected = fa8e0089cf0eaf1e, actual =fa8e0089cf0eaf1e
[2005000] SCOREBOARD MATCH: wdata passthrough beat=62 expected = e3fe0ec201079b0e, actual =e3fe0ec201079b0e
[2005000] SCOREBOARD MATCH: wdata passthrough beat=63 expected = 9ecffdadeb4f48f0, actual =9ecffdadeb4f48f0
[2005000] SCOREBOARD MATCH: wdata passthrough beat=64 expected = 3a5df80efe4c147e, actual =3a5df80efe4c147e
[2005000] SCOREBOARD MATCH: wdata passthrough beat=65 expected = ff53af8c995dfe36, actual =ff53af8c995dfe36
[2005000] SCOREBOARD MATCH: wdata passthrough beat=66 expected = 84ad47261e5c06d0, actual =84ad47261e5c06d0
[2005000] SCOREBOARD MATCH: wdata passthrough beat=67 expected = 9ca81b4e1e23ad3a, actual =9ca81b4e1e23ad3a
[2005000] SCOREBOARD MATCH: wdata passthrough beat=68 expected = b781ab70bf0b3f34, actual =b781ab70bf0b3f34
[2005000] SCOREBOARD MATCH: wdata passthrough beat=69 expected = dd6746041bfbcadb, actual =dd6746041bfbcadb
[2005000] SCOREBOARD MATCH: wdata passthrough beat=70 expected = 3a1f78153c2ef297, actual =3a1f78153c2ef297
[2005000] SCOREBOARD MATCH: wdata passthrough beat=71 expected = fb3a31cbfa0f6153, actual =fb3a31cbfa0f6153
[2005000] SCOREBOARD MATCH: wdata passthrough beat=72 expected = 160b2c2ef1a12385, actual =160b2c2ef1a12385
[2005000] SCOREBOARD MATCH: wdata passthrough beat=73 expected = add0161cd8a177d0, actual =add0161cd8a177d0
[2005000] SCOREBOARD MATCH: wdata passthrough beat=74 expected = d2b0d923d02aa443, actual =d2b0d923d02aa443
[2005000] SCOREBOARD MATCH: wdata passthrough beat=75 expected = c1cbc7c8290a47e8, actual =c1cbc7c8290a47e8
[2005000] SCOREBOARD MATCH: wdata passthrough beat=76 expected = 1abbfb8e8bc0551, actual =1abbfb8e8bc0551
[2005000] SCOREBOARD MATCH: wdata passthrough beat=77 expected = 38e6a994ef9bdde5, actual =38e6a994ef9bdde5
[2005000] SCOREBOARD MATCH: wdata passthrough beat=78 expected = 18a625cdd45c98db, actual =18a625cdd45c98db
[2005000] SCOREBOARD MATCH: wdata passthrough beat=79 expected = 3d189e2cfab2715c, actual =3d189e2cfab2715c
[2005000] SCOREBOARD MATCH: wdata passthrough beat=80 expected = ea4e4f411a51e585, actual =ea4e4f411a51e585
[2005000] SCOREBOARD MATCH: wdata passthrough beat=81 expected = eeae7e60f5ff47c0, actual =eeae7e60f5ff47c0
[2005000] SCOREBOARD MATCH: wdata passthrough beat=82 expected = f0b1b91c82f4750e, actual =f0b1b91c82f4750e
[2005000] SCOREBOARD MATCH: wdata passthrough beat=83 expected = 9d465a932bc71c8c, actual =9d465a932bc71c8c
[2005000] SCOREBOARD MATCH: wdata passthrough beat=84 expected = 21c6644cdb00085e, actual =21c6644cdb00085e
[2005000] SCOREBOARD MATCH: wdata passthrough beat=85 expected = ddf47d6c8bf4d8f3, actual =ddf47d6c8bf4d8f3
[2005000] SCOREBOARD MATCH: wdata passthrough beat=86 expected = b7bbf57f92781d68, actual =b7bbf57f92781d68
[2005000] SCOREBOARD MATCH: wdata passthrough beat=87 expected = ed7825c6fb3ad800, actual =ed7825c6fb3ad800
[2005000] SCOREBOARD MATCH: wdata passthrough beat=88 expected = 872fb0f3d98259cb, actual =872fb0f3d98259cb
[2005000] SCOREBOARD MATCH: wdata passthrough beat=89 expected = ebfa7734cb6ca333, actual =ebfa7734cb6ca333
[2005000] SCOREBOARD MATCH: wdata passthrough beat=90 expected = c6a77b333eeba673, actual =c6a77b333eeba673
[2005000] SCOREBOARD MATCH: wdata passthrough beat=91 expected = 986e003ed9729cfa, actual =986e003ed9729cfa
[2005000] SCOREBOARD MATCH: wdata passthrough beat=92 expected = a4df402dcdd72c26, actual =a4df402dcdd72c26
[2005000] SCOREBOARD MATCH: wdata passthrough beat=93 expected = 8cc2d29984687772, actual =8cc2d29984687772
[2005000] SCOREBOARD MATCH: wdata passthrough beat=94 expected = dddb146deb86bb60, actual =dddb146deb86bb60
[2005000] SCOREBOARD MATCH: wdata passthrough beat=95 expected = 395de7872530d2d8, actual =395de7872530d2d8
[2005000] SCOREBOARD MATCH: wdata passthrough beat=96 expected = a9994a4a82ba549a, actual =a9994a4a82ba549a
[2005000] SCOREBOARD MATCH: wdata passthrough beat=97 expected = ee410ffbc620ba20, actual =ee410ffbc620ba20
[2005000] SCOREBOARD MATCH: wdata passthrough beat=98 expected = eb518cf887745eb7, actual =eb518cf887745eb7
[2005000] SCOREBOARD MATCH: wdata passthrough beat=99 expected = a2eb352279ef782, actual =a2eb352279ef782
[2005000] SCOREBOARD MATCH: wdata passthrough beat=100 expected = edbfb1a214ead743, actual =edbfb1a214ead743
[2005000] SCOREBOARD MATCH: wdata passthrough beat=101 expected = 9c5f35faf86fc34d, actual =9c5f35faf86fc34d
[2005000] SCOREBOARD MATCH: wdata passthrough beat=102 expected = 200ebacfd9113e9b, actual =200ebacfd9113e9b
[2005000] SCOREBOARD MATCH: wdata passthrough beat=103 expected = edfc15dea68de94c, actual =edfc15dea68de94c
[2005000] SCOREBOARD MATCH: wdata passthrough beat=104 expected = 9efdac998dce6c71, actual =9efdac998dce6c71
[2005000] SCOREBOARD MATCH: wdata passthrough beat=105 expected = e6dfab0c8a5b4bd8, actual =e6dfab0c8a5b4bd8
[2005000] SCOREBOARD MATCH: wdata passthrough beat=106 expected = 30e93525bf0c6768, actual =30e93525bf0c6768
[2005000] SCOREBOARD MATCH: wdata passthrough beat=107 expected = ccdad3dad4dbc0ea, actual =ccdad3dad4dbc0ea
[2005000] SCOREBOARD MATCH: wdata passthrough beat=108 expected = df370cc3cfe6e1be, actual =df370cc3cfe6e1be
[2005000] SCOREBOARD MATCH: wdata passthrough beat=109 expected = ef34927b3ba7ee6, actual =ef34927b3ba7ee6
[2005000] SCOREBOARD MATCH: wdata passthrough beat=110 expected = 8963fd1102041e8, actual =8963fd1102041e8
[2005000] SCOREBOARD MATCH: wdata passthrough beat=111 expected = e00723a6dbce1d01, actual =e00723a6dbce1d01
[2005000] SCOREBOARD MATCH: wdata passthrough beat=112 expected = 8f889be7e7cd4c94, actual =8f889be7e7cd4c94
[2005000] SCOREBOARD MATCH: wdata passthrough beat=113 expected = f7ed8e7ceefa6ccd, actual =f7ed8e7ceefa6ccd
[2005000] SCOREBOARD MATCH: wdata passthrough beat=114 expected = cac889ce981edbb8, actual =cac889ce981edbb8
[2005000] SCOREBOARD MATCH: wdata passthrough beat=115 expected = ffec284cd7f4b222, actual =ffec284cd7f4b222
[2005000] SCOREBOARD MATCH: wdata passthrough beat=116 expected = c6ef1ef0da5125b6, actual =c6ef1ef0da5125b6
[2005000] SCOREBOARD MATCH: wdata passthrough beat=117 expected = f270016ef7d9b6c8, actual =f270016ef7d9b6c8
[2005000] SCOREBOARD MATCH: wdata passthrough beat=118 expected = cfce68eb91b7a8be, actual =cfce68eb91b7a8be
[2005000] SCOREBOARD MATCH: wdata passthrough beat=119 expected = ec08ce74f25c29bb, actual =ec08ce74f25c29bb
[2005000] SCOREBOARD MATCH: wdata passthrough beat=120 expected = ea35e08316bd87db, actual =ea35e08316bd87db
[2005000] SCOREBOARD MATCH: wdata passthrough beat=121 expected = a8753099de78cfe3, actual =a8753099de78cfe3
[2005000] SCOREBOARD MATCH: wdata passthrough beat=122 expected = d0d4f99eba04496e, actual =d0d4f99eba04496e
[2005000] SCOREBOARD MATCH: wdata passthrough beat=123 expected = d0c1d149147dff0e, actual =d0c1d149147dff0e
[2005000] SCOREBOARD MATCH: wdata passthrough beat=124 expected = f2f6cef1bb0ada21, actual =f2f6cef1bb0ada21
[2005000] SCOREBOARD MATCH: wdata passthrough beat=125 expected = f50f2390f93701e3, actual =f50f2390f93701e3
[2005000] SCOREBOARD MATCH: wdata passthrough beat=126 expected = db500f1c3cbc88f, actual =db500f1c3cbc88f
[2005000] SCOREBOARD MATCH: wdata passthrough beat=127 expected = fed6a2b0c5d0f4d9, actual =fed6a2b0c5d0f4d9
[2005000] SCOREBOARD MATCH: wdata passthrough beat=128 expected = bf07f6bc00abcfe2, actual =bf07f6bc00abcfe2
[2005000] SCOREBOARD MATCH: wdata passthrough beat=129 expected = c4779871f3e5c640, actual =c4779871f3e5c640
[2005000] SCOREBOARD MATCH: wdata passthrough beat=130 expected = 39b6bb1accbcf7ad, actual =39b6bb1accbcf7ad
[2005000] SCOREBOARD MATCH: wdata passthrough beat=131 expected = cd68c78fc34e3b21, actual =cd68c78fc34e3b21
[2005000] SCOREBOARD MATCH: wdata passthrough beat=132 expected = 37340162f8beb1d6, actual =37340162f8beb1d6
[2005000] SCOREBOARD MATCH: wdata passthrough beat=133 expected = c57ba98491e06000, actual =c57ba98491e06000
[2005000] SCOREBOARD MATCH: wdata passthrough beat=134 expected = d52e9b22f0eabc7c, actual =d52e9b22f0eabc7c
[2005000] SCOREBOARD MATCH: wdata passthrough beat=135 expected = e9a96e5292e47113, actual =e9a96e5292e47113
[2005000] SCOREBOARD MATCH: wdata passthrough beat=136 expected = 24c4d1140c629c84, actual =24c4d1140c629c84
[2005000] SCOREBOARD MATCH: wdata passthrough beat=137 expected = fd4d5900af2517d6, actual =fd4d5900af2517d6
[2005000] SCOREBOARD MATCH: wdata passthrough beat=138 expected = c20988eaf9f36c36, actual =c20988eaf9f36c36
[2005000] SCOREBOARD MATCH: wdata passthrough beat=139 expected = 65608bae6f6c752, actual =65608bae6f6c752
[2005000] SCOREBOARD MATCH: wdata passthrough beat=140 expected = 161bdf29e6ce59fe, actual =161bdf29e6ce59fe
[2005000] SCOREBOARD MATCH: wdata passthrough beat=141 expected = e0c1c63403a361ba, actual =e0c1c63403a361ba
[2005000] SCOREBOARD MATCH: wdata passthrough beat=142 expected = ea9a290cd8256813, actual =ea9a290cd8256813
[2005000] SCOREBOARD MATCH: wdata passthrough beat=143 expected = 3ef3c211e717ceee, actual =3ef3c211e717ceee
[2005000] SCOREBOARD MATCH: wdata passthrough beat=144 expected = eabb30a880b60835, actual =eabb30a880b60835
[2005000] SCOREBOARD MATCH: wdata passthrough beat=145 expected = d8db70481fb58845, actual =d8db70481fb58845
[2005000] SCOREBOARD MATCH: wdata passthrough beat=146 expected = 6cd5733d55559b4, actual =6cd5733d55559b4
[2005000] SCOREBOARD MATCH: wdata passthrough beat=147 expected = d60b61ea97cf3259, actual =d60b61ea97cf3259
[2005000] SCOREBOARD MATCH: wdata passthrough beat=148 expected = b784ba9ef18887db, actual =b784ba9ef18887db
[2005000] SCOREBOARD MATCH: wdata passthrough beat=149 expected = c6dde18faee6d232, actual =c6dde18faee6d232
[2005000] SCOREBOARD MATCH: wdata passthrough beat=150 expected = c6b6048cbe5211d1, actual =c6b6048cbe5211d1
[2005000] SCOREBOARD MATCH: wdata passthrough beat=151 expected = afda99ac9ce94379, actual =afda99ac9ce94379
[2005000] SCOREBOARD MATCH: wdata passthrough beat=152 expected = cbd015acfe3abf2a, actual =cbd015acfe3abf2a
[2005000] SCOREBOARD MATCH: wdata passthrough beat=153 expected = 3c8cd0fcf6b87b3c, actual =3c8cd0fcf6b87b3c
[2005000] SCOREBOARD MATCH: wdata passthrough beat=154 expected = 93a1beb512861a38, actual =93a1beb512861a38
[2005000] SCOREBOARD MATCH: wdata passthrough beat=155 expected = 90c0d962ec676aa8, actual =90c0d962ec676aa8
[2005000] SCOREBOARD MATCH: wdata passthrough beat=156 expected = e31fe5e4df71d461, actual =e31fe5e4df71d461
[2005000] SCOREBOARD MATCH: wdata passthrough beat=157 expected = f1f7ee99cd4daa5e, actual =f1f7ee99cd4daa5e
[2005000] SCOREBOARD MATCH: wdata passthrough beat=158 expected = 39b51507f6c1a49a, actual =39b51507f6c1a49a
[2005000] SCOREBOARD MATCH: wdata passthrough beat=159 expected = d63378fb02b8c7fc, actual =d63378fb02b8c7fc
[2005000] SCOREBOARD MATCH: wdata passthrough beat=160 expected = d006725a9cd4faeb, actual =d006725a9cd4faeb
[2005000] SCOREBOARD MATCH: wdata passthrough beat=161 expected = 93969f85c82b6795, actual =93969f85c82b6795
[2005000] SCOREBOARD MATCH: wdata passthrough beat=162 expected = cae42f9189bb8761, actual =cae42f9189bb8761
[2005000] SCOREBOARD MATCH: wdata passthrough beat=163 expected = 2690824de9ca1881, actual =2690824de9ca1881
[2005000] SCOREBOARD MATCH: wdata passthrough beat=164 expected = 31f580169aeaa1eb, actual =31f580169aeaa1eb
[2005000] SCOREBOARD MATCH: wdata passthrough beat=165 expected = 24a6294dba2721d2, actual =24a6294dba2721d2
[2005000] SCOREBOARD MATCH: wdata passthrough beat=166 expected = a3f13a53fcd9afa7, actual =a3f13a53fcd9afa7
[2005000] SCOREBOARD MATCH: wdata passthrough beat=167 expected = 97c45192cb36ab9a, actual =97c45192cb36ab9a
[2005000] SCOREBOARD MATCH: wdata passthrough beat=168 expected = 855dcd6cd5e6ba69, actual =855dcd6cd5e6ba69
[2005000] SCOREBOARD MATCH: wdata passthrough beat=169 expected = d2c06a10bc6a7adf, actual =d2c06a10bc6a7adf
[2005000] SCOREBOARD MATCH: wdata passthrough beat=170 expected = 87a12679294f07c0, actual =87a12679294f07c0
[2005000] SCOREBOARD MATCH: wdata passthrough beat=171 expected = ff35c229ea84bba3, actual =ff35c229ea84bba3
[2005000] SCOREBOARD MATCH: wdata passthrough beat=172 expected = a6ef36820cfef3e6, actual =a6ef36820cfef3e6
[2005000] SCOREBOARD MATCH: wdata passthrough beat=173 expected = 364dfba6d1f62c3a, actual =364dfba6d1f62c3a
[2005000] SCOREBOARD MATCH: wdata passthrough beat=174 expected = 3c7ae7dd2e905cfc, actual =3c7ae7dd2e905cfc
[2005000] SCOREBOARD MATCH: wdata passthrough beat=175 expected = 3b8f50e2b583bdcf, actual =3b8f50e2b583bdcf
[2005000] SCOREBOARD MATCH: wdata passthrough beat=176 expected = 8779ea09e36a1e5f, actual =8779ea09e36a1e5f
[2005000] SCOREBOARD MATCH: wdata passthrough beat=177 expected = 91fa7b5bf1dd4c88, actual =91fa7b5bf1dd4c88
[2005000] SCOREBOARD MATCH: wdata passthrough beat=178 expected = a7610a57c3f4d1e6, actual =a7610a57c3f4d1e6
[2005000] SCOREBOARD MATCH: wdata passthrough beat=179 expected = 275ef046cd89cc3d, actual =275ef046cd89cc3d
[2005000] SCOREBOARD MATCH: wdata passthrough beat=180 expected = bf6718c52edaf461, actual =bf6718c52edaf461
[2005000] SCOREBOARD MATCH: wdata passthrough beat=181 expected = f2cfc647b9596ba1, actual =f2cfc647b9596ba1
[2005000] SCOREBOARD MATCH: wdata passthrough beat=182 expected = 6e337dfe6c8231d, actual =6e337dfe6c8231d
[2005000] SCOREBOARD MATCH: wdata passthrough beat=183 expected = 15a3177e9a2eb68d, actual =15a3177e9a2eb68d
[2005000] SCOREBOARD MATCH: wdata passthrough beat=184 expected = d388222fc64a50a4, actual =d388222fc64a50a4
[2005000] SCOREBOARD MATCH: wdata passthrough beat=185 expected = ad1273c18872ddc5, actual =ad1273c18872ddc5
[2005000] SCOREBOARD MATCH: wdata passthrough beat=186 expected = 22a19453da6b5a0e, actual =22a19453da6b5a0e
[2005000] SCOREBOARD MATCH: wstrb size check expected = bb, actual =bb
[2005000] SCOREBOARD MATCH: wstrb passthrough beat=0 expected = 3f, actual =3f
[2005000] SCOREBOARD MATCH: wstrb passthrough beat=1 expected = b2, actual =b2
[2005000] SCOREBOARD MATCH: wstrb passthrough beat=2 expected = 82, actual =82
[2005000] SCOREBOARD MATCH: wstrb passthrough beat=3 expected = 5, actual =5
[2005000] SCOREBOARD MATCH: wstrb passthrough beat=4 expected = 74, actual =74
[2005000] SCOREBOARD MATCH: wstrb passthrough beat=5 expected = 90, actual =90
[2005000] SCOREBOARD MATCH: wstrb passthrough beat=6 expected = 58, actual =58
[2005000] SCOREBOARD MATCH: wstrb passthrough beat=7 expected = b3, actual =b3
[2005000] SCOREBOARD MATCH: wstrb passthrough beat=8 expected = 42, actual =42
[2005000] SCOREBOARD MATCH: wstrb passthrough beat=9 expected = da, actual =da
[2005000] SCOREBOARD MATCH: wstrb passthrough beat=10 expected = b8, actual =b8
[2005000] SCOREBOARD MATCH: wstrb passthrough beat=11 expected = b6, actual =b6
[2005000] SCOREBOARD MATCH: wstrb passthrough beat=12 expected = 6a, actual =6a
[2005000] SCOREBOARD MATCH: wstrb passthrough beat=13 expected = 10, actual =10
[2005000] SCOREBOARD MATCH: wstrb passthrough beat=14 expected = 6a, actual =6a
[2005000] SCOREBOARD MATCH: wstrb passthrough beat=15 expected = ac, actual =ac
[2005000] SCOREBOARD MATCH: wstrb passthrough beat=16 expected = ea, actual =ea
[2005000] SCOREBOARD MATCH: wstrb passthrough beat=17 expected = 22, actual =22
[2005000] SCOREBOARD MATCH: wstrb passthrough beat=18 expected = 63, actual =63
[2005000] SCOREBOARD MATCH: wstrb passthrough beat=19 expected = 54, actual =54
[2005000] SCOREBOARD MATCH: wstrb passthrough beat=20 expected = 33, actual =33
[2005000] SCOREBOARD MATCH: wstrb passthrough beat=21 expected = cd, actual =cd
[2005000] SCOREBOARD MATCH: wstrb passthrough beat=22 expected = 1, actual =1
[2005000] SCOREBOARD MATCH: wstrb passthrough beat=23 expected = 1d, actual =1d
[2005000] SCOREBOARD MATCH: wstrb passthrough beat=24 expected = ef, actual =ef
[2005000] SCOREBOARD MATCH: wstrb passthrough beat=25 expected = 64, actual =64
[2005000] SCOREBOARD MATCH: wstrb passthrough beat=26 expected = 72, actual =72
[2005000] SCOREBOARD MATCH: wstrb passthrough beat=27 expected = 22, actual =22
[2005000] SCOREBOARD MATCH: wstrb passthrough beat=28 expected = 31, actual =31
[2005000] SCOREBOARD MATCH: wstrb passthrough beat=29 expected = 73, actual =73
[2005000] SCOREBOARD MATCH: wstrb passthrough beat=30 expected = 40, actual =40
[2005000] SCOREBOARD MATCH: wstrb passthrough beat=31 expected = 20, actual =20
[2005000] SCOREBOARD MATCH: wstrb passthrough beat=32 expected = d7, actual =d7
[2005000] SCOREBOARD MATCH: wstrb passthrough beat=33 expected = b2, actual =b2
[2005000] SCOREBOARD MATCH: wstrb passthrough beat=34 expected = 43, actual =43
[2005000] SCOREBOARD MATCH: wstrb passthrough beat=35 expected = 8, actual =8
[2005000] SCOREBOARD MATCH: wstrb passthrough beat=36 expected = 25, actual =25
[2005000] SCOREBOARD MATCH: wstrb passthrough beat=37 expected = 83, actual =83
[2005000] SCOREBOARD MATCH: wstrb passthrough beat=38 expected = 28, actual =28
[2005000] SCOREBOARD MATCH: wstrb passthrough beat=39 expected = fc, actual =fc
[2005000] SCOREBOARD MATCH: wstrb passthrough beat=40 expected = 35, actual =35
[2005000] SCOREBOARD MATCH: wstrb passthrough beat=41 expected = 6b, actual =6b
[2005000] SCOREBOARD MATCH: wstrb passthrough beat=42 expected = 4, actual =4
[2005000] SCOREBOARD MATCH: wstrb passthrough beat=43 expected = 5a, actual =5a
[2005000] SCOREBOARD MATCH: wstrb passthrough beat=44 expected = ee, actual =ee
[2005000] SCOREBOARD MATCH: wstrb passthrough beat=45 expected = 2c, actual =2c
[2005000] SCOREBOARD MATCH: wstrb passthrough beat=46 expected = 56, actual =56
[2005000] SCOREBOARD MATCH: wstrb passthrough beat=47 expected = 23, actual =23
[2005000] SCOREBOARD MATCH: wstrb passthrough beat=48 expected = 98, actual =98
[2005000] SCOREBOARD MATCH: wstrb passthrough beat=49 expected = 5a, actual =5a
[2005000] SCOREBOARD MATCH: wstrb passthrough beat=50 expected = 7d, actual =7d
[2005000] SCOREBOARD MATCH: wstrb passthrough beat=51 expected = 86, actual =86
[2005000] SCOREBOARD MATCH: wstrb passthrough beat=52 expected = 86, actual =86
[2005000] SCOREBOARD MATCH: wstrb passthrough beat=53 expected = d3, actual =d3
[2005000] SCOREBOARD MATCH: wstrb passthrough beat=54 expected = aa, actual =aa
[2005000] SCOREBOARD MATCH: wstrb passthrough beat=55 expected = 1e, actual =1e
[2005000] SCOREBOARD MATCH: wstrb passthrough beat=56 expected = 2d, actual =2d
[2005000] SCOREBOARD MATCH: wstrb passthrough beat=57 expected = 27, actual =27
[2005000] SCOREBOARD MATCH: wstrb passthrough beat=58 expected = a5, actual =a5
[2005000] SCOREBOARD MATCH: wstrb passthrough beat=59 expected = b4, actual =b4
[2005000] SCOREBOARD MATCH: wstrb passthrough beat=60 expected = fb, actual =fb
[2005000] SCOREBOARD MATCH: wstrb passthrough beat=61 expected = 4f, actual =4f
[2005000] SCOREBOARD MATCH: wstrb passthrough beat=62 expected = d2, actual =d2
[2005000] SCOREBOARD MATCH: wstrb passthrough beat=63 expected = 28, actual =28
[2005000] SCOREBOARD MATCH: wstrb passthrough beat=64 expected = 76, actual =76
[2005000] SCOREBOARD MATCH: wstrb passthrough beat=65 expected = 77, actual =77
[2005000] SCOREBOARD MATCH: wstrb passthrough beat=66 expected = dc, actual =dc
[2005000] SCOREBOARD MATCH: wstrb passthrough beat=67 expected = 71, actual =71
[2005000] SCOREBOARD MATCH: wstrb passthrough beat=68 expected = c6, actual =c6
[2005000] SCOREBOARD MATCH: wstrb passthrough beat=69 expected = af, actual =af
[2005000] SCOREBOARD MATCH: wstrb passthrough beat=70 expected = 9a, actual =9a
[2005000] SCOREBOARD MATCH: wstrb passthrough beat=71 expected = 3d, actual =3d
[2005000] SCOREBOARD MATCH: wstrb passthrough beat=72 expected = 26, actual =26
[2005000] SCOREBOARD MATCH: wstrb passthrough beat=73 expected = 76, actual =76
[2005000] SCOREBOARD MATCH: wstrb passthrough beat=74 expected = ae, actual =ae
[2005000] SCOREBOARD MATCH: wstrb passthrough beat=75 expected = ed, actual =ed
[2005000] SCOREBOARD MATCH: wstrb passthrough beat=76 expected = 25, actual =25
[2005000] SCOREBOARD MATCH: wstrb passthrough beat=77 expected = 48, actual =48
[2005000] SCOREBOARD MATCH: wstrb passthrough beat=78 expected = 2a, actual =2a
[2005000] SCOREBOARD MATCH: wstrb passthrough beat=79 expected = 4c, actual =4c
[2005000] SCOREBOARD MATCH: wstrb passthrough beat=80 expected = bf, actual =bf
[2005000] SCOREBOARD MATCH: wstrb passthrough beat=81 expected = d8, actual =d8
[2005000] SCOREBOARD MATCH: wstrb passthrough beat=82 expected = 39, actual =39
[2005000] SCOREBOARD MATCH: wstrb passthrough beat=83 expected = e4, actual =e4
[2005000] SCOREBOARD MATCH: wstrb passthrough beat=84 expected = 21, actual =21
[2005000] SCOREBOARD MATCH: wstrb passthrough beat=85 expected = 63, actual =63
[2005000] SCOREBOARD MATCH: wstrb passthrough beat=86 expected = 30, actual =30
[2005000] SCOREBOARD MATCH: wstrb passthrough beat=87 expected = e0, actual =e0
[2005000] SCOREBOARD MATCH: wstrb passthrough beat=88 expected = 3b, actual =3b
[2005000] SCOREBOARD MATCH: wstrb passthrough beat=89 expected = 69, actual =69
[2005000] SCOREBOARD MATCH: wstrb passthrough beat=90 expected = c4, actual =c4
[2005000] SCOREBOARD MATCH: wstrb passthrough beat=91 expected = 5c, actual =5c
[2005000] SCOREBOARD MATCH: wstrb passthrough beat=92 expected = cc, actual =cc
[2005000] SCOREBOARD MATCH: wstrb passthrough beat=93 expected = f5, actual =f5
[2005000] SCOREBOARD MATCH: wstrb passthrough beat=94 expected = 3c, actual =3c
[2005000] SCOREBOARD MATCH: wstrb passthrough beat=95 expected = 8, actual =8
[2005000] SCOREBOARD MATCH: wstrb passthrough beat=96 expected = 5e, actual =5e
[2005000] SCOREBOARD MATCH: wstrb passthrough beat=97 expected = 1, actual =1
[2005000] SCOREBOARD MATCH: wstrb passthrough beat=98 expected = 64, actual =64
[2005000] SCOREBOARD MATCH: wstrb passthrough beat=99 expected = 2b, actual =2b
[2005000] SCOREBOARD MATCH: wstrb passthrough beat=100 expected = f6, actual =f6
[2005000] SCOREBOARD MATCH: wstrb passthrough beat=101 expected = a1, actual =a1
[2005000] SCOREBOARD MATCH: wstrb passthrough beat=102 expected = 33, actual =33
[2005000] SCOREBOARD MATCH: wstrb passthrough beat=103 expected = 54, actual =54
[2005000] SCOREBOARD MATCH: wstrb passthrough beat=104 expected = a2, actual =a2
[2005000] SCOREBOARD MATCH: wstrb passthrough beat=105 expected = 97, actual =97
[2005000] SCOREBOARD MATCH: wstrb passthrough beat=106 expected = 7f, actual =7f
[2005000] SCOREBOARD MATCH: wstrb passthrough beat=107 expected = 98, actual =98
[2005000] SCOREBOARD MATCH: wstrb passthrough beat=108 expected = 38, actual =38
[2005000] SCOREBOARD MATCH: wstrb passthrough beat=109 expected = b2, actual =b2
[2005000] SCOREBOARD MATCH: wstrb passthrough beat=110 expected = ec, actual =ec
[2005000] SCOREBOARD MATCH: wstrb passthrough beat=111 expected = da, actual =da
[2005000] SCOREBOARD MATCH: wstrb passthrough beat=112 expected = 4a, actual =4a
[2005000] SCOREBOARD MATCH: wstrb passthrough beat=113 expected = 6c, actual =6c
[2005000] SCOREBOARD MATCH: wstrb passthrough beat=114 expected = 72, actual =72
[2005000] SCOREBOARD MATCH: wstrb passthrough beat=115 expected = 82, actual =82
[2005000] SCOREBOARD MATCH: wstrb passthrough beat=116 expected = 1e, actual =1e
[2005000] SCOREBOARD MATCH: wstrb passthrough beat=117 expected = 5f, actual =5f
[2005000] SCOREBOARD MATCH: wstrb passthrough beat=118 expected = 5d, actual =5d
[2005000] SCOREBOARD MATCH: wstrb passthrough beat=119 expected = 68, actual =68
[2005000] SCOREBOARD MATCH: wstrb passthrough beat=120 expected = cb, actual =cb
[2005000] SCOREBOARD MATCH: wstrb passthrough beat=121 expected = cf, actual =cf
[2005000] SCOREBOARD MATCH: wstrb passthrough beat=122 expected = eb, actual =eb
[2005000] SCOREBOARD MATCH: wstrb passthrough beat=123 expected = e9, actual =e9
[2005000] SCOREBOARD MATCH: wstrb passthrough beat=124 expected = 2e, actual =2e
[2005000] SCOREBOARD MATCH: wstrb passthrough beat=125 expected = 48, actual =48
[2005000] SCOREBOARD MATCH: wstrb passthrough beat=126 expected = 52, actual =52
[2005000] SCOREBOARD MATCH: wstrb passthrough beat=127 expected = f9, actual =f9
[2005000] SCOREBOARD MATCH: wstrb passthrough beat=128 expected = 17, actual =17
[2005000] SCOREBOARD MATCH: wstrb passthrough beat=129 expected = 3d, actual =3d
[2005000] SCOREBOARD MATCH: wstrb passthrough beat=130 expected = e3, actual =e3
[2005000] SCOREBOARD MATCH: wstrb passthrough beat=131 expected = 46, actual =46
[2005000] SCOREBOARD MATCH: wstrb passthrough beat=132 expected = 85, actual =85
[2005000] SCOREBOARD MATCH: wstrb passthrough beat=133 expected = 35, actual =35
[2005000] SCOREBOARD MATCH: wstrb passthrough beat=134 expected = 3f, actual =3f
[2005000] SCOREBOARD MATCH: wstrb passthrough beat=135 expected = 9c, actual =9c
[2005000] SCOREBOARD MATCH: wstrb passthrough beat=136 expected = 72, actual =72
[2005000] SCOREBOARD MATCH: wstrb passthrough beat=137 expected = 22, actual =22
[2005000] SCOREBOARD MATCH: wstrb passthrough beat=138 expected = e2, actual =e2
[2005000] SCOREBOARD MATCH: wstrb passthrough beat=139 expected = f7, actual =f7
[2005000] SCOREBOARD MATCH: wstrb passthrough beat=140 expected = 57, actual =57
[2005000] SCOREBOARD MATCH: wstrb passthrough beat=141 expected = 22, actual =22
[2005000] SCOREBOARD MATCH: wstrb passthrough beat=142 expected = 93, actual =93
[2005000] SCOREBOARD MATCH: wstrb passthrough beat=143 expected = c9, actual =c9
[2005000] SCOREBOARD MATCH: wstrb passthrough beat=144 expected = 44, actual =44
[2005000] SCOREBOARD MATCH: wstrb passthrough beat=145 expected = 76, actual =76
[2005000] SCOREBOARD MATCH: wstrb passthrough beat=146 expected = c0, actual =c0
[2005000] SCOREBOARD MATCH: wstrb passthrough beat=147 expected = 9c, actual =9c
[2005000] SCOREBOARD MATCH: wstrb passthrough beat=148 expected = 98, actual =98
[2005000] SCOREBOARD MATCH: wstrb passthrough beat=149 expected = 54, actual =54
[2005000] SCOREBOARD MATCH: wstrb passthrough beat=150 expected = 65, actual =65
[2005000] SCOREBOARD MATCH: wstrb passthrough beat=151 expected = dc, actual =dc
[2005000] SCOREBOARD MATCH: wstrb passthrough beat=152 expected = ca, actual =ca
[2005000] SCOREBOARD MATCH: wstrb passthrough beat=153 expected = 26, actual =26
[2005000] SCOREBOARD MATCH: wstrb passthrough beat=154 expected = 78, actual =78
[2005000] SCOREBOARD MATCH: wstrb passthrough beat=155 expected = 62, actual =62
[2005000] SCOREBOARD MATCH: wstrb passthrough beat=156 expected = 7a, actual =7a
[2005000] SCOREBOARD MATCH: wstrb passthrough beat=157 expected = de, actual =de
[2005000] SCOREBOARD MATCH: wstrb passthrough beat=158 expected = 3e, actual =3e
[2005000] SCOREBOARD MATCH: wstrb passthrough beat=159 expected = 44, actual =44
[2005000] SCOREBOARD MATCH: wstrb passthrough beat=160 expected = 4, actual =4
[2005000] SCOREBOARD MATCH: wstrb passthrough beat=161 expected = b7, actual =b7
[2005000] SCOREBOARD MATCH: wstrb passthrough beat=162 expected = a6, actual =a6
[2005000] SCOREBOARD MATCH: wstrb passthrough beat=163 expected = 7e, actual =7e
[2005000] SCOREBOARD MATCH: wstrb passthrough beat=164 expected = 95, actual =95
[2005000] SCOREBOARD MATCH: wstrb passthrough beat=165 expected = e4, actual =e4
[2005000] SCOREBOARD MATCH: wstrb passthrough beat=166 expected = c2, actual =c2
[2005000] SCOREBOARD MATCH: wstrb passthrough beat=167 expected = 99, actual =99
[2005000] SCOREBOARD MATCH: wstrb passthrough beat=168 expected = 9b, actual =9b
[2005000] SCOREBOARD MATCH: wstrb passthrough beat=169 expected = 68, actual =68
[2005000] SCOREBOARD MATCH: wstrb passthrough beat=170 expected = 17, actual =17
[2005000] SCOREBOARD MATCH: wstrb passthrough beat=171 expected = 30, actual =30
[2005000] SCOREBOARD MATCH: wstrb passthrough beat=172 expected = 4c, actual =4c
[2005000] SCOREBOARD MATCH: wstrb passthrough beat=173 expected = d9, actual =d9
[2005000] SCOREBOARD MATCH: wstrb passthrough beat=174 expected = c9, actual =c9
[2005000] SCOREBOARD MATCH: wstrb passthrough beat=175 expected = e8, actual =e8
[2005000] SCOREBOARD MATCH: wstrb passthrough beat=176 expected = 41, actual =41
[2005000] SCOREBOARD MATCH: wstrb passthrough beat=177 expected = e0, actual =e0
[2005000] SCOREBOARD MATCH: wstrb passthrough beat=178 expected = 18, actual =18
[2005000] SCOREBOARD MATCH: wstrb passthrough beat=179 expected = 8d, actual =8d
[2005000] SCOREBOARD MATCH: wstrb passthrough beat=180 expected = b9, actual =b9
[2005000] SCOREBOARD MATCH: wstrb passthrough beat=181 expected = e2, actual =e2
[2005000] SCOREBOARD MATCH: wstrb passthrough beat=182 expected = 75, actual =75
[2005000] SCOREBOARD MATCH: wstrb passthrough beat=183 expected = fa, actual =fa
[2005000] SCOREBOARD MATCH: wstrb passthrough beat=184 expected = c2, actual =c2
[2005000] SCOREBOARD MATCH: wstrb passthrough beat=185 expected = 8e, actual =8e
[2005000] SCOREBOARD MATCH: wstrb passthrough beat=186 expected = 88, actual =88
[2005000] SCOREBOARD MATCH: bresp passthrough expected = 0, actual =0
[2005000] SCOREBOARD MATCH: response routed to correct master (write) expected = 0, actual =0
