#-----------------------------------------------------------
# xsim v2025.2 (64-bit)
# SW Build 6299465 on Fri Nov 14 12:34:56 MST 2025
# IP Build 6300035 on Fri Nov 14 10:48:45 MST 2025
# SharedData Build 6298862 on Thu Nov 13 04:50:51 MST 2025
# Start of session at: Fri Sep 11 11:49:30 2026
# Process ID         : 719311
# Current directory  : /home/nashita/Desktop/practice/axi_xbar/sim
# Command line       : xsim -log regress_results/BT_run147.log -mode tcl -source {xsim.dir/tb_top_snap/xsim_script.tcl}
# Log file           : /home/nashita/Desktop/practice/axi_xbar/sim/regress_results/BT_run147.log
# Journal file       : /home/nashita/Desktop/practice/axi_xbar/sim/xsim.jou
# Running On         : vlsi-vivado
# Platform           : Ubuntu
# Operating System   : Ubuntu 24.04.4 LTS
# Processor Detail   : Intel(R) Core(TM) i5-10400 CPU @ 2.90GHz
# CPU Frequency      : 3999.967 MHz
# CPU Physical cores : 6
# CPU Logical cores  : 12
# Host memory        : 41875 MB
# Swap memory        : 27648 MB
# Total Virtual      : 69524 MB
# Available Virtual  : 62696 MB
#-----------------------------------------------------------
source xsim.dir/tb_top_snap/xsim_script.tcl
# xsim {tb_top_snap} -testplusarg BT -autoloadwcfg -runall -sv_seed 148
Time resolution is 1 ps
run -all
[0] RUNNING BASE TEST
[0] INSIDE THE BASE TEST CONSTRUCTOR
[0] ENV: before agent
[0] SLAVE CONSTRUCTED
[0] MASTER MONITOR CONSTRUCTED
[0] MASTER MONITOR CONSTRUCTED
[0] SLAVE MONITOR CONSTRUCTED
[0] SLAVE MONITOR CONSTRUCTED
[0] ARB MONITOR CONSTRUCTED
GENERATOR CONSTRUCTED
[0] ENV: after agent
[0] ENV: before scoreboard
[0] ENV: after scoreboard
[15000] [SEQUENCER] READ mst_id=0 s_id=0 araddr=1daad160 arid=0 arlen=1 arsize=3 arburst=1 rid=[] rresp=[] rdata=[]
[15000] [SEQUENCER] READ mst_id=1 s_id=0 araddr=1ed1d560 arid=0 arlen=1 arsize=3 arburst=1 rid=[] rresp=[] rdata=[]
[15000] [SEQUENCER] mst_id=1 s_id=0 awaddr=fc2afa8 awid=1 awlen=5 awsize=4 awburst=1 wdata=[ca11317f0cd7bf21 bd2ee0497e15c55 956e84cfefcb2cbf fca2ebe0fa90cc5e 927228b3df7fb64e cf4ae30d0875d9e4 ] wstrb=[83 42 ed d1 f5 d1 ] bresp=0 bid=0
[15000] [SEQUENCER] mst_id=0 s_id=0 awaddr=19752020 awid=1101 awlen=79 awsize=0 awburst=1 wdata=[a79dac530d335a2e ed3521352112ef58 f841935ca599a0f2 b2ccfb20e231f2f3 344e24b1fdf3fb0 c578e0a2a0021c55 82340f48fb8675a7 9b65b557f845dbc3 9847f8188578f193 ff673be0de95fa d92471bd1a7c0761 9ff4f8f49c651c92 fd43b28cf16c69d5 8be87136a0f4602f 3d597cc2d6682449 c7d48e1f2bdd6a2b ccd1ca5aba9d2f4e 11055398d3bcff55 ff9a69808a2b471c c4c8766bd8d9e1b7 ac96e10ccc6c33db d6977af7d5cdca03 2ea7abba2c314a8d f89d7e689b5ff162 f12dbb65db3e8cc6 876fd753cf34f95f ea94eac29fd5671f fb13f3e6800d55bb cf424f1bdbc2a627 fb980d478283cb39 29120f539d739dd 9599e004f6ac012d f92fcc66d1d37010 baaa9ed9131ed4b 87ddee78fbc0ed5b cd945d6ba14489f1 3276773d010dbadf fccea83ad93f0758 fa83914aba5465b5 bb622094ca6305a6 a3a20cfe2cfa0887 e74e6e3c3830c8cf 293ce759e259e48 cb1fa6cf22b08ed1 dae157a0a635db73 c45b79bc326e150c d51ea3dddd752615 83ab01888f7b208b c1e935972ffffb7d d752192c8067b44 d7819bd09707d974 c707d4f19120231a d9269e5f996ad167 3072aadcd47cf683 e59d199e30a83a2f ca130b96f77a7fcd cbf776513ec3b7fd ef6bf22cfa85b672 f200364031948fef f05847ecb97efdc2 3404b4353df7ac91 ef8c3c80dfc43a18 994337da2604ea75 e3fc9706dfe4846c 3fa8be84cd47ec0f f34cd684d388d386 336d57f2d8ebf65e 2633e26ed7496d8a aad24110f3161676 cc020cd49980b8f2 f0ca267dde3f9902 d155af78f235ef42 bb6a8359b9c678d f9dc00901d57bc4d 8f8dab8ffc80ceb2 981d363fcb31b008 e8896c559b4453c4 97c5227691f936cf dd2ae6d8f81717e5 935b6ba92fe258b6 ] wstrb=[2d 85 20 12 5d d6 bc 8b 5b dc 9d b9 b2 59 44 d 35 e1 c6 e7 3b a f5 70 ec bb 58 27 c6 4d 97 b2 8 ef d9 ce 3c 70 80 45 60 59 13 9c ca 94 e1 2a ed f5 c6 b7 89 a8 e1 76 9d a8 2e 26 50 f 9c ed b7 ca 13 7 da af f4 91 7a 7 99 54 b7 8d e5 31 ] bresp=0 bid=0
[15000] [SEQUENCER] READ mst_id=0 s_id=0 araddr=997a160 arid=2 arlen=1 arsize=3 arburst=1 rid=[] rresp=[] rdata=[]
[15000] MASTER_DRIVER0 received transaction, op=AXI_READ
[15000] MASTER_DRIVER1 received transaction, op=AXI_READ
[35000] MASTER_DRIVER0 received transaction, op=AXI_WRITE
[35000] MASTER_DRIVER1 received transaction, op=AXI_WRITE
[45000] ARB MONITOR: slave=1 m0_req=1 m1_req=1 winner=0
[45000] AXI S0_ARVALID_RDY HANDSHAKE
[45000] MEMORY READ MISS beat=0 addr=1daad160 -> default data id=0
[45000] SCOREBOARD MATCH: arbitration winner (slave 1) expected = 0, actual =0
[55000] MEMORY READ MISS beat=1 addr=1daad168 -> default data id=0
[55000] SLAVE 1 R_VALID_RDY Handshake beat=0 rlast=0
[55000] MASTER 1 AW_VALID_RDY Handshake
[55000] MASTER 0 AW_VALID_RDY Handshake
[65000] ARB MONITOR: slave=0 m0_req=0 m1_req=1 winner=1
[65000] ARB MONITOR: slave=1 m0_req=1 m1_req=0 winner=0
[65000] SLAVE 1 R_VALID_RDY Handshake beat=1 rlast=1
[65000] [SLAVE MONITOR] READ mst_id=0 s_id=1 araddr=1daad160 arid=0 arlen=1 arsize=3 arburst=1 rid=[00] rresp=[00] rdata=[baadf00d12345678baadf00d12345678]
[65000] AXI S1_AWVALID_RDY HANDSHAKE
[65000] AXI S0_AWVALID_RDY HANDSHAKE
[75000] AXI S0_ARVALID_RDY HANDSHAKE
[75000] MEMORY READ MISS beat=0 addr=1ed1d560 -> default data id=16
[75000] ARB MONITOR: slave=1 m0_req=0 m1_req=1 winner=1
[75000] MASTER 1 W_VALID_RDY Handshake beat=0 wlast=0
[75000] MASTER 0 R_VALID_RDY Handshake beat=0 rlast=0
[75000] MASTER 0 W_VALID_RDY Handshake beat=0 wlast=0
[85000] [MASTER DRIVER] READ mst_id=0 s_id=0 araddr=1daad160 arid=0 arlen=1 arsize=3 arburst=1 rid=[00] rresp=[00] rdata=[baadf00d12345678baadf00d12345678]
[85000] MASTER 0 W_VALID_RDY Handshake beat=1 wlast=0
[85000] MASTER 0 R_VALID_RDY Handshake beat=1 rlast=1
[85000] [MASTER MONITOR] READ mst_id=0 s_id=1 araddr=1daad160 arid=0 arlen=1 arsize=3 arburst=1 rid=[00] rresp=[00] rdata=[baadf00d12345678baadf00d12345678]
[85000] MASTER 1 W_VALID_RDY Handshake beat=1 wlast=0
[85000] SLAVE 1 R_VALID_RDY Handshake beat=0 rlast=0
[85000] MEMORY READ MISS beat=1 addr=1ed1d568 -> default data id=16
[85000] S1 MEMORY WRITE beat=0 addr=19752020 data=a79dac530d335a2e id=0d
[85000] AXI S0_WVALID_RDY HANDSHAKE
[85000] S0 MEMORY WRITE beat=0 addr=0fc2afa8 data=ca11317f0cd7bf21 id=11
[85000] SCOREBOARD MATCH: decode_err expected = 0, actual =0
[85000] SCOREBOARD MATCH: slave_id expected = 1, actual =1
[85000] SCOREBOARD MATCH: araddr passthrough expected = 1daad160, actual =1daad160
[85000] SCOREBOARD MATCH: arlen passthrough expected = 1, actual =1
[85000] SCOREBOARD MATCH: arsize passthrough expected = 3, actual =3
[85000] SCOREBOARD MATCH: arburst passthrough expected = 1, actual =1
[85000] SCOREBOARD MATCH: rdata size check expected = 2, actual =2
[85000] SCOREBOARD MATCH: rdata passthrough beat=0 expected = baadf00d12345678, actual =baadf00d12345678
[85000] SCOREBOARD MATCH: rdata passthrough beat=1 expected = baadf00d12345678, actual =baadf00d12345678
[85000] SCOREBOARD MATCH: rresp size check expected = 2, actual =2
[85000] SCOREBOARD MATCH: rresp passthrough beat=0 expected = 0, actual =0
[85000] SCOREBOARD MATCH: rresp passthrough beat=1 expected = 0, actual =0
[85000] SCOREBOARD MATCH: response routed to correct master (read beat 0) expected = 0, actual =0
[85000] SCOREBOARD MATCH: response routed to correct master (read beat 1) expected = 0, actual =0
[85000] [SCOREBOARD-M] READ mst_id=0 s_id=1 araddr=1daad160 arid=0 arlen=1 arsize=3 arburst=1 rid=[00] rresp=[00] rdata=[baadf00d12345678baadf00d12345678]
[85000] [SCOREBOARD-S] READ mst_id=0 s_id=1 araddr=1daad160 arid=0 arlen=1 arsize=3 arburst=1 rid=[00] rresp=[00] rdata=[baadf00d12345678baadf00d12345678]
[85000] SCOREBOARD: Transaction 1 received. pass=15 fail=0
[85000] ALL PASS. Total transactions: 1
[95000] AXI S0_WVALID_RDY HANDSHAKE
[95000] S0 MEMORY WRITE beat=1 addr=0fc2afb8 data=0bd2ee0497e15c55 id=11
[95000] S1 MEMORY WRITE beat=1 addr=19752021 data=ed3521352112ef58 id=0d
[95000] SLAVE 1 R_VALID_RDY Handshake beat=1 rlast=1
[95000] [SLAVE MONITOR] READ mst_id=1 s_id=1 araddr=1ed1d560 arid=0 arlen=1 arsize=3 arburst=1 rid=[1010] rresp=[00] rdata=[baadf00d12345678baadf00d12345678]
[95000] MASTER 1 W_VALID_RDY Handshake beat=2 wlast=0
[95000] MASTER 0 W_VALID_RDY Handshake beat=2 wlast=0
[105000] MASTER 0 W_VALID_RDY Handshake beat=3 wlast=0
[105000] MASTER 1 W_VALID_RDY Handshake beat=3 wlast=0
[105000] MASTER 1 R_VALID_RDY Handshake beat=0 rlast=0
[105000] S1 MEMORY WRITE beat=2 addr=19752022 data=f841935ca599a0f2 id=0d
[105000] AXI S0_WVALID_RDY HANDSHAKE
[105000] S0 MEMORY WRITE beat=2 addr=0fc2afc8 data=956e84cfefcb2cbf id=11
[115000] AXI S0_WVALID_RDY HANDSHAKE
[115000] S0 MEMORY WRITE beat=3 addr=0fc2afd8 data=fca2ebe0fa90cc5e id=11
[115000] S1 MEMORY WRITE beat=3 addr=19752023 data=b2ccfb20e231f2f3 id=0d
[115000] MASTER 1 R_VALID_RDY Handshake beat=1 rlast=1
[115000] [MASTER MONITOR] READ mst_id=1 s_id=1 araddr=1ed1d560 arid=0 arlen=1 arsize=3 arburst=1 rid=[00] rresp=[00] rdata=[baadf00d12345678baadf00d12345678]
[115000] MASTER 1 W_VALID_RDY Handshake beat=4 wlast=0
[115000] MASTER 0 W_VALID_RDY Handshake beat=4 wlast=0
[115000] [MASTER DRIVER] READ mst_id=1 s_id=0 araddr=1ed1d560 arid=0 arlen=1 arsize=3 arburst=1 rid=[00] rresp=[00] rdata=[baadf00d12345678baadf00d12345678]
[115000] SCOREBOARD MATCH: decode_err expected = 0, actual =0
[115000] SCOREBOARD MATCH: slave_id expected = 1, actual =1
[115000] SCOREBOARD MATCH: araddr passthrough expected = 1ed1d560, actual =1ed1d560
[115000] SCOREBOARD MATCH: arlen passthrough expected = 1, actual =1
[115000] SCOREBOARD MATCH: arsize passthrough expected = 3, actual =3
[115000] SCOREBOARD MATCH: arburst passthrough expected = 1, actual =1
[115000] SCOREBOARD MATCH: rdata size check expected = 2, actual =2
[115000] SCOREBOARD MATCH: rdata passthrough beat=0 expected = baadf00d12345678, actual =baadf00d12345678
[115000] SCOREBOARD MATCH: rdata passthrough beat=1 expected = baadf00d12345678, actual =baadf00d12345678
[115000] SCOREBOARD MATCH: rresp size check expected = 2, actual =2
[115000] SCOREBOARD MATCH: rresp passthrough beat=0 expected = 0, actual =0
[115000] SCOREBOARD MATCH: rresp passthrough beat=1 expected = 0, actual =0
[115000] SCOREBOARD MATCH: response routed to correct master (read beat 0) expected = 1, actual =1
[115000] SCOREBOARD MATCH: response routed to correct master (read beat 1) expected = 1, actual =1
[115000] [SCOREBOARD-M] READ mst_id=1 s_id=1 araddr=1ed1d560 arid=0 arlen=1 arsize=3 arburst=1 rid=[00] rresp=[00] rdata=[baadf00d12345678baadf00d12345678]
[115000] [SCOREBOARD-S] READ mst_id=1 s_id=1 araddr=1ed1d560 arid=0 arlen=1 arsize=3 arburst=1 rid=[1010] rresp=[00] rdata=[baadf00d12345678baadf00d12345678]
[115000] SCOREBOARD: Transaction 2 received. pass=29 fail=0
[115000] ALL PASS. Total transactions: 2
[125000] MASTER 0 W_VALID_RDY Handshake beat=5 wlast=0
[125000] MASTER 1 W_VALID_RDY Handshake beat=5 wlast=1
[125000] S1 MEMORY WRITE beat=4 addr=19752024 data=0344e24b1fdf3fb0 id=0d
[125000] AXI S0_WVALID_RDY HANDSHAKE
[125000] S0 MEMORY WRITE beat=4 addr=0fc2afe8 data=927228b3df7fb64e id=11
[135000] AXI S0_WVALID_RDY HANDSHAKE
[135000] S0 MEMORY WRITE beat=5 addr=0fc2aff8 data=cf4ae30d0875d9e4 id=11
[135000] S1 MEMORY WRITE beat=5 addr=19752025 data=c578e0a2a0021c55 id=0d
[135000] MASTER 0 W_VALID_RDY Handshake beat=6 wlast=0
[145000] MASTER 0 W_VALID_RDY Handshake beat=7 wlast=0
[145000] S1 MEMORY WRITE beat=6 addr=19752026 data=82340f48fb8675a7 id=0d
[145000] SLAVE0 sent B resp, id=1
[155000] S1 MEMORY WRITE beat=7 addr=19752027 data=9b65b557f845dbc3 id=0d
[155000] [SLAVE MONITOR] mst_id=1 s_id=0 awaddr=fc2afa8 awid=1 awlen=5 awsize=4 awburst=1 wdata=[ca11317f0cd7bf21 bd2ee0497e15c55 956e84cfefcb2cbf fca2ebe0fa90cc5e 927228b3df7fb64e cf4ae30d0875d9e4 ] wstrb=[83 42 ed d1 f5 d1 ] bresp=0 bid=10001
[155000] MASTER 0 W_VALID_RDY Handshake beat=8 wlast=0
[165000] MASTER 1 RECEIVED BRESP. BRESP=0
[165000] [MASTER DRIVER] mst_id=1 s_id=0 awaddr=fc2afa8 awid=1 awlen=5 awsize=4 awburst=1 wdata=[ca11317f0cd7bf21 bd2ee0497e15c55 956e84cfefcb2cbf fca2ebe0fa90cc5e 927228b3df7fb64e cf4ae30d0875d9e4 ] wstrb=[83 42 ed d1 f5 d1 ] bresp=0 bid=1
[165000] MASTER 0 W_VALID_RDY Handshake beat=9 wlast=0
[165000] MASTER 1 B_VALID_RDY Handshake
[165000] [MASTER MONITOR] mst_id=1 s_id=0 awaddr=fc2afa8 awid=1 awlen=5 awsize=4 awburst=1 wdata=[ca11317f0cd7bf21 bd2ee0497e15c55 956e84cfefcb2cbf fca2ebe0fa90cc5e 927228b3df7fb64e cf4ae30d0875d9e4 ] wstrb=[83 42 ed d1 f5 d1 ] bresp=0 bid=1
[165000] S1 MEMORY WRITE beat=8 addr=19752028 data=9847f8188578f193 id=0d
[165000] SCOREBOARD MATCH: decode_err expected = 0, actual =0
[165000] SCOREBOARD MATCH: slave_id expected = 0, actual =0
[165000] SCOREBOARD MATCH: awaddr passthrough expected = fc2afa8, actual =fc2afa8
[165000] SCOREBOARD MATCH: awlen passthrough expected = 5, actual =5
[165000] SCOREBOARD MATCH: awsize passthrough expected = 4, actual =4
[165000] SCOREBOARD MATCH: awburst passthrough expected = 1, actual =1
[165000] SCOREBOARD MATCH: wdata size check expected = 6, actual =6
[165000] SCOREBOARD MATCH: wdata passthrough beat=0 expected = ca11317f0cd7bf21, actual =ca11317f0cd7bf21
[165000] SCOREBOARD MATCH: wdata passthrough beat=1 expected = bd2ee0497e15c55, actual =bd2ee0497e15c55
[165000] SCOREBOARD MATCH: wdata passthrough beat=2 expected = 956e84cfefcb2cbf, actual =956e84cfefcb2cbf
[165000] SCOREBOARD MATCH: wdata passthrough beat=3 expected = fca2ebe0fa90cc5e, actual =fca2ebe0fa90cc5e
[165000] SCOREBOARD MATCH: wdata passthrough beat=4 expected = 927228b3df7fb64e, actual =927228b3df7fb64e
[165000] SCOREBOARD MATCH: wdata passthrough beat=5 expected = cf4ae30d0875d9e4, actual =cf4ae30d0875d9e4
[165000] SCOREBOARD MATCH: wstrb size check expected = 6, actual =6
[165000] SCOREBOARD MATCH: wstrb passthrough beat=0 expected = 83, actual =83
[165000] SCOREBOARD MATCH: wstrb passthrough beat=1 expected = 42, actual =42
[165000] SCOREBOARD MATCH: wstrb passthrough beat=2 expected = ed, actual =ed
[165000] SCOREBOARD MATCH: wstrb passthrough beat=3 expected = d1, actual =d1
[165000] SCOREBOARD MATCH: wstrb passthrough beat=4 expected = f5, actual =f5
[165000] SCOREBOARD MATCH: wstrb passthrough beat=5 expected = d1, actual =d1
[165000] SCOREBOARD MATCH: bresp passthrough expected = 0, actual =0
[165000] SCOREBOARD MATCH: response routed to correct master (write) expected = 1, actual =1
[165000] [SCOREBOARD-M] mst_id=1 s_id=0 awaddr=fc2afa8 awid=1 awlen=5 awsize=4 awburst=1 wdata=[ca11317f0cd7bf21 bd2ee0497e15c55 956e84cfefcb2cbf fca2ebe0fa90cc5e 927228b3df7fb64e cf4ae30d0875d9e4 ] wstrb=[83 42 ed d1 f5 d1 ] bresp=0 bid=1
[165000] [SCOREBOARD-S] mst_id=1 s_id=0 awaddr=fc2afa8 awid=1 awlen=5 awsize=4 awburst=1 wdata=[ca11317f0cd7bf21 bd2ee0497e15c55 956e84cfefcb2cbf fca2ebe0fa90cc5e 927228b3df7fb64e cf4ae30d0875d9e4 ] wstrb=[83 42 ed d1 f5 d1 ] bresp=0 bid=10001
[165000] SCOREBOARD: Transaction 3 received. pass=51 fail=0
[165000] ALL PASS. Total transactions: 3
[175000] S1 MEMORY WRITE beat=9 addr=19752029 data=00ff673be0de95fa id=0d
[175000] MASTER 0 W_VALID_RDY Handshake beat=10 wlast=0
[185000] MASTER 0 W_VALID_RDY Handshake beat=11 wlast=0
[185000] S1 MEMORY WRITE beat=10 addr=1975202a data=d92471bd1a7c0761 id=0d
[195000] S1 MEMORY WRITE beat=11 addr=1975202b data=9ff4f8f49c651c92 id=0d
[195000] MASTER 0 W_VALID_RDY Handshake beat=12 wlast=0
[205000] MASTER 0 W_VALID_RDY Handshake beat=13 wlast=0
[205000] S1 MEMORY WRITE beat=12 addr=1975202c data=fd43b28cf16c69d5 id=0d
[215000] S1 MEMORY WRITE beat=13 addr=1975202d data=8be87136a0f4602f id=0d
[215000] MASTER 0 W_VALID_RDY Handshake beat=14 wlast=0
[225000] MASTER 0 W_VALID_RDY Handshake beat=15 wlast=0
[225000] S1 MEMORY WRITE beat=14 addr=1975202e data=3d597cc2d6682449 id=0d
[235000] S1 MEMORY WRITE beat=15 addr=1975202f data=c7d48e1f2bdd6a2b id=0d
[235000] MASTER 0 W_VALID_RDY Handshake beat=16 wlast=0
[245000] MASTER 0 W_VALID_RDY Handshake beat=17 wlast=0
[245000] S1 MEMORY WRITE beat=16 addr=19752030 data=ccd1ca5aba9d2f4e id=0d
[255000] S1 MEMORY WRITE beat=17 addr=19752031 data=11055398d3bcff55 id=0d
[255000] MASTER 0 W_VALID_RDY Handshake beat=18 wlast=0
[265000] MASTER 0 W_VALID_RDY Handshake beat=19 wlast=0
[265000] S1 MEMORY WRITE beat=18 addr=19752032 data=ff9a69808a2b471c id=0d
[275000] S1 MEMORY WRITE beat=19 addr=19752033 data=c4c8766bd8d9e1b7 id=0d
[275000] MASTER 0 W_VALID_RDY Handshake beat=20 wlast=0
[285000] MASTER 0 W_VALID_RDY Handshake beat=21 wlast=0
[285000] S1 MEMORY WRITE beat=20 addr=19752034 data=ac96e10ccc6c33db id=0d
[295000] S1 MEMORY WRITE beat=21 addr=19752035 data=d6977af7d5cdca03 id=0d
[295000] MASTER 0 W_VALID_RDY Handshake beat=22 wlast=0
[305000] MASTER 0 W_VALID_RDY Handshake beat=23 wlast=0
[305000] S1 MEMORY WRITE beat=22 addr=19752036 data=2ea7abba2c314a8d id=0d
[315000] S1 MEMORY WRITE beat=23 addr=19752037 data=f89d7e689b5ff162 id=0d
[315000] MASTER 0 W_VALID_RDY Handshake beat=24 wlast=0
[325000] MASTER 0 W_VALID_RDY Handshake beat=25 wlast=0
[325000] S1 MEMORY WRITE beat=24 addr=19752038 data=f12dbb65db3e8cc6 id=0d
[335000] S1 MEMORY WRITE beat=25 addr=19752039 data=876fd753cf34f95f id=0d
[335000] MASTER 0 W_VALID_RDY Handshake beat=26 wlast=0
[345000] MASTER 0 W_VALID_RDY Handshake beat=27 wlast=0
[345000] S1 MEMORY WRITE beat=26 addr=1975203a data=ea94eac29fd5671f id=0d
[355000] S1 MEMORY WRITE beat=27 addr=1975203b data=fb13f3e6800d55bb id=0d
[355000] MASTER 0 W_VALID_RDY Handshake beat=28 wlast=0
[365000] MASTER 0 W_VALID_RDY Handshake beat=29 wlast=0
[365000] S1 MEMORY WRITE beat=28 addr=1975203c data=cf424f1bdbc2a627 id=0d
[375000] S1 MEMORY WRITE beat=29 addr=1975203d data=fb980d478283cb39 id=0d
[375000] MASTER 0 W_VALID_RDY Handshake beat=30 wlast=0
[385000] MASTER 0 W_VALID_RDY Handshake beat=31 wlast=0
[385000] S1 MEMORY WRITE beat=30 addr=1975203e data=029120f539d739dd id=0d
[395000] S1 MEMORY WRITE beat=31 addr=1975203f data=9599e004f6ac012d id=0d
[395000] MASTER 0 W_VALID_RDY Handshake beat=32 wlast=0
[405000] MASTER 0 W_VALID_RDY Handshake beat=33 wlast=0
[405000] S1 MEMORY WRITE beat=32 addr=19752040 data=f92fcc66d1d37010 id=0d
[415000] S1 MEMORY WRITE beat=33 addr=19752041 data=0baaa9ed9131ed4b id=0d
[415000] MASTER 0 W_VALID_RDY Handshake beat=34 wlast=0
[425000] MASTER 0 W_VALID_RDY Handshake beat=35 wlast=0
[425000] S1 MEMORY WRITE beat=34 addr=19752042 data=87ddee78fbc0ed5b id=0d
[435000] S1 MEMORY WRITE beat=35 addr=19752043 data=cd945d6ba14489f1 id=0d
[435000] MASTER 0 W_VALID_RDY Handshake beat=36 wlast=0
[445000] MASTER 0 W_VALID_RDY Handshake beat=37 wlast=0
[445000] S1 MEMORY WRITE beat=36 addr=19752044 data=3276773d010dbadf id=0d
[455000] S1 MEMORY WRITE beat=37 addr=19752045 data=fccea83ad93f0758 id=0d
[455000] MASTER 0 W_VALID_RDY Handshake beat=38 wlast=0
[465000] MASTER 0 W_VALID_RDY Handshake beat=39 wlast=0
[465000] S1 MEMORY WRITE beat=38 addr=19752046 data=fa83914aba5465b5 id=0d
[475000] S1 MEMORY WRITE beat=39 addr=19752047 data=bb622094ca6305a6 id=0d
[475000] MASTER 0 W_VALID_RDY Handshake beat=40 wlast=0
[485000] MASTER 0 W_VALID_RDY Handshake beat=41 wlast=0
[485000] S1 MEMORY WRITE beat=40 addr=19752048 data=a3a20cfe2cfa0887 id=0d
[495000] S1 MEMORY WRITE beat=41 addr=19752049 data=e74e6e3c3830c8cf id=0d
[495000] MASTER 0 W_VALID_RDY Handshake beat=42 wlast=0
[505000] MASTER 0 W_VALID_RDY Handshake beat=43 wlast=0
[505000] S1 MEMORY WRITE beat=42 addr=1975204a data=0293ce759e259e48 id=0d
[515000] S1 MEMORY WRITE beat=43 addr=1975204b data=cb1fa6cf22b08ed1 id=0d
[515000] MASTER 0 W_VALID_RDY Handshake beat=44 wlast=0
[525000] MASTER 0 W_VALID_RDY Handshake beat=45 wlast=0
[525000] S1 MEMORY WRITE beat=44 addr=1975204c data=dae157a0a635db73 id=0d
[535000] S1 MEMORY WRITE beat=45 addr=1975204d data=c45b79bc326e150c id=0d
[535000] MASTER 0 W_VALID_RDY Handshake beat=46 wlast=0
[545000] MASTER 0 W_VALID_RDY Handshake beat=47 wlast=0
[545000] S1 MEMORY WRITE beat=46 addr=1975204e data=d51ea3dddd752615 id=0d
[555000] S1 MEMORY WRITE beat=47 addr=1975204f data=83ab01888f7b208b id=0d
[555000] MASTER 0 W_VALID_RDY Handshake beat=48 wlast=0
[565000] MASTER 0 W_VALID_RDY Handshake beat=49 wlast=0
[565000] S1 MEMORY WRITE beat=48 addr=19752050 data=c1e935972ffffb7d id=0d
[575000] S1 MEMORY WRITE beat=49 addr=19752051 data=0d752192c8067b44 id=0d
[575000] MASTER 0 W_VALID_RDY Handshake beat=50 wlast=0
[585000] MASTER 0 W_VALID_RDY Handshake beat=51 wlast=0
[585000] S1 MEMORY WRITE beat=50 addr=19752052 data=d7819bd09707d974 id=0d
[595000] S1 MEMORY WRITE beat=51 addr=19752053 data=c707d4f19120231a id=0d
[595000] MASTER 0 W_VALID_RDY Handshake beat=52 wlast=0
[605000] MASTER 0 W_VALID_RDY Handshake beat=53 wlast=0
[605000] S1 MEMORY WRITE beat=52 addr=19752054 data=d9269e5f996ad167 id=0d
[615000] S1 MEMORY WRITE beat=53 addr=19752055 data=3072aadcd47cf683 id=0d
[615000] MASTER 0 W_VALID_RDY Handshake beat=54 wlast=0
[625000] MASTER 0 W_VALID_RDY Handshake beat=55 wlast=0
[625000] S1 MEMORY WRITE beat=54 addr=19752056 data=e59d199e30a83a2f id=0d
[635000] S1 MEMORY WRITE beat=55 addr=19752057 data=ca130b96f77a7fcd id=0d
[635000] MASTER 0 W_VALID_RDY Handshake beat=56 wlast=0
[645000] MASTER 0 W_VALID_RDY Handshake beat=57 wlast=0
[645000] S1 MEMORY WRITE beat=56 addr=19752058 data=cbf776513ec3b7fd id=0d
[655000] S1 MEMORY WRITE beat=57 addr=19752059 data=ef6bf22cfa85b672 id=0d
[655000] MASTER 0 W_VALID_RDY Handshake beat=58 wlast=0
[665000] MASTER 0 W_VALID_RDY Handshake beat=59 wlast=0
[665000] S1 MEMORY WRITE beat=58 addr=1975205a data=f200364031948fef id=0d
[675000] S1 MEMORY WRITE beat=59 addr=1975205b data=f05847ecb97efdc2 id=0d
[675000] MASTER 0 W_VALID_RDY Handshake beat=60 wlast=0
[685000] MASTER 0 W_VALID_RDY Handshake beat=61 wlast=0
[685000] S1 MEMORY WRITE beat=60 addr=1975205c data=3404b4353df7ac91 id=0d
[695000] S1 MEMORY WRITE beat=61 addr=1975205d data=ef8c3c80dfc43a18 id=0d
[695000] MASTER 0 W_VALID_RDY Handshake beat=62 wlast=0
[705000] MASTER 0 W_VALID_RDY Handshake beat=63 wlast=0
[705000] S1 MEMORY WRITE beat=62 addr=1975205e data=994337da2604ea75 id=0d
[715000] S1 MEMORY WRITE beat=63 addr=1975205f data=e3fc9706dfe4846c id=0d
[715000] MASTER 0 W_VALID_RDY Handshake beat=64 wlast=0
[725000] MASTER 0 W_VALID_RDY Handshake beat=65 wlast=0
[725000] S1 MEMORY WRITE beat=64 addr=19752060 data=3fa8be84cd47ec0f id=0d
[735000] S1 MEMORY WRITE beat=65 addr=19752061 data=f34cd684d388d386 id=0d
[735000] MASTER 0 W_VALID_RDY Handshake beat=66 wlast=0
[745000] MASTER 0 W_VALID_RDY Handshake beat=67 wlast=0
[745000] S1 MEMORY WRITE beat=66 addr=19752062 data=336d57f2d8ebf65e id=0d
[755000] S1 MEMORY WRITE beat=67 addr=19752063 data=2633e26ed7496d8a id=0d
[755000] MASTER 0 W_VALID_RDY Handshake beat=68 wlast=0
[765000] MASTER 0 W_VALID_RDY Handshake beat=69 wlast=0
[765000] S1 MEMORY WRITE beat=68 addr=19752064 data=aad24110f3161676 id=0d
[775000] S1 MEMORY WRITE beat=69 addr=19752065 data=cc020cd49980b8f2 id=0d
[775000] MASTER 0 W_VALID_RDY Handshake beat=70 wlast=0
[785000] MASTER 0 W_VALID_RDY Handshake beat=71 wlast=0
[785000] S1 MEMORY WRITE beat=70 addr=19752066 data=f0ca267dde3f9902 id=0d
[795000] S1 MEMORY WRITE beat=71 addr=19752067 data=d155af78f235ef42 id=0d
[795000] MASTER 0 W_VALID_RDY Handshake beat=72 wlast=0
[805000] MASTER 0 W_VALID_RDY Handshake beat=73 wlast=0
[805000] S1 MEMORY WRITE beat=72 addr=19752068 data=0bb6a8359b9c678d id=0d
[815000] S1 MEMORY WRITE beat=73 addr=19752069 data=f9dc00901d57bc4d id=0d
[815000] MASTER 0 W_VALID_RDY Handshake beat=74 wlast=0
[825000] MASTER 0 W_VALID_RDY Handshake beat=75 wlast=0
[825000] S1 MEMORY WRITE beat=74 addr=1975206a data=8f8dab8ffc80ceb2 id=0d
[835000] S1 MEMORY WRITE beat=75 addr=1975206b data=981d363fcb31b008 id=0d
[835000] MASTER 0 W_VALID_RDY Handshake beat=76 wlast=0
[845000] MASTER 0 W_VALID_RDY Handshake beat=77 wlast=0
[845000] S1 MEMORY WRITE beat=76 addr=1975206c data=e8896c559b4453c4 id=0d
[855000] S1 MEMORY WRITE beat=77 addr=1975206d data=97c5227691f936cf id=0d
[855000] MASTER 0 W_VALID_RDY Handshake beat=78 wlast=0
[865000] MASTER_DRIVER0 received transaction, op=AXI_READ
[865000] MASTER 0 W_VALID_RDY Handshake beat=79 wlast=1
[865000] S1 MEMORY WRITE beat=78 addr=1975206e data=dd2ae6d8f81717e5 id=0d
[875000] S1 MEMORY WRITE beat=79 addr=1975206f data=935b6ba92fe258b6 id=0d
[885000] SLAVE1 sent B resp, id=13
[895000] AXI S0_ARVALID_RDY HANDSHAKE
[895000] MEMORY READ MISS beat=0 addr=997a160 -> default data id=2
[895000] [SLAVE MONITOR] mst_id=0 s_id=1 awaddr=19752020 awid=1101 awlen=79 awsize=0 awburst=1 wdata=[a79dac530d335a2e ed3521352112ef58 f841935ca599a0f2 b2ccfb20e231f2f3 344e24b1fdf3fb0 c578e0a2a0021c55 82340f48fb8675a7 9b65b557f845dbc3 9847f8188578f193 ff673be0de95fa d92471bd1a7c0761 9ff4f8f49c651c92 fd43b28cf16c69d5 8be87136a0f4602f 3d597cc2d6682449 c7d48e1f2bdd6a2b ccd1ca5aba9d2f4e 11055398d3bcff55 ff9a69808a2b471c c4c8766bd8d9e1b7 ac96e10ccc6c33db d6977af7d5cdca03 2ea7abba2c314a8d f89d7e689b5ff162 f12dbb65db3e8cc6 876fd753cf34f95f ea94eac29fd5671f fb13f3e6800d55bb cf424f1bdbc2a627 fb980d478283cb39 29120f539d739dd 9599e004f6ac012d f92fcc66d1d37010 baaa9ed9131ed4b 87ddee78fbc0ed5b cd945d6ba14489f1 3276773d010dbadf fccea83ad93f0758 fa83914aba5465b5 bb622094ca6305a6 a3a20cfe2cfa0887 e74e6e3c3830c8cf 293ce759e259e48 cb1fa6cf22b08ed1 dae157a0a635db73 c45b79bc326e150c d51ea3dddd752615 83ab01888f7b208b c1e935972ffffb7d d752192c8067b44 d7819bd09707d974 c707d4f19120231a d9269e5f996ad167 3072aadcd47cf683 e59d199e30a83a2f ca130b96f77a7fcd cbf776513ec3b7fd ef6bf22cfa85b672 f200364031948fef f05847ecb97efdc2 3404b4353df7ac91 ef8c3c80dfc43a18 994337da2604ea75 e3fc9706dfe4846c 3fa8be84cd47ec0f f34cd684d388d386 336d57f2d8ebf65e 2633e26ed7496d8a aad24110f3161676 cc020cd49980b8f2 f0ca267dde3f9902 d155af78f235ef42 bb6a8359b9c678d f9dc00901d57bc4d 8f8dab8ffc80ceb2 981d363fcb31b008 e8896c559b4453c4 97c5227691f936cf dd2ae6d8f81717e5 935b6ba92fe258b6 ] wstrb=[2d 85 20 12 5d d6 bc 8b 5b dc 9d b9 b2 59 44 d 35 e1 c6 e7 3b a f5 70 ec bb 58 27 c6 4d 97 b2 8 ef d9 ce 3c 70 80 45 60 59 13 9c ca 94 e1 2a ed f5 c6 b7 89 a8 e1 76 9d a8 2e 26 50 f 9c ed b7 ca 13 7 da af f4 91 7a 7 99 54 b7 8d e5 31 ] bresp=0 bid=1101
[895000] ARB MONITOR: slave=0 m0_req=1 m1_req=0 winner=0
[905000] MASTER 0 RECEIVED BRESP. BRESP=0
[905000] [MASTER DRIVER] mst_id=0 s_id=0 awaddr=19752020 awid=1101 awlen=79 awsize=0 awburst=1 wdata=[a79dac530d335a2e ed3521352112ef58 f841935ca599a0f2 b2ccfb20e231f2f3 344e24b1fdf3fb0 c578e0a2a0021c55 82340f48fb8675a7 9b65b557f845dbc3 9847f8188578f193 ff673be0de95fa d92471bd1a7c0761 9ff4f8f49c651c92 fd43b28cf16c69d5 8be87136a0f4602f 3d597cc2d6682449 c7d48e1f2bdd6a2b ccd1ca5aba9d2f4e 11055398d3bcff55 ff9a69808a2b471c c4c8766bd8d9e1b7 ac96e10ccc6c33db d6977af7d5cdca03 2ea7abba2c314a8d f89d7e689b5ff162 f12dbb65db3e8cc6 876fd753cf34f95f ea94eac29fd5671f fb13f3e6800d55bb cf424f1bdbc2a627 fb980d478283cb39 29120f539d739dd 9599e004f6ac012d f92fcc66d1d37010 baaa9ed9131ed4b 87ddee78fbc0ed5b cd945d6ba14489f1 3276773d010dbadf fccea83ad93f0758 fa83914aba5465b5 bb622094ca6305a6 a3a20cfe2cfa0887 e74e6e3c3830c8cf 293ce759e259e48 cb1fa6cf22b08ed1 dae157a0a635db73 c45b79bc326e150c d51ea3dddd752615 83ab01888f7b208b c1e935972ffffb7d d752192c8067b44 d7819bd09707d974 c707d4f19120231a d9269e5f996ad167 3072aadcd47cf683 e59d199e30a83a2f ca130b96f77a7fcd cbf776513ec3b7fd ef6bf22cfa85b672 f200364031948fef f05847ecb97efdc2 3404b4353df7ac91 ef8c3c80dfc43a18 994337da2604ea75 e3fc9706dfe4846c 3fa8be84cd47ec0f f34cd684d388d386 336d57f2d8ebf65e 2633e26ed7496d8a aad24110f3161676 cc020cd49980b8f2 f0ca267dde3f9902 d155af78f235ef42 bb6a8359b9c678d f9dc00901d57bc4d 8f8dab8ffc80ceb2 981d363fcb31b008 e8896c559b4453c4 97c5227691f936cf dd2ae6d8f81717e5 935b6ba92fe258b6 ] wstrb=[2d 85 20 12 5d d6 bc 8b 5b dc 9d b9 b2 59 44 d 35 e1 c6 e7 3b a f5 70 ec bb 58 27 c6 4d 97 b2 8 ef d9 ce 3c 70 80 45 60 59 13 9c ca 94 e1 2a ed f5 c6 b7 89 a8 e1 76 9d a8 2e 26 50 f 9c ed b7 ca 13 7 da af f4 91 7a 7 99 54 b7 8d e5 31 ] bresp=0 bid=1101
[905000] MASTER 0 B_VALID_RDY Handshake
[905000] [MASTER MONITOR] mst_id=0 s_id=1 awaddr=19752020 awid=1101 awlen=79 awsize=0 awburst=1 wdata=[a79dac530d335a2e ed3521352112ef58 f841935ca599a0f2 b2ccfb20e231f2f3 344e24b1fdf3fb0 c578e0a2a0021c55 82340f48fb8675a7 9b65b557f845dbc3 9847f8188578f193 ff673be0de95fa d92471bd1a7c0761 9ff4f8f49c651c92 fd43b28cf16c69d5 8be87136a0f4602f 3d597cc2d6682449 c7d48e1f2bdd6a2b ccd1ca5aba9d2f4e 11055398d3bcff55 ff9a69808a2b471c c4c8766bd8d9e1b7 ac96e10ccc6c33db d6977af7d5cdca03 2ea7abba2c314a8d f89d7e689b5ff162 f12dbb65db3e8cc6 876fd753cf34f95f ea94eac29fd5671f fb13f3e6800d55bb cf424f1bdbc2a627 fb980d478283cb39 29120f539d739dd 9599e004f6ac012d f92fcc66d1d37010 baaa9ed9131ed4b 87ddee78fbc0ed5b cd945d6ba14489f1 3276773d010dbadf fccea83ad93f0758 fa83914aba5465b5 bb622094ca6305a6 a3a20cfe2cfa0887 e74e6e3c3830c8cf 293ce759e259e48 cb1fa6cf22b08ed1 dae157a0a635db73 c45b79bc326e150c d51ea3dddd752615 83ab01888f7b208b c1e935972ffffb7d d752192c8067b44 d7819bd09707d974 c707d4f19120231a d9269e5f996ad167 3072aadcd47cf683 e59d199e30a83a2f ca130b96f77a7fcd cbf776513ec3b7fd ef6bf22cfa85b672 f200364031948fef f05847ecb97efdc2 3404b4353df7ac91 ef8c3c80dfc43a18 994337da2604ea75 e3fc9706dfe4846c 3fa8be84cd47ec0f f34cd684d388d386 336d57f2d8ebf65e 2633e26ed7496d8a aad24110f3161676 cc020cd49980b8f2 f0ca267dde3f9902 d155af78f235ef42 bb6a8359b9c678d f9dc00901d57bc4d 8f8dab8ffc80ceb2 981d363fcb31b008 e8896c559b4453c4 97c5227691f936cf dd2ae6d8f81717e5 935b6ba92fe258b6 ] wstrb=[2d 85 20 12 5d d6 bc 8b 5b dc 9d b9 b2 59 44 d 35 e1 c6 e7 3b a f5 70 ec bb 58 27 c6 4d 97 b2 8 ef d9 ce 3c 70 80 45 60 59 13 9c ca 94 e1 2a ed f5 c6 b7 89 a8 e1 76 9d a8 2e 26 50 f 9c ed b7 ca 13 7 da af f4 91 7a 7 99 54 b7 8d e5 31 ] bresp=0 bid=1101
[905000] SLAVE 0 R_VALID_RDY Handshake beat=0 rlast=0
[905000] MEMORY READ MISS beat=1 addr=997a168 -> default data id=2
[905000] SCOREBOARD MATCH: decode_err expected = 0, actual =0
[905000] SCOREBOARD MATCH: slave_id expected = 1, actual =1
[905000] SCOREBOARD MATCH: awaddr passthrough expected = 19752020, actual =19752020
[905000] SCOREBOARD MATCH: awlen passthrough expected = 79, actual =79
[905000] SCOREBOARD MATCH: awsize passthrough expected = 0, actual =0
[905000] SCOREBOARD MATCH: awburst passthrough expected = 1, actual =1
[905000] SCOREBOARD MATCH: wdata size check expected = 50, actual =50
[905000] SCOREBOARD MATCH: wdata passthrough beat=0 expected = a79dac530d335a2e, actual =a79dac530d335a2e
[905000] SCOREBOARD MATCH: wdata passthrough beat=1 expected = ed3521352112ef58, actual =ed3521352112ef58
[905000] SCOREBOARD MATCH: wdata passthrough beat=2 expected = f841935ca599a0f2, actual =f841935ca599a0f2
[905000] SCOREBOARD MATCH: wdata passthrough beat=3 expected = b2ccfb20e231f2f3, actual =b2ccfb20e231f2f3
[905000] SCOREBOARD MATCH: wdata passthrough beat=4 expected = 344e24b1fdf3fb0, actual =344e24b1fdf3fb0
[905000] SCOREBOARD MATCH: wdata passthrough beat=5 expected = c578e0a2a0021c55, actual =c578e0a2a0021c55
[905000] SCOREBOARD MATCH: wdata passthrough beat=6 expected = 82340f48fb8675a7, actual =82340f48fb8675a7
[905000] SCOREBOARD MATCH: wdata passthrough beat=7 expected = 9b65b557f845dbc3, actual =9b65b557f845dbc3
[905000] SCOREBOARD MATCH: wdata passthrough beat=8 expected = 9847f8188578f193, actual =9847f8188578f193
[905000] SCOREBOARD MATCH: wdata passthrough beat=9 expected = ff673be0de95fa, actual =ff673be0de95fa
[905000] SCOREBOARD MATCH: wdata passthrough beat=10 expected = d92471bd1a7c0761, actual =d92471bd1a7c0761
[905000] SCOREBOARD MATCH: wdata passthrough beat=11 expected = 9ff4f8f49c651c92, actual =9ff4f8f49c651c92
[905000] SCOREBOARD MATCH: wdata passthrough beat=12 expected = fd43b28cf16c69d5, actual =fd43b28cf16c69d5
[905000] SCOREBOARD MATCH: wdata passthrough beat=13 expected = 8be87136a0f4602f, actual =8be87136a0f4602f
[905000] SCOREBOARD MATCH: wdata passthrough beat=14 expected = 3d597cc2d6682449, actual =3d597cc2d6682449
[905000] SCOREBOARD MATCH: wdata passthrough beat=15 expected = c7d48e1f2bdd6a2b, actual =c7d48e1f2bdd6a2b
[905000] SCOREBOARD MATCH: wdata passthrough beat=16 expected = ccd1ca5aba9d2f4e, actual =ccd1ca5aba9d2f4e
[905000] SCOREBOARD MATCH: wdata passthrough beat=17 expected = 11055398d3bcff55, actual =11055398d3bcff55
[905000] SCOREBOARD MATCH: wdata passthrough beat=18 expected = ff9a69808a2b471c, actual =ff9a69808a2b471c
[905000] SCOREBOARD MATCH: wdata passthrough beat=19 expected = c4c8766bd8d9e1b7, actual =c4c8766bd8d9e1b7
[905000] SCOREBOARD MATCH: wdata passthrough beat=20 expected = ac96e10ccc6c33db, actual =ac96e10ccc6c33db
[905000] SCOREBOARD MATCH: wdata passthrough beat=21 expected = d6977af7d5cdca03, actual =d6977af7d5cdca03
[905000] SCOREBOARD MATCH: wdata passthrough beat=22 expected = 2ea7abba2c314a8d, actual =2ea7abba2c314a8d
[905000] SCOREBOARD MATCH: wdata passthrough beat=23 expected = f89d7e689b5ff162, actual =f89d7e689b5ff162
[905000] SCOREBOARD MATCH: wdata passthrough beat=24 expected = f12dbb65db3e8cc6, actual =f12dbb65db3e8cc6
[905000] SCOREBOARD MATCH: wdata passthrough beat=25 expected = 876fd753cf34f95f, actual =876fd753cf34f95f
[905000] SCOREBOARD MATCH: wdata passthrough beat=26 expected = ea94eac29fd5671f, actual =ea94eac29fd5671f
[905000] SCOREBOARD MATCH: wdata passthrough beat=27 expected = fb13f3e6800d55bb, actual =fb13f3e6800d55bb
[905000] SCOREBOARD MATCH: wdata passthrough beat=28 expected = cf424f1bdbc2a627, actual =cf424f1bdbc2a627
[905000] SCOREBOARD MATCH: wdata passthrough beat=29 expected = fb980d478283cb39, actual =fb980d478283cb39
[905000] SCOREBOARD MATCH: wdata passthrough beat=30 expected = 29120f539d739dd, actual =29120f539d739dd
[905000] SCOREBOARD MATCH: wdata passthrough beat=31 expected = 9599e004f6ac012d, actual =9599e004f6ac012d
[905000] SCOREBOARD MATCH: wdata passthrough beat=32 expected = f92fcc66d1d37010, actual =f92fcc66d1d37010
[905000] SCOREBOARD MATCH: wdata passthrough beat=33 expected = baaa9ed9131ed4b, actual =baaa9ed9131ed4b
[905000] SCOREBOARD MATCH: wdata passthrough beat=34 expected = 87ddee78fbc0ed5b, actual =87ddee78fbc0ed5b
[905000] SCOREBOARD MATCH: wdata passthrough beat=35 expected = cd945d6ba14489f1, actual =cd945d6ba14489f1
[905000] SCOREBOARD MATCH: wdata passthrough beat=36 expected = 3276773d010dbadf, actual =3276773d010dbadf
[905000] SCOREBOARD MATCH: wdata passthrough beat=37 expected = fccea83ad93f0758, actual =fccea83ad93f0758
[905000] SCOREBOARD MATCH: wdata passthrough beat=38 expected = fa83914aba5465b5, actual =fa83914aba5465b5
[905000] SCOREBOARD MATCH: wdata passthrough beat=39 expected = bb622094ca6305a6, actual =bb622094ca6305a6
[905000] SCOREBOARD MATCH: wdata passthrough beat=40 expected = a3a20cfe2cfa0887, actual =a3a20cfe2cfa0887
[905000] SCOREBOARD MATCH: wdata passthrough beat=41 expected = e74e6e3c3830c8cf, actual =e74e6e3c3830c8cf
[905000] SCOREBOARD MATCH: wdata passthrough beat=42 expected = 293ce759e259e48, actual =293ce759e259e48
[905000] SCOREBOARD MATCH: wdata passthrough beat=43 expected = cb1fa6cf22b08ed1, actual =cb1fa6cf22b08ed1
[905000] SCOREBOARD MATCH: wdata passthrough beat=44 expected = dae157a0a635db73, actual =dae157a0a635db73
[905000] SCOREBOARD MATCH: wdata passthrough beat=45 expected = c45b79bc326e150c, actual =c45b79bc326e150c
[905000] SCOREBOARD MATCH: wdata passthrough beat=46 expected = d51ea3dddd752615, actual =d51ea3dddd752615
[905000] SCOREBOARD MATCH: wdata passthrough beat=47 expected = 83ab01888f7b208b, actual =83ab01888f7b208b
[905000] SCOREBOARD MATCH: wdata passthrough beat=48 expected = c1e935972ffffb7d, actual =c1e935972ffffb7d
[905000] SCOREBOARD MATCH: wdata passthrough beat=49 expected = d752192c8067b44, actual =d752192c8067b44
[905000] SCOREBOARD MATCH: wdata passthrough beat=50 expected = d7819bd09707d974, actual =d7819bd09707d974
[905000] SCOREBOARD MATCH: wdata passthrough beat=51 expected = c707d4f19120231a, actual =c707d4f19120231a
[905000] SCOREBOARD MATCH: wdata passthrough beat=52 expected = d9269e5f996ad167, actual =d9269e5f996ad167
[905000] SCOREBOARD MATCH: wdata passthrough beat=53 expected = 3072aadcd47cf683, actual =3072aadcd47cf683
[905000] SCOREBOARD MATCH: wdata passthrough beat=54 expected = e59d199e30a83a2f, actual =e59d199e30a83a2f
[905000] SCOREBOARD MATCH: wdata passthrough beat=55 expected = ca130b96f77a7fcd, actual =ca130b96f77a7fcd
[905000] SCOREBOARD MATCH: wdata passthrough beat=56 expected = cbf776513ec3b7fd, actual =cbf776513ec3b7fd
[905000] SCOREBOARD MATCH: wdata passthrough beat=57 expected = ef6bf22cfa85b672, actual =ef6bf22cfa85b672
[905000] SCOREBOARD MATCH: wdata passthrough beat=58 expected = f200364031948fef, actual =f200364031948fef
[905000] SCOREBOARD MATCH: wdata passthrough beat=59 expected = f05847ecb97efdc2, actual =f05847ecb97efdc2
[905000] SCOREBOARD MATCH: wdata passthrough beat=60 expected = 3404b4353df7ac91, actual =3404b4353df7ac91
[905000] SCOREBOARD MATCH: wdata passthrough beat=61 expected = ef8c3c80dfc43a18, actual =ef8c3c80dfc43a18
[905000] SCOREBOARD MATCH: wdata passthrough beat=62 expected = 994337da2604ea75, actual =994337da2604ea75
[905000] SCOREBOARD MATCH: wdata passthrough beat=63 expected = e3fc9706dfe4846c, actual =e3fc9706dfe4846c
[905000] SCOREBOARD MATCH: wdata passthrough beat=64 expected = 3fa8be84cd47ec0f, actual =3fa8be84cd47ec0f
[905000] SCOREBOARD MATCH: wdata passthrough beat=65 expected = f34cd684d388d386, actual =f34cd684d388d386
[905000] SCOREBOARD MATCH: wdata passthrough beat=66 expected = 336d57f2d8ebf65e, actual =336d57f2d8ebf65e
[905000] SCOREBOARD MATCH: wdata passthrough beat=67 expected = 2633e26ed7496d8a, actual =2633e26ed7496d8a
[905000] SCOREBOARD MATCH: wdata passthrough beat=68 expected = aad24110f3161676, actual =aad24110f3161676
[905000] SCOREBOARD MATCH: wdata passthrough beat=69 expected = cc020cd49980b8f2, actual =cc020cd49980b8f2
[905000] SCOREBOARD MATCH: wdata passthrough beat=70 expected = f0ca267dde3f9902, actual =f0ca267dde3f9902
[905000] SCOREBOARD MATCH: wdata passthrough beat=71 expected = d155af78f235ef42, actual =d155af78f235ef42
[905000] SCOREBOARD MATCH: wdata passthrough beat=72 expected = bb6a8359b9c678d, actual =bb6a8359b9c678d
[905000] SCOREBOARD MATCH: wdata passthrough beat=73 expected = f9dc00901d57bc4d, actual =f9dc00901d57bc4d
[905000] SCOREBOARD MATCH: wdata passthrough beat=74 expected = 8f8dab8ffc80ceb2, actual =8f8dab8ffc80ceb2
[905000] SCOREBOARD MATCH: wdata passthrough beat=75 expected = 981d363fcb31b008, actual =981d363fcb31b008
[905000] SCOREBOARD MATCH: wdata passthrough beat=76 expected = e8896c559b4453c4, actual =e8896c559b4453c4
[905000] SCOREBOARD MATCH: wdata passthrough beat=77 expected = 97c5227691f936cf, actual =97c5227691f936cf
[905000] SCOREBOARD MATCH: wdata passthrough beat=78 expected = dd2ae6d8f81717e5, actual =dd2ae6d8f81717e5
[905000] SCOREBOARD MATCH: wdata passthrough beat=79 expected = 935b6ba92fe258b6, actual =935b6ba92fe258b6
[905000] SCOREBOARD MATCH: wstrb size check expected = 50, actual =50
[905000] SCOREBOARD MATCH: wstrb passthrough beat=0 expected = 2d, actual =2d
[905000] SCOREBOARD MATCH: wstrb passthrough beat=1 expected = 85, actual =85
[905000] SCOREBOARD MATCH: wstrb passthrough beat=2 expected = 20, actual =20
[905000] SCOREBOARD MATCH: wstrb passthrough beat=3 expected = 12, actual =12
[905000] SCOREBOARD MATCH: wstrb passthrough beat=4 expected = 5d, actual =5d
[905000] SCOREBOARD MATCH: wstrb passthrough beat=5 expected = d6, actual =d6
[905000] SCOREBOARD MATCH: wstrb passthrough beat=6 expected = bc, actual =bc
[905000] SCOREBOARD MATCH: wstrb passthrough beat=7 expected = 8b, actual =8b
[905000] SCOREBOARD MATCH: wstrb passthrough beat=8 expected = 5b, actual =5b
[905000] SCOREBOARD MATCH: wstrb passthrough beat=9 expected = dc, actual =dc
[905000] SCOREBOARD MATCH: wstrb passthrough beat=10 expected = 9d, actual =9d
[905000] SCOREBOARD MATCH: wstrb passthrough beat=11 expected = b9, actual =b9
[905000] SCOREBOARD MATCH: wstrb passthrough beat=12 expected = b2, actual =b2
[905000] SCOREBOARD MATCH: wstrb passthrough beat=13 expected = 59, actual =59
[905000] SCOREBOARD MATCH: wstrb passthrough beat=14 expected = 44, actual =44
[905000] SCOREBOARD MATCH: wstrb passthrough beat=15 expected = d, actual =d
[905000] SCOREBOARD MATCH: wstrb passthrough beat=16 expected = 35, actual =35
[905000] SCOREBOARD MATCH: wstrb passthrough beat=17 expected = e1, actual =e1
[905000] SCOREBOARD MATCH: wstrb passthrough beat=18 expected = c6, actual =c6
[905000] SCOREBOARD MATCH: wstrb passthrough beat=19 expected = e7, actual =e7
[905000] SCOREBOARD MATCH: wstrb passthrough beat=20 expected = 3b, actual =3b
[905000] SCOREBOARD MATCH: wstrb passthrough beat=21 expected = a, actual =a
[905000] SCOREBOARD MATCH: wstrb passthrough beat=22 expected = f5, actual =f5
[905000] SCOREBOARD MATCH: wstrb passthrough beat=23 expected = 70, actual =70
[905000] SCOREBOARD MATCH: wstrb passthrough beat=24 expected = ec, actual =ec
[905000] SCOREBOARD MATCH: wstrb passthrough beat=25 expected = bb, actual =bb
[905000] SCOREBOARD MATCH: wstrb passthrough beat=26 expected = 58, actual =58
[905000] SCOREBOARD MATCH: wstrb passthrough beat=27 expected = 27, actual =27
[905000] SCOREBOARD MATCH: wstrb passthrough beat=28 expected = c6, actual =c6
[905000] SCOREBOARD MATCH: wstrb passthrough beat=29 expected = 4d, actual =4d
[905000] SCOREBOARD MATCH: wstrb passthrough beat=30 expected = 97, actual =97
[905000] SCOREBOARD MATCH: wstrb passthrough beat=31 expected = b2, actual =b2
[905000] SCOREBOARD MATCH: wstrb passthrough beat=32 expected = 8, actual =8
[905000] SCOREBOARD MATCH: wstrb passthrough beat=33 expected = ef, actual =ef
[905000] SCOREBOARD MATCH: wstrb passthrough beat=34 expected = d9, actual =d9
[905000] SCOREBOARD MATCH: wstrb passthrough beat=35 expected = ce, actual =ce
[905000] SCOREBOARD MATCH: wstrb passthrough beat=36 expected = 3c, actual =3c
[905000] SCOREBOARD MATCH: wstrb passthrough beat=37 expected = 70, actual =70
[905000] SCOREBOARD MATCH: wstrb passthrough beat=38 expected = 80, actual =80
[905000] SCOREBOARD MATCH: wstrb passthrough beat=39 expected = 45, actual =45
[905000] SCOREBOARD MATCH: wstrb passthrough beat=40 expected = 60, actual =60
[905000] SCOREBOARD MATCH: wstrb passthrough beat=41 expected = 59, actual =59
[905000] SCOREBOARD MATCH: wstrb passthrough beat=42 expected = 13, actual =13
[905000] SCOREBOARD MATCH: wstrb passthrough beat=43 expected = 9c, actual =9c
[905000] SCOREBOARD MATCH: wstrb passthrough beat=44 expected = ca, actual =ca
[905000] SCOREBOARD MATCH: wstrb passthrough beat=45 expected = 94, actual =94
[905000] SCOREBOARD MATCH: wstrb passthrough beat=46 expected = e1, actual =e1
[905000] SCOREBOARD MATCH: wstrb passthrough beat=47 expected = 2a, actual =2a
[905000] SCOREBOARD MATCH: wstrb passthrough beat=48 expected = ed, actual =ed
[905000] SCOREBOARD MATCH: wstrb passthrough beat=49 expected = f5, actual =f5
[905000] SCOREBOARD MATCH: wstrb passthrough beat=50 expected = c6, actual =c6
[905000] SCOREBOARD MATCH: wstrb passthrough beat=51 expected = b7, actual =b7
[905000] SCOREBOARD MATCH: wstrb passthrough beat=52 expected = 89, actual =89
[905000] SCOREBOARD MATCH: wstrb passthrough beat=53 expected = a8, actual =a8
[905000] SCOREBOARD MATCH: wstrb passthrough beat=54 expected = e1, actual =e1
[905000] SCOREBOARD MATCH: wstrb passthrough beat=55 expected = 76, actual =76
[905000] SCOREBOARD MATCH: wstrb passthrough beat=56 expected = 9d, actual =9d
[905000] SCOREBOARD MATCH: wstrb passthrough beat=57 expected = a8, actual =a8
[905000] SCOREBOARD MATCH: wstrb passthrough beat=58 expected = 2e, actual =2e
[905000] SCOREBOARD MATCH: wstrb passthrough beat=59 expected = 26, actual =26
[905000] SCOREBOARD MATCH: wstrb passthrough beat=60 expected = 50, actual =50
[905000] SCOREBOARD MATCH: wstrb passthrough beat=61 expected = f, actual =f
[905000] SCOREBOARD MATCH: wstrb passthrough beat=62 expected = 9c, actual =9c
[905000] SCOREBOARD MATCH: wstrb passthrough beat=63 expected = ed, actual =ed
[905000] SCOREBOARD MATCH: wstrb passthrough beat=64 expected = b7, actual =b7
[905000] SCOREBOARD MATCH: wstrb passthrough beat=65 expected = ca, actual =ca
[905000] SCOREBOARD MATCH: wstrb passthrough beat=66 expected = 13, actual =13
[905000] SCOREBOARD MATCH: wstrb passthrough beat=67 expected = 7, actual =7
[905000] SCOREBOARD MATCH: wstrb passthrough beat=68 expected = da, actual =da
[905000] SCOREBOARD MATCH: wstrb passthrough beat=69 expected = af, actual =af
[905000] SCOREBOARD MATCH: wstrb passthrough beat=70 expected = f4, actual =f4
[905000] SCOREBOARD MATCH: wstrb passthrough beat=71 expected = 91, actual =91
[905000] SCOREBOARD MATCH: wstrb passthrough beat=72 expected = 7a, actual =7a
[905000] SCOREBOARD MATCH: wstrb passthrough beat=73 expected = 7, actual =7
[905000] SCOREBOARD MATCH: wstrb passthrough beat=74 expected = 99, actual =99
[905000] SCOREBOARD MATCH: wstrb passthrough beat=75 expected = 54, actual =54
[905000] SCOREBOARD MATCH: wstrb passthrough beat=76 expected = b7, actual =b7
[905000] SCOREBOARD MATCH: wstrb passthrough beat=77 expected = 8d, actual =8d
[905000] SCOREBOARD MATCH: wstrb passthrough beat=78 expected = e5, actual =e5
[905000] SCOREBOARD MATCH: wstrb passthrough beat=79 expected = 31, actual =31
[905000] SCOREBOARD MATCH: bresp passthrough expected = 0, actual =0
[905000] SCOREBOARD MATCH: response routed to correct master (write) expected = 0, actual =0
[905000] [SCOREBOARD-M] mst_id=0 s_id=1 awaddr=19752020 awid=1101 awlen=79 awsize=0 awburst=1 wdata=[a79dac530d335a2e ed3521352112ef58 f841935ca599a0f2 b2ccfb20e231f2f3 344e24b1fdf3fb0 c578e0a2a0021c55 82340f48fb8675a7 9b65b557f845dbc3 9847f8188578f193 ff673be0de95fa d92471bd1a7c0761 9ff4f8f49c651c92 fd43b28cf16c69d5 8be87136a0f4602f 3d597cc2d6682449 c7d48e1f2bdd6a2b ccd1ca5aba9d2f4e 11055398d3bcff55 ff9a69808a2b471c c4c8766bd8d9e1b7 ac96e10ccc6c33db d6977af7d5cdca03 2ea7abba2c314a8d f89d7e689b5ff162 f12dbb65db3e8cc6 876fd753cf34f95f ea94eac29fd5671f fb13f3e6800d55bb cf424f1bdbc2a627 fb980d478283cb39 29120f539d739dd 9599e004f6ac012d f92fcc66d1d37010 baaa9ed9131ed4b 87ddee78fbc0ed5b cd945d6ba14489f1 3276773d010dbadf fccea83ad93f0758 fa83914aba5465b5 bb622094ca6305a6 a3a20cfe2cfa0887 e74e6e3c3830c8cf 293ce759e259e48 cb1fa6cf22b08ed1 dae157a0a635db73 c45b79bc326e150c d51ea3dddd752615 83ab01888f7b208b c1e935972ffffb7d d752192c8067b44 d7819bd09707d974 c707d4f19120231a d9269e5f996ad167 3072aadcd47cf683 e59d199e30a83a2f ca130b96f77a7fcd cbf776513ec3b7fd ef6bf22cfa85b672 f200364031948fef f05847ecb97efdc2 3404b4353df7ac91 ef8c3c80dfc43a18 994337da2604ea75 e3fc9706dfe4846c 3fa8be84cd47ec0f f34cd684d388d386 336d57f2d8ebf65e 2633e26ed7496d8a aad24110f3161676 cc020cd49980b8f2 f0ca267dde3f9902 d155af78f235ef42 bb6a8359b9c678d f9dc00901d57bc4d 8f8dab8ffc80ceb2 981d363fcb31b008 e8896c559b4453c4 97c5227691f936cf dd2ae6d8f81717e5 935b6ba92fe258b6 ] wstrb=[2d 85 20 12 5d d6 bc 8b 5b dc 9d b9 b2 59 44 d 35 e1 c6 e7 3b a f5 70 ec bb 58 27 c6 4d 97 b2 8 ef d9 ce 3c 70 80 45 60 59 13 9c ca 94 e1 2a ed f5 c6 b7 89 a8 e1 76 9d a8 2e 26 50 f 9c ed b7 ca 13 7 da af f4 91 7a 7 99 54 b7 8d e5 31 ] bresp=0 bid=1101
[905000] [SCOREBOARD-S] mst_id=0 s_id=1 awaddr=19752020 awid=1101 awlen=79 awsize=0 awburst=1 wdata=[a79dac530d335a2e ed3521352112ef58 f841935ca599a0f2 b2ccfb20e231f2f3 344e24b1fdf3fb0 c578e0a2a0021c55 82340f48fb8675a7 9b65b557f845dbc3 9847f8188578f193 ff673be0de95fa d92471bd1a7c0761 9ff4f8f49c651c92 fd43b28cf16c69d5 8be87136a0f4602f 3d597cc2d6682449 c7d48e1f2bdd6a2b ccd1ca5aba9d2f4e 11055398d3bcff55 ff9a69808a2b471c c4c8766bd8d9e1b7 ac96e10ccc6c33db d6977af7d5cdca03 2ea7abba2c314a8d f89d7e689b5ff162 f12dbb65db3e8cc6 876fd753cf34f95f ea94eac29fd5671f fb13f3e6800d55bb cf424f1bdbc2a627 fb980d478283cb39 29120f539d739dd 9599e004f6ac012d f92fcc66d1d37010 baaa9ed9131ed4b 87ddee78fbc0ed5b cd945d6ba14489f1 3276773d010dbadf fccea83ad93f0758 fa83914aba5465b5 bb622094ca6305a6 a3a20cfe2cfa0887 e74e6e3c3830c8cf 293ce759e259e48 cb1fa6cf22b08ed1 dae157a0a635db73 c45b79bc326e150c d51ea3dddd752615 83ab01888f7b208b c1e935972ffffb7d d752192c8067b44 d7819bd09707d974 c707d4f19120231a d9269e5f996ad167 3072aadcd47cf683 e59d199e30a83a2f ca130b96f77a7fcd cbf776513ec3b7fd ef6bf22cfa85b672 f200364031948fef f05847ecb97efdc2 3404b4353df7ac91 ef8c3c80dfc43a18 994337da2604ea75 e3fc9706dfe4846c 3fa8be84cd47ec0f f34cd684d388d386 336d57f2d8ebf65e 2633e26ed7496d8a aad24110f3161676 cc020cd49980b8f2 f0ca267dde3f9902 d155af78f235ef42 bb6a8359b9c678d f9dc00901d57bc4d 8f8dab8ffc80ceb2 981d363fcb31b008 e8896c559b4453c4 97c5227691f936cf dd2ae6d8f81717e5 935b6ba92fe258b6 ] wstrb=[2d 85 20 12 5d d6 bc 8b 5b dc 9d b9 b2 59 44 d 35 e1 c6 e7 3b a f5 70 ec bb 58 27 c6 4d 97 b2 8 ef d9 ce 3c 70 80 45 60 59 13 9c ca 94 e1 2a ed f5 c6 b7 89 a8 e1 76 9d a8 2e 26 50 f 9c ed b7 ca 13 7 da af f4 91 7a 7 99 54 b7 8d e5 31 ] bresp=0 bid=1101
[905000] SCOREBOARD: Transaction 4 received. pass=221 fail=0
[905000] ALL PASS. Total transactions: 4
[915000] SLAVE 0 R_VALID_RDY Handshake beat=1 rlast=1
[915000] [SLAVE MONITOR] READ mst_id=0 s_id=0 araddr=997a160 arid=2 arlen=1 arsize=3 arburst=1 rid=[22] rresp=[00] rdata=[baadf00d12345678baadf00d12345678]
[925000] MASTER 0 R_VALID_RDY Handshake beat=0 rlast=0
[935000] MASTER 0 R_VALID_RDY Handshake beat=1 rlast=1
[935000] [MASTER MONITOR] READ mst_id=0 s_id=0 araddr=997a160 arid=2 arlen=1 arsize=3 arburst=1 rid=[22] rresp=[00] rdata=[baadf00d12345678baadf00d12345678]
[935000] [MASTER DRIVER] READ mst_id=0 s_id=0 araddr=997a160 arid=2 arlen=1 arsize=3 arburst=1 rid=[22] rresp=[00] rdata=[baadf00d12345678baadf00d12345678]
[935000] SCOREBOARD MATCH: decode_err expected = 0, actual =0
[935000] SCOREBOARD MATCH: slave_id expected = 0, actual =0
[935000] SCOREBOARD MATCH: araddr passthrough expected = 997a160, actual =997a160
[935000] SCOREBOARD MATCH: arlen passthrough expected = 1, actual =1
[935000] SCOREBOARD MATCH: arsize passthrough expected = 3, actual =3
[935000] SCOREBOARD MATCH: arburst passthrough expected = 1, actual =1
[935000] SCOREBOARD MATCH: rdata size check expected = 2, actual =2
[935000] SCOREBOARD MATCH: rdata passthrough beat=0 expected = baadf00d12345678, actual =baadf00d12345678
[935000] SCOREBOARD MATCH: rdata passthrough beat=1 expected = baadf00d12345678, actual =baadf00d12345678
[935000] SCOREBOARD MATCH: rresp size check expected = 2, actual =2
[935000] SCOREBOARD MATCH: rresp passthrough beat=0 expected = 0, actual =0
[935000] SCOREBOARD MATCH: rresp passthrough beat=1 expected = 0, actual =0
[935000] SCOREBOARD MATCH: response routed to correct master (read beat 0) expected = 0, actual =0
[935000] SCOREBOARD MATCH: response routed to correct master (read beat 1) expected = 0, actual =0
[935000] [SCOREBOARD-M] READ mst_id=0 s_id=0 araddr=997a160 arid=2 arlen=1 arsize=3 arburst=1 rid=[22] rresp=[00] rdata=[baadf00d12345678baadf00d12345678]
[935000] [SCOREBOARD-S] READ mst_id=0 s_id=0 araddr=997a160 arid=2 arlen=1 arsize=3 arburst=1 rid=[22] rresp=[00] rdata=[baadf00d12345678baadf00d12345678]
[935000] SCOREBOARD: Transaction 5 received. pass=235 fail=0
[935000] SCOREBOARD: Expected 5 transactions completed, PASS=235 FAIL=0
[935000] ALL PASS. Total transactions: 5
[935000] ALL TRANSACTIONS MONITORED
$finish called at time : 955 ns : File "/home/nashita/Desktop/practice/axi_xbar/tb/top/axi_tb_top.sv" Line 220
exit
INFO: xsimkernel Simulation Memory Usage: 289468 KB (Peak: 337868 KB), Simulation CPU Usage: 1180 ms
INFO: [Common 17-206] Exiting xsim at Fri Sep 11 11:49:34 2026...
