#-----------------------------------------------------------
# xsim v2025.2 (64-bit)
# SW Build 6299465 on Fri Nov 14 12:34:56 MST 2025
# IP Build 6300035 on Fri Nov 14 10:48:45 MST 2025
# SharedData Build 6298862 on Thu Nov 13 04:50:51 MST 2025
# Start of session at: Tue Sep  8 15:51:50 2026
# Process ID         : 3955685
# Current directory  : /home/nashita/Desktop/practice/axi_xbar/sim
# Command line       : xsim -log regress_results/BT_run95.log -mode tcl -source {xsim.dir/tb_top_snap/xsim_script.tcl}
# Log file           : /home/nashita/Desktop/practice/axi_xbar/sim/regress_results/BT_run95.log
# Journal file       : /home/nashita/Desktop/practice/axi_xbar/sim/xsim.jou
# Running On         : vlsi-vivado
# Platform           : Ubuntu
# Operating System   : Ubuntu 24.04.4 LTS
# Processor Detail   : Intel(R) Core(TM) i5-10400 CPU @ 2.90GHz
# CPU Frequency      : 3999.995 MHz
# CPU Physical cores : 6
# CPU Logical cores  : 12
# Host memory        : 41875 MB
# Swap memory        : 27648 MB
# Total Virtual      : 69524 MB
# Available Virtual  : 60182 MB
#-----------------------------------------------------------
source xsim.dir/tb_top_snap/xsim_script.tcl
# xsim {tb_top_snap} -testplusarg BT -autoloadwcfg -runall -sv_seed 96
Time resolution is 1 ps
run -all
[0] RUNNING BASE TEST
[0] INSIDE THE BASE TEST CONSTRUCTOR
[0] ENV: before agent
[0] SLAVE CONSTRUCTED
[0] MASTER MONITOR CONSTRUCTED
[0] MASTER MONITOR CONSTRUCTED
[0] SLAVE MONITOR CONSTRUCTED
[0] SLAVE MONITOR CONSTRUCTED
[0] ARB MONITOR CONSTRUCTED
GENERATOR CONSTRUCTED
[0] ENV: after agent
[0] ENV: before scoreboard
[0] ENV: after scoreboard
[15000] [SEQUENCER] mst_id=0 s_id=0 awaddr=13fb09a8 awid=1010 awlen=1 awsize=3 awburst=1 wdata=[] wstrb=[] bresp=0 bid=0
[15000] [SEQUENCER] READ mst_id=0 s_id=0 araddr=5f9eac0 arid=1 arlen=1 arsize=3 arburst=1 rid=[] rresp=[] rdata=[]
[15000] [SEQUENCER] READ mst_id=0 s_id=0 araddr=136a59e0 arid=2 arlen=1 arsize=3 arburst=1 rid=[] rresp=[] rdata=[]
[15000] [SEQUENCER] READ mst_id=0 s_id=0 araddr=d2063b0 arid=3 arlen=1 arsize=3 arburst=1 rid=[] rresp=[] rdata=[]
[15000] [SEQUENCER] READ mst_id=0 s_id=0 araddr=1ee11920 arid=4 arlen=1 arsize=3 arburst=1 rid=[] rresp=[] rdata=[]
[15000] [SEQUENCER] mst_id=1 s_id=0 awaddr=39bb950 awid=1010 awlen=1 awsize=3 awburst=1 wdata=[] wstrb=[] bresp=0 bid=0
[15000] [SEQUENCER] mst_id=0 s_id=0 awaddr=18f8bf20 awid=1111 awlen=1 awsize=3 awburst=1 wdata=[] wstrb=[] bresp=0 bid=0
[15000] [SEQUENCER] mst_id=0 s_id=0 awaddr=798a340 awid=111 awlen=1 awsize=3 awburst=1 wdata=[] wstrb=[] bresp=0 bid=0
[15000] [SEQUENCER] mst_id=1 s_id=0 awaddr=b6a49c0 awid=1111 awlen=1 awsize=3 awburst=1 wdata=[] wstrb=[] bresp=0 bid=0
[15000] [SEQUENCER] READ mst_id=1 s_id=0 araddr=1ed3ca48 arid=2 arlen=1 arsize=3 arburst=1 rid=[] rresp=[] rdata=[]
[15000] MASTER_DRIVER0 received transaction, op=AXI_WRITE
[15000] MASTER_DRIVER1 received transaction, op=AXI_WRITE
[35000] MASTER 1 AW_VALID_RDY Handshake
[35000] MASTER 0 AW_VALID_RDY Handshake
[45000] ARB MONITOR: slave=0 m0_req=0 m1_req=1 winner=1
[45000] ARB MONITOR: slave=1 m0_req=1 m1_req=0 winner=0
[45000] AXI S1_AWVALID_RDY HANDSHAKE
[45000] AXI S0_AWVALID_RDY HANDSHAKE
[55000] MASTER 1 W_VALID_RDY Handshake beat=0 wlast=0
[55000] MASTER 0 W_VALID_RDY Handshake beat=0 wlast=0
[65000] MASTER_DRIVER1 received transaction, op=AXI_WRITE
[65000] MASTER_DRIVER0 received transaction, op=AXI_READ
[65000] MASTER 0 W_VALID_RDY Handshake beat=1 wlast=1
[65000] MASTER 1 W_VALID_RDY Handshake beat=1 wlast=1
[65000] AXI S1_WVALID_RDY HANDSHAKE
[65000] AXI S0_WVALID_RDY HANDSHAKE
[65000] S1 MEMORY WRITE beat=0 addr=13fb09a8 data=0000000000000000 id=0a
[65000] AXI S0_WVALID_RDY HANDSHAKE
[65000] S0 MEMORY WRITE beat=0 addr=039bb950 data=0000000000000000 id=1a
[75000] AXI S0_WVALID_RDY HANDSHAKE
[75000] S0 MEMORY WRITE beat=1 addr=039bb958 data=0000000000000000 id=1a
[75000] S1 MEMORY WRITE beat=1 addr=13fb09b0 data=0000000000000000 id=0a
[75000] AXI S0_WVALID_RDY HANDSHAKE
[75000] AXI S1_WVALID_RDY HANDSHAKE
[85000] MASTER_DRIVER0 received transaction, op=AXI_READ
[85000] MASTER 1 AW_VALID_RDY Handshake
[85000] AXI S1_BVALID_RDY HANDSHAKE
[85000] [SLAVE MONITOR] mst_id=0 s_id=1 awaddr=13fb09a8 awid=1010 awlen=1 awsize=3 awburst=1 wdata=[0 0 ] wstrb=[0 0 ] bresp=0 bid=1010
[85000] AXI S0_BVALID_RDY HANDSHAKE
[85000] [SLAVE MONITOR] mst_id=1 s_id=0 awaddr=39bb950 awid=1010 awlen=1 awsize=3 awburst=1 wdata=[0 0 ] wstrb=[0 0 ] bresp=0 bid=11010
[85000] SLAVE1 sent B resp, id=10
[85000] SLAVE0 sent B resp, id=10
[95000] AXI S0_AWVALID_RDY HANDSHAKE
[95000] AXI S0_ARVALID_RDY HANDSHAKE
[95000] MEMORY READ MISS beat=0 addr=5f9eac0 -> default data id=1
[95000] ARB MONITOR: slave=0 m0_req=0 m1_req=1 winner=1
[95000] ARB MONITOR: slave=0 m0_req=1 m1_req=0 winner=0
[105000] MASTER 1 RECEIVED BRESP. BRESP=0
[105000] [MASTER DRIVER] mst_id=1 s_id=0 awaddr=39bb950 awid=1010 awlen=1 awsize=3 awburst=1 wdata=[] wstrb=[] bresp=0 bid=1010
[105000] MASTER_DRIVER0 received transaction, op=AXI_READ
[105000] MASTER 0 RECEIVED BRESP. BRESP=0
[105000] [MASTER DRIVER] mst_id=0 s_id=0 awaddr=13fb09a8 awid=1010 awlen=1 awsize=3 awburst=1 wdata=[] wstrb=[] bresp=0 bid=1010
[105000] MASTER 0 B_VALID_RDY Handshake
[105000] [MASTER MONITOR] mst_id=0 s_id=1 awaddr=13fb09a8 awid=1010 awlen=1 awsize=3 awburst=1 wdata=[0 0 ] wstrb=[0 0 ] bresp=0 bid=1010
[105000] MASTER 1 W_VALID_RDY Handshake beat=0 wlast=0
[105000] MASTER 1 B_VALID_RDY Handshake
[105000] [MASTER MONITOR] mst_id=1 s_id=0 awaddr=39bb950 awid=1010 awlen=1 awsize=3 awburst=1 wdata=[0 0 ] wstrb=[0 0 ] bresp=0 bid=1010
[105000] SLAVE 0 R_VALID_RDY Handshake beat=0 rlast=0
[105000] MEMORY READ MISS beat=1 addr=5f9eac8 -> default data id=1
[105000] SCOREBOARD MATCH: decode_err expected = 0, actual =0
[105000] SCOREBOARD MATCH: slave_id expected = 1, actual =1
[105000] SCOREBOARD MATCH: awaddr passthrough expected = 13fb09a8, actual =13fb09a8
[105000] SCOREBOARD MATCH: awlen passthrough expected = 1, actual =1
[105000] SCOREBOARD MATCH: awsize passthrough expected = 3, actual =3
[105000] SCOREBOARD MATCH: awburst passthrough expected = 1, actual =1
[105000] SCOREBOARD MATCH: wdata size check expected = 2, actual =2
[105000] SCOREBOARD MATCH: wdata passthrough beat=0 expected = 0, actual =0
[105000] SCOREBOARD MATCH: wdata passthrough beat=1 expected = 0, actual =0
[105000] SCOREBOARD MATCH: wstrb size check expected = 2, actual =2
[105000] SCOREBOARD MATCH: wstrb passthrough beat=0 expected = 0, actual =0
[105000] SCOREBOARD MATCH: wstrb passthrough beat=1 expected = 0, actual =0
[105000] SCOREBOARD MATCH: bresp passthrough expected = 0, actual =0
[105000] SCOREBOARD MATCH: response routed to correct master (write) expected = 0, actual =0
[105000] [SCOREBOARD-M] mst_id=0 s_id=1 awaddr=13fb09a8 awid=1010 awlen=1 awsize=3 awburst=1 wdata=[0 0 ] wstrb=[0 0 ] bresp=0 bid=1010
[105000] [SCOREBOARD-S] mst_id=0 s_id=1 awaddr=13fb09a8 awid=1010 awlen=1 awsize=3 awburst=1 wdata=[0 0 ] wstrb=[0 0 ] bresp=0 bid=1010
[105000] SCOREBOARD: Transaction 1 received. pass=14 fail=0
[105000] ALL PASS. Total transactions: 1
[105000] SCOREBOARD MATCH: decode_err expected = 0, actual =0
[105000] SCOREBOARD MATCH: slave_id expected = 0, actual =0
[105000] SCOREBOARD MATCH: awaddr passthrough expected = 39bb950, actual =39bb950
[105000] SCOREBOARD MATCH: awlen passthrough expected = 1, actual =1
[105000] SCOREBOARD MATCH: awsize passthrough expected = 3, actual =3
[105000] SCOREBOARD MATCH: awburst passthrough expected = 1, actual =1
[105000] SCOREBOARD MATCH: wdata size check expected = 2, actual =2
[105000] SCOREBOARD MATCH: wdata passthrough beat=0 expected = 0, actual =0
[105000] SCOREBOARD MATCH: wdata passthrough beat=1 expected = 0, actual =0
[105000] SCOREBOARD MATCH: wstrb size check expected = 2, actual =2
[105000] SCOREBOARD MATCH: wstrb passthrough beat=0 expected = 0, actual =0
[105000] SCOREBOARD MATCH: wstrb passthrough beat=1 expected = 0, actual =0
[105000] SCOREBOARD MATCH: bresp passthrough expected = 0, actual =0
[105000] SCOREBOARD MATCH: response routed to correct master (write) expected = 1, actual =1
[105000] [SCOREBOARD-M] mst_id=1 s_id=0 awaddr=39bb950 awid=1010 awlen=1 awsize=3 awburst=1 wdata=[0 0 ] wstrb=[0 0 ] bresp=0 bid=1010
[105000] [SCOREBOARD-S] mst_id=1 s_id=0 awaddr=39bb950 awid=1010 awlen=1 awsize=3 awburst=1 wdata=[0 0 ] wstrb=[0 0 ] bresp=0 bid=11010
[105000] SCOREBOARD: Transaction 2 received. pass=28 fail=0
[105000] ALL PASS. Total transactions: 2
[115000] AXI S0_WVALID_RDY HANDSHAKE
[115000] S0 MEMORY WRITE beat=0 addr=0b6a49c0 data=0000000000000000 id=1f
[115000] AXI S0_ARVALID_RDY HANDSHAKE
[115000] MEMORY READ MISS beat=0 addr=136a59e0 -> default data id=2
[115000] AXI S0_WVALID_RDY HANDSHAKE
[115000] SLAVE 0 R_VALID_RDY Handshake beat=1 rlast=1
[115000] [SLAVE MONITOR AR] READ mst_id=0 s_id=0 araddr=5f9eac0 arid=1 arlen=1 arsize=3 arburst=1 rid=[11] rresp=[00] rdata=[baadf00d12345678baadf00d12345678]
[115000] ARB MONITOR: slave=1 m0_req=1 m1_req=0 winner=0
[115000] MASTER 1 W_VALID_RDY Handshake beat=1 wlast=1
[115000] MASTER_DRIVER1 received transaction, op=AXI_READ
[125000] MASTER_DRIVER0 received transaction, op=AXI_READ
[125000] MASTER 0 R_VALID_RDY Handshake beat=0 rlast=0
[125000] SLAVE 1 R_VALID_RDY Handshake beat=0 rlast=0
[125000] AXI S0_WVALID_RDY HANDSHAKE
[125000] MEMORY READ MISS beat=1 addr=136a59e8 -> default data id=2
[125000] AXI S0_WVALID_RDY HANDSHAKE
[125000] S0 MEMORY WRITE beat=1 addr=0b6a49c8 data=0000000000000000 id=1f
[135000] SLAVE0 sent B resp, id=15
[135000] AXI S0_ARVALID_RDY HANDSHAKE
[135000] MEMORY READ MISS beat=0 addr=d2063b0 -> default data id=3
[135000] AXI S0_BVALID_RDY HANDSHAKE
[135000] [SLAVE MONITOR] mst_id=1 s_id=0 awaddr=b6a49c0 awid=1111 awlen=1 awsize=3 awburst=1 wdata=[0 0 ] wstrb=[0 0 ] bresp=0 bid=11111
[135000] SLAVE 1 R_VALID_RDY Handshake beat=1 rlast=1
[135000] [SLAVE MONITOR AR] READ mst_id=0 s_id=1 araddr=136a59e0 arid=2 arlen=1 arsize=3 arburst=1 rid=[22] rresp=[00] rdata=[baadf00d12345678baadf00d12345678]
[135000] ARB MONITOR: slave=0 m0_req=1 m1_req=0 winner=0
[135000] MASTER 0 R_VALID_RDY Handshake beat=1 rlast=1
[135000] [MASTER MONITOR] READ mst_id=0 s_id=0 araddr=5f9eac0 arid=1 arlen=1 arsize=3 arburst=1 rid=[11] rresp=[00] rdata=[baadf00d12345678baadf00d12345678]
[135000] [MASTER DRIVER] READ mst_id=0 s_id=0 araddr=5f9eac0 arid=1 arlen=1 arsize=3 arburst=1 rid=[11] rresp=[00] rdata=[baadf00d12345678baadf00d12345678]
[135000] SCOREBOARD MATCH: decode_err expected = 0, actual =0
[135000] SCOREBOARD MATCH: slave_id expected = 0, actual =0
[135000] SCOREBOARD MATCH: araddr passthrough expected = 5f9eac0, actual =5f9eac0
[135000] SCOREBOARD MATCH: arlen passthrough expected = 1, actual =1
[135000] SCOREBOARD MATCH: arsize passthrough expected = 3, actual =3
[135000] SCOREBOARD MATCH: arburst passthrough expected = 1, actual =1
[135000] SCOREBOARD MATCH: rdata size check expected = 2, actual =2
[135000] SCOREBOARD MATCH: rdata passthrough beat=0 expected = baadf00d12345678, actual =baadf00d12345678
[135000] SCOREBOARD MATCH: rdata passthrough beat=1 expected = baadf00d12345678, actual =baadf00d12345678
[135000] SCOREBOARD MATCH: rresp size check expected = 2, actual =2
[135000] SCOREBOARD MATCH: rresp passthrough beat=0 expected = 0, actual =0
[135000] SCOREBOARD MATCH: rresp passthrough beat=1 expected = 0, actual =0
[135000] SCOREBOARD MATCH: response routed to correct master (read beat 0) expected = 0, actual =0
[135000] SCOREBOARD MATCH: response routed to correct master (read beat 1) expected = 0, actual =0
[135000] [SCOREBOARD-M] READ mst_id=0 s_id=0 araddr=5f9eac0 arid=1 arlen=1 arsize=3 arburst=1 rid=[11] rresp=[00] rdata=[baadf00d12345678baadf00d12345678]
[135000] [SCOREBOARD-S] READ mst_id=0 s_id=0 araddr=5f9eac0 arid=1 arlen=1 arsize=3 arburst=1 rid=[11] rresp=[00] rdata=[baadf00d12345678baadf00d12345678]
[135000] SCOREBOARD: Transaction 3 received. pass=42 fail=0
[135000] ALL PASS. Total transactions: 3
[145000] MASTER_DRIVER0 received transaction, op=AXI_WRITE
[145000] ARB MONITOR: slave=1 m0_req=1 m1_req=1 winner=1
[145000] SLAVE 0 R_VALID_RDY Handshake beat=0 rlast=0
[145000] AXI S0_ARVALID_RDY HANDSHAKE
[145000] MEMORY READ MISS beat=0 addr=1ed3ca48 -> default data id=18
[145000] MEMORY READ MISS beat=1 addr=d2063b8 -> default data id=3
[145000] SCOREBOARD MATCH: arbitration winner (slave 1) expected = 1, actual =1
[155000] MEMORY READ MISS beat=1 addr=1ed3ca50 -> default data id=18
[155000] SLAVE 0 R_VALID_RDY Handshake beat=1 rlast=1
[155000] [SLAVE MONITOR AR] READ mst_id=0 s_id=0 araddr=d2063b0 arid=3 arlen=1 arsize=3 arburst=1 rid=[33] rresp=[00] rdata=[baadf00d12345678baadf00d12345678]
[155000] SLAVE 1 R_VALID_RDY Handshake beat=0 rlast=0
[155000] MASTER 1 B_VALID_RDY Handshake
[155000] [MASTER MONITOR] mst_id=1 s_id=0 awaddr=b6a49c0 awid=1111 awlen=1 awsize=3 awburst=1 wdata=[0 0 ] wstrb=[0 0 ] bresp=0 bid=1111
[155000] MASTER 0 R_VALID_RDY Handshake beat=0 rlast=0
[155000] MASTER 1 RECEIVED BRESP. BRESP=0
[155000] [MASTER DRIVER] mst_id=1 s_id=0 awaddr=b6a49c0 awid=1111 awlen=1 awsize=3 awburst=1 wdata=[] wstrb=[] bresp=0 bid=1111
[155000] SCOREBOARD MATCH: decode_err expected = 0, actual =0
[155000] SCOREBOARD MATCH: slave_id expected = 0, actual =0
[155000] SCOREBOARD MATCH: awaddr passthrough expected = b6a49c0, actual =b6a49c0
[155000] SCOREBOARD MATCH: awlen passthrough expected = 1, actual =1
[155000] SCOREBOARD MATCH: awsize passthrough expected = 3, actual =3
[155000] SCOREBOARD MATCH: awburst passthrough expected = 1, actual =1
[155000] SCOREBOARD MATCH: wdata size check expected = 2, actual =2
[155000] SCOREBOARD MATCH: wdata passthrough beat=0 expected = 0, actual =0
[155000] SCOREBOARD MATCH: wdata passthrough beat=1 expected = 0, actual =0
[155000] SCOREBOARD MATCH: wstrb size check expected = 2, actual =2
[155000] SCOREBOARD MATCH: wstrb passthrough beat=0 expected = 0, actual =0
[155000] SCOREBOARD MATCH: wstrb passthrough beat=1 expected = 0, actual =0
[155000] SCOREBOARD MATCH: bresp passthrough expected = 0, actual =0
[155000] SCOREBOARD MATCH: response routed to correct master (write) expected = 1, actual =1
[155000] [SCOREBOARD-M] mst_id=1 s_id=0 awaddr=b6a49c0 awid=1111 awlen=1 awsize=3 awburst=1 wdata=[0 0 ] wstrb=[0 0 ] bresp=0 bid=1111
[155000] [SCOREBOARD-S] mst_id=1 s_id=0 awaddr=b6a49c0 awid=1111 awlen=1 awsize=3 awburst=1 wdata=[0 0 ] wstrb=[0 0 ] bresp=0 bid=11111
[155000] SCOREBOARD: Transaction 4 received. pass=57 fail=0
[155000] ALL PASS. Total transactions: 4
[165000] [MASTER DRIVER] READ mst_id=0 s_id=0 araddr=136a59e0 arid=2 arlen=1 arsize=3 arburst=1 rid=[22] rresp=[00] rdata=[baadf00d12345678baadf00d12345678]
[165000] MASTER 0 AW_VALID_RDY Handshake
[165000] MASTER 0 R_VALID_RDY Handshake beat=1 rlast=1
[165000] [MASTER MONITOR] READ mst_id=0 s_id=1 araddr=136a59e0 arid=2 arlen=1 arsize=3 arburst=1 rid=[22] rresp=[00] rdata=[baadf00d12345678baadf00d12345678]
[165000] SLAVE 1 R_VALID_RDY Handshake beat=1 rlast=1
[165000] [SLAVE MONITOR AR] READ mst_id=1 s_id=1 araddr=1ed3ca48 arid=2 arlen=1 arsize=3 arburst=1 rid=[1212] rresp=[00] rdata=[baadf00d12345678baadf00d12345678]
[165000] SCOREBOARD MATCH: decode_err expected = 0, actual =0
[165000] SCOREBOARD MATCH: slave_id expected = 1, actual =1
[165000] SCOREBOARD MATCH: araddr passthrough expected = 136a59e0, actual =136a59e0
[165000] SCOREBOARD MATCH: arlen passthrough expected = 1, actual =1
[165000] SCOREBOARD MATCH: arsize passthrough expected = 3, actual =3
[165000] SCOREBOARD MATCH: arburst passthrough expected = 1, actual =1
[165000] SCOREBOARD MATCH: rdata size check expected = 2, actual =2
[165000] SCOREBOARD MATCH: rdata passthrough beat=0 expected = baadf00d12345678, actual =baadf00d12345678
[165000] SCOREBOARD MATCH: rdata passthrough beat=1 expected = baadf00d12345678, actual =baadf00d12345678
[165000] SCOREBOARD MATCH: rresp size check expected = 2, actual =2
[165000] SCOREBOARD MATCH: rresp passthrough beat=0 expected = 0, actual =0
[165000] SCOREBOARD MATCH: rresp passthrough beat=1 expected = 0, actual =0
[165000] SCOREBOARD MATCH: response routed to correct master (read beat 0) expected = 0, actual =0
[165000] SCOREBOARD MATCH: response routed to correct master (read beat 1) expected = 0, actual =0
[165000] [SCOREBOARD-M] READ mst_id=0 s_id=1 araddr=136a59e0 arid=2 arlen=1 arsize=3 arburst=1 rid=[22] rresp=[00] rdata=[baadf00d12345678baadf00d12345678]
[165000] [SCOREBOARD-S] READ mst_id=0 s_id=1 araddr=136a59e0 arid=2 arlen=1 arsize=3 arburst=1 rid=[22] rresp=[00] rdata=[baadf00d12345678baadf00d12345678]
[165000] SCOREBOARD: Transaction 5 received. pass=71 fail=0
[165000] ALL PASS. Total transactions: 5
[175000] AXI S1_AWVALID_RDY HANDSHAKE
[175000] AXI S0_ARVALID_RDY HANDSHAKE
[175000] MEMORY READ MISS beat=0 addr=1ee11920 -> default data id=4
[175000] ARB MONITOR: slave=1 m0_req=1 m1_req=0 winner=0
[175000] ARB MONITOR: slave=1 m0_req=1 m1_req=0 winner=0
[185000] MASTER 0 W_VALID_RDY Handshake beat=0 wlast=0
[185000] MASTER 0 R_VALID_RDY Handshake beat=0 rlast=0
[185000] MASTER 1 R_VALID_RDY Handshake beat=0 rlast=0
[185000] SLAVE 1 R_VALID_RDY Handshake beat=0 rlast=0
[185000] MEMORY READ MISS beat=1 addr=1ee11928 -> default data id=4
[195000] S1 MEMORY WRITE beat=0 addr=18f8bf20 data=0000000000000000 id=0f
[195000] AXI S1_WVALID_RDY HANDSHAKE
[195000] SLAVE 1 R_VALID_RDY Handshake beat=1 rlast=1
[195000] [SLAVE MONITOR AR] READ mst_id=0 s_id=1 araddr=1ee11920 arid=4 arlen=1 arsize=3 arburst=1 rid=[44] rresp=[00] rdata=[baadf00d12345678baadf00d12345678]
[195000] MASTER 1 R_VALID_RDY Handshake beat=1 rlast=1
[195000] [MASTER MONITOR] READ mst_id=1 s_id=1 araddr=1ed3ca48 arid=2 arlen=1 arsize=3 arburst=1 rid=[22] rresp=[00] rdata=[baadf00d12345678baadf00d12345678]
[195000] MASTER 0 R_VALID_RDY Handshake beat=1 rlast=1
[195000] [MASTER MONITOR] READ mst_id=0 s_id=0 araddr=d2063b0 arid=3 arlen=1 arsize=3 arburst=1 rid=[33] rresp=[00] rdata=[baadf00d12345678baadf00d12345678]
[195000] MASTER 0 W_VALID_RDY Handshake beat=1 wlast=1
[195000] [MASTER DRIVER] READ mst_id=0 s_id=0 araddr=d2063b0 arid=3 arlen=1 arsize=3 arburst=1 rid=[33] rresp=[00] rdata=[baadf00d12345678baadf00d12345678]
[195000] MASTER_DRIVER0 received transaction, op=AXI_WRITE
[195000] [MASTER DRIVER] READ mst_id=1 s_id=0 araddr=1ed3ca48 arid=2 arlen=1 arsize=3 arburst=1 rid=[22] rresp=[00] rdata=[baadf00d12345678baadf00d12345678]
[195000] SCOREBOARD MATCH: decode_err expected = 0, actual =0
[195000] SCOREBOARD MATCH: slave_id expected = 1, actual =1
[195000] SCOREBOARD MATCH: araddr passthrough expected = 1ed3ca48, actual =1ed3ca48
[195000] SCOREBOARD MATCH: arlen passthrough expected = 1, actual =1
[195000] SCOREBOARD MATCH: arsize passthrough expected = 3, actual =3
[195000] SCOREBOARD MATCH: arburst passthrough expected = 1, actual =1
[195000] SCOREBOARD MATCH: rdata size check expected = 2, actual =2
[195000] SCOREBOARD MATCH: rdata passthrough beat=0 expected = baadf00d12345678, actual =baadf00d12345678
[195000] SCOREBOARD MATCH: rdata passthrough beat=1 expected = baadf00d12345678, actual =baadf00d12345678
[195000] SCOREBOARD MATCH: rresp size check expected = 2, actual =2
[195000] SCOREBOARD MATCH: rresp passthrough beat=0 expected = 0, actual =0
[195000] SCOREBOARD MATCH: rresp passthrough beat=1 expected = 0, actual =0
[195000] SCOREBOARD MATCH: response routed to correct master (read beat 0) expected = 1, actual =1
[195000] SCOREBOARD MATCH: response routed to correct master (read beat 1) expected = 1, actual =1
[195000] [SCOREBOARD-M] READ mst_id=1 s_id=1 araddr=1ed3ca48 arid=2 arlen=1 arsize=3 arburst=1 rid=[22] rresp=[00] rdata=[baadf00d12345678baadf00d12345678]
[195000] [SCOREBOARD-S] READ mst_id=1 s_id=1 araddr=1ed3ca48 arid=2 arlen=1 arsize=3 arburst=1 rid=[1212] rresp=[00] rdata=[baadf00d12345678baadf00d12345678]
[195000] SCOREBOARD: Transaction 6 received. pass=85 fail=0
[195000] ALL PASS. Total transactions: 6
[195000] SCOREBOARD MATCH: decode_err expected = 0, actual =0
[195000] SCOREBOARD MATCH: slave_id expected = 0, actual =0
[195000] SCOREBOARD MATCH: araddr passthrough expected = d2063b0, actual =d2063b0
[195000] SCOREBOARD MATCH: arlen passthrough expected = 1, actual =1
[195000] SCOREBOARD MATCH: arsize passthrough expected = 3, actual =3
[195000] SCOREBOARD MATCH: arburst passthrough expected = 1, actual =1
[195000] SCOREBOARD MATCH: rdata size check expected = 2, actual =2
[195000] SCOREBOARD MATCH: rdata passthrough beat=0 expected = baadf00d12345678, actual =baadf00d12345678
[195000] SCOREBOARD MATCH: rdata passthrough beat=1 expected = baadf00d12345678, actual =baadf00d12345678
[195000] SCOREBOARD MATCH: rresp size check expected = 2, actual =2
[195000] SCOREBOARD MATCH: rresp passthrough beat=0 expected = 0, actual =0
[195000] SCOREBOARD MATCH: rresp passthrough beat=1 expected = 0, actual =0
[195000] SCOREBOARD MATCH: response routed to correct master (read beat 0) expected = 0, actual =0
[195000] SCOREBOARD MATCH: response routed to correct master (read beat 1) expected = 0, actual =0
[195000] [SCOREBOARD-M] READ mst_id=0 s_id=0 araddr=d2063b0 arid=3 arlen=1 arsize=3 arburst=1 rid=[33] rresp=[00] rdata=[baadf00d12345678baadf00d12345678]
[195000] [SCOREBOARD-S] READ mst_id=0 s_id=0 araddr=d2063b0 arid=3 arlen=1 arsize=3 arburst=1 rid=[33] rresp=[00] rdata=[baadf00d12345678baadf00d12345678]
[195000] SCOREBOARD: Transaction 7 received. pass=99 fail=0
[195000] ALL PASS. Total transactions: 7
[205000] AXI S1_WVALID_RDY HANDSHAKE
[205000] S1 MEMORY WRITE beat=1 addr=18f8bf28 data=0000000000000000 id=0f
[215000] SLAVE1 sent B resp, id=15
[215000] AXI S1_BVALID_RDY HANDSHAKE
[215000] [SLAVE MONITOR] mst_id=0 s_id=1 awaddr=18f8bf20 awid=1111 awlen=1 awsize=3 awburst=1 wdata=[0 0 ] wstrb=[0 0 ] bresp=0 bid=1111
[215000] MASTER 0 R_VALID_RDY Handshake beat=0 rlast=0
[215000] MASTER 0 AW_VALID_RDY Handshake
[225000] [MASTER DRIVER] READ mst_id=0 s_id=0 araddr=1ee11920 arid=4 arlen=1 arsize=3 arburst=1 rid=[44] rresp=[00] rdata=[baadf00d12345678baadf00d12345678]
[225000] MASTER 0 R_VALID_RDY Handshake beat=1 rlast=1
[225000] [MASTER MONITOR] READ mst_id=0 s_id=1 araddr=1ee11920 arid=4 arlen=1 arsize=3 arburst=1 rid=[44] rresp=[00] rdata=[baadf00d12345678baadf00d12345678]
[225000] ARB MONITOR: slave=0 m0_req=1 m1_req=0 winner=0
[225000] AXI S0_AWVALID_RDY HANDSHAKE
[225000] SCOREBOARD MATCH: decode_err expected = 0, actual =0
[225000] SCOREBOARD MATCH: slave_id expected = 1, actual =1
[225000] SCOREBOARD MATCH: araddr passthrough expected = 1ee11920, actual =1ee11920
[225000] SCOREBOARD MATCH: arlen passthrough expected = 1, actual =1
[225000] SCOREBOARD MATCH: arsize passthrough expected = 3, actual =3
[225000] SCOREBOARD MATCH: arburst passthrough expected = 1, actual =1
[225000] SCOREBOARD MATCH: rdata size check expected = 2, actual =2
[225000] SCOREBOARD MATCH: rdata passthrough beat=0 expected = baadf00d12345678, actual =baadf00d12345678
[225000] SCOREBOARD MATCH: rdata passthrough beat=1 expected = baadf00d12345678, actual =baadf00d12345678
[225000] SCOREBOARD MATCH: rresp size check expected = 2, actual =2
[225000] SCOREBOARD MATCH: rresp passthrough beat=0 expected = 0, actual =0
[225000] SCOREBOARD MATCH: rresp passthrough beat=1 expected = 0, actual =0
[225000] SCOREBOARD MATCH: response routed to correct master (read beat 0) expected = 0, actual =0
[225000] SCOREBOARD MATCH: response routed to correct master (read beat 1) expected = 0, actual =0
[225000] [SCOREBOARD-M] READ mst_id=0 s_id=1 araddr=1ee11920 arid=4 arlen=1 arsize=3 arburst=1 rid=[44] rresp=[00] rdata=[baadf00d12345678baadf00d12345678]
[225000] [SCOREBOARD-S] READ mst_id=0 s_id=1 araddr=1ee11920 arid=4 arlen=1 arsize=3 arburst=1 rid=[44] rresp=[00] rdata=[baadf00d12345678baadf00d12345678]
[225000] SCOREBOARD: Transaction 8 received. pass=113 fail=0
[225000] ALL PASS. Total transactions: 8
[235000] MASTER 0 W_VALID_RDY Handshake beat=0 wlast=0
[235000] MASTER 0 B_VALID_RDY Handshake
[235000] [MASTER MONITOR] mst_id=0 s_id=1 awaddr=18f8bf20 awid=1111 awlen=1 awsize=3 awburst=1 wdata=[0 0 ] wstrb=[0 0 ] bresp=0 bid=1111
[235000] MASTER 0 RECEIVED BRESP. BRESP=0
[235000] [MASTER DRIVER] mst_id=0 s_id=0 awaddr=18f8bf20 awid=1111 awlen=1 awsize=3 awburst=1 wdata=[] wstrb=[] bresp=0 bid=1111
[235000] SCOREBOARD MATCH: decode_err expected = 0, actual =0
[235000] SCOREBOARD MATCH: slave_id expected = 1, actual =1
[235000] SCOREBOARD MATCH: awaddr passthrough expected = 18f8bf20, actual =18f8bf20
[235000] SCOREBOARD MATCH: awlen passthrough expected = 1, actual =1
[235000] SCOREBOARD MATCH: awsize passthrough expected = 3, actual =3
[235000] SCOREBOARD MATCH: awburst passthrough expected = 1, actual =1
[235000] SCOREBOARD MATCH: wdata size check expected = 2, actual =2
[235000] SCOREBOARD MATCH: wdata passthrough beat=0 expected = 0, actual =0
[235000] SCOREBOARD MATCH: wdata passthrough beat=1 expected = 0, actual =0
[235000] SCOREBOARD MATCH: wstrb size check expected = 2, actual =2
[235000] SCOREBOARD MATCH: wstrb passthrough beat=0 expected = 0, actual =0
[235000] SCOREBOARD MATCH: wstrb passthrough beat=1 expected = 0, actual =0
[235000] SCOREBOARD MATCH: bresp passthrough expected = 0, actual =0
[235000] SCOREBOARD MATCH: response routed to correct master (write) expected = 0, actual =0
[235000] [SCOREBOARD-M] mst_id=0 s_id=1 awaddr=18f8bf20 awid=1111 awlen=1 awsize=3 awburst=1 wdata=[0 0 ] wstrb=[0 0 ] bresp=0 bid=1111
[235000] [SCOREBOARD-S] mst_id=0 s_id=1 awaddr=18f8bf20 awid=1111 awlen=1 awsize=3 awburst=1 wdata=[0 0 ] wstrb=[0 0 ] bresp=0 bid=1111
[235000] SCOREBOARD: Transaction 9 received. pass=127 fail=0
[235000] ALL PASS. Total transactions: 9
[245000] MASTER 0 W_VALID_RDY Handshake beat=1 wlast=1
[245000] AXI S0_WVALID_RDY HANDSHAKE
[245000] AXI S0_WVALID_RDY HANDSHAKE
[245000] S0 MEMORY WRITE beat=0 addr=0798a340 data=0000000000000000 id=07
[255000] AXI S0_WVALID_RDY HANDSHAKE
[255000] S0 MEMORY WRITE beat=1 addr=0798a348 data=0000000000000000 id=07
[255000] AXI S0_WVALID_RDY HANDSHAKE
[265000] AXI S0_BVALID_RDY HANDSHAKE
[265000] [SLAVE MONITOR] mst_id=0 s_id=0 awaddr=798a340 awid=111 awlen=1 awsize=3 awburst=1 wdata=[0 0 ] wstrb=[0 0 ] bresp=0 bid=111
[265000] SLAVE0 sent B resp, id=7
[285000] MASTER 0 RECEIVED BRESP. BRESP=0
[285000] [MASTER DRIVER] mst_id=0 s_id=0 awaddr=798a340 awid=111 awlen=1 awsize=3 awburst=1 wdata=[] wstrb=[] bresp=0 bid=111
[285000] MASTER 0 B_VALID_RDY Handshake
[285000] [MASTER MONITOR] mst_id=0 s_id=0 awaddr=798a340 awid=111 awlen=1 awsize=3 awburst=1 wdata=[0 0 ] wstrb=[0 0 ] bresp=0 bid=111
[285000] SCOREBOARD MATCH: decode_err expected = 0, actual =0
[285000] SCOREBOARD MATCH: slave_id expected = 0, actual =0
[285000] SCOREBOARD MATCH: awaddr passthrough expected = 798a340, actual =798a340
[285000] SCOREBOARD MATCH: awlen passthrough expected = 1, actual =1
[285000] SCOREBOARD MATCH: awsize passthrough expected = 3, actual =3
[285000] SCOREBOARD MATCH: awburst passthrough expected = 1, actual =1
[285000] SCOREBOARD MATCH: wdata size check expected = 2, actual =2
[285000] SCOREBOARD MATCH: wdata passthrough beat=0 expected = 0, actual =0
[285000] SCOREBOARD MATCH: wdata passthrough beat=1 expected = 0, actual =0
[285000] SCOREBOARD MATCH: wstrb size check expected = 2, actual =2
[285000] SCOREBOARD MATCH: wstrb passthrough beat=0 expected = 0, actual =0
[285000] SCOREBOARD MATCH: wstrb passthrough beat=1 expected = 0, actual =0
[285000] SCOREBOARD MATCH: bresp passthrough expected = 0, actual =0
[285000] SCOREBOARD MATCH: response routed to correct master (write) expected = 0, actual =0
[285000] [SCOREBOARD-M] mst_id=0 s_id=0 awaddr=798a340 awid=111 awlen=1 awsize=3 awburst=1 wdata=[0 0 ] wstrb=[0 0 ] bresp=0 bid=111
[285000] [SCOREBOARD-S] mst_id=0 s_id=0 awaddr=798a340 awid=111 awlen=1 awsize=3 awburst=1 wdata=[0 0 ] wstrb=[0 0 ] bresp=0 bid=111
[285000] SCOREBOARD: Transaction 10 received. pass=141 fail=0
[285000] SCOREBOARD: Expected 10 transactions completed, PASS=141 FAIL=0
[285000] ALL PASS. Total transactions: 10
[285000] ALL TRANSACTIONS MONITORED
$finish called at time : 305 ns : File "/home/nashita/Desktop/practice/axi_xbar/tb/top/axi_tb_top.sv" Line 206
exit
INFO: xsimkernel Simulation Memory Usage: 289416 KB (Peak: 337820 KB), Simulation CPU Usage: 1170 ms
INFO: [Common 17-206] Exiting xsim at Tue Sep  8 15:51:53 2026...
