#-----------------------------------------------------------
# xsim v2025.2 (64-bit)
# SW Build 6299465 on Fri Nov 14 12:34:56 MST 2025
# IP Build 6300035 on Fri Nov 14 10:48:45 MST 2025
# SharedData Build 6298862 on Thu Nov 13 04:50:51 MST 2025
# Start of session at: Fri Sep 11 11:49:07 2026
# Process ID         : 718246
# Current directory  : /home/nashita/Desktop/practice/axi_xbar/sim
# Command line       : xsim -log regress_results/BT_run142.log -mode tcl -source {xsim.dir/tb_top_snap/xsim_script.tcl}
# Log file           : /home/nashita/Desktop/practice/axi_xbar/sim/regress_results/BT_run142.log
# Journal file       : /home/nashita/Desktop/practice/axi_xbar/sim/xsim.jou
# Running On         : vlsi-vivado
# Platform           : Ubuntu
# Operating System   : Ubuntu 24.04.4 LTS
# Processor Detail   : Intel(R) Core(TM) i5-10400 CPU @ 2.90GHz
# CPU Frequency      : 3999.947 MHz
# CPU Physical cores : 6
# CPU Logical cores  : 12
# Host memory        : 41875 MB
# Swap memory        : 27648 MB
# Total Virtual      : 69524 MB
# Available Virtual  : 62867 MB
#-----------------------------------------------------------
source xsim.dir/tb_top_snap/xsim_script.tcl
# xsim {tb_top_snap} -testplusarg BT -autoloadwcfg -runall -sv_seed 143
Time resolution is 1 ps
run -all
[0] RUNNING BASE TEST
[0] INSIDE THE BASE TEST CONSTRUCTOR
[0] ENV: before agent
[0] SLAVE CONSTRUCTED
[0] MASTER MONITOR CONSTRUCTED
[0] MASTER MONITOR CONSTRUCTED
[0] SLAVE MONITOR CONSTRUCTED
[0] SLAVE MONITOR CONSTRUCTED
[0] ARB MONITOR CONSTRUCTED
GENERATOR CONSTRUCTED
[0] ENV: after agent
[0] ENV: before scoreboard
[0] ENV: after scoreboard
[15000] [SEQUENCER] mst_id=1 s_id=0 awaddr=68b7288 awid=110 awlen=10 awsize=0 awburst=2 wdata=[dc1b5783eb50c1eb e0678257d8a37f51 2bed6884180ba362 835c654da44e4800 fcf1c7528808c007 a0146369e3c3e7a4 8122fa528df2fd6 b0e7efdd2370c8b7 8734b05b0503f6f7 2de326cdd0fc5347 f46d1bfe8f46e000 ] wstrb=[aa f7 59 f1 c4 5a ef 6f 51 49 60 ] bresp=0 bid=0
[15000] [SEQUENCER] mst_id=0 s_id=0 awaddr=18e2268 awid=1111 awlen=122 awsize=0 awburst=1 wdata=[820b696fe21e13d4 920d5a3237a6a711 3bd86b5e325d2d9b 147b416fe908c1c9 20af68dabde3d4cd f0410268a6889ba1 8f915d6adc87d438 9a6ba90584bc43d7 2b44df79b040c644 8cc89a7c0aacab6e 8f68ef45bad63ce3 eb17032827344382 31e0eef0baadcebe f5840ba2f7df9da4 9f13e126c149de35 fbf7acf4e09b0eca d87aac6ed0f4d016 123eae4cf17bb896 d216c760f78e8d95 c8835dab0e365b40 ffb213d6aa9173ce a2200163dac20bf7 e8f86737d1c8db36 fc5a4f04eaa35f0f c5656b06e8aa7b0d ba7356431e7a5068 91daf772e5dd23e 97084d4b36cda548 d547f5b0ce831a7d fce0ecbbd17ba38f 84948d7de65a527 ace8bfa413e93a07 e564dd96dd913e87 3bf6e3ae29c9ac60 3db2e667edae266d cb3f64f4e8dfa352 92a94fb22317c3fd 10c5ea6a073648a2 f015ebf4d05c3619 f373fa16dc054f5e e33b980002bf3ba7 d31b71c08439e480 e03f33ded35183f4 d610bf9bc68f6bd7 cac95057c37acbde 16cc4fd3292c315c efbb9d332b088436 ee835014ecdd0f6e 960940caba84ed8a e58d71c0854f9fe7 f22caf5685c4ddfd c049cb88d410c1d5 d96061bc8835f020 dface1ea5d73d48 f9e7ff1dcb8d1112 d3c30133ce4499a6 f41bd6eed34860da 9ed571ece1bdcf51 300268f7ee03d60c c14c36e6f298731f d4564270a41e3fe5 922215f1e021a8d2 d2ba1bf28458ab67 2876eb4dd36e4cd7 338ff5aaa7105e62 2b6909caba99013e e074e16064a119c ad5a6ffed3dff517 8e78f655c19743c0 c7e1555cd8c379c8 aca36edf9c80446b de17882bf53bc55a cdff3f233b1c6535 d79ca9a0a5f8dd87 1b34a2e2faa2ae02 b5bf133735b431cc dbad0f53e933e205 e3d690070d5bbcd8 c30feea4f6e1b235 e015943a1995a33f 26f160179ebcfdf7 159eb02dc3ec2442 dd81c781ea014ebb 88be4cb2f5b44467 b9a068a904732798 ee7476539e5cfcdf 141141479722302a 9b9557c2f732c305 158fbfe5cdb1a9f0 e4d3da1b8a09ce15 13c911b29a1012c f752ab1c806931dd a72fff316cc5100 c06d522cdc268537 dc8fb7150baf910e 227be20eb7bffd48 13e68280e702b708 f2b24816e2e9343a 9aa93182f0763995 d778f09d152e2a24 f8175e5eae8fb402 9f05ed97ca2b38b3 df5962d792c08fe0 c15043e3f67ede34 c0aa16e7d770c135 ea315115e056317a d6d50fafa00379be f7743af3ab8194f8 bd7c673977f2696 3782a055e1a58c09 8d272101e2acd622 fa2bfcb8aef6db48 909c675198fee774 fbabbd96b1ae9d0d e0a578561dc38853 b6c26fc7f5d7ba4f a786575cf141dfa7 8f0567fa326e2d5e 2845e7ad882bcfb2 f96daf5ac5c7d7c2 f8360520cfcc3f09 d7f80ebc88731754 ce3aef16207beccd ] wstrb=[16 d6 36 6a 92 3 81 a8 da b7 13 6c bb 94 15 95 4b 28 1 6 bc 16 9b 7 3e 9d e fa b3 a9 2 f2 46 10 ec fa b9 ee ec 0 fe d8 fa b8 c7 e6 b8 c5 be b2 7d 85 98 35 4b 56 e7 c8 dc 7f fe 27 d6 e5 ef b2 65 ed d9 3b d3 c8 ed 38 b6 c6 73 89 8e 60 c1 44 26 34 cd b4 94 8e f9 ba c2 c6 6e 56 55 67 10 17 2e 7f 6e 83 e6 7e 9a 14 fd 8 97 e4 87 32 f8 84 3a 90 68 c1 c2 61 46 fc f1 ] bresp=0 bid=0
[15000] [SEQUENCER] READ mst_id=0 s_id=0 araddr=153dc600 arid=1 arlen=1 arsize=3 arburst=1 rid=[] rresp=[] rdata=[]
[15000] [SEQUENCER] mst_id=0 s_id=0 awaddr=50521c8 awid=1010 awlen=189 awsize=5 awburst=1 wdata=[bc182c00a7bb88d8 e4091f9581eb0bd5 9162939c1945f52a c1017e0285d92253 7c42e29cd7abf9d e6c0b4c7250a9d98 aae3bfeb9926c1c5 e6a18162a7c232c9 ccccd061b2a7ee14 cbceafdacd623629 f52468f3f7b0904d aa587e61b270313c ffd26766c1f13954 b9a1c9a1f6272e3b 28975f78f4f6d059 b6e809ade3fa4803 da21763e2869c6de 1d609737f089d34f d4841b5282b8d5b6 ab229c94d448a0e4 c4d27433aea59190 315e6747c88333cb 1ccbd4b099568f85 c7fc2116dc8103db 250437a7e19e48e3 faf4d869f95a885d d5db8c38c1d00c57 a36e553ac2f0f97f 3c4b81dcfadfc3df bcafd0369e632da3 e154272292270e14 d06d1f4e01e2571 fe8153149d9fa8fe 2fc6b713c9b6a22a a9d4c79bdfd57a37 fd7523353ccd8907 86842b3128561ab0 82b94e7ad3bda48 ea09634f3058f2cd d8af0d7d85a0b81c 32dc9265f08d8e81 20e6814ee0daa264 e67b5a809ce5f5b4 8d738435f9958ecb da70312f9957ece5 363de29aae5a0583 a7ef944ec0eb8baf da437895c3b166cf f20b6c53825fc57d c34b512d10815b2f d432c1fe99fb00a1 1c5ac61f1d8ec9c2 2e1024f1c63e2e51 e0392ef3dfa6174c fd34e10e8242e6ef c8811541fc93f512 dc3a0c5e2b4505ff ad87ecee28ba4434 254e3946d96eed6c 4b3f36bf609022f 9ec34663018845a4 daf73310b23be059 2844e289c4117fa9 c599c54ddfab267b 91e706d4c70828ec b19a896a090f85d 803c1ed8ba2be95d 134124ad0b36de3 f1446641122325ad cc4f0f0a0c4dbae0 dd0128c3f1808519 83a3aac6cd832154 d9d0dc34ce458f04 3fc6141ecff2b9d1 9d75db2536d204f8 851793fcc369bee4 935c78b5f746b75a 2e18bc52c4dda81a 84766ff30d253db 28190b35b330504e f80df8699ba3dfb4 cc76338fd631c787 896217d500555f68 9bf93f1cf48f3ec4 cac1064b8170103e 81c56fa6e86f72ac dcfeb170d4231e21 d5932e5f1dbeaec3 62e216f27bfb7bc fbe2d5ddd7589e06 f5174cc9e32cd2df 8aec8a9bd176043c a8cea242fb456e38 de72411786cf6078 d84564b59de5ef0b 992b5d43e95ecbb3 f02e2c2b811406f7 1ef9f603f79d9e5b e0fc6a0ec87390e0 c98797d8b8255346 afc2f1a1d12a9639 199e271ae8818ddb a0a6e12190bf5baf e1e9f1e9e325bef2 cba74ccdd069d2c3 e1292e72fb881903 deadd7f5ec4e2dee bcb800b1c313205b be9b395e2a5524c2 96a352b01de12f24 e0f44f7f9d491153 c79e3615d35b5362 f13c82861f8f88de bcd89a31de4188c6 319cdc28d230d205 f1c05ae30476d047 e2b8590d22d95eae f50a30b32e98f515 330fc55c14553535 372e93e3e6ca8b97 156380ac15c81e69 2a1d539eac38c496 9303502dc8734608 de3b6471e14be781 8d84ac17a866d0d9 f0da16e10858b80f e9a49f902087fc45 c8eecd1ecf157b52 d76e3361f7294ba7 97b147ec39c8e400 88de5f52c112d2f1 383c1e99e0a0150b 1a68f90be04c92b4 a15f65a5cfed6685 b08d7b90a347585d 8393eb11d99b843e 2988eac4caf6749b ee3dccf924f350b7 fe8ed4f5da166654 250cdaf0f1d1b80a 96c508c1a817bfb9 22e260e134aa7e9 851c5ff31553ddb7 bd6b9d70273b00fe 3a85a8e71be168b5 3135466cbf99c37e e6d4c47cbfa208da db83718feea0e3dc 2e3aa75ba15a6d63 e0fc763e8cb8b7fb fb599bd8950f6bd7 3669d93bbc7fe7cd c9389fc929944333 bea3af0a17664f79 d3e63746c4923ba1 ee267ed4f50d8845 8c73d7be9d1ed70f e1b112b0acca2dde 21d7b624e05a0f05 fd78e614cfd79184 fca1bf63ae4b8de2 8ea59ce7df29f8c5 af018a491e797587 ccc503690c1e82fc eb487bc1aba349ac ca1cbf33db6aa051 e789234d9a4a060a c5ed4fb716e1c29d f24c62eed2d19f0e ed1ba518900a0eea a6ebd187d9d5863b 2ca72549b308f4cf c31303ba99383475 f30dbab099c2ca61 cccbbf31e9fed541 33709b79fb4dff9 3977aa5b0fdec2eb f9dd982cf644c467 15f9a4610643698c 16222c77fd14a1e3 f359664bcf714ebc d5b4b8488fffc4a3 d14668709530aac d8c45968ebd6e4bf fbd6a962006dccd2 9c0d77e2e7911b0 1a4ff66f88eb0fe9 8958dcbbe28530e6 10fe429696269fd1 1f11afbb9319b439 ] wstrb=[5 1f 76 d6 b5 b0 91 ba cf 8 91 85 b8 22 3f 87 2a d0 c e2 f3 4c 6a 1d 1c 76 0 f c2 6a 2d df e0 2d ee a3 97 1b 82 77 48 70 1a df 8c 9c 57 d4 d 71 b4 99 e b 6d 1b 7c 21 b4 8a 2c 21 a5 a9 43 59 33 6f 7b d9 18 be 32 4c 2d ad 25 46 6b 57 92 99 5 b7 df 70 e 71 9 13 28 e8 84 36 59 8d 4a 81 76 ce b8 cf 5b 2 51 d1 d0 9 a1 2b b f2 fd db fb 9e 6 6 90 3 e1 8b a1 e7 91 31 eb 72 bc 8c 59 4d be 44 bf 7a d1 19 c8 8f 5d 87 9 2e a0 d1 bd fe 59 c7 2c f9 98 ea f7 f1 b1 24 eb 49 e e2 3b bf 6 26 8 14 8 43 d3 f 69 dc 23 72 1f f7 81 89 d3 a4 fb f2 9b 7c 7b 6e 20 76 ] bresp=0 bid=0
[15000] [SEQUENCER] READ mst_id=1 s_id=0 araddr=15a8ac08 arid=1 arlen=1 arsize=3 arburst=1 rid=[] rresp=[] rdata=[]
[15000] MASTER_DRIVER1 received transaction, op=AXI_WRITE
[15000] MASTER_DRIVER0 received transaction, op=AXI_WRITE
[35000] MASTER 1 AW_VALID_RDY Handshake
[35000] MASTER 0 AW_VALID_RDY Handshake
[45000] ARB MONITOR: slave=0 m0_req=1 m1_req=1 winner=0
[45000] AXI S0_AWVALID_RDY HANDSHAKE
[45000] SCOREBOARD MATCH: arbitration winner (slave 0) expected = 0, actual =0
[55000] MASTER 1 W_VALID_RDY Handshake beat=0 wlast=0
[55000] MASTER 0 W_VALID_RDY Handshake beat=0 wlast=0
[65000] MASTER 0 W_VALID_RDY Handshake beat=1 wlast=0
[65000] MASTER 1 W_VALID_RDY Handshake beat=1 wlast=0
[65000] AXI S0_WVALID_RDY HANDSHAKE
[65000] S0 MEMORY WRITE beat=0 addr=018e2268 data=820b696fe21e13d4 id=0f
[75000] AXI S0_WVALID_RDY HANDSHAKE
[75000] S0 MEMORY WRITE beat=1 addr=018e2269 data=920d5a3237a6a711 id=0f
[75000] MASTER 1 W_VALID_RDY Handshake beat=2 wlast=0
[75000] MASTER 0 W_VALID_RDY Handshake beat=2 wlast=0
[85000] MASTER 0 W_VALID_RDY Handshake beat=3 wlast=0
[85000] MASTER 1 W_VALID_RDY Handshake beat=3 wlast=0
[85000] AXI S0_WVALID_RDY HANDSHAKE
[85000] S0 MEMORY WRITE beat=2 addr=018e226a data=3bd86b5e325d2d9b id=0f
[95000] AXI S0_WVALID_RDY HANDSHAKE
[95000] S0 MEMORY WRITE beat=3 addr=018e226b data=147b416fe908c1c9 id=0f
[95000] MASTER 1 W_VALID_RDY Handshake beat=4 wlast=0
[95000] MASTER 0 W_VALID_RDY Handshake beat=4 wlast=0
[105000] MASTER 0 W_VALID_RDY Handshake beat=5 wlast=0
[105000] MASTER 1 W_VALID_RDY Handshake beat=5 wlast=0
[105000] AXI S0_WVALID_RDY HANDSHAKE
[105000] S0 MEMORY WRITE beat=4 addr=018e226c data=20af68dabde3d4cd id=0f
[115000] AXI S0_WVALID_RDY HANDSHAKE
[115000] S0 MEMORY WRITE beat=5 addr=018e226d data=f0410268a6889ba1 id=0f
[115000] MASTER 1 W_VALID_RDY Handshake beat=6 wlast=0
[115000] MASTER 0 W_VALID_RDY Handshake beat=6 wlast=0
[125000] MASTER 0 W_VALID_RDY Handshake beat=7 wlast=0
[125000] MASTER 1 W_VALID_RDY Handshake beat=7 wlast=0
[125000] AXI S0_WVALID_RDY HANDSHAKE
[125000] S0 MEMORY WRITE beat=6 addr=018e226e data=8f915d6adc87d438 id=0f
[135000] AXI S0_WVALID_RDY HANDSHAKE
[135000] S0 MEMORY WRITE beat=7 addr=018e226f data=9a6ba90584bc43d7 id=0f
[135000] MASTER 0 W_VALID_RDY Handshake beat=8 wlast=0
[145000] MASTER 0 W_VALID_RDY Handshake beat=9 wlast=0
[145000] AXI S0_WVALID_RDY HANDSHAKE
[145000] S0 MEMORY WRITE beat=8 addr=018e2270 data=2b44df79b040c644 id=0f
[155000] AXI S0_WVALID_RDY HANDSHAKE
[155000] S0 MEMORY WRITE beat=9 addr=018e2271 data=8cc89a7c0aacab6e id=0f
[155000] MASTER 0 W_VALID_RDY Handshake beat=10 wlast=0
[165000] MASTER 0 W_VALID_RDY Handshake beat=11 wlast=0
[165000] AXI S0_WVALID_RDY HANDSHAKE
[165000] S0 MEMORY WRITE beat=10 addr=018e2272 data=8f68ef45bad63ce3 id=0f
[175000] AXI S0_WVALID_RDY HANDSHAKE
[175000] S0 MEMORY WRITE beat=11 addr=018e2273 data=eb17032827344382 id=0f
[175000] MASTER 0 W_VALID_RDY Handshake beat=12 wlast=0
[185000] MASTER 0 W_VALID_RDY Handshake beat=13 wlast=0
[185000] AXI S0_WVALID_RDY HANDSHAKE
[185000] S0 MEMORY WRITE beat=12 addr=018e2274 data=31e0eef0baadcebe id=0f
[195000] AXI S0_WVALID_RDY HANDSHAKE
[195000] S0 MEMORY WRITE beat=13 addr=018e2275 data=f5840ba2f7df9da4 id=0f
[195000] MASTER 0 W_VALID_RDY Handshake beat=14 wlast=0
[205000] MASTER 0 W_VALID_RDY Handshake beat=15 wlast=0
[205000] AXI S0_WVALID_RDY HANDSHAKE
[205000] S0 MEMORY WRITE beat=14 addr=018e2276 data=9f13e126c149de35 id=0f
[215000] AXI S0_WVALID_RDY HANDSHAKE
[215000] S0 MEMORY WRITE beat=15 addr=018e2277 data=fbf7acf4e09b0eca id=0f
[215000] MASTER 0 W_VALID_RDY Handshake beat=16 wlast=0
[225000] MASTER 0 W_VALID_RDY Handshake beat=17 wlast=0
[225000] AXI S0_WVALID_RDY HANDSHAKE
[225000] S0 MEMORY WRITE beat=16 addr=018e2278 data=d87aac6ed0f4d016 id=0f
[235000] AXI S0_WVALID_RDY HANDSHAKE
[235000] S0 MEMORY WRITE beat=17 addr=018e2279 data=123eae4cf17bb896 id=0f
[235000] MASTER 0 W_VALID_RDY Handshake beat=18 wlast=0
[245000] MASTER 0 W_VALID_RDY Handshake beat=19 wlast=0
[245000] AXI S0_WVALID_RDY HANDSHAKE
[245000] S0 MEMORY WRITE beat=18 addr=018e227a data=d216c760f78e8d95 id=0f
[255000] AXI S0_WVALID_RDY HANDSHAKE
[255000] S0 MEMORY WRITE beat=19 addr=018e227b data=c8835dab0e365b40 id=0f
[255000] MASTER 0 W_VALID_RDY Handshake beat=20 wlast=0
[265000] MASTER 0 W_VALID_RDY Handshake beat=21 wlast=0
[265000] AXI S0_WVALID_RDY HANDSHAKE
[265000] S0 MEMORY WRITE beat=20 addr=018e227c data=ffb213d6aa9173ce id=0f
[275000] AXI S0_WVALID_RDY HANDSHAKE
[275000] S0 MEMORY WRITE beat=21 addr=018e227d data=a2200163dac20bf7 id=0f
[275000] MASTER 0 W_VALID_RDY Handshake beat=22 wlast=0
[285000] MASTER 0 W_VALID_RDY Handshake beat=23 wlast=0
[285000] AXI S0_WVALID_RDY HANDSHAKE
[285000] S0 MEMORY WRITE beat=22 addr=018e227e data=e8f86737d1c8db36 id=0f
[295000] AXI S0_WVALID_RDY HANDSHAKE
[295000] S0 MEMORY WRITE beat=23 addr=018e227f data=fc5a4f04eaa35f0f id=0f
[295000] MASTER 0 W_VALID_RDY Handshake beat=24 wlast=0
[305000] MASTER 0 W_VALID_RDY Handshake beat=25 wlast=0
[305000] AXI S0_WVALID_RDY HANDSHAKE
[305000] S0 MEMORY WRITE beat=24 addr=018e2280 data=c5656b06e8aa7b0d id=0f
[315000] AXI S0_WVALID_RDY HANDSHAKE
[315000] S0 MEMORY WRITE beat=25 addr=018e2281 data=ba7356431e7a5068 id=0f
[315000] MASTER 0 W_VALID_RDY Handshake beat=26 wlast=0
[325000] MASTER 0 W_VALID_RDY Handshake beat=27 wlast=0
[325000] AXI S0_WVALID_RDY HANDSHAKE
[325000] S0 MEMORY WRITE beat=26 addr=018e2282 data=091daf772e5dd23e id=0f
[335000] AXI S0_WVALID_RDY HANDSHAKE
[335000] S0 MEMORY WRITE beat=27 addr=018e2283 data=97084d4b36cda548 id=0f
[335000] MASTER 0 W_VALID_RDY Handshake beat=28 wlast=0
[345000] MASTER 0 W_VALID_RDY Handshake beat=29 wlast=0
[345000] AXI S0_WVALID_RDY HANDSHAKE
[345000] S0 MEMORY WRITE beat=28 addr=018e2284 data=d547f5b0ce831a7d id=0f
[355000] AXI S0_WVALID_RDY HANDSHAKE
[355000] S0 MEMORY WRITE beat=29 addr=018e2285 data=fce0ecbbd17ba38f id=0f
[355000] MASTER 0 W_VALID_RDY Handshake beat=30 wlast=0
[365000] MASTER 0 W_VALID_RDY Handshake beat=31 wlast=0
[365000] AXI S0_WVALID_RDY HANDSHAKE
[365000] S0 MEMORY WRITE beat=30 addr=018e2286 data=084948d7de65a527 id=0f
[375000] AXI S0_WVALID_RDY HANDSHAKE
[375000] S0 MEMORY WRITE beat=31 addr=018e2287 data=ace8bfa413e93a07 id=0f
[375000] MASTER 0 W_VALID_RDY Handshake beat=32 wlast=0
[385000] MASTER 0 W_VALID_RDY Handshake beat=33 wlast=0
[385000] AXI S0_WVALID_RDY HANDSHAKE
[385000] S0 MEMORY WRITE beat=32 addr=018e2288 data=e564dd96dd913e87 id=0f
[395000] AXI S0_WVALID_RDY HANDSHAKE
[395000] S0 MEMORY WRITE beat=33 addr=018e2289 data=3bf6e3ae29c9ac60 id=0f
[395000] MASTER 0 W_VALID_RDY Handshake beat=34 wlast=0
[405000] MASTER 0 W_VALID_RDY Handshake beat=35 wlast=0
[405000] AXI S0_WVALID_RDY HANDSHAKE
[405000] S0 MEMORY WRITE beat=34 addr=018e228a data=3db2e667edae266d id=0f
[415000] AXI S0_WVALID_RDY HANDSHAKE
[415000] S0 MEMORY WRITE beat=35 addr=018e228b data=cb3f64f4e8dfa352 id=0f
[415000] MASTER 0 W_VALID_RDY Handshake beat=36 wlast=0
[425000] MASTER 0 W_VALID_RDY Handshake beat=37 wlast=0
[425000] AXI S0_WVALID_RDY HANDSHAKE
[425000] S0 MEMORY WRITE beat=36 addr=018e228c data=92a94fb22317c3fd id=0f
[435000] AXI S0_WVALID_RDY HANDSHAKE
[435000] S0 MEMORY WRITE beat=37 addr=018e228d data=10c5ea6a073648a2 id=0f
[435000] MASTER 0 W_VALID_RDY Handshake beat=38 wlast=0
[445000] MASTER 0 W_VALID_RDY Handshake beat=39 wlast=0
[445000] AXI S0_WVALID_RDY HANDSHAKE
[445000] S0 MEMORY WRITE beat=38 addr=018e228e data=f015ebf4d05c3619 id=0f
[455000] AXI S0_WVALID_RDY HANDSHAKE
[455000] S0 MEMORY WRITE beat=39 addr=018e228f data=f373fa16dc054f5e id=0f
[455000] MASTER 0 W_VALID_RDY Handshake beat=40 wlast=0
[465000] MASTER 0 W_VALID_RDY Handshake beat=41 wlast=0
[465000] AXI S0_WVALID_RDY HANDSHAKE
[465000] S0 MEMORY WRITE beat=40 addr=018e2290 data=e33b980002bf3ba7 id=0f
[475000] AXI S0_WVALID_RDY HANDSHAKE
[475000] S0 MEMORY WRITE beat=41 addr=018e2291 data=d31b71c08439e480 id=0f
[475000] MASTER 0 W_VALID_RDY Handshake beat=42 wlast=0
[485000] MASTER 0 W_VALID_RDY Handshake beat=43 wlast=0
[485000] AXI S0_WVALID_RDY HANDSHAKE
[485000] S0 MEMORY WRITE beat=42 addr=018e2292 data=e03f33ded35183f4 id=0f
[495000] AXI S0_WVALID_RDY HANDSHAKE
[495000] S0 MEMORY WRITE beat=43 addr=018e2293 data=d610bf9bc68f6bd7 id=0f
[495000] MASTER 0 W_VALID_RDY Handshake beat=44 wlast=0
[505000] MASTER 0 W_VALID_RDY Handshake beat=45 wlast=0
[505000] AXI S0_WVALID_RDY HANDSHAKE
[505000] S0 MEMORY WRITE beat=44 addr=018e2294 data=cac95057c37acbde id=0f
[515000] AXI S0_WVALID_RDY HANDSHAKE
[515000] S0 MEMORY WRITE beat=45 addr=018e2295 data=16cc4fd3292c315c id=0f
[515000] MASTER 0 W_VALID_RDY Handshake beat=46 wlast=0
[525000] MASTER 0 W_VALID_RDY Handshake beat=47 wlast=0
[525000] AXI S0_WVALID_RDY HANDSHAKE
[525000] S0 MEMORY WRITE beat=46 addr=018e2296 data=efbb9d332b088436 id=0f
[535000] AXI S0_WVALID_RDY HANDSHAKE
[535000] S0 MEMORY WRITE beat=47 addr=018e2297 data=ee835014ecdd0f6e id=0f
[535000] MASTER 0 W_VALID_RDY Handshake beat=48 wlast=0
[545000] MASTER 0 W_VALID_RDY Handshake beat=49 wlast=0
[545000] AXI S0_WVALID_RDY HANDSHAKE
[545000] S0 MEMORY WRITE beat=48 addr=018e2298 data=960940caba84ed8a id=0f
[555000] AXI S0_WVALID_RDY HANDSHAKE
[555000] S0 MEMORY WRITE beat=49 addr=018e2299 data=e58d71c0854f9fe7 id=0f
[555000] MASTER 0 W_VALID_RDY Handshake beat=50 wlast=0
[565000] MASTER 0 W_VALID_RDY Handshake beat=51 wlast=0
[565000] AXI S0_WVALID_RDY HANDSHAKE
[565000] S0 MEMORY WRITE beat=50 addr=018e229a data=f22caf5685c4ddfd id=0f
[575000] AXI S0_WVALID_RDY HANDSHAKE
[575000] S0 MEMORY WRITE beat=51 addr=018e229b data=c049cb88d410c1d5 id=0f
[575000] MASTER 0 W_VALID_RDY Handshake beat=52 wlast=0
[585000] MASTER 0 W_VALID_RDY Handshake beat=53 wlast=0
[585000] AXI S0_WVALID_RDY HANDSHAKE
[585000] S0 MEMORY WRITE beat=52 addr=018e229c data=d96061bc8835f020 id=0f
[595000] AXI S0_WVALID_RDY HANDSHAKE
[595000] S0 MEMORY WRITE beat=53 addr=018e229d data=0dface1ea5d73d48 id=0f
[595000] MASTER 0 W_VALID_RDY Handshake beat=54 wlast=0
[605000] MASTER 0 W_VALID_RDY Handshake beat=55 wlast=0
[605000] AXI S0_WVALID_RDY HANDSHAKE
[605000] S0 MEMORY WRITE beat=54 addr=018e229e data=f9e7ff1dcb8d1112 id=0f
[615000] AXI S0_WVALID_RDY HANDSHAKE
[615000] S0 MEMORY WRITE beat=55 addr=018e229f data=d3c30133ce4499a6 id=0f
[615000] MASTER 0 W_VALID_RDY Handshake beat=56 wlast=0
[625000] MASTER 0 W_VALID_RDY Handshake beat=57 wlast=0
[625000] AXI S0_WVALID_RDY HANDSHAKE
[625000] S0 MEMORY WRITE beat=56 addr=018e22a0 data=f41bd6eed34860da id=0f
[635000] AXI S0_WVALID_RDY HANDSHAKE
[635000] S0 MEMORY WRITE beat=57 addr=018e22a1 data=9ed571ece1bdcf51 id=0f
[635000] MASTER 0 W_VALID_RDY Handshake beat=58 wlast=0
[645000] MASTER 0 W_VALID_RDY Handshake beat=59 wlast=0
[645000] AXI S0_WVALID_RDY HANDSHAKE
[645000] S0 MEMORY WRITE beat=58 addr=018e22a2 data=300268f7ee03d60c id=0f
[655000] AXI S0_WVALID_RDY HANDSHAKE
[655000] S0 MEMORY WRITE beat=59 addr=018e22a3 data=c14c36e6f298731f id=0f
[655000] MASTER 0 W_VALID_RDY Handshake beat=60 wlast=0
[665000] MASTER 0 W_VALID_RDY Handshake beat=61 wlast=0
[665000] AXI S0_WVALID_RDY HANDSHAKE
[665000] S0 MEMORY WRITE beat=60 addr=018e22a4 data=d4564270a41e3fe5 id=0f
[675000] AXI S0_WVALID_RDY HANDSHAKE
[675000] S0 MEMORY WRITE beat=61 addr=018e22a5 data=922215f1e021a8d2 id=0f
[675000] MASTER 0 W_VALID_RDY Handshake beat=62 wlast=0
[685000] MASTER 0 W_VALID_RDY Handshake beat=63 wlast=0
[685000] AXI S0_WVALID_RDY HANDSHAKE
[685000] S0 MEMORY WRITE beat=62 addr=018e22a6 data=d2ba1bf28458ab67 id=0f
[695000] AXI S0_WVALID_RDY HANDSHAKE
[695000] S0 MEMORY WRITE beat=63 addr=018e22a7 data=2876eb4dd36e4cd7 id=0f
[695000] MASTER 0 W_VALID_RDY Handshake beat=64 wlast=0
[705000] MASTER 0 W_VALID_RDY Handshake beat=65 wlast=0
[705000] AXI S0_WVALID_RDY HANDSHAKE
[705000] S0 MEMORY WRITE beat=64 addr=018e22a8 data=338ff5aaa7105e62 id=0f
[715000] AXI S0_WVALID_RDY HANDSHAKE
[715000] S0 MEMORY WRITE beat=65 addr=018e22a9 data=2b6909caba99013e id=0f
[715000] MASTER 0 W_VALID_RDY Handshake beat=66 wlast=0
[725000] MASTER 0 W_VALID_RDY Handshake beat=67 wlast=0
[725000] AXI S0_WVALID_RDY HANDSHAKE
[725000] S0 MEMORY WRITE beat=66 addr=018e22aa data=0e074e16064a119c id=0f
[735000] AXI S0_WVALID_RDY HANDSHAKE
[735000] S0 MEMORY WRITE beat=67 addr=018e22ab data=ad5a6ffed3dff517 id=0f
[735000] MASTER 0 W_VALID_RDY Handshake beat=68 wlast=0
[745000] MASTER 0 W_VALID_RDY Handshake beat=69 wlast=0
[745000] AXI S0_WVALID_RDY HANDSHAKE
[745000] S0 MEMORY WRITE beat=68 addr=018e22ac data=8e78f655c19743c0 id=0f
[755000] AXI S0_WVALID_RDY HANDSHAKE
[755000] S0 MEMORY WRITE beat=69 addr=018e22ad data=c7e1555cd8c379c8 id=0f
[755000] MASTER 0 W_VALID_RDY Handshake beat=70 wlast=0
[765000] MASTER 0 W_VALID_RDY Handshake beat=71 wlast=0
[765000] AXI S0_WVALID_RDY HANDSHAKE
[765000] S0 MEMORY WRITE beat=70 addr=018e22ae data=aca36edf9c80446b id=0f
[775000] AXI S0_WVALID_RDY HANDSHAKE
[775000] S0 MEMORY WRITE beat=71 addr=018e22af data=de17882bf53bc55a id=0f
[775000] MASTER 0 W_VALID_RDY Handshake beat=72 wlast=0
[785000] MASTER 0 W_VALID_RDY Handshake beat=73 wlast=0
[785000] AXI S0_WVALID_RDY HANDSHAKE
[785000] S0 MEMORY WRITE beat=72 addr=018e22b0 data=cdff3f233b1c6535 id=0f
[795000] AXI S0_WVALID_RDY HANDSHAKE
[795000] S0 MEMORY WRITE beat=73 addr=018e22b1 data=d79ca9a0a5f8dd87 id=0f
[795000] MASTER 0 W_VALID_RDY Handshake beat=74 wlast=0
[805000] MASTER 0 W_VALID_RDY Handshake beat=75 wlast=0
[805000] AXI S0_WVALID_RDY HANDSHAKE
[805000] S0 MEMORY WRITE beat=74 addr=018e22b2 data=1b34a2e2faa2ae02 id=0f
[815000] AXI S0_WVALID_RDY HANDSHAKE
[815000] S0 MEMORY WRITE beat=75 addr=018e22b3 data=b5bf133735b431cc id=0f
[815000] MASTER 0 W_VALID_RDY Handshake beat=76 wlast=0
[825000] MASTER 0 W_VALID_RDY Handshake beat=77 wlast=0
[825000] AXI S0_WVALID_RDY HANDSHAKE
[825000] S0 MEMORY WRITE beat=76 addr=018e22b4 data=dbad0f53e933e205 id=0f
[835000] AXI S0_WVALID_RDY HANDSHAKE
[835000] S0 MEMORY WRITE beat=77 addr=018e22b5 data=e3d690070d5bbcd8 id=0f
[835000] MASTER 0 W_VALID_RDY Handshake beat=78 wlast=0
[845000] MASTER 0 W_VALID_RDY Handshake beat=79 wlast=0
[845000] AXI S0_WVALID_RDY HANDSHAKE
[845000] S0 MEMORY WRITE beat=78 addr=018e22b6 data=c30feea4f6e1b235 id=0f
[855000] AXI S0_WVALID_RDY HANDSHAKE
[855000] S0 MEMORY WRITE beat=79 addr=018e22b7 data=e015943a1995a33f id=0f
[855000] MASTER 0 W_VALID_RDY Handshake beat=80 wlast=0
[865000] MASTER 0 W_VALID_RDY Handshake beat=81 wlast=0
[865000] AXI S0_WVALID_RDY HANDSHAKE
[865000] S0 MEMORY WRITE beat=80 addr=018e22b8 data=26f160179ebcfdf7 id=0f
[875000] AXI S0_WVALID_RDY HANDSHAKE
[875000] S0 MEMORY WRITE beat=81 addr=018e22b9 data=159eb02dc3ec2442 id=0f
[875000] MASTER 0 W_VALID_RDY Handshake beat=82 wlast=0
[885000] MASTER 0 W_VALID_RDY Handshake beat=83 wlast=0
[885000] AXI S0_WVALID_RDY HANDSHAKE
[885000] S0 MEMORY WRITE beat=82 addr=018e22ba data=dd81c781ea014ebb id=0f
[895000] AXI S0_WVALID_RDY HANDSHAKE
[895000] S0 MEMORY WRITE beat=83 addr=018e22bb data=88be4cb2f5b44467 id=0f
[895000] MASTER 0 W_VALID_RDY Handshake beat=84 wlast=0
[905000] MASTER 0 W_VALID_RDY Handshake beat=85 wlast=0
[905000] AXI S0_WVALID_RDY HANDSHAKE
[905000] S0 MEMORY WRITE beat=84 addr=018e22bc data=b9a068a904732798 id=0f
[915000] AXI S0_WVALID_RDY HANDSHAKE
[915000] S0 MEMORY WRITE beat=85 addr=018e22bd data=ee7476539e5cfcdf id=0f
[915000] MASTER 0 W_VALID_RDY Handshake beat=86 wlast=0
[925000] MASTER 0 W_VALID_RDY Handshake beat=87 wlast=0
[925000] AXI S0_WVALID_RDY HANDSHAKE
[925000] S0 MEMORY WRITE beat=86 addr=018e22be data=141141479722302a id=0f
[935000] AXI S0_WVALID_RDY HANDSHAKE
[935000] S0 MEMORY WRITE beat=87 addr=018e22bf data=9b9557c2f732c305 id=0f
[935000] MASTER 0 W_VALID_RDY Handshake beat=88 wlast=0
[945000] MASTER 0 W_VALID_RDY Handshake beat=89 wlast=0
[945000] AXI S0_WVALID_RDY HANDSHAKE
[945000] S0 MEMORY WRITE beat=88 addr=018e22c0 data=158fbfe5cdb1a9f0 id=0f
[955000] AXI S0_WVALID_RDY HANDSHAKE
[955000] S0 MEMORY WRITE beat=89 addr=018e22c1 data=e4d3da1b8a09ce15 id=0f
[955000] MASTER 0 W_VALID_RDY Handshake beat=90 wlast=0
[965000] MASTER 0 W_VALID_RDY Handshake beat=91 wlast=0
[965000] AXI S0_WVALID_RDY HANDSHAKE
[965000] S0 MEMORY WRITE beat=90 addr=018e22c2 data=013c911b29a1012c id=0f
[975000] AXI S0_WVALID_RDY HANDSHAKE
[975000] S0 MEMORY WRITE beat=91 addr=018e22c3 data=f752ab1c806931dd id=0f
[975000] MASTER 0 W_VALID_RDY Handshake beat=92 wlast=0
[985000] MASTER 0 W_VALID_RDY Handshake beat=93 wlast=0
[985000] AXI S0_WVALID_RDY HANDSHAKE
[985000] S0 MEMORY WRITE beat=92 addr=018e22c4 data=0a72fff316cc5100 id=0f
[995000] AXI S0_WVALID_RDY HANDSHAKE
[995000] S0 MEMORY WRITE beat=93 addr=018e22c5 data=c06d522cdc268537 id=0f
[995000] MASTER 0 W_VALID_RDY Handshake beat=94 wlast=0
[1005000] MASTER 0 W_VALID_RDY Handshake beat=95 wlast=0
[1005000] AXI S0_WVALID_RDY HANDSHAKE
[1005000] S0 MEMORY WRITE beat=94 addr=018e22c6 data=dc8fb7150baf910e id=0f
[1015000] AXI S0_WVALID_RDY HANDSHAKE
[1015000] S0 MEMORY WRITE beat=95 addr=018e22c7 data=227be20eb7bffd48 id=0f
[1015000] MASTER 0 W_VALID_RDY Handshake beat=96 wlast=0
[1025000] MASTER 0 W_VALID_RDY Handshake beat=97 wlast=0
[1025000] AXI S0_WVALID_RDY HANDSHAKE
[1025000] S0 MEMORY WRITE beat=96 addr=018e22c8 data=13e68280e702b708 id=0f
[1035000] AXI S0_WVALID_RDY HANDSHAKE
[1035000] S0 MEMORY WRITE beat=97 addr=018e22c9 data=f2b24816e2e9343a id=0f
[1035000] MASTER 0 W_VALID_RDY Handshake beat=98 wlast=0
[1045000] MASTER 0 W_VALID_RDY Handshake beat=99 wlast=0
[1045000] AXI S0_WVALID_RDY HANDSHAKE
[1045000] S0 MEMORY WRITE beat=98 addr=018e22ca data=9aa93182f0763995 id=0f
[1055000] AXI S0_WVALID_RDY HANDSHAKE
[1055000] S0 MEMORY WRITE beat=99 addr=018e22cb data=d778f09d152e2a24 id=0f
[1055000] MASTER 0 W_VALID_RDY Handshake beat=100 wlast=0
[1065000] MASTER 0 W_VALID_RDY Handshake beat=101 wlast=0
[1065000] AXI S0_WVALID_RDY HANDSHAKE
[1065000] S0 MEMORY WRITE beat=100 addr=018e22cc data=f8175e5eae8fb402 id=0f
[1075000] AXI S0_WVALID_RDY HANDSHAKE
[1075000] S0 MEMORY WRITE beat=101 addr=018e22cd data=9f05ed97ca2b38b3 id=0f
[1075000] MASTER 0 W_VALID_RDY Handshake beat=102 wlast=0
[1085000] MASTER 0 W_VALID_RDY Handshake beat=103 wlast=0
[1085000] AXI S0_WVALID_RDY HANDSHAKE
[1085000] S0 MEMORY WRITE beat=102 addr=018e22ce data=df5962d792c08fe0 id=0f
[1095000] AXI S0_WVALID_RDY HANDSHAKE
[1095000] S0 MEMORY WRITE beat=103 addr=018e22cf data=c15043e3f67ede34 id=0f
[1095000] MASTER 0 W_VALID_RDY Handshake beat=104 wlast=0
[1105000] MASTER 0 W_VALID_RDY Handshake beat=105 wlast=0
[1105000] AXI S0_WVALID_RDY HANDSHAKE
[1105000] S0 MEMORY WRITE beat=104 addr=018e22d0 data=c0aa16e7d770c135 id=0f
[1115000] AXI S0_WVALID_RDY HANDSHAKE
[1115000] S0 MEMORY WRITE beat=105 addr=018e22d1 data=ea315115e056317a id=0f
[1115000] MASTER 0 W_VALID_RDY Handshake beat=106 wlast=0
[1125000] MASTER 0 W_VALID_RDY Handshake beat=107 wlast=0
[1125000] AXI S0_WVALID_RDY HANDSHAKE
[1125000] S0 MEMORY WRITE beat=106 addr=018e22d2 data=d6d50fafa00379be id=0f
[1135000] AXI S0_WVALID_RDY HANDSHAKE
[1135000] S0 MEMORY WRITE beat=107 addr=018e22d3 data=f7743af3ab8194f8 id=0f
[1135000] MASTER 0 W_VALID_RDY Handshake beat=108 wlast=0
[1145000] MASTER 0 W_VALID_RDY Handshake beat=109 wlast=0
[1145000] AXI S0_WVALID_RDY HANDSHAKE
[1145000] S0 MEMORY WRITE beat=108 addr=018e22d4 data=0bd7c673977f2696 id=0f
[1155000] AXI S0_WVALID_RDY HANDSHAKE
[1155000] S0 MEMORY WRITE beat=109 addr=018e22d5 data=3782a055e1a58c09 id=0f
[1155000] MASTER 0 W_VALID_RDY Handshake beat=110 wlast=0
[1165000] MASTER 0 W_VALID_RDY Handshake beat=111 wlast=0
[1165000] AXI S0_WVALID_RDY HANDSHAKE
[1165000] S0 MEMORY WRITE beat=110 addr=018e22d6 data=8d272101e2acd622 id=0f
[1175000] AXI S0_WVALID_RDY HANDSHAKE
[1175000] S0 MEMORY WRITE beat=111 addr=018e22d7 data=fa2bfcb8aef6db48 id=0f
[1175000] MASTER 0 W_VALID_RDY Handshake beat=112 wlast=0
[1185000] MASTER 0 W_VALID_RDY Handshake beat=113 wlast=0
[1185000] AXI S0_WVALID_RDY HANDSHAKE
[1185000] S0 MEMORY WRITE beat=112 addr=018e22d8 data=909c675198fee774 id=0f
[1195000] AXI S0_WVALID_RDY HANDSHAKE
[1195000] S0 MEMORY WRITE beat=113 addr=018e22d9 data=fbabbd96b1ae9d0d id=0f
[1195000] MASTER 0 W_VALID_RDY Handshake beat=114 wlast=0
[1205000] MASTER 0 W_VALID_RDY Handshake beat=115 wlast=0
[1205000] AXI S0_WVALID_RDY HANDSHAKE
[1205000] S0 MEMORY WRITE beat=114 addr=018e22da data=e0a578561dc38853 id=0f
[1215000] AXI S0_WVALID_RDY HANDSHAKE
[1215000] S0 MEMORY WRITE beat=115 addr=018e22db data=b6c26fc7f5d7ba4f id=0f
[1215000] MASTER 0 W_VALID_RDY Handshake beat=116 wlast=0
[1225000] MASTER 0 W_VALID_RDY Handshake beat=117 wlast=0
[1225000] AXI S0_WVALID_RDY HANDSHAKE
[1225000] S0 MEMORY WRITE beat=116 addr=018e22dc data=a786575cf141dfa7 id=0f
[1235000] AXI S0_WVALID_RDY HANDSHAKE
[1235000] S0 MEMORY WRITE beat=117 addr=018e22dd data=8f0567fa326e2d5e id=0f
[1235000] MASTER 0 W_VALID_RDY Handshake beat=118 wlast=0
[1245000] MASTER 0 W_VALID_RDY Handshake beat=119 wlast=0
[1245000] AXI S0_WVALID_RDY HANDSHAKE
[1245000] S0 MEMORY WRITE beat=118 addr=018e22de data=2845e7ad882bcfb2 id=0f
[1255000] AXI S0_WVALID_RDY HANDSHAKE
[1255000] S0 MEMORY WRITE beat=119 addr=018e22df data=f96daf5ac5c7d7c2 id=0f
[1255000] MASTER 0 W_VALID_RDY Handshake beat=120 wlast=0
[1265000] MASTER 0 W_VALID_RDY Handshake beat=121 wlast=0
[1265000] AXI S0_WVALID_RDY HANDSHAKE
[1265000] S0 MEMORY WRITE beat=120 addr=018e22e0 data=f8360520cfcc3f09 id=0f
[1275000] AXI S0_WVALID_RDY HANDSHAKE
[1275000] S0 MEMORY WRITE beat=121 addr=018e22e1 data=d7f80ebc88731754 id=0f
[1275000] MASTER 0 W_VALID_RDY Handshake beat=122 wlast=1
[1275000] MASTER_DRIVER0 received transaction, op=AXI_READ
[1285000] AXI S0_WVALID_RDY HANDSHAKE
[1285000] S0 MEMORY WRITE beat=122 addr=018e22e2 data=ce3aef16207beccd id=0f
[1295000] SLAVE0 sent B resp, id=15
[1295000] [SLAVE MONITOR] mst_id=0 s_id=0 awaddr=18e2268 awid=1111 awlen=122 awsize=0 awburst=1 wdata=[820b696fe21e13d4 920d5a3237a6a711 3bd86b5e325d2d9b 147b416fe908c1c9 20af68dabde3d4cd f0410268a6889ba1 8f915d6adc87d438 9a6ba90584bc43d7 2b44df79b040c644 8cc89a7c0aacab6e 8f68ef45bad63ce3 eb17032827344382 31e0eef0baadcebe f5840ba2f7df9da4 9f13e126c149de35 fbf7acf4e09b0eca d87aac6ed0f4d016 123eae4cf17bb896 d216c760f78e8d95 c8835dab0e365b40 ffb213d6aa9173ce a2200163dac20bf7 e8f86737d1c8db36 fc5a4f04eaa35f0f c5656b06e8aa7b0d ba7356431e7a5068 91daf772e5dd23e 97084d4b36cda548 d547f5b0ce831a7d fce0ecbbd17ba38f 84948d7de65a527 ace8bfa413e93a07 e564dd96dd913e87 3bf6e3ae29c9ac60 3db2e667edae266d cb3f64f4e8dfa352 92a94fb22317c3fd 10c5ea6a073648a2 f015ebf4d05c3619 f373fa16dc054f5e e33b980002bf3ba7 d31b71c08439e480 e03f33ded35183f4 d610bf9bc68f6bd7 cac95057c37acbde 16cc4fd3292c315c efbb9d332b088436 ee835014ecdd0f6e 960940caba84ed8a e58d71c0854f9fe7 f22caf5685c4ddfd c049cb88d410c1d5 d96061bc8835f020 dface1ea5d73d48 f9e7ff1dcb8d1112 d3c30133ce4499a6 f41bd6eed34860da 9ed571ece1bdcf51 300268f7ee03d60c c14c36e6f298731f d4564270a41e3fe5 922215f1e021a8d2 d2ba1bf28458ab67 2876eb4dd36e4cd7 338ff5aaa7105e62 2b6909caba99013e e074e16064a119c ad5a6ffed3dff517 8e78f655c19743c0 c7e1555cd8c379c8 aca36edf9c80446b de17882bf53bc55a cdff3f233b1c6535 d79ca9a0a5f8dd87 1b34a2e2faa2ae02 b5bf133735b431cc dbad0f53e933e205 e3d690070d5bbcd8 c30feea4f6e1b235 e015943a1995a33f 26f160179ebcfdf7 159eb02dc3ec2442 dd81c781ea014ebb 88be4cb2f5b44467 b9a068a904732798 ee7476539e5cfcdf 141141479722302a 9b9557c2f732c305 158fbfe5cdb1a9f0 e4d3da1b8a09ce15 13c911b29a1012c f752ab1c806931dd a72fff316cc5100 c06d522cdc268537 dc8fb7150baf910e 227be20eb7bffd48 13e68280e702b708 f2b24816e2e9343a 9aa93182f0763995 d778f09d152e2a24 f8175e5eae8fb402 9f05ed97ca2b38b3 df5962d792c08fe0 c15043e3f67ede34 c0aa16e7d770c135 ea315115e056317a d6d50fafa00379be f7743af3ab8194f8 bd7c673977f2696 3782a055e1a58c09 8d272101e2acd622 fa2bfcb8aef6db48 909c675198fee774 fbabbd96b1ae9d0d e0a578561dc38853 b6c26fc7f5d7ba4f a786575cf141dfa7 8f0567fa326e2d5e 2845e7ad882bcfb2 f96daf5ac5c7d7c2 f8360520cfcc3f09 d7f80ebc88731754 ce3aef16207beccd ] wstrb=[16 d6 36 6a 92 3 81 a8 da b7 13 6c bb 94 15 95 4b 28 1 6 bc 16 9b 7 3e 9d e fa b3 a9 2 f2 46 10 ec fa b9 ee ec 0 fe d8 fa b8 c7 e6 b8 c5 be b2 7d 85 98 35 4b 56 e7 c8 dc 7f fe 27 d6 e5 ef b2 65 ed d9 3b d3 c8 ed 38 b6 c6 73 89 8e 60 c1 44 26 34 cd b4 94 8e f9 ba c2 c6 6e 56 55 67 10 17 2e 7f 6e 83 e6 7e 9a 14 fd 8 97 e4 87 32 f8 84 3a 90 68 c1 c2 61 46 fc f1 ] bresp=0 bid=1111
[1295000] MASTER_DRIVER0 received transaction, op=AXI_WRITE
[1305000] ARB MONITOR: slave=0 m0_req=0 m1_req=1 winner=1
[1305000] ARB MONITOR: slave=1 m0_req=1 m1_req=0 winner=0
[1305000] AXI S0_ARVALID_RDY HANDSHAKE
[1305000] MEMORY READ MISS beat=0 addr=153dc600 -> default data id=1
[1305000] AXI S0_AWVALID_RDY HANDSHAKE
[1315000] AXI S0_WVALID_RDY HANDSHAKE
[1315000] S0 MEMORY WRITE beat=0 addr=068b7288 data=dc1b5783eb50c1eb id=16
[1315000] MEMORY READ MISS beat=1 addr=153dc608 -> default data id=1
[1315000] SLAVE 1 R_VALID_RDY Handshake beat=0 rlast=0
[1315000] MASTER 0 AW_VALID_RDY Handshake
[1315000] MASTER 0 B_VALID_RDY Handshake
[1315000] [MASTER MONITOR] mst_id=0 s_id=0 awaddr=18e2268 awid=1111 awlen=122 awsize=0 awburst=1 wdata=[820b696fe21e13d4 920d5a3237a6a711 3bd86b5e325d2d9b 147b416fe908c1c9 20af68dabde3d4cd f0410268a6889ba1 8f915d6adc87d438 9a6ba90584bc43d7 2b44df79b040c644 8cc89a7c0aacab6e 8f68ef45bad63ce3 eb17032827344382 31e0eef0baadcebe f5840ba2f7df9da4 9f13e126c149de35 fbf7acf4e09b0eca d87aac6ed0f4d016 123eae4cf17bb896 d216c760f78e8d95 c8835dab0e365b40 ffb213d6aa9173ce a2200163dac20bf7 e8f86737d1c8db36 fc5a4f04eaa35f0f c5656b06e8aa7b0d ba7356431e7a5068 91daf772e5dd23e 97084d4b36cda548 d547f5b0ce831a7d fce0ecbbd17ba38f 84948d7de65a527 ace8bfa413e93a07 e564dd96dd913e87 3bf6e3ae29c9ac60 3db2e667edae266d cb3f64f4e8dfa352 92a94fb22317c3fd 10c5ea6a073648a2 f015ebf4d05c3619 f373fa16dc054f5e e33b980002bf3ba7 d31b71c08439e480 e03f33ded35183f4 d610bf9bc68f6bd7 cac95057c37acbde 16cc4fd3292c315c efbb9d332b088436 ee835014ecdd0f6e 960940caba84ed8a e58d71c0854f9fe7 f22caf5685c4ddfd c049cb88d410c1d5 d96061bc8835f020 dface1ea5d73d48 f9e7ff1dcb8d1112 d3c30133ce4499a6 f41bd6eed34860da 9ed571ece1bdcf51 300268f7ee03d60c c14c36e6f298731f d4564270a41e3fe5 922215f1e021a8d2 d2ba1bf28458ab67 2876eb4dd36e4cd7 338ff5aaa7105e62 2b6909caba99013e e074e16064a119c ad5a6ffed3dff517 8e78f655c19743c0 c7e1555cd8c379c8 aca36edf9c80446b de17882bf53bc55a cdff3f233b1c6535 d79ca9a0a5f8dd87 1b34a2e2faa2ae02 b5bf133735b431cc dbad0f53e933e205 e3d690070d5bbcd8 c30feea4f6e1b235 e015943a1995a33f 26f160179ebcfdf7 159eb02dc3ec2442 dd81c781ea014ebb 88be4cb2f5b44467 b9a068a904732798 ee7476539e5cfcdf 141141479722302a 9b9557c2f732c305 158fbfe5cdb1a9f0 e4d3da1b8a09ce15 13c911b29a1012c f752ab1c806931dd a72fff316cc5100 c06d522cdc268537 dc8fb7150baf910e 227be20eb7bffd48 13e68280e702b708 f2b24816e2e9343a 9aa93182f0763995 d778f09d152e2a24 f8175e5eae8fb402 9f05ed97ca2b38b3 df5962d792c08fe0 c15043e3f67ede34 c0aa16e7d770c135 ea315115e056317a d6d50fafa00379be f7743af3ab8194f8 bd7c673977f2696 3782a055e1a58c09 8d272101e2acd622 fa2bfcb8aef6db48 909c675198fee774 fbabbd96b1ae9d0d e0a578561dc38853 b6c26fc7f5d7ba4f a786575cf141dfa7 8f0567fa326e2d5e 2845e7ad882bcfb2 f96daf5ac5c7d7c2 f8360520cfcc3f09 d7f80ebc88731754 ce3aef16207beccd ] wstrb=[16 d6 36 6a 92 3 81 a8 da b7 13 6c bb 94 15 95 4b 28 1 6 bc 16 9b 7 3e 9d e fa b3 a9 2 f2 46 10 ec fa b9 ee ec 0 fe d8 fa b8 c7 e6 b8 c5 be b2 7d 85 98 35 4b 56 e7 c8 dc 7f fe 27 d6 e5 ef b2 65 ed d9 3b d3 c8 ed 38 b6 c6 73 89 8e 60 c1 44 26 34 cd b4 94 8e f9 ba c2 c6 6e 56 55 67 10 17 2e 7f 6e 83 e6 7e 9a 14 fd 8 97 e4 87 32 f8 84 3a 90 68 c1 c2 61 46 fc f1 ] bresp=0 bid=1111
[1315000] MASTER 0 RECEIVED BRESP. BRESP=0
[1315000] [MASTER DRIVER] mst_id=0 s_id=0 awaddr=18e2268 awid=1111 awlen=122 awsize=0 awburst=1 wdata=[820b696fe21e13d4 920d5a3237a6a711 3bd86b5e325d2d9b 147b416fe908c1c9 20af68dabde3d4cd f0410268a6889ba1 8f915d6adc87d438 9a6ba90584bc43d7 2b44df79b040c644 8cc89a7c0aacab6e 8f68ef45bad63ce3 eb17032827344382 31e0eef0baadcebe f5840ba2f7df9da4 9f13e126c149de35 fbf7acf4e09b0eca d87aac6ed0f4d016 123eae4cf17bb896 d216c760f78e8d95 c8835dab0e365b40 ffb213d6aa9173ce a2200163dac20bf7 e8f86737d1c8db36 fc5a4f04eaa35f0f c5656b06e8aa7b0d ba7356431e7a5068 91daf772e5dd23e 97084d4b36cda548 d547f5b0ce831a7d fce0ecbbd17ba38f 84948d7de65a527 ace8bfa413e93a07 e564dd96dd913e87 3bf6e3ae29c9ac60 3db2e667edae266d cb3f64f4e8dfa352 92a94fb22317c3fd 10c5ea6a073648a2 f015ebf4d05c3619 f373fa16dc054f5e e33b980002bf3ba7 d31b71c08439e480 e03f33ded35183f4 d610bf9bc68f6bd7 cac95057c37acbde 16cc4fd3292c315c efbb9d332b088436 ee835014ecdd0f6e 960940caba84ed8a e58d71c0854f9fe7 f22caf5685c4ddfd c049cb88d410c1d5 d96061bc8835f020 dface1ea5d73d48 f9e7ff1dcb8d1112 d3c30133ce4499a6 f41bd6eed34860da 9ed571ece1bdcf51 300268f7ee03d60c c14c36e6f298731f d4564270a41e3fe5 922215f1e021a8d2 d2ba1bf28458ab67 2876eb4dd36e4cd7 338ff5aaa7105e62 2b6909caba99013e e074e16064a119c ad5a6ffed3dff517 8e78f655c19743c0 c7e1555cd8c379c8 aca36edf9c80446b de17882bf53bc55a cdff3f233b1c6535 d79ca9a0a5f8dd87 1b34a2e2faa2ae02 b5bf133735b431cc dbad0f53e933e205 e3d690070d5bbcd8 c30feea4f6e1b235 e015943a1995a33f 26f160179ebcfdf7 159eb02dc3ec2442 dd81c781ea014ebb 88be4cb2f5b44467 b9a068a904732798 ee7476539e5cfcdf 141141479722302a 9b9557c2f732c305 158fbfe5cdb1a9f0 e4d3da1b8a09ce15 13c911b29a1012c f752ab1c806931dd a72fff316cc5100 c06d522cdc268537 dc8fb7150baf910e 227be20eb7bffd48 13e68280e702b708 f2b24816e2e9343a 9aa93182f0763995 d778f09d152e2a24 f8175e5eae8fb402 9f05ed97ca2b38b3 df5962d792c08fe0 c15043e3f67ede34 c0aa16e7d770c135 ea315115e056317a d6d50fafa00379be f7743af3ab8194f8 bd7c673977f2696 3782a055e1a58c09 8d272101e2acd622 fa2bfcb8aef6db48 909c675198fee774 fbabbd96b1ae9d0d e0a578561dc38853 b6c26fc7f5d7ba4f a786575cf141dfa7 8f0567fa326e2d5e 2845e7ad882bcfb2 f96daf5ac5c7d7c2 f8360520cfcc3f09 d7f80ebc88731754 ce3aef16207beccd ] wstrb=[16 d6 36 6a 92 3 81 a8 da b7 13 6c bb 94 15 95 4b 28 1 6 bc 16 9b 7 3e 9d e fa b3 a9 2 f2 46 10 ec fa b9 ee ec 0 fe d8 fa b8 c7 e6 b8 c5 be b2 7d 85 98 35 4b 56 e7 c8 dc 7f fe 27 d6 e5 ef b2 65 ed d9 3b d3 c8 ed 38 b6 c6 73 89 8e 60 c1 44 26 34 cd b4 94 8e f9 ba c2 c6 6e 56 55 67 10 17 2e 7f 6e 83 e6 7e 9a 14 fd 8 97 e4 87 32 f8 84 3a 90 68 c1 c2 61 46 fc f1 ] bresp=0 bid=1111
[1315000] SCOREBOARD MATCH: decode_err expected = 0, actual =0
[1315000] SCOREBOARD MATCH: slave_id expected = 0, actual =0
[1315000] SCOREBOARD MATCH: awaddr passthrough expected = 18e2268, actual =18e2268
[1315000] SCOREBOARD MATCH: awlen passthrough expected = 122, actual =122
[1315000] SCOREBOARD MATCH: awsize passthrough expected = 0, actual =0
[1315000] SCOREBOARD MATCH: awburst passthrough expected = 1, actual =1
[1315000] SCOREBOARD MATCH: wdata size check expected = 7b, actual =7b
[1315000] SCOREBOARD MATCH: wdata passthrough beat=0 expected = 820b696fe21e13d4, actual =820b696fe21e13d4
[1315000] SCOREBOARD MATCH: wdata passthrough beat=1 expected = 920d5a3237a6a711, actual =920d5a3237a6a711
[1315000] SCOREBOARD MATCH: wdata passthrough beat=2 expected = 3bd86b5e325d2d9b, actual =3bd86b5e325d2d9b
[1315000] SCOREBOARD MATCH: wdata passthrough beat=3 expected = 147b416fe908c1c9, actual =147b416fe908c1c9
[1315000] SCOREBOARD MATCH: wdata passthrough beat=4 expected = 20af68dabde3d4cd, actual =20af68dabde3d4cd
[1315000] SCOREBOARD MATCH: wdata passthrough beat=5 expected = f0410268a6889ba1, actual =f0410268a6889ba1
[1315000] SCOREBOARD MATCH: wdata passthrough beat=6 expected = 8f915d6adc87d438, actual =8f915d6adc87d438
[1315000] SCOREBOARD MATCH: wdata passthrough beat=7 expected = 9a6ba90584bc43d7, actual =9a6ba90584bc43d7
[1315000] SCOREBOARD MATCH: wdata passthrough beat=8 expected = 2b44df79b040c644, actual =2b44df79b040c644
[1315000] SCOREBOARD MATCH: wdata passthrough beat=9 expected = 8cc89a7c0aacab6e, actual =8cc89a7c0aacab6e
[1315000] SCOREBOARD MATCH: wdata passthrough beat=10 expected = 8f68ef45bad63ce3, actual =8f68ef45bad63ce3
[1315000] SCOREBOARD MATCH: wdata passthrough beat=11 expected = eb17032827344382, actual =eb17032827344382
[1315000] SCOREBOARD MATCH: wdata passthrough beat=12 expected = 31e0eef0baadcebe, actual =31e0eef0baadcebe
[1315000] SCOREBOARD MATCH: wdata passthrough beat=13 expected = f5840ba2f7df9da4, actual =f5840ba2f7df9da4
[1315000] SCOREBOARD MATCH: wdata passthrough beat=14 expected = 9f13e126c149de35, actual =9f13e126c149de35
[1315000] SCOREBOARD MATCH: wdata passthrough beat=15 expected = fbf7acf4e09b0eca, actual =fbf7acf4e09b0eca
[1315000] SCOREBOARD MATCH: wdata passthrough beat=16 expected = d87aac6ed0f4d016, actual =d87aac6ed0f4d016
[1315000] SCOREBOARD MATCH: wdata passthrough beat=17 expected = 123eae4cf17bb896, actual =123eae4cf17bb896
[1315000] SCOREBOARD MATCH: wdata passthrough beat=18 expected = d216c760f78e8d95, actual =d216c760f78e8d95
[1315000] SCOREBOARD MATCH: wdata passthrough beat=19 expected = c8835dab0e365b40, actual =c8835dab0e365b40
[1315000] SCOREBOARD MATCH: wdata passthrough beat=20 expected = ffb213d6aa9173ce, actual =ffb213d6aa9173ce
[1315000] SCOREBOARD MATCH: wdata passthrough beat=21 expected = a2200163dac20bf7, actual =a2200163dac20bf7
[1315000] SCOREBOARD MATCH: wdata passthrough beat=22 expected = e8f86737d1c8db36, actual =e8f86737d1c8db36
[1315000] SCOREBOARD MATCH: wdata passthrough beat=23 expected = fc5a4f04eaa35f0f, actual =fc5a4f04eaa35f0f
[1315000] SCOREBOARD MATCH: wdata passthrough beat=24 expected = c5656b06e8aa7b0d, actual =c5656b06e8aa7b0d
[1315000] SCOREBOARD MATCH: wdata passthrough beat=25 expected = ba7356431e7a5068, actual =ba7356431e7a5068
[1315000] SCOREBOARD MATCH: wdata passthrough beat=26 expected = 91daf772e5dd23e, actual =91daf772e5dd23e
[1315000] SCOREBOARD MATCH: wdata passthrough beat=27 expected = 97084d4b36cda548, actual =97084d4b36cda548
[1315000] SCOREBOARD MATCH: wdata passthrough beat=28 expected = d547f5b0ce831a7d, actual =d547f5b0ce831a7d
[1315000] SCOREBOARD MATCH: wdata passthrough beat=29 expected = fce0ecbbd17ba38f, actual =fce0ecbbd17ba38f
[1315000] SCOREBOARD MATCH: wdata passthrough beat=30 expected = 84948d7de65a527, actual =84948d7de65a527
[1315000] SCOREBOARD MATCH: wdata passthrough beat=31 expected = ace8bfa413e93a07, actual =ace8bfa413e93a07
[1315000] SCOREBOARD MATCH: wdata passthrough beat=32 expected = e564dd96dd913e87, actual =e564dd96dd913e87
[1315000] SCOREBOARD MATCH: wdata passthrough beat=33 expected = 3bf6e3ae29c9ac60, actual =3bf6e3ae29c9ac60
[1315000] SCOREBOARD MATCH: wdata passthrough beat=34 expected = 3db2e667edae266d, actual =3db2e667edae266d
[1315000] SCOREBOARD MATCH: wdata passthrough beat=35 expected = cb3f64f4e8dfa352, actual =cb3f64f4e8dfa352
[1315000] SCOREBOARD MATCH: wdata passthrough beat=36 expected = 92a94fb22317c3fd, actual =92a94fb22317c3fd
[1315000] SCOREBOARD MATCH: wdata passthrough beat=37 expected = 10c5ea6a073648a2, actual =10c5ea6a073648a2
[1315000] SCOREBOARD MATCH: wdata passthrough beat=38 expected = f015ebf4d05c3619, actual =f015ebf4d05c3619
[1315000] SCOREBOARD MATCH: wdata passthrough beat=39 expected = f373fa16dc054f5e, actual =f373fa16dc054f5e
[1315000] SCOREBOARD MATCH: wdata passthrough beat=40 expected = e33b980002bf3ba7, actual =e33b980002bf3ba7
[1315000] SCOREBOARD MATCH: wdata passthrough beat=41 expected = d31b71c08439e480, actual =d31b71c08439e480
[1315000] SCOREBOARD MATCH: wdata passthrough beat=42 expected = e03f33ded35183f4, actual =e03f33ded35183f4
[1315000] SCOREBOARD MATCH: wdata passthrough beat=43 expected = d610bf9bc68f6bd7, actual =d610bf9bc68f6bd7
[1315000] SCOREBOARD MATCH: wdata passthrough beat=44 expected = cac95057c37acbde, actual =cac95057c37acbde
[1315000] SCOREBOARD MATCH: wdata passthrough beat=45 expected = 16cc4fd3292c315c, actual =16cc4fd3292c315c
[1315000] SCOREBOARD MATCH: wdata passthrough beat=46 expected = efbb9d332b088436, actual =efbb9d332b088436
[1315000] SCOREBOARD MATCH: wdata passthrough beat=47 expected = ee835014ecdd0f6e, actual =ee835014ecdd0f6e
[1315000] SCOREBOARD MATCH: wdata passthrough beat=48 expected = 960940caba84ed8a, actual =960940caba84ed8a
[1315000] SCOREBOARD MATCH: wdata passthrough beat=49 expected = e58d71c0854f9fe7, actual =e58d71c0854f9fe7
[1315000] SCOREBOARD MATCH: wdata passthrough beat=50 expected = f22caf5685c4ddfd, actual =f22caf5685c4ddfd
[1315000] SCOREBOARD MATCH: wdata passthrough beat=51 expected = c049cb88d410c1d5, actual =c049cb88d410c1d5
[1315000] SCOREBOARD MATCH: wdata passthrough beat=52 expected = d96061bc8835f020, actual =d96061bc8835f020
[1315000] SCOREBOARD MATCH: wdata passthrough beat=53 expected = dface1ea5d73d48, actual =dface1ea5d73d48
[1315000] SCOREBOARD MATCH: wdata passthrough beat=54 expected = f9e7ff1dcb8d1112, actual =f9e7ff1dcb8d1112
[1315000] SCOREBOARD MATCH: wdata passthrough beat=55 expected = d3c30133ce4499a6, actual =d3c30133ce4499a6
[1315000] SCOREBOARD MATCH: wdata passthrough beat=56 expected = f41bd6eed34860da, actual =f41bd6eed34860da
[1315000] SCOREBOARD MATCH: wdata passthrough beat=57 expected = 9ed571ece1bdcf51, actual =9ed571ece1bdcf51
[1315000] SCOREBOARD MATCH: wdata passthrough beat=58 expected = 300268f7ee03d60c, actual =300268f7ee03d60c
[1315000] SCOREBOARD MATCH: wdata passthrough beat=59 expected = c14c36e6f298731f, actual =c14c36e6f298731f
[1315000] SCOREBOARD MATCH: wdata passthrough beat=60 expected = d4564270a41e3fe5, actual =d4564270a41e3fe5
[1315000] SCOREBOARD MATCH: wdata passthrough beat=61 expected = 922215f1e021a8d2, actual =922215f1e021a8d2
[1315000] SCOREBOARD MATCH: wdata passthrough beat=62 expected = d2ba1bf28458ab67, actual =d2ba1bf28458ab67
[1315000] SCOREBOARD MATCH: wdata passthrough beat=63 expected = 2876eb4dd36e4cd7, actual =2876eb4dd36e4cd7
[1315000] SCOREBOARD MATCH: wdata passthrough beat=64 expected = 338ff5aaa7105e62, actual =338ff5aaa7105e62
[1315000] SCOREBOARD MATCH: wdata passthrough beat=65 expected = 2b6909caba99013e, actual =2b6909caba99013e
[1315000] SCOREBOARD MATCH: wdata passthrough beat=66 expected = e074e16064a119c, actual =e074e16064a119c
[1315000] SCOREBOARD MATCH: wdata passthrough beat=67 expected = ad5a6ffed3dff517, actual =ad5a6ffed3dff517
[1315000] SCOREBOARD MATCH: wdata passthrough beat=68 expected = 8e78f655c19743c0, actual =8e78f655c19743c0
[1315000] SCOREBOARD MATCH: wdata passthrough beat=69 expected = c7e1555cd8c379c8, actual =c7e1555cd8c379c8
[1315000] SCOREBOARD MATCH: wdata passthrough beat=70 expected = aca36edf9c80446b, actual =aca36edf9c80446b
[1315000] SCOREBOARD MATCH: wdata passthrough beat=71 expected = de17882bf53bc55a, actual =de17882bf53bc55a
[1315000] SCOREBOARD MATCH: wdata passthrough beat=72 expected = cdff3f233b1c6535, actual =cdff3f233b1c6535
[1315000] SCOREBOARD MATCH: wdata passthrough beat=73 expected = d79ca9a0a5f8dd87, actual =d79ca9a0a5f8dd87
[1315000] SCOREBOARD MATCH: wdata passthrough beat=74 expected = 1b34a2e2faa2ae02, actual =1b34a2e2faa2ae02
[1315000] SCOREBOARD MATCH: wdata passthrough beat=75 expected = b5bf133735b431cc, actual =b5bf133735b431cc
[1315000] SCOREBOARD MATCH: wdata passthrough beat=76 expected = dbad0f53e933e205, actual =dbad0f53e933e205
[1315000] SCOREBOARD MATCH: wdata passthrough beat=77 expected = e3d690070d5bbcd8, actual =e3d690070d5bbcd8
[1315000] SCOREBOARD MATCH: wdata passthrough beat=78 expected = c30feea4f6e1b235, actual =c30feea4f6e1b235
[1315000] SCOREBOARD MATCH: wdata passthrough beat=79 expected = e015943a1995a33f, actual =e015943a1995a33f
[1315000] SCOREBOARD MATCH: wdata passthrough beat=80 expected = 26f160179ebcfdf7, actual =26f160179ebcfdf7
[1315000] SCOREBOARD MATCH: wdata passthrough beat=81 expected = 159eb02dc3ec2442, actual =159eb02dc3ec2442
[1315000] SCOREBOARD MATCH: wdata passthrough beat=82 expected = dd81c781ea014ebb, actual =dd81c781ea014ebb
[1315000] SCOREBOARD MATCH: wdata passthrough beat=83 expected = 88be4cb2f5b44467, actual =88be4cb2f5b44467
[1315000] SCOREBOARD MATCH: wdata passthrough beat=84 expected = b9a068a904732798, actual =b9a068a904732798
[1315000] SCOREBOARD MATCH: wdata passthrough beat=85 expected = ee7476539e5cfcdf, actual =ee7476539e5cfcdf
[1315000] SCOREBOARD MATCH: wdata passthrough beat=86 expected = 141141479722302a, actual =141141479722302a
[1315000] SCOREBOARD MATCH: wdata passthrough beat=87 expected = 9b9557c2f732c305, actual =9b9557c2f732c305
[1315000] SCOREBOARD MATCH: wdata passthrough beat=88 expected = 158fbfe5cdb1a9f0, actual =158fbfe5cdb1a9f0
[1315000] SCOREBOARD MATCH: wdata passthrough beat=89 expected = e4d3da1b8a09ce15, actual =e4d3da1b8a09ce15
[1315000] SCOREBOARD MATCH: wdata passthrough beat=90 expected = 13c911b29a1012c, actual =13c911b29a1012c
[1315000] SCOREBOARD MATCH: wdata passthrough beat=91 expected = f752ab1c806931dd, actual =f752ab1c806931dd
[1315000] SCOREBOARD MATCH: wdata passthrough beat=92 expected = a72fff316cc5100, actual =a72fff316cc5100
[1315000] SCOREBOARD MATCH: wdata passthrough beat=93 expected = c06d522cdc268537, actual =c06d522cdc268537
[1315000] SCOREBOARD MATCH: wdata passthrough beat=94 expected = dc8fb7150baf910e, actual =dc8fb7150baf910e
[1315000] SCOREBOARD MATCH: wdata passthrough beat=95 expected = 227be20eb7bffd48, actual =227be20eb7bffd48
[1315000] SCOREBOARD MATCH: wdata passthrough beat=96 expected = 13e68280e702b708, actual =13e68280e702b708
[1315000] SCOREBOARD MATCH: wdata passthrough beat=97 expected = f2b24816e2e9343a, actual =f2b24816e2e9343a
[1315000] SCOREBOARD MATCH: wdata passthrough beat=98 expected = 9aa93182f0763995, actual =9aa93182f0763995
[1315000] SCOREBOARD MATCH: wdata passthrough beat=99 expected = d778f09d152e2a24, actual =d778f09d152e2a24
[1315000] SCOREBOARD MATCH: wdata passthrough beat=100 expected = f8175e5eae8fb402, actual =f8175e5eae8fb402
[1315000] SCOREBOARD MATCH: wdata passthrough beat=101 expected = 9f05ed97ca2b38b3, actual =9f05ed97ca2b38b3
[1315000] SCOREBOARD MATCH: wdata passthrough beat=102 expected = df5962d792c08fe0, actual =df5962d792c08fe0
[1315000] SCOREBOARD MATCH: wdata passthrough beat=103 expected = c15043e3f67ede34, actual =c15043e3f67ede34
[1315000] SCOREBOARD MATCH: wdata passthrough beat=104 expected = c0aa16e7d770c135, actual =c0aa16e7d770c135
[1315000] SCOREBOARD MATCH: wdata passthrough beat=105 expected = ea315115e056317a, actual =ea315115e056317a
[1315000] SCOREBOARD MATCH: wdata passthrough beat=106 expected = d6d50fafa00379be, actual =d6d50fafa00379be
[1315000] SCOREBOARD MATCH: wdata passthrough beat=107 expected = f7743af3ab8194f8, actual =f7743af3ab8194f8
[1315000] SCOREBOARD MATCH: wdata passthrough beat=108 expected = bd7c673977f2696, actual =bd7c673977f2696
[1315000] SCOREBOARD MATCH: wdata passthrough beat=109 expected = 3782a055e1a58c09, actual =3782a055e1a58c09
[1315000] SCOREBOARD MATCH: wdata passthrough beat=110 expected = 8d272101e2acd622, actual =8d272101e2acd622
[1315000] SCOREBOARD MATCH: wdata passthrough beat=111 expected = fa2bfcb8aef6db48, actual =fa2bfcb8aef6db48
[1315000] SCOREBOARD MATCH: wdata passthrough beat=112 expected = 909c675198fee774, actual =909c675198fee774
[1315000] SCOREBOARD MATCH: wdata passthrough beat=113 expected = fbabbd96b1ae9d0d, actual =fbabbd96b1ae9d0d
[1315000] SCOREBOARD MATCH: wdata passthrough beat=114 expected = e0a578561dc38853, actual =e0a578561dc38853
[1315000] SCOREBOARD MATCH: wdata passthrough beat=115 expected = b6c26fc7f5d7ba4f, actual =b6c26fc7f5d7ba4f
[1315000] SCOREBOARD MATCH: wdata passthrough beat=116 expected = a786575cf141dfa7, actual =a786575cf141dfa7
[1315000] SCOREBOARD MATCH: wdata passthrough beat=117 expected = 8f0567fa326e2d5e, actual =8f0567fa326e2d5e
[1315000] SCOREBOARD MATCH: wdata passthrough beat=118 expected = 2845e7ad882bcfb2, actual =2845e7ad882bcfb2
[1315000] SCOREBOARD MATCH: wdata passthrough beat=119 expected = f96daf5ac5c7d7c2, actual =f96daf5ac5c7d7c2
[1315000] SCOREBOARD MATCH: wdata passthrough beat=120 expected = f8360520cfcc3f09, actual =f8360520cfcc3f09
[1315000] SCOREBOARD MATCH: wdata passthrough beat=121 expected = d7f80ebc88731754, actual =d7f80ebc88731754
[1315000] SCOREBOARD MATCH: wdata passthrough beat=122 expected = ce3aef16207beccd, actual =ce3aef16207beccd
[1315000] SCOREBOARD MATCH: wstrb size check expected = 7b, actual =7b
[1315000] SCOREBOARD MATCH: wstrb passthrough beat=0 expected = 16, actual =16
[1315000] SCOREBOARD MATCH: wstrb passthrough beat=1 expected = d6, actual =d6
[1315000] SCOREBOARD MATCH: wstrb passthrough beat=2 expected = 36, actual =36
[1315000] SCOREBOARD MATCH: wstrb passthrough beat=3 expected = 6a, actual =6a
[1315000] SCOREBOARD MATCH: wstrb passthrough beat=4 expected = 92, actual =92
[1315000] SCOREBOARD MATCH: wstrb passthrough beat=5 expected = 3, actual =3
[1315000] SCOREBOARD MATCH: wstrb passthrough beat=6 expected = 81, actual =81
[1315000] SCOREBOARD MATCH: wstrb passthrough beat=7 expected = a8, actual =a8
[1315000] SCOREBOARD MATCH: wstrb passthrough beat=8 expected = da, actual =da
[1315000] SCOREBOARD MATCH: wstrb passthrough beat=9 expected = b7, actual =b7
[1315000] SCOREBOARD MATCH: wstrb passthrough beat=10 expected = 13, actual =13
[1315000] SCOREBOARD MATCH: wstrb passthrough beat=11 expected = 6c, actual =6c
[1315000] SCOREBOARD MATCH: wstrb passthrough beat=12 expected = bb, actual =bb
[1315000] SCOREBOARD MATCH: wstrb passthrough beat=13 expected = 94, actual =94
[1315000] SCOREBOARD MATCH: wstrb passthrough beat=14 expected = 15, actual =15
[1315000] SCOREBOARD MATCH: wstrb passthrough beat=15 expected = 95, actual =95
[1315000] SCOREBOARD MATCH: wstrb passthrough beat=16 expected = 4b, actual =4b
[1315000] SCOREBOARD MATCH: wstrb passthrough beat=17 expected = 28, actual =28
[1315000] SCOREBOARD MATCH: wstrb passthrough beat=18 expected = 1, actual =1
[1315000] SCOREBOARD MATCH: wstrb passthrough beat=19 expected = 6, actual =6
[1315000] SCOREBOARD MATCH: wstrb passthrough beat=20 expected = bc, actual =bc
[1315000] SCOREBOARD MATCH: wstrb passthrough beat=21 expected = 16, actual =16
[1315000] SCOREBOARD MATCH: wstrb passthrough beat=22 expected = 9b, actual =9b
[1315000] SCOREBOARD MATCH: wstrb passthrough beat=23 expected = 7, actual =7
[1315000] SCOREBOARD MATCH: wstrb passthrough beat=24 expected = 3e, actual =3e
[1315000] SCOREBOARD MATCH: wstrb passthrough beat=25 expected = 9d, actual =9d
[1315000] SCOREBOARD MATCH: wstrb passthrough beat=26 expected = e, actual =e
[1315000] SCOREBOARD MATCH: wstrb passthrough beat=27 expected = fa, actual =fa
[1315000] SCOREBOARD MATCH: wstrb passthrough beat=28 expected = b3, actual =b3
[1315000] SCOREBOARD MATCH: wstrb passthrough beat=29 expected = a9, actual =a9
[1315000] SCOREBOARD MATCH: wstrb passthrough beat=30 expected = 2, actual =2
[1315000] SCOREBOARD MATCH: wstrb passthrough beat=31 expected = f2, actual =f2
[1315000] SCOREBOARD MATCH: wstrb passthrough beat=32 expected = 46, actual =46
[1315000] SCOREBOARD MATCH: wstrb passthrough beat=33 expected = 10, actual =10
[1315000] SCOREBOARD MATCH: wstrb passthrough beat=34 expected = ec, actual =ec
[1315000] SCOREBOARD MATCH: wstrb passthrough beat=35 expected = fa, actual =fa
[1315000] SCOREBOARD MATCH: wstrb passthrough beat=36 expected = b9, actual =b9
[1315000] SCOREBOARD MATCH: wstrb passthrough beat=37 expected = ee, actual =ee
[1315000] SCOREBOARD MATCH: wstrb passthrough beat=38 expected = ec, actual =ec
[1315000] SCOREBOARD MATCH: wstrb passthrough beat=39 expected = 0, actual =0
[1315000] SCOREBOARD MATCH: wstrb passthrough beat=40 expected = fe, actual =fe
[1315000] SCOREBOARD MATCH: wstrb passthrough beat=41 expected = d8, actual =d8
[1315000] SCOREBOARD MATCH: wstrb passthrough beat=42 expected = fa, actual =fa
[1315000] SCOREBOARD MATCH: wstrb passthrough beat=43 expected = b8, actual =b8
[1315000] SCOREBOARD MATCH: wstrb passthrough beat=44 expected = c7, actual =c7
[1315000] SCOREBOARD MATCH: wstrb passthrough beat=45 expected = e6, actual =e6
[1315000] SCOREBOARD MATCH: wstrb passthrough beat=46 expected = b8, actual =b8
[1315000] SCOREBOARD MATCH: wstrb passthrough beat=47 expected = c5, actual =c5
[1315000] SCOREBOARD MATCH: wstrb passthrough beat=48 expected = be, actual =be
[1315000] SCOREBOARD MATCH: wstrb passthrough beat=49 expected = b2, actual =b2
[1315000] SCOREBOARD MATCH: wstrb passthrough beat=50 expected = 7d, actual =7d
[1315000] SCOREBOARD MATCH: wstrb passthrough beat=51 expected = 85, actual =85
[1315000] SCOREBOARD MATCH: wstrb passthrough beat=52 expected = 98, actual =98
[1315000] SCOREBOARD MATCH: wstrb passthrough beat=53 expected = 35, actual =35
[1315000] SCOREBOARD MATCH: wstrb passthrough beat=54 expected = 4b, actual =4b
[1315000] SCOREBOARD MATCH: wstrb passthrough beat=55 expected = 56, actual =56
[1315000] SCOREBOARD MATCH: wstrb passthrough beat=56 expected = e7, actual =e7
[1315000] SCOREBOARD MATCH: wstrb passthrough beat=57 expected = c8, actual =c8
[1315000] SCOREBOARD MATCH: wstrb passthrough beat=58 expected = dc, actual =dc
[1315000] SCOREBOARD MATCH: wstrb passthrough beat=59 expected = 7f, actual =7f
[1315000] SCOREBOARD MATCH: wstrb passthrough beat=60 expected = fe, actual =fe
[1315000] SCOREBOARD MATCH: wstrb passthrough beat=61 expected = 27, actual =27
[1315000] SCOREBOARD MATCH: wstrb passthrough beat=62 expected = d6, actual =d6
[1315000] SCOREBOARD MATCH: wstrb passthrough beat=63 expected = e5, actual =e5
[1315000] SCOREBOARD MATCH: wstrb passthrough beat=64 expected = ef, actual =ef
[1315000] SCOREBOARD MATCH: wstrb passthrough beat=65 expected = b2, actual =b2
[1315000] SCOREBOARD MATCH: wstrb passthrough beat=66 expected = 65, actual =65
[1315000] SCOREBOARD MATCH: wstrb passthrough beat=67 expected = ed, actual =ed
[1315000] SCOREBOARD MATCH: wstrb passthrough beat=68 expected = d9, actual =d9
[1315000] SCOREBOARD MATCH: wstrb passthrough beat=69 expected = 3b, actual =3b
[1315000] SCOREBOARD MATCH: wstrb passthrough beat=70 expected = d3, actual =d3
[1315000] SCOREBOARD MATCH: wstrb passthrough beat=71 expected = c8, actual =c8
[1315000] SCOREBOARD MATCH: wstrb passthrough beat=72 expected = ed, actual =ed
[1315000] SCOREBOARD MATCH: wstrb passthrough beat=73 expected = 38, actual =38
[1315000] SCOREBOARD MATCH: wstrb passthrough beat=74 expected = b6, actual =b6
[1315000] SCOREBOARD MATCH: wstrb passthrough beat=75 expected = c6, actual =c6
[1315000] SCOREBOARD MATCH: wstrb passthrough beat=76 expected = 73, actual =73
[1315000] SCOREBOARD MATCH: wstrb passthrough beat=77 expected = 89, actual =89
[1315000] SCOREBOARD MATCH: wstrb passthrough beat=78 expected = 8e, actual =8e
[1315000] SCOREBOARD MATCH: wstrb passthrough beat=79 expected = 60, actual =60
[1315000] SCOREBOARD MATCH: wstrb passthrough beat=80 expected = c1, actual =c1
[1315000] SCOREBOARD MATCH: wstrb passthrough beat=81 expected = 44, actual =44
[1315000] SCOREBOARD MATCH: wstrb passthrough beat=82 expected = 26, actual =26
[1315000] SCOREBOARD MATCH: wstrb passthrough beat=83 expected = 34, actual =34
[1315000] SCOREBOARD MATCH: wstrb passthrough beat=84 expected = cd, actual =cd
[1315000] SCOREBOARD MATCH: wstrb passthrough beat=85 expected = b4, actual =b4
[1315000] SCOREBOARD MATCH: wstrb passthrough beat=86 expected = 94, actual =94
[1315000] SCOREBOARD MATCH: wstrb passthrough beat=87 expected = 8e, actual =8e
[1315000] SCOREBOARD MATCH: wstrb passthrough beat=88 expected = f9, actual =f9
[1315000] SCOREBOARD MATCH: wstrb passthrough beat=89 expected = ba, actual =ba
[1315000] SCOREBOARD MATCH: wstrb passthrough beat=90 expected = c2, actual =c2
[1315000] SCOREBOARD MATCH: wstrb passthrough beat=91 expected = c6, actual =c6
[1315000] SCOREBOARD MATCH: wstrb passthrough beat=92 expected = 6e, actual =6e
[1315000] SCOREBOARD MATCH: wstrb passthrough beat=93 expected = 56, actual =56
[1315000] SCOREBOARD MATCH: wstrb passthrough beat=94 expected = 55, actual =55
[1315000] SCOREBOARD MATCH: wstrb passthrough beat=95 expected = 67, actual =67
[1315000] SCOREBOARD MATCH: wstrb passthrough beat=96 expected = 10, actual =10
[1315000] SCOREBOARD MATCH: wstrb passthrough beat=97 expected = 17, actual =17
[1315000] SCOREBOARD MATCH: wstrb passthrough beat=98 expected = 2e, actual =2e
[1315000] SCOREBOARD MATCH: wstrb passthrough beat=99 expected = 7f, actual =7f
[1315000] SCOREBOARD MATCH: wstrb passthrough beat=100 expected = 6e, actual =6e
[1315000] SCOREBOARD MATCH: wstrb passthrough beat=101 expected = 83, actual =83
[1315000] SCOREBOARD MATCH: wstrb passthrough beat=102 expected = e6, actual =e6
[1315000] SCOREBOARD MATCH: wstrb passthrough beat=103 expected = 7e, actual =7e
[1315000] SCOREBOARD MATCH: wstrb passthrough beat=104 expected = 9a, actual =9a
[1315000] SCOREBOARD MATCH: wstrb passthrough beat=105 expected = 14, actual =14
[1315000] SCOREBOARD MATCH: wstrb passthrough beat=106 expected = fd, actual =fd
[1315000] SCOREBOARD MATCH: wstrb passthrough beat=107 expected = 8, actual =8
[1315000] SCOREBOARD MATCH: wstrb passthrough beat=108 expected = 97, actual =97
[1315000] SCOREBOARD MATCH: wstrb passthrough beat=109 expected = e4, actual =e4
[1315000] SCOREBOARD MATCH: wstrb passthrough beat=110 expected = 87, actual =87
[1315000] SCOREBOARD MATCH: wstrb passthrough beat=111 expected = 32, actual =32
[1315000] SCOREBOARD MATCH: wstrb passthrough beat=112 expected = f8, actual =f8
[1315000] SCOREBOARD MATCH: wstrb passthrough beat=113 expected = 84, actual =84
[1315000] SCOREBOARD MATCH: wstrb passthrough beat=114 expected = 3a, actual =3a
[1315000] SCOREBOARD MATCH: wstrb passthrough beat=115 expected = 90, actual =90
[1315000] SCOREBOARD MATCH: wstrb passthrough beat=116 expected = 68, actual =68
[1315000] SCOREBOARD MATCH: wstrb passthrough beat=117 expected = c1, actual =c1
[1315000] SCOREBOARD MATCH: wstrb passthrough beat=118 expected = c2, actual =c2
[1315000] SCOREBOARD MATCH: wstrb passthrough beat=119 expected = 61, actual =61
[1315000] SCOREBOARD MATCH: wstrb passthrough beat=120 expected = 46, actual =46
[1315000] SCOREBOARD MATCH: wstrb passthrough beat=121 expected = fc, actual =fc
[1315000] SCOREBOARD MATCH: wstrb passthrough beat=122 expected = f1, actual =f1
[1315000] SCOREBOARD MATCH: bresp passthrough expected = 0, actual =0
[1315000] SCOREBOARD MATCH: response routed to correct master (write) expected = 0, actual =0
[1315000] [SCOREBOARD-M] mst_id=0 s_id=0 awaddr=18e2268 awid=1111 awlen=122 awsize=0 awburst=1 wdata=[820b696fe21e13d4 920d5a3237a6a711 3bd86b5e325d2d9b 147b416fe908c1c9 20af68dabde3d4cd f0410268a6889ba1 8f915d6adc87d438 9a6ba90584bc43d7 2b44df79b040c644 8cc89a7c0aacab6e 8f68ef45bad63ce3 eb17032827344382 31e0eef0baadcebe f5840ba2f7df9da4 9f13e126c149de35 fbf7acf4e09b0eca d87aac6ed0f4d016 123eae4cf17bb896 d216c760f78e8d95 c8835dab0e365b40 ffb213d6aa9173ce a2200163dac20bf7 e8f86737d1c8db36 fc5a4f04eaa35f0f c5656b06e8aa7b0d ba7356431e7a5068 91daf772e5dd23e 97084d4b36cda548 d547f5b0ce831a7d fce0ecbbd17ba38f 84948d7de65a527 ace8bfa413e93a07 e564dd96dd913e87 3bf6e3ae29c9ac60 3db2e667edae266d cb3f64f4e8dfa352 92a94fb22317c3fd 10c5ea6a073648a2 f015ebf4d05c3619 f373fa16dc054f5e e33b980002bf3ba7 d31b71c08439e480 e03f33ded35183f4 d610bf9bc68f6bd7 cac95057c37acbde 16cc4fd3292c315c efbb9d332b088436 ee835014ecdd0f6e 960940caba84ed8a e58d71c0854f9fe7 f22caf5685c4ddfd c049cb88d410c1d5 d96061bc8835f020 dface1ea5d73d48 f9e7ff1dcb8d1112 d3c30133ce4499a6 f41bd6eed34860da 9ed571ece1bdcf51 300268f7ee03d60c c14c36e6f298731f d4564270a41e3fe5 922215f1e021a8d2 d2ba1bf28458ab67 2876eb4dd36e4cd7 338ff5aaa7105e62 2b6909caba99013e e074e16064a119c ad5a6ffed3dff517 8e78f655c19743c0 c7e1555cd8c379c8 aca36edf9c80446b de17882bf53bc55a cdff3f233b1c6535 d79ca9a0a5f8dd87 1b34a2e2faa2ae02 b5bf133735b431cc dbad0f53e933e205 e3d690070d5bbcd8 c30feea4f6e1b235 e015943a1995a33f 26f160179ebcfdf7 159eb02dc3ec2442 dd81c781ea014ebb 88be4cb2f5b44467 b9a068a904732798 ee7476539e5cfcdf 141141479722302a 9b9557c2f732c305 158fbfe5cdb1a9f0 e4d3da1b8a09ce15 13c911b29a1012c f752ab1c806931dd a72fff316cc5100 c06d522cdc268537 dc8fb7150baf910e 227be20eb7bffd48 13e68280e702b708 f2b24816e2e9343a 9aa93182f0763995 d778f09d152e2a24 f8175e5eae8fb402 9f05ed97ca2b38b3 df5962d792c08fe0 c15043e3f67ede34 c0aa16e7d770c135 ea315115e056317a d6d50fafa00379be f7743af3ab8194f8 bd7c673977f2696 3782a055e1a58c09 8d272101e2acd622 fa2bfcb8aef6db48 909c675198fee774 fbabbd96b1ae9d0d e0a578561dc38853 b6c26fc7f5d7ba4f a786575cf141dfa7 8f0567fa326e2d5e 2845e7ad882bcfb2 f96daf5ac5c7d7c2 f8360520cfcc3f09 d7f80ebc88731754 ce3aef16207beccd ] wstrb=[16 d6 36 6a 92 3 81 a8 da b7 13 6c bb 94 15 95 4b 28 1 6 bc 16 9b 7 3e 9d e fa b3 a9 2 f2 46 10 ec fa b9 ee ec 0 fe d8 fa b8 c7 e6 b8 c5 be b2 7d 85 98 35 4b 56 e7 c8 dc 7f fe 27 d6 e5 ef b2 65 ed d9 3b d3 c8 ed 38 b6 c6 73 89 8e 60 c1 44 26 34 cd b4 94 8e f9 ba c2 c6 6e 56 55 67 10 17 2e 7f 6e 83 e6 7e 9a 14 fd 8 97 e4 87 32 f8 84 3a 90 68 c1 c2 61 46 fc f1 ] bresp=0 bid=1111
[1315000] [SCOREBOARD-S] mst_id=0 s_id=0 awaddr=18e2268 awid=1111 awlen=122 awsize=0 awburst=1 wdata=[820b696fe21e13d4 920d5a3237a6a711 3bd86b5e325d2d9b 147b416fe908c1c9 20af68dabde3d4cd f0410268a6889ba1 8f915d6adc87d438 9a6ba90584bc43d7 2b44df79b040c644 8cc89a7c0aacab6e 8f68ef45bad63ce3 eb17032827344382 31e0eef0baadcebe f5840ba2f7df9da4 9f13e126c149de35 fbf7acf4e09b0eca d87aac6ed0f4d016 123eae4cf17bb896 d216c760f78e8d95 c8835dab0e365b40 ffb213d6aa9173ce a2200163dac20bf7 e8f86737d1c8db36 fc5a4f04eaa35f0f c5656b06e8aa7b0d ba7356431e7a5068 91daf772e5dd23e 97084d4b36cda548 d547f5b0ce831a7d fce0ecbbd17ba38f 84948d7de65a527 ace8bfa413e93a07 e564dd96dd913e87 3bf6e3ae29c9ac60 3db2e667edae266d cb3f64f4e8dfa352 92a94fb22317c3fd 10c5ea6a073648a2 f015ebf4d05c3619 f373fa16dc054f5e e33b980002bf3ba7 d31b71c08439e480 e03f33ded35183f4 d610bf9bc68f6bd7 cac95057c37acbde 16cc4fd3292c315c efbb9d332b088436 ee835014ecdd0f6e 960940caba84ed8a e58d71c0854f9fe7 f22caf5685c4ddfd c049cb88d410c1d5 d96061bc8835f020 dface1ea5d73d48 f9e7ff1dcb8d1112 d3c30133ce4499a6 f41bd6eed34860da 9ed571ece1bdcf51 300268f7ee03d60c c14c36e6f298731f d4564270a41e3fe5 922215f1e021a8d2 d2ba1bf28458ab67 2876eb4dd36e4cd7 338ff5aaa7105e62 2b6909caba99013e e074e16064a119c ad5a6ffed3dff517 8e78f655c19743c0 c7e1555cd8c379c8 aca36edf9c80446b de17882bf53bc55a cdff3f233b1c6535 d79ca9a0a5f8dd87 1b34a2e2faa2ae02 b5bf133735b431cc dbad0f53e933e205 e3d690070d5bbcd8 c30feea4f6e1b235 e015943a1995a33f 26f160179ebcfdf7 159eb02dc3ec2442 dd81c781ea014ebb 88be4cb2f5b44467 b9a068a904732798 ee7476539e5cfcdf 141141479722302a 9b9557c2f732c305 158fbfe5cdb1a9f0 e4d3da1b8a09ce15 13c911b29a1012c f752ab1c806931dd a72fff316cc5100 c06d522cdc268537 dc8fb7150baf910e 227be20eb7bffd48 13e68280e702b708 f2b24816e2e9343a 9aa93182f0763995 d778f09d152e2a24 f8175e5eae8fb402 9f05ed97ca2b38b3 df5962d792c08fe0 c15043e3f67ede34 c0aa16e7d770c135 ea315115e056317a d6d50fafa00379be f7743af3ab8194f8 bd7c673977f2696 3782a055e1a58c09 8d272101e2acd622 fa2bfcb8aef6db48 909c675198fee774 fbabbd96b1ae9d0d e0a578561dc38853 b6c26fc7f5d7ba4f a786575cf141dfa7 8f0567fa326e2d5e 2845e7ad882bcfb2 f96daf5ac5c7d7c2 f8360520cfcc3f09 d7f80ebc88731754 ce3aef16207beccd ] wstrb=[16 d6 36 6a 92 3 81 a8 da b7 13 6c bb 94 15 95 4b 28 1 6 bc 16 9b 7 3e 9d e fa b3 a9 2 f2 46 10 ec fa b9 ee ec 0 fe d8 fa b8 c7 e6 b8 c5 be b2 7d 85 98 35 4b 56 e7 c8 dc 7f fe 27 d6 e5 ef b2 65 ed d9 3b d3 c8 ed 38 b6 c6 73 89 8e 60 c1 44 26 34 cd b4 94 8e f9 ba c2 c6 6e 56 55 67 10 17 2e 7f 6e 83 e6 7e 9a 14 fd 8 97 e4 87 32 f8 84 3a 90 68 c1 c2 61 46 fc f1 ] bresp=0 bid=1111
[1315000] SCOREBOARD: Transaction 1 received. pass=257 fail=0
[1315000] ALL PASS. Total transactions: 1
[1325000] MASTER 1 W_VALID_RDY Handshake beat=8 wlast=0
[1325000] SLAVE 1 R_VALID_RDY Handshake beat=1 rlast=1
[1325000] [SLAVE MONITOR] READ mst_id=0 s_id=1 araddr=153dc600 arid=1 arlen=1 arsize=3 arburst=1 rid=[11] rresp=[00] rdata=[baadf00d12345678baadf00d12345678]
[1325000] AXI S0_WVALID_RDY HANDSHAKE
[1325000] S0 MEMORY WRITE beat=1 addr=068b727e data=e0678257d8a37f51 id=16
[1335000] AXI S0_WVALID_RDY HANDSHAKE
[1335000] S0 MEMORY WRITE beat=2 addr=068b727f data=2bed6884180ba362 id=16
[1335000] MASTER 1 W_VALID_RDY Handshake beat=9 wlast=0
[1335000] MASTER 0 R_VALID_RDY Handshake beat=0 rlast=0
[1335000] MASTER 0 W_VALID_RDY Handshake beat=0 wlast=0
[1345000] [MASTER DRIVER] READ mst_id=0 s_id=0 araddr=153dc600 arid=1 arlen=1 arsize=3 arburst=1 rid=[11] rresp=[00] rdata=[baadf00d12345678baadf00d12345678]
[1345000] MASTER_DRIVER1 received transaction, op=AXI_READ
[1345000] MASTER 0 W_VALID_RDY Handshake beat=1 wlast=0
[1345000] MASTER 0 R_VALID_RDY Handshake beat=1 rlast=1
[1345000] [MASTER MONITOR] READ mst_id=0 s_id=1 araddr=153dc600 arid=1 arlen=1 arsize=3 arburst=1 rid=[11] rresp=[00] rdata=[baadf00d12345678baadf00d12345678]
[1345000] MASTER 1 W_VALID_RDY Handshake beat=10 wlast=1
[1345000] AXI S0_WVALID_RDY HANDSHAKE
[1345000] S0 MEMORY WRITE beat=3 addr=068b7280 data=835c654da44e4800 id=16
[1345000] SCOREBOARD MATCH: decode_err expected = 0, actual =0
[1345000] SCOREBOARD MATCH: slave_id expected = 1, actual =1
[1345000] SCOREBOARD MATCH: araddr passthrough expected = 153dc600, actual =153dc600
[1345000] SCOREBOARD MATCH: arlen passthrough expected = 1, actual =1
[1345000] SCOREBOARD MATCH: arsize passthrough expected = 3, actual =3
[1345000] SCOREBOARD MATCH: arburst passthrough expected = 1, actual =1
[1345000] SCOREBOARD MATCH: rdata size check expected = 2, actual =2
[1345000] SCOREBOARD MATCH: rdata passthrough beat=0 expected = baadf00d12345678, actual =baadf00d12345678
[1345000] SCOREBOARD MATCH: rdata passthrough beat=1 expected = baadf00d12345678, actual =baadf00d12345678
[1345000] SCOREBOARD MATCH: rresp size check expected = 2, actual =2
[1345000] SCOREBOARD MATCH: rresp passthrough beat=0 expected = 0, actual =0
[1345000] SCOREBOARD MATCH: rresp passthrough beat=1 expected = 0, actual =0
[1345000] SCOREBOARD MATCH: response routed to correct master (read beat 0) expected = 0, actual =0
[1345000] SCOREBOARD MATCH: response routed to correct master (read beat 1) expected = 0, actual =0
[1345000] [SCOREBOARD-M] READ mst_id=0 s_id=1 araddr=153dc600 arid=1 arlen=1 arsize=3 arburst=1 rid=[11] rresp=[00] rdata=[baadf00d12345678baadf00d12345678]
[1345000] [SCOREBOARD-S] READ mst_id=0 s_id=1 araddr=153dc600 arid=1 arlen=1 arsize=3 arburst=1 rid=[11] rresp=[00] rdata=[baadf00d12345678baadf00d12345678]
[1345000] SCOREBOARD: Transaction 2 received. pass=271 fail=0
[1345000] ALL PASS. Total transactions: 2
[1355000] AXI S0_WVALID_RDY HANDSHAKE
[1355000] S0 MEMORY WRITE beat=4 addr=068b7281 data=fcf1c7528808c007 id=16
[1355000] MASTER 0 W_VALID_RDY Handshake beat=2 wlast=0
[1365000] MASTER 0 W_VALID_RDY Handshake beat=3 wlast=0
[1365000] AXI S0_WVALID_RDY HANDSHAKE
[1365000] S0 MEMORY WRITE beat=5 addr=068b7282 data=a0146369e3c3e7a4 id=16
[1375000] AXI S0_WVALID_RDY HANDSHAKE
[1375000] S0 MEMORY WRITE beat=6 addr=068b7283 data=08122fa528df2fd6 id=16
[1375000] AXI S0_ARVALID_RDY HANDSHAKE
[1375000] MEMORY READ MISS beat=0 addr=15a8ac08 -> default data id=17
[1375000] ARB MONITOR: slave=1 m0_req=0 m1_req=1 winner=1
[1375000] MASTER 0 W_VALID_RDY Handshake beat=4 wlast=0
[1385000] MASTER 0 W_VALID_RDY Handshake beat=5 wlast=0
[1385000] SLAVE 1 R_VALID_RDY Handshake beat=0 rlast=0
[1385000] MEMORY READ MISS beat=1 addr=15a8ac10 -> default data id=17
[1385000] AXI S0_WVALID_RDY HANDSHAKE
[1385000] S0 MEMORY WRITE beat=7 addr=068b7284 data=b0e7efdd2370c8b7 id=16
[1395000] AXI S0_WVALID_RDY HANDSHAKE
[1395000] S0 MEMORY WRITE beat=8 addr=068b7285 data=8734b05b0503f6f7 id=16
[1395000] SLAVE 1 R_VALID_RDY Handshake beat=1 rlast=1
[1395000] [SLAVE MONITOR] READ mst_id=1 s_id=1 araddr=15a8ac08 arid=1 arlen=1 arsize=3 arburst=1 rid=[1111] rresp=[00] rdata=[baadf00d12345678baadf00d12345678]
[1395000] MASTER 0 W_VALID_RDY Handshake beat=6 wlast=0
[1405000] MASTER 0 W_VALID_RDY Handshake beat=7 wlast=0
[1405000] MASTER 1 R_VALID_RDY Handshake beat=0 rlast=0
[1405000] AXI S0_WVALID_RDY HANDSHAKE
[1405000] S0 MEMORY WRITE beat=9 addr=068b7286 data=2de326cdd0fc5347 id=16
[1415000] AXI S0_WVALID_RDY HANDSHAKE
[1415000] S0 MEMORY WRITE beat=10 addr=068b7287 data=f46d1bfe8f46e000 id=16
[1415000] MASTER 1 R_VALID_RDY Handshake beat=1 rlast=1
[1415000] [MASTER MONITOR] READ mst_id=1 s_id=1 araddr=15a8ac08 arid=1 arlen=1 arsize=3 arburst=1 rid=[11] rresp=[00] rdata=[baadf00d12345678baadf00d12345678]
[1415000] [MASTER DRIVER] READ mst_id=1 s_id=0 araddr=15a8ac08 arid=1 arlen=1 arsize=3 arburst=1 rid=[11] rresp=[00] rdata=[baadf00d12345678baadf00d12345678]
[1415000] SCOREBOARD MATCH: decode_err expected = 0, actual =0
[1415000] SCOREBOARD MATCH: slave_id expected = 1, actual =1
[1415000] SCOREBOARD MATCH: araddr passthrough expected = 15a8ac08, actual =15a8ac08
[1415000] SCOREBOARD MATCH: arlen passthrough expected = 1, actual =1
[1415000] SCOREBOARD MATCH: arsize passthrough expected = 3, actual =3
[1415000] SCOREBOARD MATCH: arburst passthrough expected = 1, actual =1
[1415000] SCOREBOARD MATCH: rdata size check expected = 2, actual =2
[1415000] SCOREBOARD MATCH: rdata passthrough beat=0 expected = baadf00d12345678, actual =baadf00d12345678
[1415000] SCOREBOARD MATCH: rdata passthrough beat=1 expected = baadf00d12345678, actual =baadf00d12345678
[1415000] SCOREBOARD MATCH: rresp size check expected = 2, actual =2
[1415000] SCOREBOARD MATCH: rresp passthrough beat=0 expected = 0, actual =0
[1415000] SCOREBOARD MATCH: rresp passthrough beat=1 expected = 0, actual =0
[1415000] SCOREBOARD MATCH: response routed to correct master (read beat 0) expected = 1, actual =1
[1415000] SCOREBOARD MATCH: response routed to correct master (read beat 1) expected = 1, actual =1
[1415000] [SCOREBOARD-M] READ mst_id=1 s_id=1 araddr=15a8ac08 arid=1 arlen=1 arsize=3 arburst=1 rid=[11] rresp=[00] rdata=[baadf00d12345678baadf00d12345678]
[1415000] [SCOREBOARD-S] READ mst_id=1 s_id=1 araddr=15a8ac08 arid=1 arlen=1 arsize=3 arburst=1 rid=[1111] rresp=[00] rdata=[baadf00d12345678baadf00d12345678]
[1415000] SCOREBOARD: Transaction 3 received. pass=285 fail=0
[1415000] ALL PASS. Total transactions: 3
[1425000] SLAVE0 sent B resp, id=6
[1435000] AXI S0_AWVALID_RDY HANDSHAKE
[1435000] [SLAVE MONITOR] mst_id=1 s_id=0 awaddr=68b7288 awid=110 awlen=10 awsize=0 awburst=2 wdata=[dc1b5783eb50c1eb e0678257d8a37f51 2bed6884180ba362 835c654da44e4800 fcf1c7528808c007 a0146369e3c3e7a4 8122fa528df2fd6 b0e7efdd2370c8b7 8734b05b0503f6f7 2de326cdd0fc5347 f46d1bfe8f46e000 ] wstrb=[aa f7 59 f1 c4 5a ef 6f 51 49 60 ] bresp=0 bid=10110
[1435000] ARB MONITOR: slave=0 m0_req=1 m1_req=0 winner=0
[1445000] MASTER 1 RECEIVED BRESP. BRESP=0
[1445000] [MASTER DRIVER] mst_id=1 s_id=0 awaddr=68b7288 awid=110 awlen=10 awsize=0 awburst=2 wdata=[dc1b5783eb50c1eb e0678257d8a37f51 2bed6884180ba362 835c654da44e4800 fcf1c7528808c007 a0146369e3c3e7a4 8122fa528df2fd6 b0e7efdd2370c8b7 8734b05b0503f6f7 2de326cdd0fc5347 f46d1bfe8f46e000 ] wstrb=[aa f7 59 f1 c4 5a ef 6f 51 49 60 ] bresp=0 bid=110
[1445000] MASTER 1 B_VALID_RDY Handshake
[1445000] [MASTER MONITOR] mst_id=1 s_id=0 awaddr=68b7288 awid=110 awlen=10 awsize=0 awburst=2 wdata=[dc1b5783eb50c1eb e0678257d8a37f51 2bed6884180ba362 835c654da44e4800 fcf1c7528808c007 a0146369e3c3e7a4 8122fa528df2fd6 b0e7efdd2370c8b7 8734b05b0503f6f7 2de326cdd0fc5347 f46d1bfe8f46e000 ] wstrb=[aa f7 59 f1 c4 5a ef 6f 51 49 60 ] bresp=0 bid=110
[1445000] AXI S0_WVALID_RDY HANDSHAKE
[1445000] S0 MEMORY WRITE beat=0 addr=050521c8 data=bc182c00a7bb88d8 id=0a
[1445000] SCOREBOARD MATCH: decode_err expected = 0, actual =0
[1445000] SCOREBOARD MATCH: slave_id expected = 0, actual =0
[1445000] SCOREBOARD MATCH: awaddr passthrough expected = 68b7288, actual =68b7288
[1445000] SCOREBOARD MATCH: awlen passthrough expected = 10, actual =10
[1445000] SCOREBOARD MATCH: awsize passthrough expected = 0, actual =0
[1445000] SCOREBOARD MATCH: awburst passthrough expected = 2, actual =2
[1445000] SCOREBOARD MATCH: wdata size check expected = b, actual =b
[1445000] SCOREBOARD MATCH: wdata passthrough beat=0 expected = dc1b5783eb50c1eb, actual =dc1b5783eb50c1eb
[1445000] SCOREBOARD MATCH: wdata passthrough beat=1 expected = e0678257d8a37f51, actual =e0678257d8a37f51
[1445000] SCOREBOARD MATCH: wdata passthrough beat=2 expected = 2bed6884180ba362, actual =2bed6884180ba362
[1445000] SCOREBOARD MATCH: wdata passthrough beat=3 expected = 835c654da44e4800, actual =835c654da44e4800
[1445000] SCOREBOARD MATCH: wdata passthrough beat=4 expected = fcf1c7528808c007, actual =fcf1c7528808c007
[1445000] SCOREBOARD MATCH: wdata passthrough beat=5 expected = a0146369e3c3e7a4, actual =a0146369e3c3e7a4
[1445000] SCOREBOARD MATCH: wdata passthrough beat=6 expected = 8122fa528df2fd6, actual =8122fa528df2fd6
[1445000] SCOREBOARD MATCH: wdata passthrough beat=7 expected = b0e7efdd2370c8b7, actual =b0e7efdd2370c8b7
[1445000] SCOREBOARD MATCH: wdata passthrough beat=8 expected = 8734b05b0503f6f7, actual =8734b05b0503f6f7
[1445000] SCOREBOARD MATCH: wdata passthrough beat=9 expected = 2de326cdd0fc5347, actual =2de326cdd0fc5347
[1445000] SCOREBOARD MATCH: wdata passthrough beat=10 expected = f46d1bfe8f46e000, actual =f46d1bfe8f46e000
[1445000] SCOREBOARD MATCH: wstrb size check expected = b, actual =b
[1445000] SCOREBOARD MATCH: wstrb passthrough beat=0 expected = aa, actual =aa
[1445000] SCOREBOARD MATCH: wstrb passthrough beat=1 expected = f7, actual =f7
[1445000] SCOREBOARD MATCH: wstrb passthrough beat=2 expected = 59, actual =59
[1445000] SCOREBOARD MATCH: wstrb passthrough beat=3 expected = f1, actual =f1
[1445000] SCOREBOARD MATCH: wstrb passthrough beat=4 expected = c4, actual =c4
[1445000] SCOREBOARD MATCH: wstrb passthrough beat=5 expected = 5a, actual =5a
[1445000] SCOREBOARD MATCH: wstrb passthrough beat=6 expected = ef, actual =ef
[1445000] SCOREBOARD MATCH: wstrb passthrough beat=7 expected = 6f, actual =6f
[1445000] SCOREBOARD MATCH: wstrb passthrough beat=8 expected = 51, actual =51
[1445000] SCOREBOARD MATCH: wstrb passthrough beat=9 expected = 49, actual =49
[1445000] SCOREBOARD MATCH: wstrb passthrough beat=10 expected = 60, actual =60
[1445000] SCOREBOARD MATCH: bresp passthrough expected = 0, actual =0
[1445000] SCOREBOARD MATCH: response routed to correct master (write) expected = 1, actual =1
[1445000] [SCOREBOARD-M] mst_id=1 s_id=0 awaddr=68b7288 awid=110 awlen=10 awsize=0 awburst=2 wdata=[dc1b5783eb50c1eb e0678257d8a37f51 2bed6884180ba362 835c654da44e4800 fcf1c7528808c007 a0146369e3c3e7a4 8122fa528df2fd6 b0e7efdd2370c8b7 8734b05b0503f6f7 2de326cdd0fc5347 f46d1bfe8f46e000 ] wstrb=[aa f7 59 f1 c4 5a ef 6f 51 49 60 ] bresp=0 bid=110
[1445000] [SCOREBOARD-S] mst_id=1 s_id=0 awaddr=68b7288 awid=110 awlen=10 awsize=0 awburst=2 wdata=[dc1b5783eb50c1eb e0678257d8a37f51 2bed6884180ba362 835c654da44e4800 fcf1c7528808c007 a0146369e3c3e7a4 8122fa528df2fd6 b0e7efdd2370c8b7 8734b05b0503f6f7 2de326cdd0fc5347 f46d1bfe8f46e000 ] wstrb=[aa f7 59 f1 c4 5a ef 6f 51 49 60 ] bresp=0 bid=10110
[1445000] SCOREBOARD: Transaction 4 received. pass=317 fail=0
[1445000] ALL PASS. Total transactions: 4
[1455000] AXI S0_WVALID_RDY HANDSHAKE
[1455000] S0 MEMORY WRITE beat=1 addr=050521e8 data=e4091f9581eb0bd5 id=0a
[1455000] MASTER 0 W_VALID_RDY Handshake beat=8 wlast=0
[1465000] MASTER 0 W_VALID_RDY Handshake beat=9 wlast=0
[1465000] AXI S0_WVALID_RDY HANDSHAKE
[1465000] S0 MEMORY WRITE beat=2 addr=05052208 data=9162939c1945f52a id=0a
[1475000] AXI S0_WVALID_RDY HANDSHAKE
[1475000] S0 MEMORY WRITE beat=3 addr=05052228 data=c1017e0285d92253 id=0a
[1475000] MASTER 0 W_VALID_RDY Handshake beat=10 wlast=0
[1485000] MASTER 0 W_VALID_RDY Handshake beat=11 wlast=0
[1485000] AXI S0_WVALID_RDY HANDSHAKE
[1485000] S0 MEMORY WRITE beat=4 addr=05052248 data=07c42e29cd7abf9d id=0a
[1495000] AXI S0_WVALID_RDY HANDSHAKE
[1495000] S0 MEMORY WRITE beat=5 addr=05052268 data=e6c0b4c7250a9d98 id=0a
[1495000] MASTER 0 W_VALID_RDY Handshake beat=12 wlast=0
[1505000] MASTER 0 W_VALID_RDY Handshake beat=13 wlast=0
[1505000] AXI S0_WVALID_RDY HANDSHAKE
[1505000] S0 MEMORY WRITE beat=6 addr=05052288 data=aae3bfeb9926c1c5 id=0a
[1515000] AXI S0_WVALID_RDY HANDSHAKE
[1515000] S0 MEMORY WRITE beat=7 addr=050522a8 data=e6a18162a7c232c9 id=0a
[1515000] MASTER 0 W_VALID_RDY Handshake beat=14 wlast=0
[1525000] MASTER 0 W_VALID_RDY Handshake beat=15 wlast=0
[1525000] AXI S0_WVALID_RDY HANDSHAKE
[1525000] S0 MEMORY WRITE beat=8 addr=050522c8 data=ccccd061b2a7ee14 id=0a
[1535000] AXI S0_WVALID_RDY HANDSHAKE
[1535000] S0 MEMORY WRITE beat=9 addr=050522e8 data=cbceafdacd623629 id=0a
[1535000] MASTER 0 W_VALID_RDY Handshake beat=16 wlast=0
[1545000] MASTER 0 W_VALID_RDY Handshake beat=17 wlast=0
[1545000] AXI S0_WVALID_RDY HANDSHAKE
[1545000] S0 MEMORY WRITE beat=10 addr=05052308 data=f52468f3f7b0904d id=0a
[1555000] AXI S0_WVALID_RDY HANDSHAKE
[1555000] S0 MEMORY WRITE beat=11 addr=05052328 data=aa587e61b270313c id=0a
[1555000] MASTER 0 W_VALID_RDY Handshake beat=18 wlast=0
[1565000] MASTER 0 W_VALID_RDY Handshake beat=19 wlast=0
[1565000] AXI S0_WVALID_RDY HANDSHAKE
[1565000] S0 MEMORY WRITE beat=12 addr=05052348 data=ffd26766c1f13954 id=0a
[1575000] AXI S0_WVALID_RDY HANDSHAKE
[1575000] S0 MEMORY WRITE beat=13 addr=05052368 data=b9a1c9a1f6272e3b id=0a
[1575000] MASTER 0 W_VALID_RDY Handshake beat=20 wlast=0
[1585000] MASTER 0 W_VALID_RDY Handshake beat=21 wlast=0
[1585000] AXI S0_WVALID_RDY HANDSHAKE
[1585000] S0 MEMORY WRITE beat=14 addr=05052388 data=28975f78f4f6d059 id=0a
[1595000] AXI S0_WVALID_RDY HANDSHAKE
[1595000] S0 MEMORY WRITE beat=15 addr=050523a8 data=b6e809ade3fa4803 id=0a
[1595000] MASTER 0 W_VALID_RDY Handshake beat=22 wlast=0
[1605000] MASTER 0 W_VALID_RDY Handshake beat=23 wlast=0
[1605000] AXI S0_WVALID_RDY HANDSHAKE
[1605000] S0 MEMORY WRITE beat=16 addr=050523c8 data=da21763e2869c6de id=0a
[1615000] AXI S0_WVALID_RDY HANDSHAKE
[1615000] S0 MEMORY WRITE beat=17 addr=050523e8 data=1d609737f089d34f id=0a
[1615000] MASTER 0 W_VALID_RDY Handshake beat=24 wlast=0
[1625000] MASTER 0 W_VALID_RDY Handshake beat=25 wlast=0
[1625000] AXI S0_WVALID_RDY HANDSHAKE
[1625000] S0 MEMORY WRITE beat=18 addr=05052408 data=d4841b5282b8d5b6 id=0a
[1635000] AXI S0_WVALID_RDY HANDSHAKE
[1635000] S0 MEMORY WRITE beat=19 addr=05052428 data=ab229c94d448a0e4 id=0a
[1635000] MASTER 0 W_VALID_RDY Handshake beat=26 wlast=0
[1645000] MASTER 0 W_VALID_RDY Handshake beat=27 wlast=0
[1645000] AXI S0_WVALID_RDY HANDSHAKE
[1645000] S0 MEMORY WRITE beat=20 addr=05052448 data=c4d27433aea59190 id=0a
[1655000] AXI S0_WVALID_RDY HANDSHAKE
[1655000] S0 MEMORY WRITE beat=21 addr=05052468 data=315e6747c88333cb id=0a
[1655000] MASTER 0 W_VALID_RDY Handshake beat=28 wlast=0
[1665000] MASTER 0 W_VALID_RDY Handshake beat=29 wlast=0
[1665000] AXI S0_WVALID_RDY HANDSHAKE
[1665000] S0 MEMORY WRITE beat=22 addr=05052488 data=1ccbd4b099568f85 id=0a
[1675000] AXI S0_WVALID_RDY HANDSHAKE
[1675000] S0 MEMORY WRITE beat=23 addr=050524a8 data=c7fc2116dc8103db id=0a
[1675000] MASTER 0 W_VALID_RDY Handshake beat=30 wlast=0
[1685000] MASTER 0 W_VALID_RDY Handshake beat=31 wlast=0
[1685000] AXI S0_WVALID_RDY HANDSHAKE
[1685000] S0 MEMORY WRITE beat=24 addr=050524c8 data=250437a7e19e48e3 id=0a
[1695000] AXI S0_WVALID_RDY HANDSHAKE
[1695000] S0 MEMORY WRITE beat=25 addr=050524e8 data=faf4d869f95a885d id=0a
[1695000] MASTER 0 W_VALID_RDY Handshake beat=32 wlast=0
[1705000] MASTER 0 W_VALID_RDY Handshake beat=33 wlast=0
[1705000] AXI S0_WVALID_RDY HANDSHAKE
[1705000] S0 MEMORY WRITE beat=26 addr=05052508 data=d5db8c38c1d00c57 id=0a
[1715000] AXI S0_WVALID_RDY HANDSHAKE
[1715000] S0 MEMORY WRITE beat=27 addr=05052528 data=a36e553ac2f0f97f id=0a
[1715000] MASTER 0 W_VALID_RDY Handshake beat=34 wlast=0
[1725000] MASTER 0 W_VALID_RDY Handshake beat=35 wlast=0
[1725000] AXI S0_WVALID_RDY HANDSHAKE
[1725000] S0 MEMORY WRITE beat=28 addr=05052548 data=3c4b81dcfadfc3df id=0a
[1735000] AXI S0_WVALID_RDY HANDSHAKE
[1735000] S0 MEMORY WRITE beat=29 addr=05052568 data=bcafd0369e632da3 id=0a
[1735000] MASTER 0 W_VALID_RDY Handshake beat=36 wlast=0
[1745000] MASTER 0 W_VALID_RDY Handshake beat=37 wlast=0
[1745000] AXI S0_WVALID_RDY HANDSHAKE
[1745000] S0 MEMORY WRITE beat=30 addr=05052588 data=e154272292270e14 id=0a
[1755000] AXI S0_WVALID_RDY HANDSHAKE
[1755000] S0 MEMORY WRITE beat=31 addr=050525a8 data=0d06d1f4e01e2571 id=0a
[1755000] MASTER 0 W_VALID_RDY Handshake beat=38 wlast=0
[1765000] MASTER 0 W_VALID_RDY Handshake beat=39 wlast=0
[1765000] AXI S0_WVALID_RDY HANDSHAKE
[1765000] S0 MEMORY WRITE beat=32 addr=050525c8 data=fe8153149d9fa8fe id=0a
[1775000] AXI S0_WVALID_RDY HANDSHAKE
[1775000] S0 MEMORY WRITE beat=33 addr=050525e8 data=2fc6b713c9b6a22a id=0a
[1775000] MASTER 0 W_VALID_RDY Handshake beat=40 wlast=0
[1785000] MASTER 0 W_VALID_RDY Handshake beat=41 wlast=0
[1785000] AXI S0_WVALID_RDY HANDSHAKE
[1785000] S0 MEMORY WRITE beat=34 addr=05052608 data=a9d4c79bdfd57a37 id=0a
[1795000] AXI S0_WVALID_RDY HANDSHAKE
[1795000] S0 MEMORY WRITE beat=35 addr=05052628 data=fd7523353ccd8907 id=0a
[1795000] MASTER 0 W_VALID_RDY Handshake beat=42 wlast=0
[1805000] MASTER 0 W_VALID_RDY Handshake beat=43 wlast=0
[1805000] AXI S0_WVALID_RDY HANDSHAKE
[1805000] S0 MEMORY WRITE beat=36 addr=05052648 data=86842b3128561ab0 id=0a
[1815000] AXI S0_WVALID_RDY HANDSHAKE
[1815000] S0 MEMORY WRITE beat=37 addr=05052668 data=082b94e7ad3bda48 id=0a
[1815000] MASTER 0 W_VALID_RDY Handshake beat=44 wlast=0
[1825000] MASTER 0 W_VALID_RDY Handshake beat=45 wlast=0
[1825000] AXI S0_WVALID_RDY HANDSHAKE
[1825000] S0 MEMORY WRITE beat=38 addr=05052688 data=ea09634f3058f2cd id=0a
[1835000] AXI S0_WVALID_RDY HANDSHAKE
[1835000] S0 MEMORY WRITE beat=39 addr=050526a8 data=d8af0d7d85a0b81c id=0a
[1835000] MASTER 0 W_VALID_RDY Handshake beat=46 wlast=0
[1845000] MASTER 0 W_VALID_RDY Handshake beat=47 wlast=0
[1845000] AXI S0_WVALID_RDY HANDSHAKE
[1845000] S0 MEMORY WRITE beat=40 addr=050526c8 data=32dc9265f08d8e81 id=0a
[1855000] AXI S0_WVALID_RDY HANDSHAKE
[1855000] S0 MEMORY WRITE beat=41 addr=050526e8 data=20e6814ee0daa264 id=0a
[1855000] MASTER 0 W_VALID_RDY Handshake beat=48 wlast=0
[1865000] MASTER 0 W_VALID_RDY Handshake beat=49 wlast=0
[1865000] AXI S0_WVALID_RDY HANDSHAKE
[1865000] S0 MEMORY WRITE beat=42 addr=05052708 data=e67b5a809ce5f5b4 id=0a
[1875000] AXI S0_WVALID_RDY HANDSHAKE
[1875000] S0 MEMORY WRITE beat=43 addr=05052728 data=8d738435f9958ecb id=0a
[1875000] MASTER 0 W_VALID_RDY Handshake beat=50 wlast=0
[1885000] MASTER 0 W_VALID_RDY Handshake beat=51 wlast=0
[1885000] AXI S0_WVALID_RDY HANDSHAKE
[1885000] S0 MEMORY WRITE beat=44 addr=05052748 data=da70312f9957ece5 id=0a
[1895000] AXI S0_WVALID_RDY HANDSHAKE
[1895000] S0 MEMORY WRITE beat=45 addr=05052768 data=363de29aae5a0583 id=0a
[1895000] MASTER 0 W_VALID_RDY Handshake beat=52 wlast=0
[1905000] MASTER 0 W_VALID_RDY Handshake beat=53 wlast=0
[1905000] AXI S0_WVALID_RDY HANDSHAKE
[1905000] S0 MEMORY WRITE beat=46 addr=05052788 data=a7ef944ec0eb8baf id=0a
[1915000] AXI S0_WVALID_RDY HANDSHAKE
[1915000] S0 MEMORY WRITE beat=47 addr=050527a8 data=da437895c3b166cf id=0a
[1915000] MASTER 0 W_VALID_RDY Handshake beat=54 wlast=0
[1925000] MASTER 0 W_VALID_RDY Handshake beat=55 wlast=0
[1925000] AXI S0_WVALID_RDY HANDSHAKE
[1925000] S0 MEMORY WRITE beat=48 addr=050527c8 data=f20b6c53825fc57d id=0a
[1935000] AXI S0_WVALID_RDY HANDSHAKE
[1935000] S0 MEMORY WRITE beat=49 addr=050527e8 data=c34b512d10815b2f id=0a
[1935000] MASTER 0 W_VALID_RDY Handshake beat=56 wlast=0
[1945000] MASTER 0 W_VALID_RDY Handshake beat=57 wlast=0
[1945000] AXI S0_WVALID_RDY HANDSHAKE
[1945000] S0 MEMORY WRITE beat=50 addr=05052808 data=d432c1fe99fb00a1 id=0a
[1955000] AXI S0_WVALID_RDY HANDSHAKE
[1955000] S0 MEMORY WRITE beat=51 addr=05052828 data=1c5ac61f1d8ec9c2 id=0a
[1955000] MASTER 0 W_VALID_RDY Handshake beat=58 wlast=0
[1965000] MASTER 0 W_VALID_RDY Handshake beat=59 wlast=0
[1965000] AXI S0_WVALID_RDY HANDSHAKE
[1965000] S0 MEMORY WRITE beat=52 addr=05052848 data=2e1024f1c63e2e51 id=0a
[1975000] AXI S0_WVALID_RDY HANDSHAKE
[1975000] S0 MEMORY WRITE beat=53 addr=05052868 data=e0392ef3dfa6174c id=0a
[1975000] MASTER 0 W_VALID_RDY Handshake beat=60 wlast=0
[1985000] MASTER 0 W_VALID_RDY Handshake beat=61 wlast=0
[1985000] AXI S0_WVALID_RDY HANDSHAKE
[1985000] S0 MEMORY WRITE beat=54 addr=05052888 data=fd34e10e8242e6ef id=0a
[1995000] AXI S0_WVALID_RDY HANDSHAKE
[1995000] S0 MEMORY WRITE beat=55 addr=050528a8 data=c8811541fc93f512 id=0a
[1995000] MASTER 0 W_VALID_RDY Handshake beat=62 wlast=0
[2005000] MASTER 0 W_VALID_RDY Handshake beat=63 wlast=0
[2005000] AXI S0_WVALID_RDY HANDSHAKE
[2005000] S0 MEMORY WRITE beat=56 addr=050528c8 data=dc3a0c5e2b4505ff id=0a
[2015000] AXI S0_WVALID_RDY HANDSHAKE
[2015000] S0 MEMORY WRITE beat=57 addr=050528e8 data=ad87ecee28ba4434 id=0a
[2015000] MASTER 0 W_VALID_RDY Handshake beat=64 wlast=0
[2025000] MASTER 0 W_VALID_RDY Handshake beat=65 wlast=0
[2025000] AXI S0_WVALID_RDY HANDSHAKE
[2025000] S0 MEMORY WRITE beat=58 addr=05052908 data=254e3946d96eed6c id=0a
[2035000] AXI S0_WVALID_RDY HANDSHAKE
[2035000] S0 MEMORY WRITE beat=59 addr=05052928 data=04b3f36bf609022f id=0a
[2035000] MASTER 0 W_VALID_RDY Handshake beat=66 wlast=0
[2045000] MASTER 0 W_VALID_RDY Handshake beat=67 wlast=0
[2045000] AXI S0_WVALID_RDY HANDSHAKE
[2045000] S0 MEMORY WRITE beat=60 addr=05052948 data=9ec34663018845a4 id=0a
[2055000] AXI S0_WVALID_RDY HANDSHAKE
[2055000] S0 MEMORY WRITE beat=61 addr=05052968 data=daf73310b23be059 id=0a
[2055000] MASTER 0 W_VALID_RDY Handshake beat=68 wlast=0
[2065000] MASTER 0 W_VALID_RDY Handshake beat=69 wlast=0
[2065000] AXI S0_WVALID_RDY HANDSHAKE
[2065000] S0 MEMORY WRITE beat=62 addr=05052988 data=2844e289c4117fa9 id=0a
[2075000] AXI S0_WVALID_RDY HANDSHAKE
[2075000] S0 MEMORY WRITE beat=63 addr=050529a8 data=c599c54ddfab267b id=0a
[2075000] MASTER 0 W_VALID_RDY Handshake beat=70 wlast=0
[2085000] MASTER 0 W_VALID_RDY Handshake beat=71 wlast=0
[2085000] AXI S0_WVALID_RDY HANDSHAKE
[2085000] S0 MEMORY WRITE beat=64 addr=050529c8 data=91e706d4c70828ec id=0a
[2095000] AXI S0_WVALID_RDY HANDSHAKE
[2095000] S0 MEMORY WRITE beat=65 addr=050529e8 data=0b19a896a090f85d id=0a
[2095000] MASTER 0 W_VALID_RDY Handshake beat=72 wlast=0
[2105000] MASTER 0 W_VALID_RDY Handshake beat=73 wlast=0
[2105000] AXI S0_WVALID_RDY HANDSHAKE
[2105000] S0 MEMORY WRITE beat=66 addr=05052a08 data=803c1ed8ba2be95d id=0a
[2115000] AXI S0_WVALID_RDY HANDSHAKE
[2115000] S0 MEMORY WRITE beat=67 addr=05052a28 data=0134124ad0b36de3 id=0a
[2115000] MASTER 0 W_VALID_RDY Handshake beat=74 wlast=0
[2125000] MASTER 0 W_VALID_RDY Handshake beat=75 wlast=0
[2125000] AXI S0_WVALID_RDY HANDSHAKE
[2125000] S0 MEMORY WRITE beat=68 addr=05052a48 data=f1446641122325ad id=0a
[2135000] AXI S0_WVALID_RDY HANDSHAKE
[2135000] S0 MEMORY WRITE beat=69 addr=05052a68 data=cc4f0f0a0c4dbae0 id=0a
[2135000] MASTER 0 W_VALID_RDY Handshake beat=76 wlast=0
[2145000] MASTER 0 W_VALID_RDY Handshake beat=77 wlast=0
[2145000] AXI S0_WVALID_RDY HANDSHAKE
[2145000] S0 MEMORY WRITE beat=70 addr=05052a88 data=dd0128c3f1808519 id=0a
[2155000] AXI S0_WVALID_RDY HANDSHAKE
[2155000] S0 MEMORY WRITE beat=71 addr=05052aa8 data=83a3aac6cd832154 id=0a
[2155000] MASTER 0 W_VALID_RDY Handshake beat=78 wlast=0
[2165000] MASTER 0 W_VALID_RDY Handshake beat=79 wlast=0
[2165000] AXI S0_WVALID_RDY HANDSHAKE
[2165000] S0 MEMORY WRITE beat=72 addr=05052ac8 data=d9d0dc34ce458f04 id=0a
[2175000] AXI S0_WVALID_RDY HANDSHAKE
[2175000] S0 MEMORY WRITE beat=73 addr=05052ae8 data=3fc6141ecff2b9d1 id=0a
[2175000] MASTER 0 W_VALID_RDY Handshake beat=80 wlast=0
[2185000] MASTER 0 W_VALID_RDY Handshake beat=81 wlast=0
[2185000] AXI S0_WVALID_RDY HANDSHAKE
[2185000] S0 MEMORY WRITE beat=74 addr=05052b08 data=9d75db2536d204f8 id=0a
[2195000] AXI S0_WVALID_RDY HANDSHAKE
[2195000] S0 MEMORY WRITE beat=75 addr=05052b28 data=851793fcc369bee4 id=0a
[2195000] MASTER 0 W_VALID_RDY Handshake beat=82 wlast=0
[2205000] MASTER 0 W_VALID_RDY Handshake beat=83 wlast=0
[2205000] AXI S0_WVALID_RDY HANDSHAKE
[2205000] S0 MEMORY WRITE beat=76 addr=05052b48 data=935c78b5f746b75a id=0a
[2215000] AXI S0_WVALID_RDY HANDSHAKE
[2215000] S0 MEMORY WRITE beat=77 addr=05052b68 data=2e18bc52c4dda81a id=0a
[2215000] MASTER 0 W_VALID_RDY Handshake beat=84 wlast=0
[2225000] MASTER 0 W_VALID_RDY Handshake beat=85 wlast=0
[2225000] AXI S0_WVALID_RDY HANDSHAKE
[2225000] S0 MEMORY WRITE beat=78 addr=05052b88 data=084766ff30d253db id=0a
[2235000] AXI S0_WVALID_RDY HANDSHAKE
[2235000] S0 MEMORY WRITE beat=79 addr=05052ba8 data=28190b35b330504e id=0a
[2235000] MASTER 0 W_VALID_RDY Handshake beat=86 wlast=0
[2245000] MASTER 0 W_VALID_RDY Handshake beat=87 wlast=0
[2245000] AXI S0_WVALID_RDY HANDSHAKE
[2245000] S0 MEMORY WRITE beat=80 addr=05052bc8 data=f80df8699ba3dfb4 id=0a
[2255000] AXI S0_WVALID_RDY HANDSHAKE
[2255000] S0 MEMORY WRITE beat=81 addr=05052be8 data=cc76338fd631c787 id=0a
[2255000] MASTER 0 W_VALID_RDY Handshake beat=88 wlast=0
[2265000] MASTER 0 W_VALID_RDY Handshake beat=89 wlast=0
[2265000] AXI S0_WVALID_RDY HANDSHAKE
[2265000] S0 MEMORY WRITE beat=82 addr=05052c08 data=896217d500555f68 id=0a
[2275000] AXI S0_WVALID_RDY HANDSHAKE
[2275000] S0 MEMORY WRITE beat=83 addr=05052c28 data=9bf93f1cf48f3ec4 id=0a
[2275000] MASTER 0 W_VALID_RDY Handshake beat=90 wlast=0
[2285000] MASTER 0 W_VALID_RDY Handshake beat=91 wlast=0
[2285000] AXI S0_WVALID_RDY HANDSHAKE
[2285000] S0 MEMORY WRITE beat=84 addr=05052c48 data=cac1064b8170103e id=0a
[2295000] AXI S0_WVALID_RDY HANDSHAKE
[2295000] S0 MEMORY WRITE beat=85 addr=05052c68 data=81c56fa6e86f72ac id=0a
[2295000] MASTER 0 W_VALID_RDY Handshake beat=92 wlast=0
[2305000] MASTER 0 W_VALID_RDY Handshake beat=93 wlast=0
[2305000] AXI S0_WVALID_RDY HANDSHAKE
[2305000] S0 MEMORY WRITE beat=86 addr=05052c88 data=dcfeb170d4231e21 id=0a
[2315000] AXI S0_WVALID_RDY HANDSHAKE
[2315000] S0 MEMORY WRITE beat=87 addr=05052ca8 data=d5932e5f1dbeaec3 id=0a
[2315000] MASTER 0 W_VALID_RDY Handshake beat=94 wlast=0
[2325000] MASTER 0 W_VALID_RDY Handshake beat=95 wlast=0
[2325000] AXI S0_WVALID_RDY HANDSHAKE
[2325000] S0 MEMORY WRITE beat=88 addr=05052cc8 data=062e216f27bfb7bc id=0a
[2335000] AXI S0_WVALID_RDY HANDSHAKE
[2335000] S0 MEMORY WRITE beat=89 addr=05052ce8 data=fbe2d5ddd7589e06 id=0a
[2335000] MASTER 0 W_VALID_RDY Handshake beat=96 wlast=0
[2345000] MASTER 0 W_VALID_RDY Handshake beat=97 wlast=0
[2345000] AXI S0_WVALID_RDY HANDSHAKE
[2345000] S0 MEMORY WRITE beat=90 addr=05052d08 data=f5174cc9e32cd2df id=0a
[2355000] AXI S0_WVALID_RDY HANDSHAKE
[2355000] S0 MEMORY WRITE beat=91 addr=05052d28 data=8aec8a9bd176043c id=0a
[2355000] MASTER 0 W_VALID_RDY Handshake beat=98 wlast=0
[2365000] MASTER 0 W_VALID_RDY Handshake beat=99 wlast=0
[2365000] AXI S0_WVALID_RDY HANDSHAKE
[2365000] S0 MEMORY WRITE beat=92 addr=05052d48 data=a8cea242fb456e38 id=0a
[2375000] AXI S0_WVALID_RDY HANDSHAKE
[2375000] S0 MEMORY WRITE beat=93 addr=05052d68 data=de72411786cf6078 id=0a
[2375000] MASTER 0 W_VALID_RDY Handshake beat=100 wlast=0
[2385000] MASTER 0 W_VALID_RDY Handshake beat=101 wlast=0
[2385000] AXI S0_WVALID_RDY HANDSHAKE
[2385000] S0 MEMORY WRITE beat=94 addr=05052d88 data=d84564b59de5ef0b id=0a
[2395000] AXI S0_WVALID_RDY HANDSHAKE
[2395000] S0 MEMORY WRITE beat=95 addr=05052da8 data=992b5d43e95ecbb3 id=0a
[2395000] MASTER 0 W_VALID_RDY Handshake beat=102 wlast=0
[2405000] MASTER 0 W_VALID_RDY Handshake beat=103 wlast=0
[2405000] AXI S0_WVALID_RDY HANDSHAKE
[2405000] S0 MEMORY WRITE beat=96 addr=05052dc8 data=f02e2c2b811406f7 id=0a
[2415000] AXI S0_WVALID_RDY HANDSHAKE
[2415000] S0 MEMORY WRITE beat=97 addr=05052de8 data=1ef9f603f79d9e5b id=0a
[2415000] MASTER 0 W_VALID_RDY Handshake beat=104 wlast=0
[2425000] MASTER 0 W_VALID_RDY Handshake beat=105 wlast=0
[2425000] AXI S0_WVALID_RDY HANDSHAKE
[2425000] S0 MEMORY WRITE beat=98 addr=05052e08 data=e0fc6a0ec87390e0 id=0a
[2435000] AXI S0_WVALID_RDY HANDSHAKE
[2435000] S0 MEMORY WRITE beat=99 addr=05052e28 data=c98797d8b8255346 id=0a
[2435000] MASTER 0 W_VALID_RDY Handshake beat=106 wlast=0
[2445000] MASTER 0 W_VALID_RDY Handshake beat=107 wlast=0
[2445000] AXI S0_WVALID_RDY HANDSHAKE
[2445000] S0 MEMORY WRITE beat=100 addr=05052e48 data=afc2f1a1d12a9639 id=0a
[2455000] AXI S0_WVALID_RDY HANDSHAKE
[2455000] S0 MEMORY WRITE beat=101 addr=05052e68 data=199e271ae8818ddb id=0a
[2455000] MASTER 0 W_VALID_RDY Handshake beat=108 wlast=0
[2465000] MASTER 0 W_VALID_RDY Handshake beat=109 wlast=0
[2465000] AXI S0_WVALID_RDY HANDSHAKE
[2465000] S0 MEMORY WRITE beat=102 addr=05052e88 data=a0a6e12190bf5baf id=0a
[2475000] AXI S0_WVALID_RDY HANDSHAKE
[2475000] S0 MEMORY WRITE beat=103 addr=05052ea8 data=e1e9f1e9e325bef2 id=0a
[2475000] MASTER 0 W_VALID_RDY Handshake beat=110 wlast=0
[2485000] MASTER 0 W_VALID_RDY Handshake beat=111 wlast=0
[2485000] AXI S0_WVALID_RDY HANDSHAKE
[2485000] S0 MEMORY WRITE beat=104 addr=05052ec8 data=cba74ccdd069d2c3 id=0a
[2495000] AXI S0_WVALID_RDY HANDSHAKE
[2495000] S0 MEMORY WRITE beat=105 addr=05052ee8 data=e1292e72fb881903 id=0a
[2495000] MASTER 0 W_VALID_RDY Handshake beat=112 wlast=0
[2505000] MASTER 0 W_VALID_RDY Handshake beat=113 wlast=0
[2505000] AXI S0_WVALID_RDY HANDSHAKE
[2505000] S0 MEMORY WRITE beat=106 addr=05052f08 data=deadd7f5ec4e2dee id=0a
[2515000] AXI S0_WVALID_RDY HANDSHAKE
[2515000] S0 MEMORY WRITE beat=107 addr=05052f28 data=bcb800b1c313205b id=0a
[2515000] MASTER 0 W_VALID_RDY Handshake beat=114 wlast=0
[2525000] MASTER 0 W_VALID_RDY Handshake beat=115 wlast=0
[2525000] AXI S0_WVALID_RDY HANDSHAKE
[2525000] S0 MEMORY WRITE beat=108 addr=05052f48 data=be9b395e2a5524c2 id=0a
[2535000] AXI S0_WVALID_RDY HANDSHAKE
[2535000] S0 MEMORY WRITE beat=109 addr=05052f68 data=96a352b01de12f24 id=0a
[2535000] MASTER 0 W_VALID_RDY Handshake beat=116 wlast=0
[2545000] MASTER 0 W_VALID_RDY Handshake beat=117 wlast=0
[2545000] AXI S0_WVALID_RDY HANDSHAKE
[2545000] S0 MEMORY WRITE beat=110 addr=05052f88 data=e0f44f7f9d491153 id=0a
[2555000] AXI S0_WVALID_RDY HANDSHAKE
[2555000] S0 MEMORY WRITE beat=111 addr=05052fa8 data=c79e3615d35b5362 id=0a
[2555000] MASTER 0 W_VALID_RDY Handshake beat=118 wlast=0
[2565000] MASTER 0 W_VALID_RDY Handshake beat=119 wlast=0
[2565000] AXI S0_WVALID_RDY HANDSHAKE
[2565000] S0 MEMORY WRITE beat=112 addr=05052fc8 data=f13c82861f8f88de id=0a
[2575000] AXI S0_WVALID_RDY HANDSHAKE
[2575000] S0 MEMORY WRITE beat=113 addr=05052fe8 data=bcd89a31de4188c6 id=0a
[2575000] MASTER 0 W_VALID_RDY Handshake beat=120 wlast=0
[2585000] MASTER 0 W_VALID_RDY Handshake beat=121 wlast=0
[2585000] AXI S0_WVALID_RDY HANDSHAKE
[2585000] S0 MEMORY WRITE beat=114 addr=05053008 data=319cdc28d230d205 id=0a
[2595000] AXI S0_WVALID_RDY HANDSHAKE
[2595000] S0 MEMORY WRITE beat=115 addr=05053028 data=f1c05ae30476d047 id=0a
[2595000] MASTER 0 W_VALID_RDY Handshake beat=122 wlast=0
[2605000] MASTER 0 W_VALID_RDY Handshake beat=123 wlast=0
[2605000] AXI S0_WVALID_RDY HANDSHAKE
[2605000] S0 MEMORY WRITE beat=116 addr=05053048 data=e2b8590d22d95eae id=0a
[2615000] AXI S0_WVALID_RDY HANDSHAKE
[2615000] S0 MEMORY WRITE beat=117 addr=05053068 data=f50a30b32e98f515 id=0a
[2615000] MASTER 0 W_VALID_RDY Handshake beat=124 wlast=0
[2625000] MASTER 0 W_VALID_RDY Handshake beat=125 wlast=0
[2625000] AXI S0_WVALID_RDY HANDSHAKE
[2625000] S0 MEMORY WRITE beat=118 addr=05053088 data=330fc55c14553535 id=0a
[2635000] AXI S0_WVALID_RDY HANDSHAKE
[2635000] S0 MEMORY WRITE beat=119 addr=050530a8 data=372e93e3e6ca8b97 id=0a
[2635000] MASTER 0 W_VALID_RDY Handshake beat=126 wlast=0
[2645000] MASTER 0 W_VALID_RDY Handshake beat=127 wlast=0
[2645000] AXI S0_WVALID_RDY HANDSHAKE
[2645000] S0 MEMORY WRITE beat=120 addr=050530c8 data=156380ac15c81e69 id=0a
[2655000] AXI S0_WVALID_RDY HANDSHAKE
[2655000] S0 MEMORY WRITE beat=121 addr=050530e8 data=2a1d539eac38c496 id=0a
[2655000] MASTER 0 W_VALID_RDY Handshake beat=128 wlast=0
