#-----------------------------------------------------------
# xsim v2025.2 (64-bit)
# SW Build 6299465 on Fri Nov 14 12:34:56 MST 2025
# IP Build 6300035 on Fri Nov 14 10:48:45 MST 2025
# SharedData Build 6298862 on Thu Nov 13 04:50:51 MST 2025
# Start of session at: Fri Sep 11 11:12:15 2026
# Process ID         : 629665
# Current directory  : /home/nashita/Desktop/practice/axi_xbar/sim
# Command line       : xsim -log regress_results/BT_run25.log -mode tcl -source {xsim.dir/tb_top_snap/xsim_script.tcl}
# Log file           : /home/nashita/Desktop/practice/axi_xbar/sim/regress_results/BT_run25.log
# Journal file       : /home/nashita/Desktop/practice/axi_xbar/sim/xsim.jou
# Running On         : vlsi-vivado
# Platform           : Ubuntu
# Operating System   : Ubuntu 24.04.4 LTS
# Processor Detail   : Intel(R) Core(TM) i5-10400 CPU @ 2.90GHz
# CPU Frequency      : 4129.240 MHz
# CPU Physical cores : 6
# CPU Logical cores  : 12
# Host memory        : 41875 MB
# Swap memory        : 27648 MB
# Total Virtual      : 69524 MB
# Available Virtual  : 63455 MB
#-----------------------------------------------------------
source xsim.dir/tb_top_snap/xsim_script.tcl
# xsim {tb_top_snap} -testplusarg BT -autoloadwcfg -runall -sv_seed 26
Time resolution is 1 ps
run -all
[0] RUNNING BASE TEST
[0] INSIDE THE BASE TEST CONSTRUCTOR
[0] ENV: before agent
[0] SLAVE CONSTRUCTED
[0] MASTER MONITOR CONSTRUCTED
[0] MASTER MONITOR CONSTRUCTED
[0] SLAVE MONITOR CONSTRUCTED
[0] SLAVE MONITOR CONSTRUCTED
[0] ARB MONITOR CONSTRUCTED
GENERATOR CONSTRUCTED
[0] ENV: after agent
[0] ENV: before scoreboard
[0] ENV: after scoreboard
[15000] [SEQUENCER] READ mst_id=0 s_id=0 araddr=1d8a9700 arid=0 arlen=1 arsize=3 arburst=1 rid=[] rresp=[] rdata=[]
[15000] [SEQUENCER] mst_id=1 s_id=0 awaddr=17620c80 awid=110 awlen=218 awsize=6 awburst=1 wdata=[8ff613841fc59e7c d6a9cd81ee3bf48f dd28361f203a5c7d 3ffffaf9b7676561 a5a359f0ed1e49a3 8d58a62096a9c87a ce112ddc82cb900f efe9d9b3cd58a119 e4026994f3b487cc f68017dcfd427fd3 ca9b20ed32139770 a5c81f3ce669f18f e3ac71622e9d8a81 e0b121f19c483718 82b228a7ae47924f dce51cd08679412d 22c17846e65e9a0a 94a62c59bd963ec1 c40f7fefa573a0ed 8bd23af7f18b492a af2187ebe6d0f835 8c44992220786751 1203b07bf33107da da02000f1816d41a 388f3b6bc1253866 34564041e6469932 fe5d6d4cca92ebe6 8bb8244c8e584050 f49ed98236eca8b7 17f949dc00e648d ce66a4def2fc46ce a9e8ef858d37b8e9 cd461d77c3057e60 3601c52fab688422 38a03d0c1bacc255 deb240b5dfeab4b4 b5338d705e65a83 21931cd894b405e4 f49eba99c3f375e3 c9d9d06680455d8d 14f96372fff1f370 c3e56953eb6ced3e ebb24acb09981e0b 98a117b0dbf39b9 f92c26f780abae3d 8a43cc48cd6f7ace db2eb487e4de71c2 e58a200093cdddc3 e13d5891d45adb7e b9394d40efcdec48 39bca0cbc6c0d18 90c6e8969ec36d40 e915989e4d9229d 21452fb6ca0035d7 e8c3a317122d2395 f7064632b20c184c fc0c4e23f754fca0 89822035984b75e8 ca578e35e4cff13b dc24eddb00886668 98d3dc50c663dc58 ab33cd93e5a70e11 e62f7479e32b6a85 298f46de0758bb6f ecffc980ff0350c9 e22ebb4fd4c31471 dc1bcfe0d32f3df9 d2328ec20bbe022d e081169ec91b9960 9c4ad759b4614a11 c01f4c3e3c9ce67f 85b87fdfee7d661c a2deb02d20a062dd dd3d495c22035739 1080bd55e2fdfc6c 39e5f49e2f5c93b 84f92074b35f6d82 965d69eee0dba8a5 c3d171e09579ddc9 c8d94b4c99fbc937 fad771dcc8ca9255 de44701edf36b53a f9327e723ea8e3bd 7737612a71dbb6a 65470a5f409f04e b2b2d40be5b7e630 cd5a19bff86ef17 f390df65ba264a1d 1fde304e132a1240 12b101572643b371 e069fd8e2cb3d1e9 3fdde4298641e0bc ac85942d80482ddc acfbffc5d28ee580 d8d0c63c0cef91bc 8d37bf98ecd9e3ee bf68c96e05565a6a 1245ec263a33bf5e a70da34c18398fab 1d8fea159f7dabbe d9b16b1ce6766cbb feaffc662fd5d63b cf5381f900bf0e69 e7357b241c3fe67b cc15bcb62904ed16 29c3fb7fe5e5778a 2255e059b693eaf c46e2bc510f976a3 f6deee2dce3b1abb e9a4596aee322744 ff2b9de7f9044c32 c73f66ed2e128530 9c44ac74f60a8c14 ef0ed846b0e3c057 def645871b704a5c 917ad670b64e3f33 e731ff8bfb3af1fc 16ab3c580089aeb7 b6d7edeac6284512 c163370ea82612c8 a8afc17f9e09ed75 e4323288d80e7366 34862fdf87af6a fd919cdfa5956996 fda3dcfda8e447ae 886bf718e1c3cf67 75938fefdd8632c a6bcaada05fd93f8 e7c1635f04fd15fb 2d579272f28a1f3 352635ebef1a9c5d f417b258a9922401 d8bac5f49ce7994a c0235a8f6ed2b7f 207f4f818de0fbdf 2ac8952a8019e800 f7071380f93a1575 71b115536cacad2 b6e4b2d217866301 90c0787631e3a67f e8ae7151adebc652 c572295397db89cb c9bf304a9f932423 cd7eea76d632a1ca ee0e2b95b26da19b d200c5bf92f113c9 e923b59337cd5be0 ea3afd7b1f7fb035 b270c3fed731e129 eff3d09bc3bc33a dbbb736f1b947992 f2c65abbf93a3a84 3575fdbf0e2c376e 29c0b10001c597c4 faffd2489131712e 9f5da89c1c870bbb 1e4ca37fb075d007 c1a74136c91e599c e5a56557994c75c7 c9c245cfe104e9d2 2a23436f83f208d6 1d3e7e9e0b698705 ec6e70d78fc8a8c6 13bab19de700c46d f26a4b729691b446 265a5d0d30f9303b 17f9f4a8ded8bc49 f56a70903a150eaa eb0e3ee50a64401a e93cfc631bc4cd9d d5d9dc470308338d d6c73a7dea76cf3 fa6c3a90c0e81b2c c3f04eb9f6a9700a d550dcfed04616d7 912e3203d15cc260 c806326acfbd178e 20032e66d51e80bc a67b431c9d570f68 ed1426f7b1316069 64fe126ee817587 8bd884ef0d17555d be48b5c6accb2442 9b4c99c9f8ecabe6 86040143c49896ec f163bb2f27251eb9 a011ca9fc44cb70a 88e54df68cb054f8 b3d573b12615cbe3 ea6282edfa490925 6f95e1ed3e73e51 f9fd0a34f347d0e3 ed90da09baced1cf 8eb61020e45f8d21 d7a75e04f48a3827 af5909f688b31a54 ed12a775c538380d b9c270343e0f1a17 c6c2346bc4ba057a 89f23d87e91b7a2b 272a944233d4dbe1 f88ee15bc3b4adbc 2cd027e7edecc8ad a1c1a48e82811ee2 c635cc9ed3fabc29 c1e784d69a5085e9 1cd1a4ccf305f485 c700b0aee3a92965 fdf9af4ee307716a d60d65f008e83585 ec915eea9acb541a fdd2c5859d0e169e a5f64c23ea8b0e38 5566253d3e02b75 f0ee42139287ab0d fd12b946032927d8 d709534d16e48e37 a96c394402691b99 5924371c7f79560 ] wstrb=[8a 97 be 23 dc 1e 94 66 b6 52 8a 92 71 1e f8 27 71 82 b9 e2 a1 b1 9 12 34 c2 f4 d5 73 fd e7 a7 bf db 7c 32 d8 63 da 97 3e 56 c9 16 ba a3 ad f8 fa 77 f b4 1a bc ac 14 33 bb c8 4e 78 75 62 ab 30 2b f9 a8 a0 5c 54 d0 87 4d 79 27 a9 cd f7 30 1a 70 57 c4 3d 4f f4 58 bf 4c 1c fd 9b 10 55 5a 5c 71 57 f7 81 ac 52 de 1d a9 d5 9f 56 27 7d 73 d1 52 12 27 7a 8f 9a 4b e2 ad 72 5c 3c c a7 1e b9 19 7a f6 25 21 14 df 3a 8f d5 60 b0 e9 3f eb 78 14 4b 29 fd 8a 14 76 9e 5f 9f 9b e9 b3 11 87 12 b0 22 fb 63 34 82 75 e4 a4 70 48 d8 f2 bd bd 97 2e 5 6f 20 c2 2c b7 f0 31 27 11 f4 53 c8 e4 85 ef f5 79 43 be 5d c8 ad 53 41 f0 11 9e b8 be f1 f9 af 2 98 67 c1 89 61 70 8c ] bresp=0 bid=0
[15000] [SEQUENCER] mst_id=1 s_id=0 awaddr=d05c8a8 awid=1000 awlen=11 awsize=7 awburst=2 wdata=[d68e29c0eb4076ae 3795ba5418120c72 485f6c1e1b607ff ccf67ead04d4958c 1ce6a1fedb142081 3cca2880048c3901 960ce8d216c98bf fc80b94009c0a72d e4ce02e2647708b c7b4094a394ae1c0 c30b88ed17adaebb 3df51f46c434c28a ] wstrb=[1b 4a 90 d6 37 1a 1c 52 64 ac 28 9b ] bresp=0 bid=0
[15000] [SEQUENCER] READ mst_id=1 s_id=0 araddr=de2dd70 arid=2 arlen=1 arsize=3 arburst=1 rid=[] rresp=[] rdata=[]
[15000] [SEQUENCER] READ mst_id=1 s_id=0 araddr=1ea70498 arid=3 arlen=1 arsize=3 arburst=1 rid=[] rresp=[] rdata=[]
[15000] MASTER_DRIVER0 received transaction, op=AXI_READ
[15000] MASTER_DRIVER1 received transaction, op=AXI_WRITE
[35000] MASTER 1 AW_VALID_RDY Handshake
[45000] ARB MONITOR: slave=1 m0_req=0 m1_req=1 winner=1
[45000] ARB MONITOR: slave=1 m0_req=1 m1_req=0 winner=0
[45000] AXI S0_ARVALID_RDY HANDSHAKE
[45000] MEMORY READ MISS beat=0 addr=1d8a9700 -> default data id=0
[45000] AXI S1_AWVALID_RDY HANDSHAKE
[55000] MEMORY READ MISS beat=1 addr=1d8a9708 -> default data id=0
[55000] SLAVE 1 R_VALID_RDY Handshake beat=0 rlast=0
[55000] MASTER 1 W_VALID_RDY Handshake beat=0 wlast=0
[65000] MASTER 1 W_VALID_RDY Handshake beat=1 wlast=0
[65000] SLAVE 1 R_VALID_RDY Handshake beat=1 rlast=1
[65000] [SLAVE MONITOR] READ mst_id=0 s_id=1 araddr=1d8a9700 arid=0 arlen=1 arsize=3 arburst=1 rid=[00] rresp=[00] rdata=[baadf00d12345678baadf00d12345678]
[65000] S1 MEMORY WRITE beat=0 addr=17620c80 data=8ff613841fc59e7c id=16
[75000] S1 MEMORY WRITE beat=1 addr=17620cc0 data=d6a9cd81ee3bf48f id=16
[75000] MASTER 1 W_VALID_RDY Handshake beat=2 wlast=0
[75000] MASTER 0 R_VALID_RDY Handshake beat=0 rlast=0
[85000] [MASTER DRIVER] READ mst_id=0 s_id=0 araddr=1d8a9700 arid=0 arlen=1 arsize=3 arburst=1 rid=[00] rresp=[00] rdata=[baadf00d12345678baadf00d12345678]
[85000] MASTER 0 R_VALID_RDY Handshake beat=1 rlast=1
[85000] [MASTER MONITOR] READ mst_id=0 s_id=1 araddr=1d8a9700 arid=0 arlen=1 arsize=3 arburst=1 rid=[00] rresp=[00] rdata=[baadf00d12345678baadf00d12345678]
[85000] MASTER 1 W_VALID_RDY Handshake beat=3 wlast=0
[85000] S1 MEMORY WRITE beat=2 addr=17620d00 data=dd28361f203a5c7d id=16
[85000] SCOREBOARD MATCH: decode_err expected = 0, actual =0
[85000] SCOREBOARD MATCH: slave_id expected = 1, actual =1
[85000] SCOREBOARD MATCH: araddr passthrough expected = 1d8a9700, actual =1d8a9700
[85000] SCOREBOARD MATCH: arlen passthrough expected = 1, actual =1
[85000] SCOREBOARD MATCH: arsize passthrough expected = 3, actual =3
[85000] SCOREBOARD MATCH: arburst passthrough expected = 1, actual =1
[85000] SCOREBOARD MATCH: rdata size check expected = 2, actual =2
[85000] SCOREBOARD MATCH: rdata passthrough beat=0 expected = baadf00d12345678, actual =baadf00d12345678
[85000] SCOREBOARD MATCH: rdata passthrough beat=1 expected = baadf00d12345678, actual =baadf00d12345678
[85000] SCOREBOARD MATCH: rresp size check expected = 2, actual =2
[85000] SCOREBOARD MATCH: rresp passthrough beat=0 expected = 0, actual =0
[85000] SCOREBOARD MATCH: rresp passthrough beat=1 expected = 0, actual =0
[85000] SCOREBOARD MATCH: response routed to correct master (read beat 0) expected = 0, actual =0
[85000] SCOREBOARD MATCH: response routed to correct master (read beat 1) expected = 0, actual =0
[85000] [SCOREBOARD-M] READ mst_id=0 s_id=1 araddr=1d8a9700 arid=0 arlen=1 arsize=3 arburst=1 rid=[00] rresp=[00] rdata=[baadf00d12345678baadf00d12345678]
[85000] [SCOREBOARD-S] READ mst_id=0 s_id=1 araddr=1d8a9700 arid=0 arlen=1 arsize=3 arburst=1 rid=[00] rresp=[00] rdata=[baadf00d12345678baadf00d12345678]
[85000] SCOREBOARD: Transaction 1 received. pass=14 fail=0
[85000] ALL PASS. Total transactions: 1
[95000] S1 MEMORY WRITE beat=3 addr=17620d40 data=3ffffaf9b7676561 id=16
[95000] MASTER 1 W_VALID_RDY Handshake beat=4 wlast=0
[105000] MASTER 1 W_VALID_RDY Handshake beat=5 wlast=0
[105000] S1 MEMORY WRITE beat=4 addr=17620d80 data=a5a359f0ed1e49a3 id=16
[115000] S1 MEMORY WRITE beat=5 addr=17620dc0 data=8d58a62096a9c87a id=16
[115000] MASTER 1 W_VALID_RDY Handshake beat=6 wlast=0
[125000] MASTER 1 W_VALID_RDY Handshake beat=7 wlast=0
[125000] S1 MEMORY WRITE beat=6 addr=17620e00 data=ce112ddc82cb900f id=16
[135000] S1 MEMORY WRITE beat=7 addr=17620e40 data=efe9d9b3cd58a119 id=16
[135000] MASTER 1 W_VALID_RDY Handshake beat=8 wlast=0
[145000] MASTER 1 W_VALID_RDY Handshake beat=9 wlast=0
[145000] S1 MEMORY WRITE beat=8 addr=17620e80 data=e4026994f3b487cc id=16
[155000] S1 MEMORY WRITE beat=9 addr=17620ec0 data=f68017dcfd427fd3 id=16
[155000] MASTER 1 W_VALID_RDY Handshake beat=10 wlast=0
[165000] MASTER 1 W_VALID_RDY Handshake beat=11 wlast=0
[165000] S1 MEMORY WRITE beat=10 addr=17620f00 data=ca9b20ed32139770 id=16
[175000] S1 MEMORY WRITE beat=11 addr=17620f40 data=a5c81f3ce669f18f id=16
[175000] MASTER 1 W_VALID_RDY Handshake beat=12 wlast=0
[185000] MASTER 1 W_VALID_RDY Handshake beat=13 wlast=0
[185000] S1 MEMORY WRITE beat=12 addr=17620f80 data=e3ac71622e9d8a81 id=16
[195000] S1 MEMORY WRITE beat=13 addr=17620fc0 data=e0b121f19c483718 id=16
[195000] MASTER 1 W_VALID_RDY Handshake beat=14 wlast=0
[205000] MASTER 1 W_VALID_RDY Handshake beat=15 wlast=0
[205000] S1 MEMORY WRITE beat=14 addr=17621000 data=82b228a7ae47924f id=16
[215000] S1 MEMORY WRITE beat=15 addr=17621040 data=dce51cd08679412d id=16
[215000] MASTER 1 W_VALID_RDY Handshake beat=16 wlast=0
[225000] MASTER 1 W_VALID_RDY Handshake beat=17 wlast=0
[225000] S1 MEMORY WRITE beat=16 addr=17621080 data=22c17846e65e9a0a id=16
[235000] S1 MEMORY WRITE beat=17 addr=176210c0 data=94a62c59bd963ec1 id=16
[235000] MASTER 1 W_VALID_RDY Handshake beat=18 wlast=0
[245000] MASTER 1 W_VALID_RDY Handshake beat=19 wlast=0
[245000] S1 MEMORY WRITE beat=18 addr=17621100 data=c40f7fefa573a0ed id=16
[255000] S1 MEMORY WRITE beat=19 addr=17621140 data=8bd23af7f18b492a id=16
[255000] MASTER 1 W_VALID_RDY Handshake beat=20 wlast=0
[265000] MASTER 1 W_VALID_RDY Handshake beat=21 wlast=0
[265000] S1 MEMORY WRITE beat=20 addr=17621180 data=af2187ebe6d0f835 id=16
[275000] S1 MEMORY WRITE beat=21 addr=176211c0 data=8c44992220786751 id=16
[275000] MASTER 1 W_VALID_RDY Handshake beat=22 wlast=0
[285000] MASTER 1 W_VALID_RDY Handshake beat=23 wlast=0
[285000] S1 MEMORY WRITE beat=22 addr=17621200 data=1203b07bf33107da id=16
[295000] S1 MEMORY WRITE beat=23 addr=17621240 data=da02000f1816d41a id=16
[295000] MASTER 1 W_VALID_RDY Handshake beat=24 wlast=0
[305000] MASTER 1 W_VALID_RDY Handshake beat=25 wlast=0
[305000] S1 MEMORY WRITE beat=24 addr=17621280 data=388f3b6bc1253866 id=16
[315000] S1 MEMORY WRITE beat=25 addr=176212c0 data=34564041e6469932 id=16
[315000] MASTER 1 W_VALID_RDY Handshake beat=26 wlast=0
[325000] MASTER 1 W_VALID_RDY Handshake beat=27 wlast=0
[325000] S1 MEMORY WRITE beat=26 addr=17621300 data=fe5d6d4cca92ebe6 id=16
[335000] S1 MEMORY WRITE beat=27 addr=17621340 data=8bb8244c8e584050 id=16
[335000] MASTER 1 W_VALID_RDY Handshake beat=28 wlast=0
[345000] MASTER 1 W_VALID_RDY Handshake beat=29 wlast=0
[345000] S1 MEMORY WRITE beat=28 addr=17621380 data=f49ed98236eca8b7 id=16
[355000] S1 MEMORY WRITE beat=29 addr=176213c0 data=017f949dc00e648d id=16
[355000] MASTER 1 W_VALID_RDY Handshake beat=30 wlast=0
[365000] MASTER 1 W_VALID_RDY Handshake beat=31 wlast=0
[365000] S1 MEMORY WRITE beat=30 addr=17621400 data=ce66a4def2fc46ce id=16
[375000] S1 MEMORY WRITE beat=31 addr=17621440 data=a9e8ef858d37b8e9 id=16
[375000] MASTER 1 W_VALID_RDY Handshake beat=32 wlast=0
[385000] MASTER 1 W_VALID_RDY Handshake beat=33 wlast=0
[385000] S1 MEMORY WRITE beat=32 addr=17621480 data=cd461d77c3057e60 id=16
[395000] S1 MEMORY WRITE beat=33 addr=176214c0 data=3601c52fab688422 id=16
[395000] MASTER 1 W_VALID_RDY Handshake beat=34 wlast=0
[405000] MASTER 1 W_VALID_RDY Handshake beat=35 wlast=0
[405000] S1 MEMORY WRITE beat=34 addr=17621500 data=38a03d0c1bacc255 id=16
[415000] S1 MEMORY WRITE beat=35 addr=17621540 data=deb240b5dfeab4b4 id=16
[415000] MASTER 1 W_VALID_RDY Handshake beat=36 wlast=0
[425000] MASTER 1 W_VALID_RDY Handshake beat=37 wlast=0
[425000] S1 MEMORY WRITE beat=36 addr=17621580 data=0b5338d705e65a83 id=16
[435000] S1 MEMORY WRITE beat=37 addr=176215c0 data=21931cd894b405e4 id=16
[435000] MASTER 1 W_VALID_RDY Handshake beat=38 wlast=0
[445000] MASTER 1 W_VALID_RDY Handshake beat=39 wlast=0
[445000] S1 MEMORY WRITE beat=38 addr=17621600 data=f49eba99c3f375e3 id=16
[455000] S1 MEMORY WRITE beat=39 addr=17621640 data=c9d9d06680455d8d id=16
[455000] MASTER 1 W_VALID_RDY Handshake beat=40 wlast=0
[465000] MASTER 1 W_VALID_RDY Handshake beat=41 wlast=0
[465000] S1 MEMORY WRITE beat=40 addr=17621680 data=14f96372fff1f370 id=16
[475000] S1 MEMORY WRITE beat=41 addr=176216c0 data=c3e56953eb6ced3e id=16
[475000] MASTER 1 W_VALID_RDY Handshake beat=42 wlast=0
[485000] MASTER 1 W_VALID_RDY Handshake beat=43 wlast=0
[485000] S1 MEMORY WRITE beat=42 addr=17621700 data=ebb24acb09981e0b id=16
[495000] S1 MEMORY WRITE beat=43 addr=17621740 data=098a117b0dbf39b9 id=16
[495000] MASTER 1 W_VALID_RDY Handshake beat=44 wlast=0
[505000] MASTER 1 W_VALID_RDY Handshake beat=45 wlast=0
[505000] S1 MEMORY WRITE beat=44 addr=17621780 data=f92c26f780abae3d id=16
[515000] S1 MEMORY WRITE beat=45 addr=176217c0 data=8a43cc48cd6f7ace id=16
[515000] MASTER 1 W_VALID_RDY Handshake beat=46 wlast=0
[525000] MASTER 1 W_VALID_RDY Handshake beat=47 wlast=0
[525000] S1 MEMORY WRITE beat=46 addr=17621800 data=db2eb487e4de71c2 id=16
[535000] S1 MEMORY WRITE beat=47 addr=17621840 data=e58a200093cdddc3 id=16
[535000] MASTER 1 W_VALID_RDY Handshake beat=48 wlast=0
[545000] MASTER 1 W_VALID_RDY Handshake beat=49 wlast=0
[545000] S1 MEMORY WRITE beat=48 addr=17621880 data=e13d5891d45adb7e id=16
[555000] S1 MEMORY WRITE beat=49 addr=176218c0 data=b9394d40efcdec48 id=16
[555000] MASTER 1 W_VALID_RDY Handshake beat=50 wlast=0
[565000] MASTER 1 W_VALID_RDY Handshake beat=51 wlast=0
[565000] S1 MEMORY WRITE beat=50 addr=17621900 data=039bca0cbc6c0d18 id=16
[575000] S1 MEMORY WRITE beat=51 addr=17621940 data=90c6e8969ec36d40 id=16
[575000] MASTER 1 W_VALID_RDY Handshake beat=52 wlast=0
[585000] MASTER 1 W_VALID_RDY Handshake beat=53 wlast=0
[585000] S1 MEMORY WRITE beat=52 addr=17621980 data=0e915989e4d9229d id=16
[595000] S1 MEMORY WRITE beat=53 addr=176219c0 data=21452fb6ca0035d7 id=16
[595000] MASTER 1 W_VALID_RDY Handshake beat=54 wlast=0
[605000] MASTER 1 W_VALID_RDY Handshake beat=55 wlast=0
[605000] S1 MEMORY WRITE beat=54 addr=17621a00 data=e8c3a317122d2395 id=16
[615000] S1 MEMORY WRITE beat=55 addr=17621a40 data=f7064632b20c184c id=16
[615000] MASTER 1 W_VALID_RDY Handshake beat=56 wlast=0
[625000] MASTER 1 W_VALID_RDY Handshake beat=57 wlast=0
[625000] S1 MEMORY WRITE beat=56 addr=17621a80 data=fc0c4e23f754fca0 id=16
[635000] S1 MEMORY WRITE beat=57 addr=17621ac0 data=89822035984b75e8 id=16
[635000] MASTER 1 W_VALID_RDY Handshake beat=58 wlast=0
[645000] MASTER 1 W_VALID_RDY Handshake beat=59 wlast=0
[645000] S1 MEMORY WRITE beat=58 addr=17621b00 data=ca578e35e4cff13b id=16
[655000] S1 MEMORY WRITE beat=59 addr=17621b40 data=dc24eddb00886668 id=16
[655000] MASTER 1 W_VALID_RDY Handshake beat=60 wlast=0
[665000] MASTER 1 W_VALID_RDY Handshake beat=61 wlast=0
[665000] S1 MEMORY WRITE beat=60 addr=17621b80 data=98d3dc50c663dc58 id=16
[675000] S1 MEMORY WRITE beat=61 addr=17621bc0 data=ab33cd93e5a70e11 id=16
[675000] MASTER 1 W_VALID_RDY Handshake beat=62 wlast=0
[685000] MASTER 1 W_VALID_RDY Handshake beat=63 wlast=0
[685000] S1 MEMORY WRITE beat=62 addr=17621c00 data=e62f7479e32b6a85 id=16
[695000] S1 MEMORY WRITE beat=63 addr=17621c40 data=298f46de0758bb6f id=16
[695000] MASTER 1 W_VALID_RDY Handshake beat=64 wlast=0
[705000] MASTER 1 W_VALID_RDY Handshake beat=65 wlast=0
[705000] S1 MEMORY WRITE beat=64 addr=17621c80 data=ecffc980ff0350c9 id=16
[715000] S1 MEMORY WRITE beat=65 addr=17621cc0 data=e22ebb4fd4c31471 id=16
[715000] MASTER 1 W_VALID_RDY Handshake beat=66 wlast=0
[725000] MASTER 1 W_VALID_RDY Handshake beat=67 wlast=0
[725000] S1 MEMORY WRITE beat=66 addr=17621d00 data=dc1bcfe0d32f3df9 id=16
[735000] S1 MEMORY WRITE beat=67 addr=17621d40 data=d2328ec20bbe022d id=16
[735000] MASTER 1 W_VALID_RDY Handshake beat=68 wlast=0
[745000] MASTER 1 W_VALID_RDY Handshake beat=69 wlast=0
[745000] S1 MEMORY WRITE beat=68 addr=17621d80 data=e081169ec91b9960 id=16
[755000] S1 MEMORY WRITE beat=69 addr=17621dc0 data=9c4ad759b4614a11 id=16
[755000] MASTER 1 W_VALID_RDY Handshake beat=70 wlast=0
[765000] MASTER 1 W_VALID_RDY Handshake beat=71 wlast=0
[765000] S1 MEMORY WRITE beat=70 addr=17621e00 data=c01f4c3e3c9ce67f id=16
[775000] S1 MEMORY WRITE beat=71 addr=17621e40 data=85b87fdfee7d661c id=16
[775000] MASTER 1 W_VALID_RDY Handshake beat=72 wlast=0
[785000] MASTER 1 W_VALID_RDY Handshake beat=73 wlast=0
[785000] S1 MEMORY WRITE beat=72 addr=17621e80 data=a2deb02d20a062dd id=16
[795000] S1 MEMORY WRITE beat=73 addr=17621ec0 data=dd3d495c22035739 id=16
[795000] MASTER 1 W_VALID_RDY Handshake beat=74 wlast=0
[805000] MASTER 1 W_VALID_RDY Handshake beat=75 wlast=0
[805000] S1 MEMORY WRITE beat=74 addr=17621f00 data=1080bd55e2fdfc6c id=16
[815000] S1 MEMORY WRITE beat=75 addr=17621f40 data=039e5f49e2f5c93b id=16
[815000] MASTER 1 W_VALID_RDY Handshake beat=76 wlast=0
[825000] MASTER 1 W_VALID_RDY Handshake beat=77 wlast=0
[825000] S1 MEMORY WRITE beat=76 addr=17621f80 data=84f92074b35f6d82 id=16
[835000] S1 MEMORY WRITE beat=77 addr=17621fc0 data=965d69eee0dba8a5 id=16
[835000] MASTER 1 W_VALID_RDY Handshake beat=78 wlast=0
[845000] MASTER 1 W_VALID_RDY Handshake beat=79 wlast=0
[845000] S1 MEMORY WRITE beat=78 addr=17622000 data=c3d171e09579ddc9 id=16
[855000] S1 MEMORY WRITE beat=79 addr=17622040 data=c8d94b4c99fbc937 id=16
[855000] MASTER 1 W_VALID_RDY Handshake beat=80 wlast=0
[865000] MASTER 1 W_VALID_RDY Handshake beat=81 wlast=0
[865000] S1 MEMORY WRITE beat=80 addr=17622080 data=fad771dcc8ca9255 id=16
[875000] S1 MEMORY WRITE beat=81 addr=176220c0 data=de44701edf36b53a id=16
[875000] MASTER 1 W_VALID_RDY Handshake beat=82 wlast=0
[885000] MASTER 1 W_VALID_RDY Handshake beat=83 wlast=0
[885000] S1 MEMORY WRITE beat=82 addr=17622100 data=f9327e723ea8e3bd id=16
[895000] S1 MEMORY WRITE beat=83 addr=17622140 data=07737612a71dbb6a id=16
[895000] MASTER 1 W_VALID_RDY Handshake beat=84 wlast=0
[905000] MASTER 1 W_VALID_RDY Handshake beat=85 wlast=0
[905000] S1 MEMORY WRITE beat=84 addr=17622180 data=065470a5f409f04e id=16
[915000] S1 MEMORY WRITE beat=85 addr=176221c0 data=b2b2d40be5b7e630 id=16
[915000] MASTER 1 W_VALID_RDY Handshake beat=86 wlast=0
[925000] MASTER 1 W_VALID_RDY Handshake beat=87 wlast=0
[925000] S1 MEMORY WRITE beat=86 addr=17622200 data=0cd5a19bff86ef17 id=16
[935000] S1 MEMORY WRITE beat=87 addr=17622240 data=f390df65ba264a1d id=16
[935000] MASTER 1 W_VALID_RDY Handshake beat=88 wlast=0
[945000] MASTER 1 W_VALID_RDY Handshake beat=89 wlast=0
[945000] S1 MEMORY WRITE beat=88 addr=17622280 data=1fde304e132a1240 id=16
[955000] S1 MEMORY WRITE beat=89 addr=176222c0 data=12b101572643b371 id=16
[955000] MASTER 1 W_VALID_RDY Handshake beat=90 wlast=0
[965000] MASTER 1 W_VALID_RDY Handshake beat=91 wlast=0
[965000] S1 MEMORY WRITE beat=90 addr=17622300 data=e069fd8e2cb3d1e9 id=16
[975000] S1 MEMORY WRITE beat=91 addr=17622340 data=3fdde4298641e0bc id=16
[975000] MASTER 1 W_VALID_RDY Handshake beat=92 wlast=0
[985000] MASTER 1 W_VALID_RDY Handshake beat=93 wlast=0
[985000] S1 MEMORY WRITE beat=92 addr=17622380 data=ac85942d80482ddc id=16
[995000] S1 MEMORY WRITE beat=93 addr=176223c0 data=acfbffc5d28ee580 id=16
[995000] MASTER 1 W_VALID_RDY Handshake beat=94 wlast=0
[1005000] MASTER 1 W_VALID_RDY Handshake beat=95 wlast=0
[1005000] S1 MEMORY WRITE beat=94 addr=17622400 data=d8d0c63c0cef91bc id=16
[1015000] S1 MEMORY WRITE beat=95 addr=17622440 data=8d37bf98ecd9e3ee id=16
[1015000] MASTER 1 W_VALID_RDY Handshake beat=96 wlast=0
[1025000] MASTER 1 W_VALID_RDY Handshake beat=97 wlast=0
[1025000] S1 MEMORY WRITE beat=96 addr=17622480 data=bf68c96e05565a6a id=16
[1035000] S1 MEMORY WRITE beat=97 addr=176224c0 data=1245ec263a33bf5e id=16
[1035000] MASTER 1 W_VALID_RDY Handshake beat=98 wlast=0
[1045000] MASTER 1 W_VALID_RDY Handshake beat=99 wlast=0
[1045000] S1 MEMORY WRITE beat=98 addr=17622500 data=a70da34c18398fab id=16
[1055000] S1 MEMORY WRITE beat=99 addr=17622540 data=1d8fea159f7dabbe id=16
[1055000] MASTER 1 W_VALID_RDY Handshake beat=100 wlast=0
[1065000] MASTER 1 W_VALID_RDY Handshake beat=101 wlast=0
[1065000] S1 MEMORY WRITE beat=100 addr=17622580 data=d9b16b1ce6766cbb id=16
[1075000] S1 MEMORY WRITE beat=101 addr=176225c0 data=feaffc662fd5d63b id=16
[1075000] MASTER 1 W_VALID_RDY Handshake beat=102 wlast=0
[1085000] MASTER 1 W_VALID_RDY Handshake beat=103 wlast=0
[1085000] S1 MEMORY WRITE beat=102 addr=17622600 data=cf5381f900bf0e69 id=16
[1095000] S1 MEMORY WRITE beat=103 addr=17622640 data=e7357b241c3fe67b id=16
[1095000] MASTER 1 W_VALID_RDY Handshake beat=104 wlast=0
[1105000] MASTER 1 W_VALID_RDY Handshake beat=105 wlast=0
[1105000] S1 MEMORY WRITE beat=104 addr=17622680 data=cc15bcb62904ed16 id=16
[1115000] S1 MEMORY WRITE beat=105 addr=176226c0 data=29c3fb7fe5e5778a id=16
[1115000] MASTER 1 W_VALID_RDY Handshake beat=106 wlast=0
[1125000] MASTER 1 W_VALID_RDY Handshake beat=107 wlast=0
[1125000] S1 MEMORY WRITE beat=106 addr=17622700 data=02255e059b693eaf id=16
[1135000] S1 MEMORY WRITE beat=107 addr=17622740 data=c46e2bc510f976a3 id=16
[1135000] MASTER 1 W_VALID_RDY Handshake beat=108 wlast=0
[1145000] MASTER 1 W_VALID_RDY Handshake beat=109 wlast=0
[1145000] S1 MEMORY WRITE beat=108 addr=17622780 data=f6deee2dce3b1abb id=16
[1155000] S1 MEMORY WRITE beat=109 addr=176227c0 data=e9a4596aee322744 id=16
[1155000] MASTER 1 W_VALID_RDY Handshake beat=110 wlast=0
[1165000] MASTER 1 W_VALID_RDY Handshake beat=111 wlast=0
[1165000] S1 MEMORY WRITE beat=110 addr=17622800 data=ff2b9de7f9044c32 id=16
[1175000] S1 MEMORY WRITE beat=111 addr=17622840 data=c73f66ed2e128530 id=16
[1175000] MASTER 1 W_VALID_RDY Handshake beat=112 wlast=0
[1185000] MASTER 1 W_VALID_RDY Handshake beat=113 wlast=0
[1185000] S1 MEMORY WRITE beat=112 addr=17622880 data=9c44ac74f60a8c14 id=16
[1195000] S1 MEMORY WRITE beat=113 addr=176228c0 data=ef0ed846b0e3c057 id=16
[1195000] MASTER 1 W_VALID_RDY Handshake beat=114 wlast=0
[1205000] MASTER 1 W_VALID_RDY Handshake beat=115 wlast=0
[1205000] S1 MEMORY WRITE beat=114 addr=17622900 data=def645871b704a5c id=16
[1215000] S1 MEMORY WRITE beat=115 addr=17622940 data=917ad670b64e3f33 id=16
[1215000] MASTER 1 W_VALID_RDY Handshake beat=116 wlast=0
[1225000] MASTER 1 W_VALID_RDY Handshake beat=117 wlast=0
[1225000] S1 MEMORY WRITE beat=116 addr=17622980 data=e731ff8bfb3af1fc id=16
[1235000] S1 MEMORY WRITE beat=117 addr=176229c0 data=16ab3c580089aeb7 id=16
[1235000] MASTER 1 W_VALID_RDY Handshake beat=118 wlast=0
[1245000] MASTER 1 W_VALID_RDY Handshake beat=119 wlast=0
[1245000] S1 MEMORY WRITE beat=118 addr=17622a00 data=b6d7edeac6284512 id=16
[1255000] S1 MEMORY WRITE beat=119 addr=17622a40 data=c163370ea82612c8 id=16
[1255000] MASTER 1 W_VALID_RDY Handshake beat=120 wlast=0
[1265000] MASTER 1 W_VALID_RDY Handshake beat=121 wlast=0
[1265000] S1 MEMORY WRITE beat=120 addr=17622a80 data=a8afc17f9e09ed75 id=16
[1275000] S1 MEMORY WRITE beat=121 addr=17622ac0 data=e4323288d80e7366 id=16
[1275000] MASTER 1 W_VALID_RDY Handshake beat=122 wlast=0
[1285000] MASTER 1 W_VALID_RDY Handshake beat=123 wlast=0
[1285000] S1 MEMORY WRITE beat=122 addr=17622b00 data=0034862fdf87af6a id=16
[1295000] S1 MEMORY WRITE beat=123 addr=17622b40 data=fd919cdfa5956996 id=16
[1295000] MASTER 1 W_VALID_RDY Handshake beat=124 wlast=0
[1305000] MASTER 1 W_VALID_RDY Handshake beat=125 wlast=0
[1305000] S1 MEMORY WRITE beat=124 addr=17622b80 data=fda3dcfda8e447ae id=16
[1315000] S1 MEMORY WRITE beat=125 addr=17622bc0 data=886bf718e1c3cf67 id=16
[1315000] MASTER 1 W_VALID_RDY Handshake beat=126 wlast=0
[1325000] MASTER 1 W_VALID_RDY Handshake beat=127 wlast=0
[1325000] S1 MEMORY WRITE beat=126 addr=17622c00 data=075938fefdd8632c id=16
[1335000] S1 MEMORY WRITE beat=127 addr=17622c40 data=a6bcaada05fd93f8 id=16
[1335000] MASTER 1 W_VALID_RDY Handshake beat=128 wlast=0
[1345000] MASTER 1 W_VALID_RDY Handshake beat=129 wlast=0
[1345000] S1 MEMORY WRITE beat=128 addr=17622c80 data=e7c1635f04fd15fb id=16
[1355000] S1 MEMORY WRITE beat=129 addr=17622cc0 data=02d579272f28a1f3 id=16
[1355000] MASTER 1 W_VALID_RDY Handshake beat=130 wlast=0
[1365000] MASTER 1 W_VALID_RDY Handshake beat=131 wlast=0
[1365000] S1 MEMORY WRITE beat=130 addr=17622d00 data=352635ebef1a9c5d id=16
[1375000] S1 MEMORY WRITE beat=131 addr=17622d40 data=f417b258a9922401 id=16
[1375000] MASTER 1 W_VALID_RDY Handshake beat=132 wlast=0
[1385000] MASTER 1 W_VALID_RDY Handshake beat=133 wlast=0
[1385000] S1 MEMORY WRITE beat=132 addr=17622d80 data=d8bac5f49ce7994a id=16
[1395000] S1 MEMORY WRITE beat=133 addr=17622dc0 data=0c0235a8f6ed2b7f id=16
[1395000] MASTER 1 W_VALID_RDY Handshake beat=134 wlast=0
[1405000] MASTER 1 W_VALID_RDY Handshake beat=135 wlast=0
[1405000] S1 MEMORY WRITE beat=134 addr=17622e00 data=207f4f818de0fbdf id=16
[1415000] S1 MEMORY WRITE beat=135 addr=17622e40 data=2ac8952a8019e800 id=16
[1415000] MASTER 1 W_VALID_RDY Handshake beat=136 wlast=0
[1425000] MASTER 1 W_VALID_RDY Handshake beat=137 wlast=0
[1425000] S1 MEMORY WRITE beat=136 addr=17622e80 data=f7071380f93a1575 id=16
[1435000] S1 MEMORY WRITE beat=137 addr=17622ec0 data=071b115536cacad2 id=16
[1435000] MASTER 1 W_VALID_RDY Handshake beat=138 wlast=0
[1445000] MASTER 1 W_VALID_RDY Handshake beat=139 wlast=0
[1445000] S1 MEMORY WRITE beat=138 addr=17622f00 data=b6e4b2d217866301 id=16
[1455000] S1 MEMORY WRITE beat=139 addr=17622f40 data=90c0787631e3a67f id=16
[1455000] MASTER 1 W_VALID_RDY Handshake beat=140 wlast=0
[1465000] MASTER 1 W_VALID_RDY Handshake beat=141 wlast=0
[1465000] S1 MEMORY WRITE beat=140 addr=17622f80 data=e8ae7151adebc652 id=16
[1475000] S1 MEMORY WRITE beat=141 addr=17622fc0 data=c572295397db89cb id=16
[1475000] MASTER 1 W_VALID_RDY Handshake beat=142 wlast=0
[1485000] MASTER 1 W_VALID_RDY Handshake beat=143 wlast=0
[1485000] S1 MEMORY WRITE beat=142 addr=17623000 data=c9bf304a9f932423 id=16
[1495000] S1 MEMORY WRITE beat=143 addr=17623040 data=cd7eea76d632a1ca id=16
[1495000] MASTER 1 W_VALID_RDY Handshake beat=144 wlast=0
[1505000] MASTER 1 W_VALID_RDY Handshake beat=145 wlast=0
[1505000] S1 MEMORY WRITE beat=144 addr=17623080 data=ee0e2b95b26da19b id=16
[1515000] S1 MEMORY WRITE beat=145 addr=176230c0 data=d200c5bf92f113c9 id=16
[1515000] MASTER 1 W_VALID_RDY Handshake beat=146 wlast=0
[1525000] MASTER 1 W_VALID_RDY Handshake beat=147 wlast=0
[1525000] S1 MEMORY WRITE beat=146 addr=17623100 data=e923b59337cd5be0 id=16
[1535000] S1 MEMORY WRITE beat=147 addr=17623140 data=ea3afd7b1f7fb035 id=16
[1535000] MASTER 1 W_VALID_RDY Handshake beat=148 wlast=0
[1545000] MASTER 1 W_VALID_RDY Handshake beat=149 wlast=0
[1545000] S1 MEMORY WRITE beat=148 addr=17623180 data=b270c3fed731e129 id=16
[1555000] S1 MEMORY WRITE beat=149 addr=176231c0 data=0eff3d09bc3bc33a id=16
[1555000] MASTER 1 W_VALID_RDY Handshake beat=150 wlast=0
[1565000] MASTER 1 W_VALID_RDY Handshake beat=151 wlast=0
[1565000] S1 MEMORY WRITE beat=150 addr=17623200 data=dbbb736f1b947992 id=16
[1575000] S1 MEMORY WRITE beat=151 addr=17623240 data=f2c65abbf93a3a84 id=16
[1575000] MASTER 1 W_VALID_RDY Handshake beat=152 wlast=0
[1585000] MASTER 1 W_VALID_RDY Handshake beat=153 wlast=0
[1585000] S1 MEMORY WRITE beat=152 addr=17623280 data=3575fdbf0e2c376e id=16
[1595000] S1 MEMORY WRITE beat=153 addr=176232c0 data=29c0b10001c597c4 id=16
[1595000] MASTER 1 W_VALID_RDY Handshake beat=154 wlast=0
[1605000] MASTER 1 W_VALID_RDY Handshake beat=155 wlast=0
[1605000] S1 MEMORY WRITE beat=154 addr=17623300 data=faffd2489131712e id=16
[1615000] S1 MEMORY WRITE beat=155 addr=17623340 data=9f5da89c1c870bbb id=16
[1615000] MASTER 1 W_VALID_RDY Handshake beat=156 wlast=0
[1625000] MASTER 1 W_VALID_RDY Handshake beat=157 wlast=0
[1625000] S1 MEMORY WRITE beat=156 addr=17623380 data=1e4ca37fb075d007 id=16
[1635000] S1 MEMORY WRITE beat=157 addr=176233c0 data=c1a74136c91e599c id=16
[1635000] MASTER 1 W_VALID_RDY Handshake beat=158 wlast=0
[1645000] MASTER 1 W_VALID_RDY Handshake beat=159 wlast=0
[1645000] S1 MEMORY WRITE beat=158 addr=17623400 data=e5a56557994c75c7 id=16
[1655000] S1 MEMORY WRITE beat=159 addr=17623440 data=c9c245cfe104e9d2 id=16
[1655000] MASTER 1 W_VALID_RDY Handshake beat=160 wlast=0
[1665000] MASTER 1 W_VALID_RDY Handshake beat=161 wlast=0
[1665000] S1 MEMORY WRITE beat=160 addr=17623480 data=2a23436f83f208d6 id=16
[1675000] S1 MEMORY WRITE beat=161 addr=176234c0 data=1d3e7e9e0b698705 id=16
[1675000] MASTER 1 W_VALID_RDY Handshake beat=162 wlast=0
[1685000] MASTER 1 W_VALID_RDY Handshake beat=163 wlast=0
[1685000] S1 MEMORY WRITE beat=162 addr=17623500 data=ec6e70d78fc8a8c6 id=16
[1695000] S1 MEMORY WRITE beat=163 addr=17623540 data=13bab19de700c46d id=16
[1695000] MASTER 1 W_VALID_RDY Handshake beat=164 wlast=0
[1705000] MASTER 1 W_VALID_RDY Handshake beat=165 wlast=0
[1705000] S1 MEMORY WRITE beat=164 addr=17623580 data=f26a4b729691b446 id=16
[1715000] S1 MEMORY WRITE beat=165 addr=176235c0 data=265a5d0d30f9303b id=16
[1715000] MASTER 1 W_VALID_RDY Handshake beat=166 wlast=0
[1725000] MASTER 1 W_VALID_RDY Handshake beat=167 wlast=0
[1725000] S1 MEMORY WRITE beat=166 addr=17623600 data=17f9f4a8ded8bc49 id=16
[1735000] S1 MEMORY WRITE beat=167 addr=17623640 data=f56a70903a150eaa id=16
[1735000] MASTER 1 W_VALID_RDY Handshake beat=168 wlast=0
[1745000] MASTER 1 W_VALID_RDY Handshake beat=169 wlast=0
[1745000] S1 MEMORY WRITE beat=168 addr=17623680 data=eb0e3ee50a64401a id=16
[1755000] S1 MEMORY WRITE beat=169 addr=176236c0 data=e93cfc631bc4cd9d id=16
[1755000] MASTER 1 W_VALID_RDY Handshake beat=170 wlast=0
[1765000] MASTER 1 W_VALID_RDY Handshake beat=171 wlast=0
[1765000] S1 MEMORY WRITE beat=170 addr=17623700 data=d5d9dc470308338d id=16
[1775000] S1 MEMORY WRITE beat=171 addr=17623740 data=0d6c73a7dea76cf3 id=16
[1775000] MASTER 1 W_VALID_RDY Handshake beat=172 wlast=0
[1785000] MASTER 1 W_VALID_RDY Handshake beat=173 wlast=0
[1785000] S1 MEMORY WRITE beat=172 addr=17623780 data=fa6c3a90c0e81b2c id=16
[1795000] S1 MEMORY WRITE beat=173 addr=176237c0 data=c3f04eb9f6a9700a id=16
[1795000] MASTER 1 W_VALID_RDY Handshake beat=174 wlast=0
[1805000] MASTER 1 W_VALID_RDY Handshake beat=175 wlast=0
[1805000] S1 MEMORY WRITE beat=174 addr=17623800 data=d550dcfed04616d7 id=16
[1815000] S1 MEMORY WRITE beat=175 addr=17623840 data=912e3203d15cc260 id=16
[1815000] MASTER 1 W_VALID_RDY Handshake beat=176 wlast=0
[1825000] MASTER 1 W_VALID_RDY Handshake beat=177 wlast=0
[1825000] S1 MEMORY WRITE beat=176 addr=17623880 data=c806326acfbd178e id=16
[1835000] S1 MEMORY WRITE beat=177 addr=176238c0 data=20032e66d51e80bc id=16
[1835000] MASTER 1 W_VALID_RDY Handshake beat=178 wlast=0
[1845000] MASTER 1 W_VALID_RDY Handshake beat=179 wlast=0
[1845000] S1 MEMORY WRITE beat=178 addr=17623900 data=a67b431c9d570f68 id=16
[1855000] S1 MEMORY WRITE beat=179 addr=17623940 data=ed1426f7b1316069 id=16
[1855000] MASTER 1 W_VALID_RDY Handshake beat=180 wlast=0
[1865000] MASTER 1 W_VALID_RDY Handshake beat=181 wlast=0
[1865000] S1 MEMORY WRITE beat=180 addr=17623980 data=064fe126ee817587 id=16
[1875000] S1 MEMORY WRITE beat=181 addr=176239c0 data=8bd884ef0d17555d id=16
[1875000] MASTER 1 W_VALID_RDY Handshake beat=182 wlast=0
[1885000] MASTER 1 W_VALID_RDY Handshake beat=183 wlast=0
[1885000] S1 MEMORY WRITE beat=182 addr=17623a00 data=be48b5c6accb2442 id=16
[1895000] S1 MEMORY WRITE beat=183 addr=17623a40 data=9b4c99c9f8ecabe6 id=16
[1895000] MASTER 1 W_VALID_RDY Handshake beat=184 wlast=0
[1905000] MASTER 1 W_VALID_RDY Handshake beat=185 wlast=0
[1905000] S1 MEMORY WRITE beat=184 addr=17623a80 data=86040143c49896ec id=16
[1915000] S1 MEMORY WRITE beat=185 addr=17623ac0 data=f163bb2f27251eb9 id=16
[1915000] MASTER 1 W_VALID_RDY Handshake beat=186 wlast=0
[1925000] MASTER 1 W_VALID_RDY Handshake beat=187 wlast=0
[1925000] S1 MEMORY WRITE beat=186 addr=17623b00 data=a011ca9fc44cb70a id=16
[1935000] S1 MEMORY WRITE beat=187 addr=17623b40 data=88e54df68cb054f8 id=16
[1935000] MASTER 1 W_VALID_RDY Handshake beat=188 wlast=0
[1945000] MASTER 1 W_VALID_RDY Handshake beat=189 wlast=0
[1945000] S1 MEMORY WRITE beat=188 addr=17623b80 data=b3d573b12615cbe3 id=16
[1955000] S1 MEMORY WRITE beat=189 addr=17623bc0 data=ea6282edfa490925 id=16
[1955000] MASTER 1 W_VALID_RDY Handshake beat=190 wlast=0
[1965000] MASTER 1 W_VALID_RDY Handshake beat=191 wlast=0
[1965000] S1 MEMORY WRITE beat=190 addr=17623c00 data=06f95e1ed3e73e51 id=16
[1975000] S1 MEMORY WRITE beat=191 addr=17623c40 data=f9fd0a34f347d0e3 id=16
[1975000] MASTER 1 W_VALID_RDY Handshake beat=192 wlast=0
[1985000] MASTER 1 W_VALID_RDY Handshake beat=193 wlast=0
[1985000] S1 MEMORY WRITE beat=192 addr=17623c80 data=ed90da09baced1cf id=16
[1995000] S1 MEMORY WRITE beat=193 addr=17623cc0 data=8eb61020e45f8d21 id=16
[1995000] MASTER 1 W_VALID_RDY Handshake beat=194 wlast=0
[2005000] MASTER 1 W_VALID_RDY Handshake beat=195 wlast=0
[2005000] S1 MEMORY WRITE beat=194 addr=17623d00 data=d7a75e04f48a3827 id=16
[2015000] S1 MEMORY WRITE beat=195 addr=17623d40 data=af5909f688b31a54 id=16
[2015000] MASTER 1 W_VALID_RDY Handshake beat=196 wlast=0
[2025000] MASTER 1 W_VALID_RDY Handshake beat=197 wlast=0
[2025000] S1 MEMORY WRITE beat=196 addr=17623d80 data=ed12a775c538380d id=16
[2035000] S1 MEMORY WRITE beat=197 addr=17623dc0 data=b9c270343e0f1a17 id=16
[2035000] MASTER 1 W_VALID_RDY Handshake beat=198 wlast=0
[2045000] MASTER 1 W_VALID_RDY Handshake beat=199 wlast=0
[2045000] S1 MEMORY WRITE beat=198 addr=17623e00 data=c6c2346bc4ba057a id=16
[2055000] S1 MEMORY WRITE beat=199 addr=17623e40 data=89f23d87e91b7a2b id=16
[2055000] MASTER 1 W_VALID_RDY Handshake beat=200 wlast=0
[2065000] MASTER 1 W_VALID_RDY Handshake beat=201 wlast=0
[2065000] S1 MEMORY WRITE beat=200 addr=17623e80 data=272a944233d4dbe1 id=16
[2075000] S1 MEMORY WRITE beat=201 addr=17623ec0 data=f88ee15bc3b4adbc id=16
[2075000] MASTER 1 W_VALID_RDY Handshake beat=202 wlast=0
[2085000] MASTER 1 W_VALID_RDY Handshake beat=203 wlast=0
[2085000] S1 MEMORY WRITE beat=202 addr=17623f00 data=2cd027e7edecc8ad id=16
[2095000] S1 MEMORY WRITE beat=203 addr=17623f40 data=a1c1a48e82811ee2 id=16
[2095000] MASTER 1 W_VALID_RDY Handshake beat=204 wlast=0
[2105000] MASTER 1 W_VALID_RDY Handshake beat=205 wlast=0
[2105000] S1 MEMORY WRITE beat=204 addr=17623f80 data=c635cc9ed3fabc29 id=16
[2115000] S1 MEMORY WRITE beat=205 addr=17623fc0 data=c1e784d69a5085e9 id=16
[2115000] MASTER 1 W_VALID_RDY Handshake beat=206 wlast=0
[2125000] MASTER 1 W_VALID_RDY Handshake beat=207 wlast=0
[2125000] S1 MEMORY WRITE beat=206 addr=17624000 data=1cd1a4ccf305f485 id=16
[2135000] S1 MEMORY WRITE beat=207 addr=17624040 data=c700b0aee3a92965 id=16
[2135000] MASTER 1 W_VALID_RDY Handshake beat=208 wlast=0
[2145000] MASTER 1 W_VALID_RDY Handshake beat=209 wlast=0
[2145000] S1 MEMORY WRITE beat=208 addr=17624080 data=fdf9af4ee307716a id=16
[2155000] S1 MEMORY WRITE beat=209 addr=176240c0 data=d60d65f008e83585 id=16
[2155000] MASTER 1 W_VALID_RDY Handshake beat=210 wlast=0
[2165000] MASTER 1 W_VALID_RDY Handshake beat=211 wlast=0
[2165000] S1 MEMORY WRITE beat=210 addr=17624100 data=ec915eea9acb541a id=16
[2175000] S1 MEMORY WRITE beat=211 addr=17624140 data=fdd2c5859d0e169e id=16
[2175000] MASTER 1 W_VALID_RDY Handshake beat=212 wlast=0
[2185000] MASTER 1 W_VALID_RDY Handshake beat=213 wlast=0
[2185000] S1 MEMORY WRITE beat=212 addr=17624180 data=a5f64c23ea8b0e38 id=16
[2195000] S1 MEMORY WRITE beat=213 addr=176241c0 data=05566253d3e02b75 id=16
[2195000] MASTER 1 W_VALID_RDY Handshake beat=214 wlast=0
[2205000] MASTER 1 W_VALID_RDY Handshake beat=215 wlast=0
[2205000] S1 MEMORY WRITE beat=214 addr=17624200 data=f0ee42139287ab0d id=16
[2215000] S1 MEMORY WRITE beat=215 addr=17624240 data=fd12b946032927d8 id=16
[2215000] MASTER 1 W_VALID_RDY Handshake beat=216 wlast=0
[2225000] MASTER 1 W_VALID_RDY Handshake beat=217 wlast=0
[2225000] S1 MEMORY WRITE beat=216 addr=17624280 data=d709534d16e48e37 id=16
[2235000] S1 MEMORY WRITE beat=217 addr=176242c0 data=a96c394402691b99 id=16
[2235000] MASTER 1 W_VALID_RDY Handshake beat=218 wlast=1
[2235000] MASTER_DRIVER1 received transaction, op=AXI_WRITE
[2245000] S1 MEMORY WRITE beat=218 addr=17624300 data=05924371c7f79560 id=16
[2255000] SLAVE1 sent B resp, id=6
[2255000] [SLAVE MONITOR] mst_id=1 s_id=1 awaddr=17620c80 awid=110 awlen=218 awsize=6 awburst=1 wdata=[8ff613841fc59e7c d6a9cd81ee3bf48f dd28361f203a5c7d 3ffffaf9b7676561 a5a359f0ed1e49a3 8d58a62096a9c87a ce112ddc82cb900f efe9d9b3cd58a119 e4026994f3b487cc f68017dcfd427fd3 ca9b20ed32139770 a5c81f3ce669f18f e3ac71622e9d8a81 e0b121f19c483718 82b228a7ae47924f dce51cd08679412d 22c17846e65e9a0a 94a62c59bd963ec1 c40f7fefa573a0ed 8bd23af7f18b492a af2187ebe6d0f835 8c44992220786751 1203b07bf33107da da02000f1816d41a 388f3b6bc1253866 34564041e6469932 fe5d6d4cca92ebe6 8bb8244c8e584050 f49ed98236eca8b7 17f949dc00e648d ce66a4def2fc46ce a9e8ef858d37b8e9 cd461d77c3057e60 3601c52fab688422 38a03d0c1bacc255 deb240b5dfeab4b4 b5338d705e65a83 21931cd894b405e4 f49eba99c3f375e3 c9d9d06680455d8d 14f96372fff1f370 c3e56953eb6ced3e ebb24acb09981e0b 98a117b0dbf39b9 f92c26f780abae3d 8a43cc48cd6f7ace db2eb487e4de71c2 e58a200093cdddc3 e13d5891d45adb7e b9394d40efcdec48 39bca0cbc6c0d18 90c6e8969ec36d40 e915989e4d9229d 21452fb6ca0035d7 e8c3a317122d2395 f7064632b20c184c fc0c4e23f754fca0 89822035984b75e8 ca578e35e4cff13b dc24eddb00886668 98d3dc50c663dc58 ab33cd93e5a70e11 e62f7479e32b6a85 298f46de0758bb6f ecffc980ff0350c9 e22ebb4fd4c31471 dc1bcfe0d32f3df9 d2328ec20bbe022d e081169ec91b9960 9c4ad759b4614a11 c01f4c3e3c9ce67f 85b87fdfee7d661c a2deb02d20a062dd dd3d495c22035739 1080bd55e2fdfc6c 39e5f49e2f5c93b 84f92074b35f6d82 965d69eee0dba8a5 c3d171e09579ddc9 c8d94b4c99fbc937 fad771dcc8ca9255 de44701edf36b53a f9327e723ea8e3bd 7737612a71dbb6a 65470a5f409f04e b2b2d40be5b7e630 cd5a19bff86ef17 f390df65ba264a1d 1fde304e132a1240 12b101572643b371 e069fd8e2cb3d1e9 3fdde4298641e0bc ac85942d80482ddc acfbffc5d28ee580 d8d0c63c0cef91bc 8d37bf98ecd9e3ee bf68c96e05565a6a 1245ec263a33bf5e a70da34c18398fab 1d8fea159f7dabbe d9b16b1ce6766cbb feaffc662fd5d63b cf5381f900bf0e69 e7357b241c3fe67b cc15bcb62904ed16 29c3fb7fe5e5778a 2255e059b693eaf c46e2bc510f976a3 f6deee2dce3b1abb e9a4596aee322744 ff2b9de7f9044c32 c73f66ed2e128530 9c44ac74f60a8c14 ef0ed846b0e3c057 def645871b704a5c 917ad670b64e3f33 e731ff8bfb3af1fc 16ab3c580089aeb7 b6d7edeac6284512 c163370ea82612c8 a8afc17f9e09ed75 e4323288d80e7366 34862fdf87af6a fd919cdfa5956996 fda3dcfda8e447ae 886bf718e1c3cf67 75938fefdd8632c a6bcaada05fd93f8 e7c1635f04fd15fb 2d579272f28a1f3 352635ebef1a9c5d f417b258a9922401 d8bac5f49ce7994a c0235a8f6ed2b7f 207f4f818de0fbdf 2ac8952a8019e800 f7071380f93a1575 71b115536cacad2 b6e4b2d217866301 90c0787631e3a67f e8ae7151adebc652 c572295397db89cb c9bf304a9f932423 cd7eea76d632a1ca ee0e2b95b26da19b d200c5bf92f113c9 e923b59337cd5be0 ea3afd7b1f7fb035 b270c3fed731e129 eff3d09bc3bc33a dbbb736f1b947992 f2c65abbf93a3a84 3575fdbf0e2c376e 29c0b10001c597c4 faffd2489131712e 9f5da89c1c870bbb 1e4ca37fb075d007 c1a74136c91e599c e5a56557994c75c7 c9c245cfe104e9d2 2a23436f83f208d6 1d3e7e9e0b698705 ec6e70d78fc8a8c6 13bab19de700c46d f26a4b729691b446 265a5d0d30f9303b 17f9f4a8ded8bc49 f56a70903a150eaa eb0e3ee50a64401a e93cfc631bc4cd9d d5d9dc470308338d d6c73a7dea76cf3 fa6c3a90c0e81b2c c3f04eb9f6a9700a d550dcfed04616d7 912e3203d15cc260 c806326acfbd178e 20032e66d51e80bc a67b431c9d570f68 ed1426f7b1316069 64fe126ee817587 8bd884ef0d17555d be48b5c6accb2442 9b4c99c9f8ecabe6 86040143c49896ec f163bb2f27251eb9 a011ca9fc44cb70a 88e54df68cb054f8 b3d573b12615cbe3 ea6282edfa490925 6f95e1ed3e73e51 f9fd0a34f347d0e3 ed90da09baced1cf 8eb61020e45f8d21 d7a75e04f48a3827 af5909f688b31a54 ed12a775c538380d b9c270343e0f1a17 c6c2346bc4ba057a 89f23d87e91b7a2b 272a944233d4dbe1 f88ee15bc3b4adbc 2cd027e7edecc8ad a1c1a48e82811ee2 c635cc9ed3fabc29 c1e784d69a5085e9 1cd1a4ccf305f485 c700b0aee3a92965 fdf9af4ee307716a d60d65f008e83585 ec915eea9acb541a fdd2c5859d0e169e a5f64c23ea8b0e38 5566253d3e02b75 f0ee42139287ab0d fd12b946032927d8 d709534d16e48e37 a96c394402691b99 5924371c7f79560 ] wstrb=[8a 97 be 23 dc 1e 94 66 b6 52 8a 92 71 1e f8 27 71 82 b9 e2 a1 b1 9 12 34 c2 f4 d5 73 fd e7 a7 bf db 7c 32 d8 63 da 97 3e 56 c9 16 ba a3 ad f8 fa 77 f b4 1a bc ac 14 33 bb c8 4e 78 75 62 ab 30 2b f9 a8 a0 5c 54 d0 87 4d 79 27 a9 cd f7 30 1a 70 57 c4 3d 4f f4 58 bf 4c 1c fd 9b 10 55 5a 5c 71 57 f7 81 ac 52 de 1d a9 d5 9f 56 27 7d 73 d1 52 12 27 7a 8f 9a 4b e2 ad 72 5c 3c c a7 1e b9 19 7a f6 25 21 14 df 3a 8f d5 60 b0 e9 3f eb 78 14 4b 29 fd 8a 14 76 9e 5f 9f 9b e9 b3 11 87 12 b0 22 fb 63 34 82 75 e4 a4 70 48 d8 f2 bd bd 97 2e 5 6f 20 c2 2c b7 f0 31 27 11 f4 53 c8 e4 85 ef f5 79 43 be 5d c8 ad 53 41 f0 11 9e b8 be f1 f9 af 2 98 67 c1 89 61 70 8c ] bresp=0 bid=10110
[2255000] MASTER 1 AW_VALID_RDY Handshake
[2265000] ARB MONITOR: slave=0 m0_req=0 m1_req=1 winner=1
[2265000] AXI S0_AWVALID_RDY HANDSHAKE
[2275000] MASTER 1 W_VALID_RDY Handshake beat=0 wlast=0
[2275000] MASTER 1 B_VALID_RDY Handshake
[2275000] [MASTER MONITOR] mst_id=1 s_id=1 awaddr=17620c80 awid=110 awlen=218 awsize=6 awburst=1 wdata=[8ff613841fc59e7c d6a9cd81ee3bf48f dd28361f203a5c7d 3ffffaf9b7676561 a5a359f0ed1e49a3 8d58a62096a9c87a ce112ddc82cb900f efe9d9b3cd58a119 e4026994f3b487cc f68017dcfd427fd3 ca9b20ed32139770 a5c81f3ce669f18f e3ac71622e9d8a81 e0b121f19c483718 82b228a7ae47924f dce51cd08679412d 22c17846e65e9a0a 94a62c59bd963ec1 c40f7fefa573a0ed 8bd23af7f18b492a af2187ebe6d0f835 8c44992220786751 1203b07bf33107da da02000f1816d41a 388f3b6bc1253866 34564041e6469932 fe5d6d4cca92ebe6 8bb8244c8e584050 f49ed98236eca8b7 17f949dc00e648d ce66a4def2fc46ce a9e8ef858d37b8e9 cd461d77c3057e60 3601c52fab688422 38a03d0c1bacc255 deb240b5dfeab4b4 b5338d705e65a83 21931cd894b405e4 f49eba99c3f375e3 c9d9d06680455d8d 14f96372fff1f370 c3e56953eb6ced3e ebb24acb09981e0b 98a117b0dbf39b9 f92c26f780abae3d 8a43cc48cd6f7ace db2eb487e4de71c2 e58a200093cdddc3 e13d5891d45adb7e b9394d40efcdec48 39bca0cbc6c0d18 90c6e8969ec36d40 e915989e4d9229d 21452fb6ca0035d7 e8c3a317122d2395 f7064632b20c184c fc0c4e23f754fca0 89822035984b75e8 ca578e35e4cff13b dc24eddb00886668 98d3dc50c663dc58 ab33cd93e5a70e11 e62f7479e32b6a85 298f46de0758bb6f ecffc980ff0350c9 e22ebb4fd4c31471 dc1bcfe0d32f3df9 d2328ec20bbe022d e081169ec91b9960 9c4ad759b4614a11 c01f4c3e3c9ce67f 85b87fdfee7d661c a2deb02d20a062dd dd3d495c22035739 1080bd55e2fdfc6c 39e5f49e2f5c93b 84f92074b35f6d82 965d69eee0dba8a5 c3d171e09579ddc9 c8d94b4c99fbc937 fad771dcc8ca9255 de44701edf36b53a f9327e723ea8e3bd 7737612a71dbb6a 65470a5f409f04e b2b2d40be5b7e630 cd5a19bff86ef17 f390df65ba264a1d 1fde304e132a1240 12b101572643b371 e069fd8e2cb3d1e9 3fdde4298641e0bc ac85942d80482ddc acfbffc5d28ee580 d8d0c63c0cef91bc 8d37bf98ecd9e3ee bf68c96e05565a6a 1245ec263a33bf5e a70da34c18398fab 1d8fea159f7dabbe d9b16b1ce6766cbb feaffc662fd5d63b cf5381f900bf0e69 e7357b241c3fe67b cc15bcb62904ed16 29c3fb7fe5e5778a 2255e059b693eaf c46e2bc510f976a3 f6deee2dce3b1abb e9a4596aee322744 ff2b9de7f9044c32 c73f66ed2e128530 9c44ac74f60a8c14 ef0ed846b0e3c057 def645871b704a5c 917ad670b64e3f33 e731ff8bfb3af1fc 16ab3c580089aeb7 b6d7edeac6284512 c163370ea82612c8 a8afc17f9e09ed75 e4323288d80e7366 34862fdf87af6a fd919cdfa5956996 fda3dcfda8e447ae 886bf718e1c3cf67 75938fefdd8632c a6bcaada05fd93f8 e7c1635f04fd15fb 2d579272f28a1f3 352635ebef1a9c5d f417b258a9922401 d8bac5f49ce7994a c0235a8f6ed2b7f 207f4f818de0fbdf 2ac8952a8019e800 f7071380f93a1575 71b115536cacad2 b6e4b2d217866301 90c0787631e3a67f e8ae7151adebc652 c572295397db89cb c9bf304a9f932423 cd7eea76d632a1ca ee0e2b95b26da19b d200c5bf92f113c9 e923b59337cd5be0 ea3afd7b1f7fb035 b270c3fed731e129 eff3d09bc3bc33a dbbb736f1b947992 f2c65abbf93a3a84 3575fdbf0e2c376e 29c0b10001c597c4 faffd2489131712e 9f5da89c1c870bbb 1e4ca37fb075d007 c1a74136c91e599c e5a56557994c75c7 c9c245cfe104e9d2 2a23436f83f208d6 1d3e7e9e0b698705 ec6e70d78fc8a8c6 13bab19de700c46d f26a4b729691b446 265a5d0d30f9303b 17f9f4a8ded8bc49 f56a70903a150eaa eb0e3ee50a64401a e93cfc631bc4cd9d d5d9dc470308338d d6c73a7dea76cf3 fa6c3a90c0e81b2c c3f04eb9f6a9700a d550dcfed04616d7 912e3203d15cc260 c806326acfbd178e 20032e66d51e80bc a67b431c9d570f68 ed1426f7b1316069 64fe126ee817587 8bd884ef0d17555d be48b5c6accb2442 9b4c99c9f8ecabe6 86040143c49896ec f163bb2f27251eb9 a011ca9fc44cb70a 88e54df68cb054f8 b3d573b12615cbe3 ea6282edfa490925 6f95e1ed3e73e51 f9fd0a34f347d0e3 ed90da09baced1cf 8eb61020e45f8d21 d7a75e04f48a3827 af5909f688b31a54 ed12a775c538380d b9c270343e0f1a17 c6c2346bc4ba057a 89f23d87e91b7a2b 272a944233d4dbe1 f88ee15bc3b4adbc 2cd027e7edecc8ad a1c1a48e82811ee2 c635cc9ed3fabc29 c1e784d69a5085e9 1cd1a4ccf305f485 c700b0aee3a92965 fdf9af4ee307716a d60d65f008e83585 ec915eea9acb541a fdd2c5859d0e169e a5f64c23ea8b0e38 5566253d3e02b75 f0ee42139287ab0d fd12b946032927d8 d709534d16e48e37 a96c394402691b99 5924371c7f79560 ] wstrb=[8a 97 be 23 dc 1e 94 66 b6 52 8a 92 71 1e f8 27 71 82 b9 e2 a1 b1 9 12 34 c2 f4 d5 73 fd e7 a7 bf db 7c 32 d8 63 da 97 3e 56 c9 16 ba a3 ad f8 fa 77 f b4 1a bc ac 14 33 bb c8 4e 78 75 62 ab 30 2b f9 a8 a0 5c 54 d0 87 4d 79 27 a9 cd f7 30 1a 70 57 c4 3d 4f f4 58 bf 4c 1c fd 9b 10 55 5a 5c 71 57 f7 81 ac 52 de 1d a9 d5 9f 56 27 7d 73 d1 52 12 27 7a 8f 9a 4b e2 ad 72 5c 3c c a7 1e b9 19 7a f6 25 21 14 df 3a 8f d5 60 b0 e9 3f eb 78 14 4b 29 fd 8a 14 76 9e 5f 9f 9b e9 b3 11 87 12 b0 22 fb 63 34 82 75 e4 a4 70 48 d8 f2 bd bd 97 2e 5 6f 20 c2 2c b7 f0 31 27 11 f4 53 c8 e4 85 ef f5 79 43 be 5d c8 ad 53 41 f0 11 9e b8 be f1 f9 af 2 98 67 c1 89 61 70 8c ] bresp=0 bid=110
[2275000] MASTER 1 RECEIVED BRESP. BRESP=0
[2275000] [MASTER DRIVER] mst_id=1 s_id=0 awaddr=17620c80 awid=110 awlen=218 awsize=6 awburst=1 wdata=[8ff613841fc59e7c d6a9cd81ee3bf48f dd28361f203a5c7d 3ffffaf9b7676561 a5a359f0ed1e49a3 8d58a62096a9c87a ce112ddc82cb900f efe9d9b3cd58a119 e4026994f3b487cc f68017dcfd427fd3 ca9b20ed32139770 a5c81f3ce669f18f e3ac71622e9d8a81 e0b121f19c483718 82b228a7ae47924f dce51cd08679412d 22c17846e65e9a0a 94a62c59bd963ec1 c40f7fefa573a0ed 8bd23af7f18b492a af2187ebe6d0f835 8c44992220786751 1203b07bf33107da da02000f1816d41a 388f3b6bc1253866 34564041e6469932 fe5d6d4cca92ebe6 8bb8244c8e584050 f49ed98236eca8b7 17f949dc00e648d ce66a4def2fc46ce a9e8ef858d37b8e9 cd461d77c3057e60 3601c52fab688422 38a03d0c1bacc255 deb240b5dfeab4b4 b5338d705e65a83 21931cd894b405e4 f49eba99c3f375e3 c9d9d06680455d8d 14f96372fff1f370 c3e56953eb6ced3e ebb24acb09981e0b 98a117b0dbf39b9 f92c26f780abae3d 8a43cc48cd6f7ace db2eb487e4de71c2 e58a200093cdddc3 e13d5891d45adb7e b9394d40efcdec48 39bca0cbc6c0d18 90c6e8969ec36d40 e915989e4d9229d 21452fb6ca0035d7 e8c3a317122d2395 f7064632b20c184c fc0c4e23f754fca0 89822035984b75e8 ca578e35e4cff13b dc24eddb00886668 98d3dc50c663dc58 ab33cd93e5a70e11 e62f7479e32b6a85 298f46de0758bb6f ecffc980ff0350c9 e22ebb4fd4c31471 dc1bcfe0d32f3df9 d2328ec20bbe022d e081169ec91b9960 9c4ad759b4614a11 c01f4c3e3c9ce67f 85b87fdfee7d661c a2deb02d20a062dd dd3d495c22035739 1080bd55e2fdfc6c 39e5f49e2f5c93b 84f92074b35f6d82 965d69eee0dba8a5 c3d171e09579ddc9 c8d94b4c99fbc937 fad771dcc8ca9255 de44701edf36b53a f9327e723ea8e3bd 7737612a71dbb6a 65470a5f409f04e b2b2d40be5b7e630 cd5a19bff86ef17 f390df65ba264a1d 1fde304e132a1240 12b101572643b371 e069fd8e2cb3d1e9 3fdde4298641e0bc ac85942d80482ddc acfbffc5d28ee580 d8d0c63c0cef91bc 8d37bf98ecd9e3ee bf68c96e05565a6a 1245ec263a33bf5e a70da34c18398fab 1d8fea159f7dabbe d9b16b1ce6766cbb feaffc662fd5d63b cf5381f900bf0e69 e7357b241c3fe67b cc15bcb62904ed16 29c3fb7fe5e5778a 2255e059b693eaf c46e2bc510f976a3 f6deee2dce3b1abb e9a4596aee322744 ff2b9de7f9044c32 c73f66ed2e128530 9c44ac74f60a8c14 ef0ed846b0e3c057 def645871b704a5c 917ad670b64e3f33 e731ff8bfb3af1fc 16ab3c580089aeb7 b6d7edeac6284512 c163370ea82612c8 a8afc17f9e09ed75 e4323288d80e7366 34862fdf87af6a fd919cdfa5956996 fda3dcfda8e447ae 886bf718e1c3cf67 75938fefdd8632c a6bcaada05fd93f8 e7c1635f04fd15fb 2d579272f28a1f3 352635ebef1a9c5d f417b258a9922401 d8bac5f49ce7994a c0235a8f6ed2b7f 207f4f818de0fbdf 2ac8952a8019e800 f7071380f93a1575 71b115536cacad2 b6e4b2d217866301 90c0787631e3a67f e8ae7151adebc652 c572295397db89cb c9bf304a9f932423 cd7eea76d632a1ca ee0e2b95b26da19b d200c5bf92f113c9 e923b59337cd5be0 ea3afd7b1f7fb035 b270c3fed731e129 eff3d09bc3bc33a dbbb736f1b947992 f2c65abbf93a3a84 3575fdbf0e2c376e 29c0b10001c597c4 faffd2489131712e 9f5da89c1c870bbb 1e4ca37fb075d007 c1a74136c91e599c e5a56557994c75c7 c9c245cfe104e9d2 2a23436f83f208d6 1d3e7e9e0b698705 ec6e70d78fc8a8c6 13bab19de700c46d f26a4b729691b446 265a5d0d30f9303b 17f9f4a8ded8bc49 f56a70903a150eaa eb0e3ee50a64401a e93cfc631bc4cd9d d5d9dc470308338d d6c73a7dea76cf3 fa6c3a90c0e81b2c c3f04eb9f6a9700a d550dcfed04616d7 912e3203d15cc260 c806326acfbd178e 20032e66d51e80bc a67b431c9d570f68 ed1426f7b1316069 64fe126ee817587 8bd884ef0d17555d be48b5c6accb2442 9b4c99c9f8ecabe6 86040143c49896ec f163bb2f27251eb9 a011ca9fc44cb70a 88e54df68cb054f8 b3d573b12615cbe3 ea6282edfa490925 6f95e1ed3e73e51 f9fd0a34f347d0e3 ed90da09baced1cf 8eb61020e45f8d21 d7a75e04f48a3827 af5909f688b31a54 ed12a775c538380d b9c270343e0f1a17 c6c2346bc4ba057a 89f23d87e91b7a2b 272a944233d4dbe1 f88ee15bc3b4adbc 2cd027e7edecc8ad a1c1a48e82811ee2 c635cc9ed3fabc29 c1e784d69a5085e9 1cd1a4ccf305f485 c700b0aee3a92965 fdf9af4ee307716a d60d65f008e83585 ec915eea9acb541a fdd2c5859d0e169e a5f64c23ea8b0e38 5566253d3e02b75 f0ee42139287ab0d fd12b946032927d8 d709534d16e48e37 a96c394402691b99 5924371c7f79560 ] wstrb=[8a 97 be 23 dc 1e 94 66 b6 52 8a 92 71 1e f8 27 71 82 b9 e2 a1 b1 9 12 34 c2 f4 d5 73 fd e7 a7 bf db 7c 32 d8 63 da 97 3e 56 c9 16 ba a3 ad f8 fa 77 f b4 1a bc ac 14 33 bb c8 4e 78 75 62 ab 30 2b f9 a8 a0 5c 54 d0 87 4d 79 27 a9 cd f7 30 1a 70 57 c4 3d 4f f4 58 bf 4c 1c fd 9b 10 55 5a 5c 71 57 f7 81 ac 52 de 1d a9 d5 9f 56 27 7d 73 d1 52 12 27 7a 8f 9a 4b e2 ad 72 5c 3c c a7 1e b9 19 7a f6 25 21 14 df 3a 8f d5 60 b0 e9 3f eb 78 14 4b 29 fd 8a 14 76 9e 5f 9f 9b e9 b3 11 87 12 b0 22 fb 63 34 82 75 e4 a4 70 48 d8 f2 bd bd 97 2e 5 6f 20 c2 2c b7 f0 31 27 11 f4 53 c8 e4 85 ef f5 79 43 be 5d c8 ad 53 41 f0 11 9e b8 be f1 f9 af 2 98 67 c1 89 61 70 8c ] bresp=0 bid=110
[2275000] SCOREBOARD MATCH: decode_err expected = 0, actual =0
[2275000] SCOREBOARD MATCH: slave_id expected = 1, actual =1
[2275000] SCOREBOARD MATCH: awaddr passthrough expected = 17620c80, actual =17620c80
[2275000] SCOREBOARD MATCH: awlen passthrough expected = 218, actual =218
[2275000] SCOREBOARD MATCH: awsize passthrough expected = 6, actual =6
[2275000] SCOREBOARD MATCH: awburst passthrough expected = 1, actual =1
[2275000] SCOREBOARD MATCH: wdata size check expected = db, actual =db
[2275000] SCOREBOARD MATCH: wdata passthrough beat=0 expected = 8ff613841fc59e7c, actual =8ff613841fc59e7c
[2275000] SCOREBOARD MATCH: wdata passthrough beat=1 expected = d6a9cd81ee3bf48f, actual =d6a9cd81ee3bf48f
[2275000] SCOREBOARD MATCH: wdata passthrough beat=2 expected = dd28361f203a5c7d, actual =dd28361f203a5c7d
[2275000] SCOREBOARD MATCH: wdata passthrough beat=3 expected = 3ffffaf9b7676561, actual =3ffffaf9b7676561
[2275000] SCOREBOARD MATCH: wdata passthrough beat=4 expected = a5a359f0ed1e49a3, actual =a5a359f0ed1e49a3
[2275000] SCOREBOARD MATCH: wdata passthrough beat=5 expected = 8d58a62096a9c87a, actual =8d58a62096a9c87a
[2275000] SCOREBOARD MATCH: wdata passthrough beat=6 expected = ce112ddc82cb900f, actual =ce112ddc82cb900f
[2275000] SCOREBOARD MATCH: wdata passthrough beat=7 expected = efe9d9b3cd58a119, actual =efe9d9b3cd58a119
[2275000] SCOREBOARD MATCH: wdata passthrough beat=8 expected = e4026994f3b487cc, actual =e4026994f3b487cc
[2275000] SCOREBOARD MATCH: wdata passthrough beat=9 expected = f68017dcfd427fd3, actual =f68017dcfd427fd3
[2275000] SCOREBOARD MATCH: wdata passthrough beat=10 expected = ca9b20ed32139770, actual =ca9b20ed32139770
[2275000] SCOREBOARD MATCH: wdata passthrough beat=11 expected = a5c81f3ce669f18f, actual =a5c81f3ce669f18f
[2275000] SCOREBOARD MATCH: wdata passthrough beat=12 expected = e3ac71622e9d8a81, actual =e3ac71622e9d8a81
[2275000] SCOREBOARD MATCH: wdata passthrough beat=13 expected = e0b121f19c483718, actual =e0b121f19c483718
[2275000] SCOREBOARD MATCH: wdata passthrough beat=14 expected = 82b228a7ae47924f, actual =82b228a7ae47924f
[2275000] SCOREBOARD MATCH: wdata passthrough beat=15 expected = dce51cd08679412d, actual =dce51cd08679412d
[2275000] SCOREBOARD MATCH: wdata passthrough beat=16 expected = 22c17846e65e9a0a, actual =22c17846e65e9a0a
[2275000] SCOREBOARD MATCH: wdata passthrough beat=17 expected = 94a62c59bd963ec1, actual =94a62c59bd963ec1
[2275000] SCOREBOARD MATCH: wdata passthrough beat=18 expected = c40f7fefa573a0ed, actual =c40f7fefa573a0ed
[2275000] SCOREBOARD MATCH: wdata passthrough beat=19 expected = 8bd23af7f18b492a, actual =8bd23af7f18b492a
[2275000] SCOREBOARD MATCH: wdata passthrough beat=20 expected = af2187ebe6d0f835, actual =af2187ebe6d0f835
[2275000] SCOREBOARD MATCH: wdata passthrough beat=21 expected = 8c44992220786751, actual =8c44992220786751
[2275000] SCOREBOARD MATCH: wdata passthrough beat=22 expected = 1203b07bf33107da, actual =1203b07bf33107da
[2275000] SCOREBOARD MATCH: wdata passthrough beat=23 expected = da02000f1816d41a, actual =da02000f1816d41a
[2275000] SCOREBOARD MATCH: wdata passthrough beat=24 expected = 388f3b6bc1253866, actual =388f3b6bc1253866
[2275000] SCOREBOARD MATCH: wdata passthrough beat=25 expected = 34564041e6469932, actual =34564041e6469932
[2275000] SCOREBOARD MATCH: wdata passthrough beat=26 expected = fe5d6d4cca92ebe6, actual =fe5d6d4cca92ebe6
[2275000] SCOREBOARD MATCH: wdata passthrough beat=27 expected = 8bb8244c8e584050, actual =8bb8244c8e584050
[2275000] SCOREBOARD MATCH: wdata passthrough beat=28 expected = f49ed98236eca8b7, actual =f49ed98236eca8b7
[2275000] SCOREBOARD MATCH: wdata passthrough beat=29 expected = 17f949dc00e648d, actual =17f949dc00e648d
[2275000] SCOREBOARD MATCH: wdata passthrough beat=30 expected = ce66a4def2fc46ce, actual =ce66a4def2fc46ce
[2275000] SCOREBOARD MATCH: wdata passthrough beat=31 expected = a9e8ef858d37b8e9, actual =a9e8ef858d37b8e9
[2275000] SCOREBOARD MATCH: wdata passthrough beat=32 expected = cd461d77c3057e60, actual =cd461d77c3057e60
[2275000] SCOREBOARD MATCH: wdata passthrough beat=33 expected = 3601c52fab688422, actual =3601c52fab688422
[2275000] SCOREBOARD MATCH: wdata passthrough beat=34 expected = 38a03d0c1bacc255, actual =38a03d0c1bacc255
[2275000] SCOREBOARD MATCH: wdata passthrough beat=35 expected = deb240b5dfeab4b4, actual =deb240b5dfeab4b4
[2275000] SCOREBOARD MATCH: wdata passthrough beat=36 expected = b5338d705e65a83, actual =b5338d705e65a83
[2275000] SCOREBOARD MATCH: wdata passthrough beat=37 expected = 21931cd894b405e4, actual =21931cd894b405e4
[2275000] SCOREBOARD MATCH: wdata passthrough beat=38 expected = f49eba99c3f375e3, actual =f49eba99c3f375e3
[2275000] SCOREBOARD MATCH: wdata passthrough beat=39 expected = c9d9d06680455d8d, actual =c9d9d06680455d8d
[2275000] SCOREBOARD MATCH: wdata passthrough beat=40 expected = 14f96372fff1f370, actual =14f96372fff1f370
[2275000] SCOREBOARD MATCH: wdata passthrough beat=41 expected = c3e56953eb6ced3e, actual =c3e56953eb6ced3e
[2275000] SCOREBOARD MATCH: wdata passthrough beat=42 expected = ebb24acb09981e0b, actual =ebb24acb09981e0b
[2275000] SCOREBOARD MATCH: wdata passthrough beat=43 expected = 98a117b0dbf39b9, actual =98a117b0dbf39b9
[2275000] SCOREBOARD MATCH: wdata passthrough beat=44 expected = f92c26f780abae3d, actual =f92c26f780abae3d
[2275000] SCOREBOARD MATCH: wdata passthrough beat=45 expected = 8a43cc48cd6f7ace, actual =8a43cc48cd6f7ace
[2275000] SCOREBOARD MATCH: wdata passthrough beat=46 expected = db2eb487e4de71c2, actual =db2eb487e4de71c2
[2275000] SCOREBOARD MATCH: wdata passthrough beat=47 expected = e58a200093cdddc3, actual =e58a200093cdddc3
[2275000] SCOREBOARD MATCH: wdata passthrough beat=48 expected = e13d5891d45adb7e, actual =e13d5891d45adb7e
[2275000] SCOREBOARD MATCH: wdata passthrough beat=49 expected = b9394d40efcdec48, actual =b9394d40efcdec48
[2275000] SCOREBOARD MATCH: wdata passthrough beat=50 expected = 39bca0cbc6c0d18, actual =39bca0cbc6c0d18
[2275000] SCOREBOARD MATCH: wdata passthrough beat=51 expected = 90c6e8969ec36d40, actual =90c6e8969ec36d40
[2275000] SCOREBOARD MATCH: wdata passthrough beat=52 expected = e915989e4d9229d, actual =e915989e4d9229d
[2275000] SCOREBOARD MATCH: wdata passthrough beat=53 expected = 21452fb6ca0035d7, actual =21452fb6ca0035d7
[2275000] SCOREBOARD MATCH: wdata passthrough beat=54 expected = e8c3a317122d2395, actual =e8c3a317122d2395
[2275000] SCOREBOARD MATCH: wdata passthrough beat=55 expected = f7064632b20c184c, actual =f7064632b20c184c
[2275000] SCOREBOARD MATCH: wdata passthrough beat=56 expected = fc0c4e23f754fca0, actual =fc0c4e23f754fca0
[2275000] SCOREBOARD MATCH: wdata passthrough beat=57 expected = 89822035984b75e8, actual =89822035984b75e8
[2275000] SCOREBOARD MATCH: wdata passthrough beat=58 expected = ca578e35e4cff13b, actual =ca578e35e4cff13b
[2275000] SCOREBOARD MATCH: wdata passthrough beat=59 expected = dc24eddb00886668, actual =dc24eddb00886668
[2275000] SCOREBOARD MATCH: wdata passthrough beat=60 expected = 98d3dc50c663dc58, actual =98d3dc50c663dc58
[2275000] SCOREBOARD MATCH: wdata passthrough beat=61 expected = ab33cd93e5a70e11, actual =ab33cd93e5a70e11
[2275000] SCOREBOARD MATCH: wdata passthrough beat=62 expected = e62f7479e32b6a85, actual =e62f7479e32b6a85
[2275000] SCOREBOARD MATCH: wdata passthrough beat=63 expected = 298f46de0758bb6f, actual =298f46de0758bb6f
[2275000] SCOREBOARD MATCH: wdata passthrough beat=64 expected = ecffc980ff0350c9, actual =ecffc980ff0350c9
[2275000] SCOREBOARD MATCH: wdata passthrough beat=65 expected = e22ebb4fd4c31471, actual =e22ebb4fd4c31471
[2275000] SCOREBOARD MATCH: wdata passthrough beat=66 expected = dc1bcfe0d32f3df9, actual =dc1bcfe0d32f3df9
[2275000] SCOREBOARD MATCH: wdata passthrough beat=67 expected = d2328ec20bbe022d, actual =d2328ec20bbe022d
[2275000] SCOREBOARD MATCH: wdata passthrough beat=68 expected = e081169ec91b9960, actual =e081169ec91b9960
[2275000] SCOREBOARD MATCH: wdata passthrough beat=69 expected = 9c4ad759b4614a11, actual =9c4ad759b4614a11
[2275000] SCOREBOARD MATCH: wdata passthrough beat=70 expected = c01f4c3e3c9ce67f, actual =c01f4c3e3c9ce67f
[2275000] SCOREBOARD MATCH: wdata passthrough beat=71 expected = 85b87fdfee7d661c, actual =85b87fdfee7d661c
[2275000] SCOREBOARD MATCH: wdata passthrough beat=72 expected = a2deb02d20a062dd, actual =a2deb02d20a062dd
[2275000] SCOREBOARD MATCH: wdata passthrough beat=73 expected = dd3d495c22035739, actual =dd3d495c22035739
[2275000] SCOREBOARD MATCH: wdata passthrough beat=74 expected = 1080bd55e2fdfc6c, actual =1080bd55e2fdfc6c
[2275000] SCOREBOARD MATCH: wdata passthrough beat=75 expected = 39e5f49e2f5c93b, actual =39e5f49e2f5c93b
[2275000] SCOREBOARD MATCH: wdata passthrough beat=76 expected = 84f92074b35f6d82, actual =84f92074b35f6d82
[2275000] SCOREBOARD MATCH: wdata passthrough beat=77 expected = 965d69eee0dba8a5, actual =965d69eee0dba8a5
[2275000] SCOREBOARD MATCH: wdata passthrough beat=78 expected = c3d171e09579ddc9, actual =c3d171e09579ddc9
[2275000] SCOREBOARD MATCH: wdata passthrough beat=79 expected = c8d94b4c99fbc937, actual =c8d94b4c99fbc937
[2275000] SCOREBOARD MATCH: wdata passthrough beat=80 expected = fad771dcc8ca9255, actual =fad771dcc8ca9255
[2275000] SCOREBOARD MATCH: wdata passthrough beat=81 expected = de44701edf36b53a, actual =de44701edf36b53a
[2275000] SCOREBOARD MATCH: wdata passthrough beat=82 expected = f9327e723ea8e3bd, actual =f9327e723ea8e3bd
[2275000] SCOREBOARD MATCH: wdata passthrough beat=83 expected = 7737612a71dbb6a, actual =7737612a71dbb6a
[2275000] SCOREBOARD MATCH: wdata passthrough beat=84 expected = 65470a5f409f04e, actual =65470a5f409f04e
[2275000] SCOREBOARD MATCH: wdata passthrough beat=85 expected = b2b2d40be5b7e630, actual =b2b2d40be5b7e630
[2275000] SCOREBOARD MATCH: wdata passthrough beat=86 expected = cd5a19bff86ef17, actual =cd5a19bff86ef17
[2275000] SCOREBOARD MATCH: wdata passthrough beat=87 expected = f390df65ba264a1d, actual =f390df65ba264a1d
[2275000] SCOREBOARD MATCH: wdata passthrough beat=88 expected = 1fde304e132a1240, actual =1fde304e132a1240
[2275000] SCOREBOARD MATCH: wdata passthrough beat=89 expected = 12b101572643b371, actual =12b101572643b371
[2275000] SCOREBOARD MATCH: wdata passthrough beat=90 expected = e069fd8e2cb3d1e9, actual =e069fd8e2cb3d1e9
[2275000] SCOREBOARD MATCH: wdata passthrough beat=91 expected = 3fdde4298641e0bc, actual =3fdde4298641e0bc
[2275000] SCOREBOARD MATCH: wdata passthrough beat=92 expected = ac85942d80482ddc, actual =ac85942d80482ddc
[2275000] SCOREBOARD MATCH: wdata passthrough beat=93 expected = acfbffc5d28ee580, actual =acfbffc5d28ee580
[2275000] SCOREBOARD MATCH: wdata passthrough beat=94 expected = d8d0c63c0cef91bc, actual =d8d0c63c0cef91bc
[2275000] SCOREBOARD MATCH: wdata passthrough beat=95 expected = 8d37bf98ecd9e3ee, actual =8d37bf98ecd9e3ee
[2275000] SCOREBOARD MATCH: wdata passthrough beat=96 expected = bf68c96e05565a6a, actual =bf68c96e05565a6a
[2275000] SCOREBOARD MATCH: wdata passthrough beat=97 expected = 1245ec263a33bf5e, actual =1245ec263a33bf5e
[2275000] SCOREBOARD MATCH: wdata passthrough beat=98 expected = a70da34c18398fab, actual =a70da34c18398fab
[2275000] SCOREBOARD MATCH: wdata passthrough beat=99 expected = 1d8fea159f7dabbe, actual =1d8fea159f7dabbe
[2275000] SCOREBOARD MATCH: wdata passthrough beat=100 expected = d9b16b1ce6766cbb, actual =d9b16b1ce6766cbb
[2275000] SCOREBOARD MATCH: wdata passthrough beat=101 expected = feaffc662fd5d63b, actual =feaffc662fd5d63b
[2275000] SCOREBOARD MATCH: wdata passthrough beat=102 expected = cf5381f900bf0e69, actual =cf5381f900bf0e69
[2275000] SCOREBOARD MATCH: wdata passthrough beat=103 expected = e7357b241c3fe67b, actual =e7357b241c3fe67b
[2275000] SCOREBOARD MATCH: wdata passthrough beat=104 expected = cc15bcb62904ed16, actual =cc15bcb62904ed16
[2275000] SCOREBOARD MATCH: wdata passthrough beat=105 expected = 29c3fb7fe5e5778a, actual =29c3fb7fe5e5778a
[2275000] SCOREBOARD MATCH: wdata passthrough beat=106 expected = 2255e059b693eaf, actual =2255e059b693eaf
[2275000] SCOREBOARD MATCH: wdata passthrough beat=107 expected = c46e2bc510f976a3, actual =c46e2bc510f976a3
[2275000] SCOREBOARD MATCH: wdata passthrough beat=108 expected = f6deee2dce3b1abb, actual =f6deee2dce3b1abb
[2275000] SCOREBOARD MATCH: wdata passthrough beat=109 expected = e9a4596aee322744, actual =e9a4596aee322744
[2275000] SCOREBOARD MATCH: wdata passthrough beat=110 expected = ff2b9de7f9044c32, actual =ff2b9de7f9044c32
[2275000] SCOREBOARD MATCH: wdata passthrough beat=111 expected = c73f66ed2e128530, actual =c73f66ed2e128530
[2275000] SCOREBOARD MATCH: wdata passthrough beat=112 expected = 9c44ac74f60a8c14, actual =9c44ac74f60a8c14
[2275000] SCOREBOARD MATCH: wdata passthrough beat=113 expected = ef0ed846b0e3c057, actual =ef0ed846b0e3c057
[2275000] SCOREBOARD MATCH: wdata passthrough beat=114 expected = def645871b704a5c, actual =def645871b704a5c
[2275000] SCOREBOARD MATCH: wdata passthrough beat=115 expected = 917ad670b64e3f33, actual =917ad670b64e3f33
[2275000] SCOREBOARD MATCH: wdata passthrough beat=116 expected = e731ff8bfb3af1fc, actual =e731ff8bfb3af1fc
[2275000] SCOREBOARD MATCH: wdata passthrough beat=117 expected = 16ab3c580089aeb7, actual =16ab3c580089aeb7
[2275000] SCOREBOARD MATCH: wdata passthrough beat=118 expected = b6d7edeac6284512, actual =b6d7edeac6284512
[2275000] SCOREBOARD MATCH: wdata passthrough beat=119 expected = c163370ea82612c8, actual =c163370ea82612c8
[2275000] SCOREBOARD MATCH: wdata passthrough beat=120 expected = a8afc17f9e09ed75, actual =a8afc17f9e09ed75
[2275000] SCOREBOARD MATCH: wdata passthrough beat=121 expected = e4323288d80e7366, actual =e4323288d80e7366
[2275000] SCOREBOARD MATCH: wdata passthrough beat=122 expected = 34862fdf87af6a, actual =34862fdf87af6a
[2275000] SCOREBOARD MATCH: wdata passthrough beat=123 expected = fd919cdfa5956996, actual =fd919cdfa5956996
[2275000] SCOREBOARD MATCH: wdata passthrough beat=124 expected = fda3dcfda8e447ae, actual =fda3dcfda8e447ae
[2275000] SCOREBOARD MATCH: wdata passthrough beat=125 expected = 886bf718e1c3cf67, actual =886bf718e1c3cf67
[2275000] SCOREBOARD MATCH: wdata passthrough beat=126 expected = 75938fefdd8632c, actual =75938fefdd8632c
[2275000] SCOREBOARD MATCH: wdata passthrough beat=127 expected = a6bcaada05fd93f8, actual =a6bcaada05fd93f8
[2275000] SCOREBOARD MATCH: wdata passthrough beat=128 expected = e7c1635f04fd15fb, actual =e7c1635f04fd15fb
[2275000] SCOREBOARD MATCH: wdata passthrough beat=129 expected = 2d579272f28a1f3, actual =2d579272f28a1f3
[2275000] SCOREBOARD MATCH: wdata passthrough beat=130 expected = 352635ebef1a9c5d, actual =352635ebef1a9c5d
[2275000] SCOREBOARD MATCH: wdata passthrough beat=131 expected = f417b258a9922401, actual =f417b258a9922401
[2275000] SCOREBOARD MATCH: wdata passthrough beat=132 expected = d8bac5f49ce7994a, actual =d8bac5f49ce7994a
[2275000] SCOREBOARD MATCH: wdata passthrough beat=133 expected = c0235a8f6ed2b7f, actual =c0235a8f6ed2b7f
[2275000] SCOREBOARD MATCH: wdata passthrough beat=134 expected = 207f4f818de0fbdf, actual =207f4f818de0fbdf
[2275000] SCOREBOARD MATCH: wdata passthrough beat=135 expected = 2ac8952a8019e800, actual =2ac8952a8019e800
[2275000] SCOREBOARD MATCH: wdata passthrough beat=136 expected = f7071380f93a1575, actual =f7071380f93a1575
[2275000] SCOREBOARD MATCH: wdata passthrough beat=137 expected = 71b115536cacad2, actual =71b115536cacad2
[2275000] SCOREBOARD MATCH: wdata passthrough beat=138 expected = b6e4b2d217866301, actual =b6e4b2d217866301
[2275000] SCOREBOARD MATCH: wdata passthrough beat=139 expected = 90c0787631e3a67f, actual =90c0787631e3a67f
[2275000] SCOREBOARD MATCH: wdata passthrough beat=140 expected = e8ae7151adebc652, actual =e8ae7151adebc652
[2275000] SCOREBOARD MATCH: wdata passthrough beat=141 expected = c572295397db89cb, actual =c572295397db89cb
[2275000] SCOREBOARD MATCH: wdata passthrough beat=142 expected = c9bf304a9f932423, actual =c9bf304a9f932423
[2275000] SCOREBOARD MATCH: wdata passthrough beat=143 expected = cd7eea76d632a1ca, actual =cd7eea76d632a1ca
[2275000] SCOREBOARD MATCH: wdata passthrough beat=144 expected = ee0e2b95b26da19b, actual =ee0e2b95b26da19b
[2275000] SCOREBOARD MATCH: wdata passthrough beat=145 expected = d200c5bf92f113c9, actual =d200c5bf92f113c9
[2275000] SCOREBOARD MATCH: wdata passthrough beat=146 expected = e923b59337cd5be0, actual =e923b59337cd5be0
[2275000] SCOREBOARD MATCH: wdata passthrough beat=147 expected = ea3afd7b1f7fb035, actual =ea3afd7b1f7fb035
[2275000] SCOREBOARD MATCH: wdata passthrough beat=148 expected = b270c3fed731e129, actual =b270c3fed731e129
[2275000] SCOREBOARD MATCH: wdata passthrough beat=149 expected = eff3d09bc3bc33a, actual =eff3d09bc3bc33a
[2275000] SCOREBOARD MATCH: wdata passthrough beat=150 expected = dbbb736f1b947992, actual =dbbb736f1b947992
[2275000] SCOREBOARD MATCH: wdata passthrough beat=151 expected = f2c65abbf93a3a84, actual =f2c65abbf93a3a84
[2275000] SCOREBOARD MATCH: wdata passthrough beat=152 expected = 3575fdbf0e2c376e, actual =3575fdbf0e2c376e
[2275000] SCOREBOARD MATCH: wdata passthrough beat=153 expected = 29c0b10001c597c4, actual =29c0b10001c597c4
[2275000] SCOREBOARD MATCH: wdata passthrough beat=154 expected = faffd2489131712e, actual =faffd2489131712e
[2275000] SCOREBOARD MATCH: wdata passthrough beat=155 expected = 9f5da89c1c870bbb, actual =9f5da89c1c870bbb
[2275000] SCOREBOARD MATCH: wdata passthrough beat=156 expected = 1e4ca37fb075d007, actual =1e4ca37fb075d007
[2275000] SCOREBOARD MATCH: wdata passthrough beat=157 expected = c1a74136c91e599c, actual =c1a74136c91e599c
[2275000] SCOREBOARD MATCH: wdata passthrough beat=158 expected = e5a56557994c75c7, actual =e5a56557994c75c7
[2275000] SCOREBOARD MATCH: wdata passthrough beat=159 expected = c9c245cfe104e9d2, actual =c9c245cfe104e9d2
[2275000] SCOREBOARD MATCH: wdata passthrough beat=160 expected = 2a23436f83f208d6, actual =2a23436f83f208d6
[2275000] SCOREBOARD MATCH: wdata passthrough beat=161 expected = 1d3e7e9e0b698705, actual =1d3e7e9e0b698705
[2275000] SCOREBOARD MATCH: wdata passthrough beat=162 expected = ec6e70d78fc8a8c6, actual =ec6e70d78fc8a8c6
[2275000] SCOREBOARD MATCH: wdata passthrough beat=163 expected = 13bab19de700c46d, actual =13bab19de700c46d
[2275000] SCOREBOARD MATCH: wdata passthrough beat=164 expected = f26a4b729691b446, actual =f26a4b729691b446
[2275000] SCOREBOARD MATCH: wdata passthrough beat=165 expected = 265a5d0d30f9303b, actual =265a5d0d30f9303b
[2275000] SCOREBOARD MATCH: wdata passthrough beat=166 expected = 17f9f4a8ded8bc49, actual =17f9f4a8ded8bc49
[2275000] SCOREBOARD MATCH: wdata passthrough beat=167 expected = f56a70903a150eaa, actual =f56a70903a150eaa
[2275000] SCOREBOARD MATCH: wdata passthrough beat=168 expected = eb0e3ee50a64401a, actual =eb0e3ee50a64401a
[2275000] SCOREBOARD MATCH: wdata passthrough beat=169 expected = e93cfc631bc4cd9d, actual =e93cfc631bc4cd9d
[2275000] SCOREBOARD MATCH: wdata passthrough beat=170 expected = d5d9dc470308338d, actual =d5d9dc470308338d
[2275000] SCOREBOARD MATCH: wdata passthrough beat=171 expected = d6c73a7dea76cf3, actual =d6c73a7dea76cf3
[2275000] SCOREBOARD MATCH: wdata passthrough beat=172 expected = fa6c3a90c0e81b2c, actual =fa6c3a90c0e81b2c
[2275000] SCOREBOARD MATCH: wdata passthrough beat=173 expected = c3f04eb9f6a9700a, actual =c3f04eb9f6a9700a
[2275000] SCOREBOARD MATCH: wdata passthrough beat=174 expected = d550dcfed04616d7, actual =d550dcfed04616d7
[2275000] SCOREBOARD MATCH: wdata passthrough beat=175 expected = 912e3203d15cc260, actual =912e3203d15cc260
[2275000] SCOREBOARD MATCH: wdata passthrough beat=176 expected = c806326acfbd178e, actual =c806326acfbd178e
[2275000] SCOREBOARD MATCH: wdata passthrough beat=177 expected = 20032e66d51e80bc, actual =20032e66d51e80bc
[2275000] SCOREBOARD MATCH: wdata passthrough beat=178 expected = a67b431c9d570f68, actual =a67b431c9d570f68
[2275000] SCOREBOARD MATCH: wdata passthrough beat=179 expected = ed1426f7b1316069, actual =ed1426f7b1316069
[2275000] SCOREBOARD MATCH: wdata passthrough beat=180 expected = 64fe126ee817587, actual =64fe126ee817587
[2275000] SCOREBOARD MATCH: wdata passthrough beat=181 expected = 8bd884ef0d17555d, actual =8bd884ef0d17555d
[2275000] SCOREBOARD MATCH: wdata passthrough beat=182 expected = be48b5c6accb2442, actual =be48b5c6accb2442
[2275000] SCOREBOARD MATCH: wdata passthrough beat=183 expected = 9b4c99c9f8ecabe6, actual =9b4c99c9f8ecabe6
[2275000] SCOREBOARD MATCH: wdata passthrough beat=184 expected = 86040143c49896ec, actual =86040143c49896ec
[2275000] SCOREBOARD MATCH: wdata passthrough beat=185 expected = f163bb2f27251eb9, actual =f163bb2f27251eb9
[2275000] SCOREBOARD MATCH: wdata passthrough beat=186 expected = a011ca9fc44cb70a, actual =a011ca9fc44cb70a
[2275000] SCOREBOARD MATCH: wdata passthrough beat=187 expected = 88e54df68cb054f8, actual =88e54df68cb054f8
[2275000] SCOREBOARD MATCH: wdata passthrough beat=188 expected = b3d573b12615cbe3, actual =b3d573b12615cbe3
[2275000] SCOREBOARD MATCH: wdata passthrough beat=189 expected = ea6282edfa490925, actual =ea6282edfa490925
[2275000] SCOREBOARD MATCH: wdata passthrough beat=190 expected = 6f95e1ed3e73e51, actual =6f95e1ed3e73e51
[2275000] SCOREBOARD MATCH: wdata passthrough beat=191 expected = f9fd0a34f347d0e3, actual =f9fd0a34f347d0e3
[2275000] SCOREBOARD MATCH: wdata passthrough beat=192 expected = ed90da09baced1cf, actual =ed90da09baced1cf
[2275000] SCOREBOARD MATCH: wdata passthrough beat=193 expected = 8eb61020e45f8d21, actual =8eb61020e45f8d21
[2275000] SCOREBOARD MATCH: wdata passthrough beat=194 expected = d7a75e04f48a3827, actual =d7a75e04f48a3827
[2275000] SCOREBOARD MATCH: wdata passthrough beat=195 expected = af5909f688b31a54, actual =af5909f688b31a54
[2275000] SCOREBOARD MATCH: wdata passthrough beat=196 expected = ed12a775c538380d, actual =ed12a775c538380d
[2275000] SCOREBOARD MATCH: wdata passthrough beat=197 expected = b9c270343e0f1a17, actual =b9c270343e0f1a17
[2275000] SCOREBOARD MATCH: wdata passthrough beat=198 expected = c6c2346bc4ba057a, actual =c6c2346bc4ba057a
[2275000] SCOREBOARD MATCH: wdata passthrough beat=199 expected = 89f23d87e91b7a2b, actual =89f23d87e91b7a2b
[2275000] SCOREBOARD MATCH: wdata passthrough beat=200 expected = 272a944233d4dbe1, actual =272a944233d4dbe1
[2275000] SCOREBOARD MATCH: wdata passthrough beat=201 expected = f88ee15bc3b4adbc, actual =f88ee15bc3b4adbc
[2275000] SCOREBOARD MATCH: wdata passthrough beat=202 expected = 2cd027e7edecc8ad, actual =2cd027e7edecc8ad
[2275000] SCOREBOARD MATCH: wdata passthrough beat=203 expected = a1c1a48e82811ee2, actual =a1c1a48e82811ee2
[2275000] SCOREBOARD MATCH: wdata passthrough beat=204 expected = c635cc9ed3fabc29, actual =c635cc9ed3fabc29
[2275000] SCOREBOARD MATCH: wdata passthrough beat=205 expected = c1e784d69a5085e9, actual =c1e784d69a5085e9
[2275000] SCOREBOARD MATCH: wdata passthrough beat=206 expected = 1cd1a4ccf305f485, actual =1cd1a4ccf305f485
[2275000] SCOREBOARD MATCH: wdata passthrough beat=207 expected = c700b0aee3a92965, actual =c700b0aee3a92965
[2275000] SCOREBOARD MATCH: wdata passthrough beat=208 expected = fdf9af4ee307716a, actual =fdf9af4ee307716a
[2275000] SCOREBOARD MATCH: wdata passthrough beat=209 expected = d60d65f008e83585, actual =d60d65f008e83585
[2275000] SCOREBOARD MATCH: wdata passthrough beat=210 expected = ec915eea9acb541a, actual =ec915eea9acb541a
[2275000] SCOREBOARD MATCH: wdata passthrough beat=211 expected = fdd2c5859d0e169e, actual =fdd2c5859d0e169e
[2275000] SCOREBOARD MATCH: wdata passthrough beat=212 expected = a5f64c23ea8b0e38, actual =a5f64c23ea8b0e38
[2275000] SCOREBOARD MATCH: wdata passthrough beat=213 expected = 5566253d3e02b75, actual =5566253d3e02b75
[2275000] SCOREBOARD MATCH: wdata passthrough beat=214 expected = f0ee42139287ab0d, actual =f0ee42139287ab0d
[2275000] SCOREBOARD MATCH: wdata passthrough beat=215 expected = fd12b946032927d8, actual =fd12b946032927d8
[2275000] SCOREBOARD MATCH: wdata passthrough beat=216 expected = d709534d16e48e37, actual =d709534d16e48e37
[2275000] SCOREBOARD MATCH: wdata passthrough beat=217 expected = a96c394402691b99, actual =a96c394402691b99
[2275000] SCOREBOARD MATCH: wdata passthrough beat=218 expected = 5924371c7f79560, actual =5924371c7f79560
[2275000] SCOREBOARD MATCH: wstrb size check expected = db, actual =db
[2275000] SCOREBOARD MATCH: wstrb passthrough beat=0 expected = 8a, actual =8a
[2275000] SCOREBOARD MATCH: wstrb passthrough beat=1 expected = 97, actual =97
[2275000] SCOREBOARD MATCH: wstrb passthrough beat=2 expected = be, actual =be
[2275000] SCOREBOARD MATCH: wstrb passthrough beat=3 expected = 23, actual =23
[2275000] SCOREBOARD MATCH: wstrb passthrough beat=4 expected = dc, actual =dc
[2275000] SCOREBOARD MATCH: wstrb passthrough beat=5 expected = 1e, actual =1e
[2275000] SCOREBOARD MATCH: wstrb passthrough beat=6 expected = 94, actual =94
[2275000] SCOREBOARD MATCH: wstrb passthrough beat=7 expected = 66, actual =66
[2275000] SCOREBOARD MATCH: wstrb passthrough beat=8 expected = b6, actual =b6
[2275000] SCOREBOARD MATCH: wstrb passthrough beat=9 expected = 52, actual =52
[2275000] SCOREBOARD MATCH: wstrb passthrough beat=10 expected = 8a, actual =8a
[2275000] SCOREBOARD MATCH: wstrb passthrough beat=11 expected = 92, actual =92
[2275000] SCOREBOARD MATCH: wstrb passthrough beat=12 expected = 71, actual =71
[2275000] SCOREBOARD MATCH: wstrb passthrough beat=13 expected = 1e, actual =1e
[2275000] SCOREBOARD MATCH: wstrb passthrough beat=14 expected = f8, actual =f8
[2275000] SCOREBOARD MATCH: wstrb passthrough beat=15 expected = 27, actual =27
[2275000] SCOREBOARD MATCH: wstrb passthrough beat=16 expected = 71, actual =71
[2275000] SCOREBOARD MATCH: wstrb passthrough beat=17 expected = 82, actual =82
[2275000] SCOREBOARD MATCH: wstrb passthrough beat=18 expected = b9, actual =b9
[2275000] SCOREBOARD MATCH: wstrb passthrough beat=19 expected = e2, actual =e2
[2275000] SCOREBOARD MATCH: wstrb passthrough beat=20 expected = a1, actual =a1
[2275000] SCOREBOARD MATCH: wstrb passthrough beat=21 expected = b1, actual =b1
[2275000] SCOREBOARD MATCH: wstrb passthrough beat=22 expected = 9, actual =9
[2275000] SCOREBOARD MATCH: wstrb passthrough beat=23 expected = 12, actual =12
[2275000] SCOREBOARD MATCH: wstrb passthrough beat=24 expected = 34, actual =34
[2275000] SCOREBOARD MATCH: wstrb passthrough beat=25 expected = c2, actual =c2
[2275000] SCOREBOARD MATCH: wstrb passthrough beat=26 expected = f4, actual =f4
[2275000] SCOREBOARD MATCH: wstrb passthrough beat=27 expected = d5, actual =d5
[2275000] SCOREBOARD MATCH: wstrb passthrough beat=28 expected = 73, actual =73
[2275000] SCOREBOARD MATCH: wstrb passthrough beat=29 expected = fd, actual =fd
[2275000] SCOREBOARD MATCH: wstrb passthrough beat=30 expected = e7, actual =e7
[2275000] SCOREBOARD MATCH: wstrb passthrough beat=31 expected = a7, actual =a7
[2275000] SCOREBOARD MATCH: wstrb passthrough beat=32 expected = bf, actual =bf
[2275000] SCOREBOARD MATCH: wstrb passthrough beat=33 expected = db, actual =db
[2275000] SCOREBOARD MATCH: wstrb passthrough beat=34 expected = 7c, actual =7c
[2275000] SCOREBOARD MATCH: wstrb passthrough beat=35 expected = 32, actual =32
[2275000] SCOREBOARD MATCH: wstrb passthrough beat=36 expected = d8, actual =d8
[2275000] SCOREBOARD MATCH: wstrb passthrough beat=37 expected = 63, actual =63
[2275000] SCOREBOARD MATCH: wstrb passthrough beat=38 expected = da, actual =da
[2275000] SCOREBOARD MATCH: wstrb passthrough beat=39 expected = 97, actual =97
[2275000] SCOREBOARD MATCH: wstrb passthrough beat=40 expected = 3e, actual =3e
[2275000] SCOREBOARD MATCH: wstrb passthrough beat=41 expected = 56, actual =56
[2275000] SCOREBOARD MATCH: wstrb passthrough beat=42 expected = c9, actual =c9
[2275000] SCOREBOARD MATCH: wstrb passthrough beat=43 expected = 16, actual =16
[2275000] SCOREBOARD MATCH: wstrb passthrough beat=44 expected = ba, actual =ba
[2275000] SCOREBOARD MATCH: wstrb passthrough beat=45 expected = a3, actual =a3
[2275000] SCOREBOARD MATCH: wstrb passthrough beat=46 expected = ad, actual =ad
[2275000] SCOREBOARD MATCH: wstrb passthrough beat=47 expected = f8, actual =f8
[2275000] SCOREBOARD MATCH: wstrb passthrough beat=48 expected = fa, actual =fa
[2275000] SCOREBOARD MATCH: wstrb passthrough beat=49 expected = 77, actual =77
[2275000] SCOREBOARD MATCH: wstrb passthrough beat=50 expected = f, actual =f
[2275000] SCOREBOARD MATCH: wstrb passthrough beat=51 expected = b4, actual =b4
[2275000] SCOREBOARD MATCH: wstrb passthrough beat=52 expected = 1a, actual =1a
[2275000] SCOREBOARD MATCH: wstrb passthrough beat=53 expected = bc, actual =bc
[2275000] SCOREBOARD MATCH: wstrb passthrough beat=54 expected = ac, actual =ac
[2275000] SCOREBOARD MATCH: wstrb passthrough beat=55 expected = 14, actual =14
[2275000] SCOREBOARD MATCH: wstrb passthrough beat=56 expected = 33, actual =33
[2275000] SCOREBOARD MATCH: wstrb passthrough beat=57 expected = bb, actual =bb
[2275000] SCOREBOARD MATCH: wstrb passthrough beat=58 expected = c8, actual =c8
[2275000] SCOREBOARD MATCH: wstrb passthrough beat=59 expected = 4e, actual =4e
[2275000] SCOREBOARD MATCH: wstrb passthrough beat=60 expected = 78, actual =78
[2275000] SCOREBOARD MATCH: wstrb passthrough beat=61 expected = 75, actual =75
[2275000] SCOREBOARD MATCH: wstrb passthrough beat=62 expected = 62, actual =62
[2275000] SCOREBOARD MATCH: wstrb passthrough beat=63 expected = ab, actual =ab
[2275000] SCOREBOARD MATCH: wstrb passthrough beat=64 expected = 30, actual =30
[2275000] SCOREBOARD MATCH: wstrb passthrough beat=65 expected = 2b, actual =2b
[2275000] SCOREBOARD MATCH: wstrb passthrough beat=66 expected = f9, actual =f9
[2275000] SCOREBOARD MATCH: wstrb passthrough beat=67 expected = a8, actual =a8
[2275000] SCOREBOARD MATCH: wstrb passthrough beat=68 expected = a0, actual =a0
[2275000] SCOREBOARD MATCH: wstrb passthrough beat=69 expected = 5c, actual =5c
[2275000] SCOREBOARD MATCH: wstrb passthrough beat=70 expected = 54, actual =54
[2275000] SCOREBOARD MATCH: wstrb passthrough beat=71 expected = d0, actual =d0
[2275000] SCOREBOARD MATCH: wstrb passthrough beat=72 expected = 87, actual =87
[2275000] SCOREBOARD MATCH: wstrb passthrough beat=73 expected = 4d, actual =4d
[2275000] SCOREBOARD MATCH: wstrb passthrough beat=74 expected = 79, actual =79
[2275000] SCOREBOARD MATCH: wstrb passthrough beat=75 expected = 27, actual =27
[2275000] SCOREBOARD MATCH: wstrb passthrough beat=76 expected = a9, actual =a9
[2275000] SCOREBOARD MATCH: wstrb passthrough beat=77 expected = cd, actual =cd
[2275000] SCOREBOARD MATCH: wstrb passthrough beat=78 expected = f7, actual =f7
[2275000] SCOREBOARD MATCH: wstrb passthrough beat=79 expected = 30, actual =30
[2275000] SCOREBOARD MATCH: wstrb passthrough beat=80 expected = 1a, actual =1a
[2275000] SCOREBOARD MATCH: wstrb passthrough beat=81 expected = 70, actual =70
[2275000] SCOREBOARD MATCH: wstrb passthrough beat=82 expected = 57, actual =57
[2275000] SCOREBOARD MATCH: wstrb passthrough beat=83 expected = c4, actual =c4
[2275000] SCOREBOARD MATCH: wstrb passthrough beat=84 expected = 3d, actual =3d
[2275000] SCOREBOARD MATCH: wstrb passthrough beat=85 expected = 4f, actual =4f
[2275000] SCOREBOARD MATCH: wstrb passthrough beat=86 expected = f4, actual =f4
[2275000] SCOREBOARD MATCH: wstrb passthrough beat=87 expected = 58, actual =58
[2275000] SCOREBOARD MATCH: wstrb passthrough beat=88 expected = bf, actual =bf
[2275000] SCOREBOARD MATCH: wstrb passthrough beat=89 expected = 4c, actual =4c
[2275000] SCOREBOARD MATCH: wstrb passthrough beat=90 expected = 1c, actual =1c
[2275000] SCOREBOARD MATCH: wstrb passthrough beat=91 expected = fd, actual =fd
[2275000] SCOREBOARD MATCH: wstrb passthrough beat=92 expected = 9b, actual =9b
[2275000] SCOREBOARD MATCH: wstrb passthrough beat=93 expected = 10, actual =10
[2275000] SCOREBOARD MATCH: wstrb passthrough beat=94 expected = 55, actual =55
[2275000] SCOREBOARD MATCH: wstrb passthrough beat=95 expected = 5a, actual =5a
[2275000] SCOREBOARD MATCH: wstrb passthrough beat=96 expected = 5c, actual =5c
[2275000] SCOREBOARD MATCH: wstrb passthrough beat=97 expected = 71, actual =71
[2275000] SCOREBOARD MATCH: wstrb passthrough beat=98 expected = 57, actual =57
[2275000] SCOREBOARD MATCH: wstrb passthrough beat=99 expected = f7, actual =f7
[2275000] SCOREBOARD MATCH: wstrb passthrough beat=100 expected = 81, actual =81
[2275000] SCOREBOARD MATCH: wstrb passthrough beat=101 expected = ac, actual =ac
[2275000] SCOREBOARD MATCH: wstrb passthrough beat=102 expected = 52, actual =52
[2275000] SCOREBOARD MATCH: wstrb passthrough beat=103 expected = de, actual =de
[2275000] SCOREBOARD MATCH: wstrb passthrough beat=104 expected = 1d, actual =1d
[2275000] SCOREBOARD MATCH: wstrb passthrough beat=105 expected = a9, actual =a9
[2275000] SCOREBOARD MATCH: wstrb passthrough beat=106 expected = d5, actual =d5
[2275000] SCOREBOARD MATCH: wstrb passthrough beat=107 expected = 9f, actual =9f
[2275000] SCOREBOARD MATCH: wstrb passthrough beat=108 expected = 56, actual =56
[2275000] SCOREBOARD MATCH: wstrb passthrough beat=109 expected = 27, actual =27
[2275000] SCOREBOARD MATCH: wstrb passthrough beat=110 expected = 7d, actual =7d
[2275000] SCOREBOARD MATCH: wstrb passthrough beat=111 expected = 73, actual =73
[2275000] SCOREBOARD MATCH: wstrb passthrough beat=112 expected = d1, actual =d1
[2275000] SCOREBOARD MATCH: wstrb passthrough beat=113 expected = 52, actual =52
[2275000] SCOREBOARD MATCH: wstrb passthrough beat=114 expected = 12, actual =12
[2275000] SCOREBOARD MATCH: wstrb passthrough beat=115 expected = 27, actual =27
[2275000] SCOREBOARD MATCH: wstrb passthrough beat=116 expected = 7a, actual =7a
[2275000] SCOREBOARD MATCH: wstrb passthrough beat=117 expected = 8f, actual =8f
[2275000] SCOREBOARD MATCH: wstrb passthrough beat=118 expected = 9a, actual =9a
[2275000] SCOREBOARD MATCH: wstrb passthrough beat=119 expected = 4b, actual =4b
[2275000] SCOREBOARD MATCH: wstrb passthrough beat=120 expected = e2, actual =e2
[2275000] SCOREBOARD MATCH: wstrb passthrough beat=121 expected = ad, actual =ad
[2275000] SCOREBOARD MATCH: wstrb passthrough beat=122 expected = 72, actual =72
[2275000] SCOREBOARD MATCH: wstrb passthrough beat=123 expected = 5c, actual =5c
[2275000] SCOREBOARD MATCH: wstrb passthrough beat=124 expected = 3c, actual =3c
[2275000] SCOREBOARD MATCH: wstrb passthrough beat=125 expected = c, actual =c
[2275000] SCOREBOARD MATCH: wstrb passthrough beat=126 expected = a7, actual =a7
[2275000] SCOREBOARD MATCH: wstrb passthrough beat=127 expected = 1e, actual =1e
[2275000] SCOREBOARD MATCH: wstrb passthrough beat=128 expected = b9, actual =b9
[2275000] SCOREBOARD MATCH: wstrb passthrough beat=129 expected = 19, actual =19
[2275000] SCOREBOARD MATCH: wstrb passthrough beat=130 expected = 7a, actual =7a
[2275000] SCOREBOARD MATCH: wstrb passthrough beat=131 expected = f6, actual =f6
[2275000] SCOREBOARD MATCH: wstrb passthrough beat=132 expected = 25, actual =25
[2275000] SCOREBOARD MATCH: wstrb passthrough beat=133 expected = 21, actual =21
[2275000] SCOREBOARD MATCH: wstrb passthrough beat=134 expected = 14, actual =14
[2275000] SCOREBOARD MATCH: wstrb passthrough beat=135 expected = df, actual =df
[2275000] SCOREBOARD MATCH: wstrb passthrough beat=136 expected = 3a, actual =3a
[2275000] SCOREBOARD MATCH: wstrb passthrough beat=137 expected = 8f, actual =8f
[2275000] SCOREBOARD MATCH: wstrb passthrough beat=138 expected = d5, actual =d5
[2275000] SCOREBOARD MATCH: wstrb passthrough beat=139 expected = 60, actual =60
[2275000] SCOREBOARD MATCH: wstrb passthrough beat=140 expected = b0, actual =b0
[2275000] SCOREBOARD MATCH: wstrb passthrough beat=141 expected = e9, actual =e9
[2275000] SCOREBOARD MATCH: wstrb passthrough beat=142 expected = 3f, actual =3f
[2275000] SCOREBOARD MATCH: wstrb passthrough beat=143 expected = eb, actual =eb
[2275000] SCOREBOARD MATCH: wstrb passthrough beat=144 expected = 78, actual =78
[2275000] SCOREBOARD MATCH: wstrb passthrough beat=145 expected = 14, actual =14
[2275000] SCOREBOARD MATCH: wstrb passthrough beat=146 expected = 4b, actual =4b
[2275000] SCOREBOARD MATCH: wstrb passthrough beat=147 expected = 29, actual =29
[2275000] SCOREBOARD MATCH: wstrb passthrough beat=148 expected = fd, actual =fd
[2275000] SCOREBOARD MATCH: wstrb passthrough beat=149 expected = 8a, actual =8a
[2275000] SCOREBOARD MATCH: wstrb passthrough beat=150 expected = 14, actual =14
[2275000] SCOREBOARD MATCH: wstrb passthrough beat=151 expected = 76, actual =76
[2275000] SCOREBOARD MATCH: wstrb passthrough beat=152 expected = 9e, actual =9e
[2275000] SCOREBOARD MATCH: wstrb passthrough beat=153 expected = 5f, actual =5f
[2275000] SCOREBOARD MATCH: wstrb passthrough beat=154 expected = 9f, actual =9f
[2275000] SCOREBOARD MATCH: wstrb passthrough beat=155 expected = 9b, actual =9b
[2275000] SCOREBOARD MATCH: wstrb passthrough beat=156 expected = e9, actual =e9
[2275000] SCOREBOARD MATCH: wstrb passthrough beat=157 expected = b3, actual =b3
[2275000] SCOREBOARD MATCH: wstrb passthrough beat=158 expected = 11, actual =11
[2275000] SCOREBOARD MATCH: wstrb passthrough beat=159 expected = 87, actual =87
[2275000] SCOREBOARD MATCH: wstrb passthrough beat=160 expected = 12, actual =12
[2275000] SCOREBOARD MATCH: wstrb passthrough beat=161 expected = b0, actual =b0
[2275000] SCOREBOARD MATCH: wstrb passthrough beat=162 expected = 22, actual =22
[2275000] SCOREBOARD MATCH: wstrb passthrough beat=163 expected = fb, actual =fb
[2275000] SCOREBOARD MATCH: wstrb passthrough beat=164 expected = 63, actual =63
[2275000] SCOREBOARD MATCH: wstrb passthrough beat=165 expected = 34, actual =34
[2275000] SCOREBOARD MATCH: wstrb passthrough beat=166 expected = 82, actual =82
[2275000] SCOREBOARD MATCH: wstrb passthrough beat=167 expected = 75, actual =75
[2275000] SCOREBOARD MATCH: wstrb passthrough beat=168 expected = e4, actual =e4
[2275000] SCOREBOARD MATCH: wstrb passthrough beat=169 expected = a4, actual =a4
[2275000] SCOREBOARD MATCH: wstrb passthrough beat=170 expected = 70, actual =70
[2275000] SCOREBOARD MATCH: wstrb passthrough beat=171 expected = 48, actual =48
[2275000] SCOREBOARD MATCH: wstrb passthrough beat=172 expected = d8, actual =d8
[2275000] SCOREBOARD MATCH: wstrb passthrough beat=173 expected = f2, actual =f2
[2275000] SCOREBOARD MATCH: wstrb passthrough beat=174 expected = bd, actual =bd
[2275000] SCOREBOARD MATCH: wstrb passthrough beat=175 expected = bd, actual =bd
[2275000] SCOREBOARD MATCH: wstrb passthrough beat=176 expected = 97, actual =97
[2275000] SCOREBOARD MATCH: wstrb passthrough beat=177 expected = 2e, actual =2e
[2275000] SCOREBOARD MATCH: wstrb passthrough beat=178 expected = 5, actual =5
[2275000] SCOREBOARD MATCH: wstrb passthrough beat=179 expected = 6f, actual =6f
[2275000] SCOREBOARD MATCH: wstrb passthrough beat=180 expected = 20, actual =20
[2275000] SCOREBOARD MATCH: wstrb passthrough beat=181 expected = c2, actual =c2
[2275000] SCOREBOARD MATCH: wstrb passthrough beat=182 expected = 2c, actual =2c
[2275000] SCOREBOARD MATCH: wstrb passthrough beat=183 expected = b7, actual =b7
[2275000] SCOREBOARD MATCH: wstrb passthrough beat=184 expected = f0, actual =f0
[2275000] SCOREBOARD MATCH: wstrb passthrough beat=185 expected = 31, actual =31
[2275000] SCOREBOARD MATCH: wstrb passthrough beat=186 expected = 27, actual =27
[2275000] SCOREBOARD MATCH: wstrb passthrough beat=187 expected = 11, actual =11
[2275000] SCOREBOARD MATCH: wstrb passthrough beat=188 expected = f4, actual =f4
[2275000] SCOREBOARD MATCH: wstrb passthrough beat=189 expected = 53, actual =53
[2275000] SCOREBOARD MATCH: wstrb passthrough beat=190 expected = c8, actual =c8
[2275000] SCOREBOARD MATCH: wstrb passthrough beat=191 expected = e4, actual =e4
[2275000] SCOREBOARD MATCH: wstrb passthrough beat=192 expected = 85, actual =85
[2275000] SCOREBOARD MATCH: wstrb passthrough beat=193 expected = ef, actual =ef
[2275000] SCOREBOARD MATCH: wstrb passthrough beat=194 expected = f5, actual =f5
[2275000] SCOREBOARD MATCH: wstrb passthrough beat=195 expected = 79, actual =79
[2275000] SCOREBOARD MATCH: wstrb passthrough beat=196 expected = 43, actual =43
[2275000] SCOREBOARD MATCH: wstrb passthrough beat=197 expected = be, actual =be
[2275000] SCOREBOARD MATCH: wstrb passthrough beat=198 expected = 5d, actual =5d
[2275000] SCOREBOARD MATCH: wstrb passthrough beat=199 expected = c8, actual =c8
[2275000] SCOREBOARD MATCH: wstrb passthrough beat=200 expected = ad, actual =ad
[2275000] SCOREBOARD MATCH: wstrb passthrough beat=201 expected = 53, actual =53
[2275000] SCOREBOARD MATCH: wstrb passthrough beat=202 expected = 41, actual =41
[2275000] SCOREBOARD MATCH: wstrb passthrough beat=203 expected = f0, actual =f0
[2275000] SCOREBOARD MATCH: wstrb passthrough beat=204 expected = 11, actual =11
[2275000] SCOREBOARD MATCH: wstrb passthrough beat=205 expected = 9e, actual =9e
[2275000] SCOREBOARD MATCH: wstrb passthrough beat=206 expected = b8, actual =b8
[2275000] SCOREBOARD MATCH: wstrb passthrough beat=207 expected = be, actual =be
[2275000] SCOREBOARD MATCH: wstrb passthrough beat=208 expected = f1, actual =f1
[2275000] SCOREBOARD MATCH: wstrb passthrough beat=209 expected = f9, actual =f9
[2275000] SCOREBOARD MATCH: wstrb passthrough beat=210 expected = af, actual =af
[2275000] SCOREBOARD MATCH: wstrb passthrough beat=211 expected = 2, actual =2
[2275000] SCOREBOARD MATCH: wstrb passthrough beat=212 expected = 98, actual =98
[2275000] SCOREBOARD MATCH: wstrb passthrough beat=213 expected = 67, actual =67
[2275000] SCOREBOARD MATCH: wstrb passthrough beat=214 expected = c1, actual =c1
[2275000] SCOREBOARD MATCH: wstrb passthrough beat=215 expected = 89, actual =89
[2275000] SCOREBOARD MATCH: wstrb passthrough beat=216 expected = 61, actual =61
[2275000] SCOREBOARD MATCH: wstrb passthrough beat=217 expected = 70, actual =70
[2275000] SCOREBOARD MATCH: wstrb passthrough beat=218 expected = 8c, actual =8c
[2275000] SCOREBOARD MATCH: bresp passthrough expected = 0, actual =0
[2275000] SCOREBOARD MATCH: response routed to correct master (write) expected = 1, actual =1
[2275000] [SCOREBOARD-M] mst_id=1 s_id=1 awaddr=17620c80 awid=110 awlen=218 awsize=6 awburst=1 wdata=[8ff613841fc59e7c d6a9cd81ee3bf48f dd28361f203a5c7d 3ffffaf9b7676561 a5a359f0ed1e49a3 8d58a62096a9c87a ce112ddc82cb900f efe9d9b3cd58a119 e4026994f3b487cc f68017dcfd427fd3 ca9b20ed32139770 a5c81f3ce669f18f e3ac71622e9d8a81 e0b121f19c483718 82b228a7ae47924f dce51cd08679412d 22c17846e65e9a0a 94a62c59bd963ec1 c40f7fefa573a0ed 8bd23af7f18b492a af2187ebe6d0f835 8c44992220786751 1203b07bf33107da da02000f1816d41a 388f3b6bc1253866 34564041e6469932 fe5d6d4cca92ebe6 8bb8244c8e584050 f49ed98236eca8b7 17f949dc00e648d ce66a4def2fc46ce a9e8ef858d37b8e9 cd461d77c3057e60 3601c52fab688422 38a03d0c1bacc255 deb240b5dfeab4b4 b5338d705e65a83 21931cd894b405e4 f49eba99c3f375e3 c9d9d06680455d8d 14f96372fff1f370 c3e56953eb6ced3e ebb24acb09981e0b 98a117b0dbf39b9 f92c26f780abae3d 8a43cc48cd6f7ace db2eb487e4de71c2 e58a200093cdddc3 e13d5891d45adb7e b9394d40efcdec48 39bca0cbc6c0d18 90c6e8969ec36d40 e915989e4d9229d 21452fb6ca0035d7 e8c3a317122d2395 f7064632b20c184c fc0c4e23f754fca0 89822035984b75e8 ca578e35e4cff13b dc24eddb00886668 98d3dc50c663dc58 ab33cd93e5a70e11 e62f7479e32b6a85 298f46de0758bb6f ecffc980ff0350c9 e22ebb4fd4c31471 dc1bcfe0d32f3df9 d2328ec20bbe022d e081169ec91b9960 9c4ad759b4614a11 c01f4c3e3c9ce67f 85b87fdfee7d661c a2deb02d20a062dd dd3d495c22035739 1080bd55e2fdfc6c 39e5f49e2f5c93b 84f92074b35f6d82 965d69eee0dba8a5 c3d171e09579ddc9 c8d94b4c99fbc937 fad771dcc8ca9255 de44701edf36b53a f9327e723ea8e3bd 7737612a71dbb6a 65470a5f409f04e b2b2d40be5b7e630 cd5a19bff86ef17 f390df65ba264a1d 1fde304e132a1240 12b101572643b371 e069fd8e2cb3d1e9 3fdde4298641e0bc ac85942d80482ddc acfbffc5d28ee580 d8d0c63c0cef91bc 8d37bf98ecd9e3ee bf68c96e05565a6a 1245ec263a33bf5e a70da34c18398fab 1d8fea159f7dabbe d9b16b1ce6766cbb feaffc662fd5d63b cf5381f900bf0e69 e7357b241c3fe67b cc15bcb62904ed16 29c3fb7fe5e5778a 2255e059b693eaf c46e2bc510f976a3 f6deee2dce3b1abb e9a4596aee322744 ff2b9de7f9044c32 c73f66ed2e128530 9c44ac74f60a8c14 ef0ed846b0e3c057 def645871b704a5c 917ad670b64e3f33 e731ff8bfb3af1fc 16ab3c580089aeb7 b6d7edeac6284512 c163370ea82612c8 a8afc17f9e09ed75 e4323288d80e7366 34862fdf87af6a fd919cdfa5956996 fda3dcfda8e447ae 886bf718e1c3cf67 75938fefdd8632c a6bcaada05fd93f8 e7c1635f04fd15fb 2d579272f28a1f3 352635ebef1a9c5d f417b258a9922401 d8bac5f49ce7994a c0235a8f6ed2b7f 207f4f818de0fbdf 2ac8952a8019e800 f7071380f93a1575 71b115536cacad2 b6e4b2d217866301 90c0787631e3a67f e8ae7151adebc652 c572295397db89cb c9bf304a9f932423 cd7eea76d632a1ca ee0e2b95b26da19b d200c5bf92f113c9 e923b59337cd5be0 ea3afd7b1f7fb035 b270c3fed731e129 eff3d09bc3bc33a dbbb736f1b947992 f2c65abbf93a3a84 3575fdbf0e2c376e 29c0b10001c597c4 faffd2489131712e 9f5da89c1c870bbb 1e4ca37fb075d007 c1a74136c91e599c e5a56557994c75c7 c9c245cfe104e9d2 2a23436f83f208d6 1d3e7e9e0b698705 ec6e70d78fc8a8c6 13bab19de700c46d f26a4b729691b446 265a5d0d30f9303b 17f9f4a8ded8bc49 f56a70903a150eaa eb0e3ee50a64401a e93cfc631bc4cd9d d5d9dc470308338d d6c73a7dea76cf3 fa6c3a90c0e81b2c c3f04eb9f6a9700a d550dcfed04616d7 912e3203d15cc260 c806326acfbd178e 20032e66d51e80bc a67b431c9d570f68 ed1426f7b1316069 64fe126ee817587 8bd884ef0d17555d be48b5c6accb2442 9b4c99c9f8ecabe6 86040143c49896ec f163bb2f27251eb9 a011ca9fc44cb70a 88e54df68cb054f8 b3d573b12615cbe3 ea6282edfa490925 6f95e1ed3e73e51 f9fd0a34f347d0e3 ed90da09baced1cf 8eb61020e45f8d21 d7a75e04f48a3827 af5909f688b31a54 ed12a775c538380d b9c270343e0f1a17 c6c2346bc4ba057a 89f23d87e91b7a2b 272a944233d4dbe1 f88ee15bc3b4adbc 2cd027e7edecc8ad a1c1a48e82811ee2 c635cc9ed3fabc29 c1e784d69a5085e9 1cd1a4ccf305f485 c700b0aee3a92965 fdf9af4ee307716a d60d65f008e83585 ec915eea9acb541a fdd2c5859d0e169e a5f64c23ea8b0e38 5566253d3e02b75 f0ee42139287ab0d fd12b946032927d8 d709534d16e48e37 a96c394402691b99 5924371c7f79560 ] wstrb=[8a 97 be 23 dc 1e 94 66 b6 52 8a 92 71 1e f8 27 71 82 b9 e2 a1 b1 9 12 34 c2 f4 d5 73 fd e7 a7 bf db 7c 32 d8 63 da 97 3e 56 c9 16 ba a3 ad f8 fa 77 f b4 1a bc ac 14 33 bb c8 4e 78 75 62 ab 30 2b f9 a8 a0 5c 54 d0 87 4d 79 27 a9 cd f7 30 1a 70 57 c4 3d 4f f4 58 bf 4c 1c fd 9b 10 55 5a 5c 71 57 f7 81 ac 52 de 1d a9 d5 9f 56 27 7d 73 d1 52 12 27 7a 8f 9a 4b e2 ad 72 5c 3c c a7 1e b9 19 7a f6 25 21 14 df 3a 8f d5 60 b0 e9 3f eb 78 14 4b 29 fd 8a 14 76 9e 5f 9f 9b e9 b3 11 87 12 b0 22 fb 63 34 82 75 e4 a4 70 48 d8 f2 bd bd 97 2e 5 6f 20 c2 2c b7 f0 31 27 11 f4 53 c8 e4 85 ef f5 79 43 be 5d c8 ad 53 41 f0 11 9e b8 be f1 f9 af 2 98 67 c1 89 61 70 8c ] bresp=0 bid=110
