#-----------------------------------------------------------
# xsim v2025.2 (64-bit)
# SW Build 6299465 on Fri Nov 14 12:34:56 MST 2025
# IP Build 6300035 on Fri Nov 14 10:48:45 MST 2025
# SharedData Build 6298862 on Thu Nov 13 04:50:51 MST 2025
# Start of session at: Fri Sep 11 12:04:04 2026
# Process ID         : 751043
# Current directory  : /home/nashita/Desktop/practice/axi_xbar/sim
# Command line       : xsim -log regress_results/BT_run57.log -mode tcl -source {xsim.dir/tb_top_snap/xsim_script.tcl}
# Log file           : /home/nashita/Desktop/practice/axi_xbar/sim/regress_results/BT_run57.log
# Journal file       : /home/nashita/Desktop/practice/axi_xbar/sim/xsim.jou
# Running On         : vlsi-vivado
# Platform           : Ubuntu
# Operating System   : Ubuntu 24.04.4 LTS
# Processor Detail   : Intel(R) Core(TM) i5-10400 CPU @ 2.90GHz
# CPU Frequency      : 4000.107 MHz
# CPU Physical cores : 6
# CPU Logical cores  : 12
# Host memory        : 41875 MB
# Swap memory        : 27648 MB
# Total Virtual      : 69524 MB
# Available Virtual  : 62498 MB
#-----------------------------------------------------------
source xsim.dir/tb_top_snap/xsim_script.tcl
# xsim {tb_top_snap} -testplusarg BT -autoloadwcfg -runall -sv_seed 58
Time resolution is 1 ps
run -all
[0] RUNNING BASE TEST
[0] INSIDE THE BASE TEST CONSTRUCTOR
[0] ENV: before agent
[0] SLAVE CONSTRUCTED
[0] MASTER MONITOR CONSTRUCTED
[0] MASTER MONITOR CONSTRUCTED
[0] SLAVE MONITOR CONSTRUCTED
[0] SLAVE MONITOR CONSTRUCTED
[0] ARB MONITOR CONSTRUCTED
GENERATOR CONSTRUCTED
[0] ENV: after agent
[0] ENV: before scoreboard
[0] ENV: after scoreboard
[15000] [SEQUENCER] mst_id=0 s_id=0 awaddr=13b66048 awid=110 awlen=37 awsize=5 awburst=1 wdata=[3dc4575ae6c2a83c fd6d4e618763b283 9eb13dd4d9a44ba9 c066f3e5f1e33779 f946e9fcdc75952e b619e0d73dd44246 2fb779bf17f827d1 f46dbcfff680d4bc b4551702a8fe63bb c0f68b8c2a879dd7 a1087293e40c90c1 d0af47d3564488c dfebe663d55d8996 b96a1a57ce018009 8365c89580f458f6 d651e28cc6750ed4 14768edee351aef8 e44607ef0fbbfce4 d6310bb897dc5773 fb2e066cba97ea7b ca53e75feaa79a96 283f20adf740e5b 9a0bf8d62084f318 8b2c8daefdb1f876 dd2606d1e45fe036 4e4d34e8db07fb8 8b62782ef731ffa7 db91dfdd901160fc 1dc1e0b5e8887eff dfba7ea7e076b32b f0881428a92458e3 11acd7e3bb4c5e84 1bc311b00e49f4dd b76e4dc0f167568a acb3b50e0c4b25d8 1a951ab5c91b25a3 ba827c2dc876c6be d4c1ec96d2036875 ] wstrb=[3c 19 4b fa 46 c1 91 82 da dc 7d 20 9d e a3 77 ea 20 98 88 2e 3b ff 18 5b 97 a0 89 d2 a0 a1 2d 37 42 b6 a e2 58 ] bresp=0 bid=0
[15000] [SEQUENCER] mst_id=1 s_id=0 awaddr=f342b00 awid=1110 awlen=5 awsize=5 awburst=2 wdata=[be0cc7de824158ed c31bdfc0c333c51f a1600dcad5a7eec1 d7e947aead026520 f0362a3fdf6cd5a9 3514c46a1b05276f ] wstrb=[a 8f 18 b3 cf 87 ] bresp=0 bid=0
[15000] [SEQUENCER] READ mst_id=0 s_id=0 araddr=a82ac70 arid=1 arlen=1 arsize=3 arburst=1 rid=[] rresp=[] rdata=[]
[15000] [SEQUENCER] READ mst_id=1 s_id=0 araddr=1d8c7d90 arid=1 arlen=1 arsize=3 arburst=1 rid=[] rresp=[] rdata=[]
[15000] [SEQUENCER] READ mst_id=1 s_id=0 araddr=39a2ae8 arid=2 arlen=1 arsize=3 arburst=1 rid=[] rresp=[] rdata=[]
[15000] MASTER_DRIVER0 received transaction, op=AXI_WRITE
[15000] MASTER_DRIVER1 received transaction, op=AXI_WRITE
[35000] MASTER 1 AW_VALID_RDY Handshake
[35000] MASTER 0 AW_VALID_RDY Handshake
[45000] ARB MONITOR: slave=0 m0_req=0 m1_req=1 winner=1
[45000] ARB MONITOR: slave=1 m0_req=1 m1_req=0 winner=0
[45000] AXI S1_AWVALID_RDY HANDSHAKE
[45000] AXI S0_AWVALID_RDY HANDSHAKE
[55000] MASTER 1 W_VALID_RDY Handshake beat=0 wlast=0
[55000] MASTER 0 W_VALID_RDY Handshake beat=0 wlast=0
[65000] MASTER 0 W_VALID_RDY Handshake beat=1 wlast=0
[65000] MASTER 1 W_VALID_RDY Handshake beat=1 wlast=0
[65000] S1 MEMORY WRITE beat=0 addr=13b66048 data=3dc4575ae6c2a83c id=06
[65000] AXI S0_WVALID_RDY HANDSHAKE
[65000] S0 MEMORY WRITE beat=0 addr=0f342b00 data=be0cc7de824158ed id=1e
[75000] AXI S0_WVALID_RDY HANDSHAKE
[75000] S0 MEMORY WRITE beat=1 addr=0f342b20 data=c31bdfc0c333c51f id=1e
[75000] S1 MEMORY WRITE beat=1 addr=13b66068 data=fd6d4e618763b283 id=06
[75000] MASTER 1 W_VALID_RDY Handshake beat=2 wlast=0
[75000] MASTER 0 W_VALID_RDY Handshake beat=2 wlast=0
[85000] MASTER 0 W_VALID_RDY Handshake beat=3 wlast=0
[85000] MASTER 1 W_VALID_RDY Handshake beat=3 wlast=0
[85000] S1 MEMORY WRITE beat=2 addr=13b66088 data=9eb13dd4d9a44ba9 id=06
[85000] AXI S0_WVALID_RDY HANDSHAKE
[85000] S0 MEMORY WRITE beat=2 addr=0f342a80 data=a1600dcad5a7eec1 id=1e
[95000] AXI S0_WVALID_RDY HANDSHAKE
[95000] S0 MEMORY WRITE beat=3 addr=0f342aa0 data=d7e947aead026520 id=1e
[95000] S1 MEMORY WRITE beat=3 addr=13b660a8 data=c066f3e5f1e33779 id=06
[95000] MASTER 1 W_VALID_RDY Handshake beat=4 wlast=0
[95000] MASTER 0 W_VALID_RDY Handshake beat=4 wlast=0
[105000] MASTER_DRIVER1 received transaction, op=AXI_READ
[105000] MASTER 0 W_VALID_RDY Handshake beat=5 wlast=0
[105000] MASTER 1 W_VALID_RDY Handshake beat=5 wlast=1
[105000] S1 MEMORY WRITE beat=4 addr=13b660c8 data=f946e9fcdc75952e id=06
[105000] AXI S0_WVALID_RDY HANDSHAKE
[105000] S0 MEMORY WRITE beat=4 addr=0f342ac0 data=f0362a3fdf6cd5a9 id=1e
[115000] AXI S0_WVALID_RDY HANDSHAKE
[115000] S0 MEMORY WRITE beat=5 addr=0f342ae0 data=3514c46a1b05276f id=1e
[115000] S1 MEMORY WRITE beat=5 addr=13b660e8 data=b619e0d73dd44246 id=06
[115000] MASTER 0 W_VALID_RDY Handshake beat=6 wlast=0
[125000] MASTER_DRIVER1 received transaction, op=AXI_READ
[125000] MASTER 0 W_VALID_RDY Handshake beat=7 wlast=0
[125000] S1 MEMORY WRITE beat=6 addr=13b66108 data=2fb779bf17f827d1 id=06
[125000] SLAVE0 sent B resp, id=14
[135000] S1 MEMORY WRITE beat=7 addr=13b66128 data=f46dbcfff680d4bc id=06
[135000] AXI S0_ARVALID_RDY HANDSHAKE
[135000] MEMORY READ MISS beat=0 addr=1d8c7d90 -> default data id=17
[135000] [SLAVE MONITOR] mst_id=1 s_id=0 awaddr=f342b00 awid=1110 awlen=5 awsize=5 awburst=2 wdata=[be0cc7de824158ed c31bdfc0c333c51f a1600dcad5a7eec1 d7e947aead026520 f0362a3fdf6cd5a9 3514c46a1b05276f ] wstrb=[a 8f 18 b3 cf 87 ] bresp=0 bid=11110
[135000] ARB MONITOR: slave=1 m0_req=0 m1_req=1 winner=1
[135000] MASTER 0 W_VALID_RDY Handshake beat=8 wlast=0
[145000] MASTER 1 RECEIVED BRESP. BRESP=0
[145000] [MASTER DRIVER] mst_id=1 s_id=0 awaddr=f342b00 awid=1110 awlen=5 awsize=5 awburst=2 wdata=[be0cc7de824158ed c31bdfc0c333c51f a1600dcad5a7eec1 d7e947aead026520 f0362a3fdf6cd5a9 3514c46a1b05276f ] wstrb=[a 8f 18 b3 cf 87 ] bresp=0 bid=1110
[145000] MASTER 0 W_VALID_RDY Handshake beat=9 wlast=0
[145000] MASTER 1 B_VALID_RDY Handshake
[145000] [MASTER MONITOR] mst_id=1 s_id=0 awaddr=f342b00 awid=1110 awlen=5 awsize=5 awburst=2 wdata=[be0cc7de824158ed c31bdfc0c333c51f a1600dcad5a7eec1 d7e947aead026520 f0362a3fdf6cd5a9 3514c46a1b05276f ] wstrb=[a 8f 18 b3 cf 87 ] bresp=0 bid=1110
[145000] SLAVE 1 R_VALID_RDY Handshake beat=0 rlast=0
[145000] MEMORY READ MISS beat=1 addr=1d8c7d98 -> default data id=17
[145000] S1 MEMORY WRITE beat=8 addr=13b66148 data=b4551702a8fe63bb id=06
[145000] SCOREBOARD MATCH: decode_err expected = 0, actual =0
[145000] SCOREBOARD MATCH: slave_id expected = 0, actual =0
[145000] SCOREBOARD MATCH: awaddr passthrough expected = f342b00, actual =f342b00
[145000] SCOREBOARD MATCH: awlen passthrough expected = 5, actual =5
[145000] SCOREBOARD MATCH: awsize passthrough expected = 5, actual =5
[145000] SCOREBOARD MATCH: awburst passthrough expected = 2, actual =2
[145000] SCOREBOARD MATCH: wdata size check expected = 6, actual =6
[145000] SCOREBOARD MATCH: wdata passthrough beat=0 expected = be0cc7de824158ed, actual =be0cc7de824158ed
[145000] SCOREBOARD MATCH: wdata passthrough beat=1 expected = c31bdfc0c333c51f, actual =c31bdfc0c333c51f
[145000] SCOREBOARD MATCH: wdata passthrough beat=2 expected = a1600dcad5a7eec1, actual =a1600dcad5a7eec1
[145000] SCOREBOARD MATCH: wdata passthrough beat=3 expected = d7e947aead026520, actual =d7e947aead026520
[145000] SCOREBOARD MATCH: wdata passthrough beat=4 expected = f0362a3fdf6cd5a9, actual =f0362a3fdf6cd5a9
[145000] SCOREBOARD MATCH: wdata passthrough beat=5 expected = 3514c46a1b05276f, actual =3514c46a1b05276f
[145000] SCOREBOARD MATCH: wstrb size check expected = 6, actual =6
[145000] SCOREBOARD MATCH: wstrb passthrough beat=0 expected = a, actual =a
[145000] SCOREBOARD MATCH: wstrb passthrough beat=1 expected = 8f, actual =8f
[145000] SCOREBOARD MATCH: wstrb passthrough beat=2 expected = 18, actual =18
[145000] SCOREBOARD MATCH: wstrb passthrough beat=3 expected = b3, actual =b3
[145000] SCOREBOARD MATCH: wstrb passthrough beat=4 expected = cf, actual =cf
[145000] SCOREBOARD MATCH: wstrb passthrough beat=5 expected = 87, actual =87
[145000] SCOREBOARD MATCH: bresp passthrough expected = 0, actual =0
[145000] SCOREBOARD MATCH: response routed to correct master (write) expected = 1, actual =1
[145000] [SCOREBOARD-M] mst_id=1 s_id=0 awaddr=f342b00 awid=1110 awlen=5 awsize=5 awburst=2 wdata=[be0cc7de824158ed c31bdfc0c333c51f a1600dcad5a7eec1 d7e947aead026520 f0362a3fdf6cd5a9 3514c46a1b05276f ] wstrb=[a 8f 18 b3 cf 87 ] bresp=0 bid=1110
[145000] [SCOREBOARD-S] mst_id=1 s_id=0 awaddr=f342b00 awid=1110 awlen=5 awsize=5 awburst=2 wdata=[be0cc7de824158ed c31bdfc0c333c51f a1600dcad5a7eec1 d7e947aead026520 f0362a3fdf6cd5a9 3514c46a1b05276f ] wstrb=[a 8f 18 b3 cf 87 ] bresp=0 bid=11110
[145000] SCOREBOARD: Transaction 1 received. pass=22 fail=0
[145000] ALL PASS. Total transactions: 1
[155000] S1 MEMORY WRITE beat=9 addr=13b66168 data=c0f68b8c2a879dd7 id=06
[155000] SLAVE 1 R_VALID_RDY Handshake beat=1 rlast=1
[155000] [SLAVE MONITOR] READ mst_id=1 s_id=1 araddr=1d8c7d90 arid=1 arlen=1 arsize=3 arburst=1 rid=[1111] rresp=[00] rdata=[baadf00d12345678baadf00d12345678]
[155000] MASTER 0 W_VALID_RDY Handshake beat=10 wlast=0
[165000] MASTER 0 W_VALID_RDY Handshake beat=11 wlast=0
[165000] MASTER 1 R_VALID_RDY Handshake beat=0 rlast=0
[165000] ARB MONITOR: slave=0 m0_req=0 m1_req=1 winner=1
[165000] AXI S0_ARVALID_RDY HANDSHAKE
[165000] MEMORY READ MISS beat=0 addr=39a2ae8 -> default data id=18
[165000] S1 MEMORY WRITE beat=10 addr=13b66188 data=a1087293e40c90c1 id=06
[175000] S1 MEMORY WRITE beat=11 addr=13b661a8 data=0d0af47d3564488c id=06
[175000] MEMORY READ MISS beat=1 addr=39a2af0 -> default data id=18
[175000] SLAVE 0 R_VALID_RDY Handshake beat=0 rlast=0
[175000] MASTER 1 R_VALID_RDY Handshake beat=1 rlast=1
[175000] [MASTER MONITOR] READ mst_id=1 s_id=1 araddr=1d8c7d90 arid=1 arlen=1 arsize=3 arburst=1 rid=[11] rresp=[00] rdata=[baadf00d12345678baadf00d12345678]
[175000] MASTER 0 W_VALID_RDY Handshake beat=12 wlast=0
[175000] [MASTER DRIVER] READ mst_id=1 s_id=0 araddr=1d8c7d90 arid=1 arlen=1 arsize=3 arburst=1 rid=[11] rresp=[00] rdata=[baadf00d12345678baadf00d12345678]
[175000] SCOREBOARD MATCH: decode_err expected = 0, actual =0
[175000] SCOREBOARD MATCH: slave_id expected = 1, actual =1
[175000] SCOREBOARD MATCH: araddr passthrough expected = 1d8c7d90, actual =1d8c7d90
[175000] SCOREBOARD MATCH: arlen passthrough expected = 1, actual =1
[175000] SCOREBOARD MATCH: arsize passthrough expected = 3, actual =3
[175000] SCOREBOARD MATCH: arburst passthrough expected = 1, actual =1
[175000] SCOREBOARD MATCH: rdata size check expected = 2, actual =2
[175000] SCOREBOARD MATCH: rdata passthrough beat=0 expected = baadf00d12345678, actual =baadf00d12345678
[175000] SCOREBOARD MATCH: rdata passthrough beat=1 expected = baadf00d12345678, actual =baadf00d12345678
[175000] SCOREBOARD MATCH: rresp size check expected = 2, actual =2
[175000] SCOREBOARD MATCH: rresp passthrough beat=0 expected = 0, actual =0
[175000] SCOREBOARD MATCH: rresp passthrough beat=1 expected = 0, actual =0
[175000] SCOREBOARD MATCH: response routed to correct master (read beat 0) expected = 1, actual =1
[175000] SCOREBOARD MATCH: response routed to correct master (read beat 1) expected = 1, actual =1
[175000] [SCOREBOARD-M] READ mst_id=1 s_id=1 araddr=1d8c7d90 arid=1 arlen=1 arsize=3 arburst=1 rid=[11] rresp=[00] rdata=[baadf00d12345678baadf00d12345678]
[175000] [SCOREBOARD-S] READ mst_id=1 s_id=1 araddr=1d8c7d90 arid=1 arlen=1 arsize=3 arburst=1 rid=[1111] rresp=[00] rdata=[baadf00d12345678baadf00d12345678]
[175000] SCOREBOARD: Transaction 2 received. pass=36 fail=0
[175000] ALL PASS. Total transactions: 2
[185000] MASTER 0 W_VALID_RDY Handshake beat=13 wlast=0
[185000] SLAVE 0 R_VALID_RDY Handshake beat=1 rlast=1
[185000] [SLAVE MONITOR] READ mst_id=1 s_id=0 araddr=39a2ae8 arid=2 arlen=1 arsize=3 arburst=1 rid=[1212] rresp=[00] rdata=[baadf00d12345678baadf00d12345678]
[185000] S1 MEMORY WRITE beat=12 addr=13b661c8 data=dfebe663d55d8996 id=06
[195000] S1 MEMORY WRITE beat=13 addr=13b661e8 data=b96a1a57ce018009 id=06
[195000] MASTER 1 R_VALID_RDY Handshake beat=0 rlast=0
[195000] MASTER 0 W_VALID_RDY Handshake beat=14 wlast=0
[205000] [MASTER DRIVER] READ mst_id=1 s_id=0 araddr=39a2ae8 arid=2 arlen=1 arsize=3 arburst=1 rid=[22] rresp=[00] rdata=[baadf00d12345678baadf00d12345678]
[205000] MASTER 0 W_VALID_RDY Handshake beat=15 wlast=0
[205000] MASTER 1 R_VALID_RDY Handshake beat=1 rlast=1
[205000] [MASTER MONITOR] READ mst_id=1 s_id=0 araddr=39a2ae8 arid=2 arlen=1 arsize=3 arburst=1 rid=[22] rresp=[00] rdata=[baadf00d12345678baadf00d12345678]
[205000] S1 MEMORY WRITE beat=14 addr=13b66208 data=8365c89580f458f6 id=06
[205000] SCOREBOARD MATCH: decode_err expected = 0, actual =0
[205000] SCOREBOARD MATCH: slave_id expected = 0, actual =0
[205000] SCOREBOARD MATCH: araddr passthrough expected = 39a2ae8, actual =39a2ae8
[205000] SCOREBOARD MATCH: arlen passthrough expected = 1, actual =1
[205000] SCOREBOARD MATCH: arsize passthrough expected = 3, actual =3
[205000] SCOREBOARD MATCH: arburst passthrough expected = 1, actual =1
[205000] SCOREBOARD MATCH: rdata size check expected = 2, actual =2
[205000] SCOREBOARD MATCH: rdata passthrough beat=0 expected = baadf00d12345678, actual =baadf00d12345678
[205000] SCOREBOARD MATCH: rdata passthrough beat=1 expected = baadf00d12345678, actual =baadf00d12345678
[205000] SCOREBOARD MATCH: rresp size check expected = 2, actual =2
[205000] SCOREBOARD MATCH: rresp passthrough beat=0 expected = 0, actual =0
[205000] SCOREBOARD MATCH: rresp passthrough beat=1 expected = 0, actual =0
[205000] SCOREBOARD MATCH: response routed to correct master (read beat 0) expected = 1, actual =1
[205000] SCOREBOARD MATCH: response routed to correct master (read beat 1) expected = 1, actual =1
[205000] [SCOREBOARD-M] READ mst_id=1 s_id=0 araddr=39a2ae8 arid=2 arlen=1 arsize=3 arburst=1 rid=[22] rresp=[00] rdata=[baadf00d12345678baadf00d12345678]
[205000] [SCOREBOARD-S] READ mst_id=1 s_id=0 araddr=39a2ae8 arid=2 arlen=1 arsize=3 arburst=1 rid=[1212] rresp=[00] rdata=[baadf00d12345678baadf00d12345678]
[205000] SCOREBOARD: Transaction 3 received. pass=50 fail=0
[205000] ALL PASS. Total transactions: 3
[215000] S1 MEMORY WRITE beat=15 addr=13b66228 data=d651e28cc6750ed4 id=06
[215000] MASTER 0 W_VALID_RDY Handshake beat=16 wlast=0
[225000] MASTER 0 W_VALID_RDY Handshake beat=17 wlast=0
[225000] S1 MEMORY WRITE beat=16 addr=13b66248 data=14768edee351aef8 id=06
[235000] S1 MEMORY WRITE beat=17 addr=13b66268 data=e44607ef0fbbfce4 id=06
[235000] MASTER 0 W_VALID_RDY Handshake beat=18 wlast=0
[245000] MASTER 0 W_VALID_RDY Handshake beat=19 wlast=0
[245000] S1 MEMORY WRITE beat=18 addr=13b66288 data=d6310bb897dc5773 id=06
[255000] S1 MEMORY WRITE beat=19 addr=13b662a8 data=fb2e066cba97ea7b id=06
[255000] MASTER 0 W_VALID_RDY Handshake beat=20 wlast=0
[265000] MASTER 0 W_VALID_RDY Handshake beat=21 wlast=0
[265000] S1 MEMORY WRITE beat=20 addr=13b662c8 data=ca53e75feaa79a96 id=06
[275000] S1 MEMORY WRITE beat=21 addr=13b662e8 data=0283f20adf740e5b id=06
[275000] MASTER 0 W_VALID_RDY Handshake beat=22 wlast=0
[285000] MASTER 0 W_VALID_RDY Handshake beat=23 wlast=0
[285000] S1 MEMORY WRITE beat=22 addr=13b66308 data=9a0bf8d62084f318 id=06
[295000] S1 MEMORY WRITE beat=23 addr=13b66328 data=8b2c8daefdb1f876 id=06
[295000] MASTER 0 W_VALID_RDY Handshake beat=24 wlast=0
[305000] MASTER 0 W_VALID_RDY Handshake beat=25 wlast=0
[305000] S1 MEMORY WRITE beat=24 addr=13b66348 data=dd2606d1e45fe036 id=06
[315000] S1 MEMORY WRITE beat=25 addr=13b66368 data=04e4d34e8db07fb8 id=06
[315000] MASTER 0 W_VALID_RDY Handshake beat=26 wlast=0
[325000] MASTER 0 W_VALID_RDY Handshake beat=27 wlast=0
[325000] S1 MEMORY WRITE beat=26 addr=13b66388 data=8b62782ef731ffa7 id=06
[335000] S1 MEMORY WRITE beat=27 addr=13b663a8 data=db91dfdd901160fc id=06
[335000] MASTER 0 W_VALID_RDY Handshake beat=28 wlast=0
[345000] MASTER 0 W_VALID_RDY Handshake beat=29 wlast=0
[345000] S1 MEMORY WRITE beat=28 addr=13b663c8 data=1dc1e0b5e8887eff id=06
[355000] S1 MEMORY WRITE beat=29 addr=13b663e8 data=dfba7ea7e076b32b id=06
[355000] MASTER 0 W_VALID_RDY Handshake beat=30 wlast=0
[365000] MASTER 0 W_VALID_RDY Handshake beat=31 wlast=0
[365000] S1 MEMORY WRITE beat=30 addr=13b66408 data=f0881428a92458e3 id=06
[375000] S1 MEMORY WRITE beat=31 addr=13b66428 data=11acd7e3bb4c5e84 id=06
[375000] MASTER 0 W_VALID_RDY Handshake beat=32 wlast=0
[385000] MASTER 0 W_VALID_RDY Handshake beat=33 wlast=0
[385000] S1 MEMORY WRITE beat=32 addr=13b66448 data=1bc311b00e49f4dd id=06
[395000] S1 MEMORY WRITE beat=33 addr=13b66468 data=b76e4dc0f167568a id=06
[395000] MASTER 0 W_VALID_RDY Handshake beat=34 wlast=0
[405000] MASTER 0 W_VALID_RDY Handshake beat=35 wlast=0
[405000] S1 MEMORY WRITE beat=34 addr=13b66488 data=acb3b50e0c4b25d8 id=06
[415000] S1 MEMORY WRITE beat=35 addr=13b664a8 data=1a951ab5c91b25a3 id=06
[415000] MASTER 0 W_VALID_RDY Handshake beat=36 wlast=0
[425000] MASTER_DRIVER0 received transaction, op=AXI_READ
[425000] MASTER 0 W_VALID_RDY Handshake beat=37 wlast=1
[425000] S1 MEMORY WRITE beat=36 addr=13b664c8 data=ba827c2dc876c6be id=06
[435000] S1 MEMORY WRITE beat=37 addr=13b664e8 data=d4c1ec96d2036875 id=06
[445000] SLAVE1 sent B resp, id=6
[455000] AXI S0_ARVALID_RDY HANDSHAKE
[455000] MEMORY READ MISS beat=0 addr=a82ac70 -> default data id=1
[455000] [SLAVE MONITOR] mst_id=0 s_id=1 awaddr=13b66048 awid=110 awlen=37 awsize=5 awburst=1 wdata=[3dc4575ae6c2a83c fd6d4e618763b283 9eb13dd4d9a44ba9 c066f3e5f1e33779 f946e9fcdc75952e b619e0d73dd44246 2fb779bf17f827d1 f46dbcfff680d4bc b4551702a8fe63bb c0f68b8c2a879dd7 a1087293e40c90c1 d0af47d3564488c dfebe663d55d8996 b96a1a57ce018009 8365c89580f458f6 d651e28cc6750ed4 14768edee351aef8 e44607ef0fbbfce4 d6310bb897dc5773 fb2e066cba97ea7b ca53e75feaa79a96 283f20adf740e5b 9a0bf8d62084f318 8b2c8daefdb1f876 dd2606d1e45fe036 4e4d34e8db07fb8 8b62782ef731ffa7 db91dfdd901160fc 1dc1e0b5e8887eff dfba7ea7e076b32b f0881428a92458e3 11acd7e3bb4c5e84 1bc311b00e49f4dd b76e4dc0f167568a acb3b50e0c4b25d8 1a951ab5c91b25a3 ba827c2dc876c6be d4c1ec96d2036875 ] wstrb=[3c 19 4b fa 46 c1 91 82 da dc 7d 20 9d e a3 77 ea 20 98 88 2e 3b ff 18 5b 97 a0 89 d2 a0 a1 2d 37 42 b6 a e2 58 ] bresp=0 bid=110
[455000] ARB MONITOR: slave=0 m0_req=1 m1_req=0 winner=0
[465000] MASTER 0 RECEIVED BRESP. BRESP=0
[465000] [MASTER DRIVER] mst_id=0 s_id=0 awaddr=13b66048 awid=110 awlen=37 awsize=5 awburst=1 wdata=[3dc4575ae6c2a83c fd6d4e618763b283 9eb13dd4d9a44ba9 c066f3e5f1e33779 f946e9fcdc75952e b619e0d73dd44246 2fb779bf17f827d1 f46dbcfff680d4bc b4551702a8fe63bb c0f68b8c2a879dd7 a1087293e40c90c1 d0af47d3564488c dfebe663d55d8996 b96a1a57ce018009 8365c89580f458f6 d651e28cc6750ed4 14768edee351aef8 e44607ef0fbbfce4 d6310bb897dc5773 fb2e066cba97ea7b ca53e75feaa79a96 283f20adf740e5b 9a0bf8d62084f318 8b2c8daefdb1f876 dd2606d1e45fe036 4e4d34e8db07fb8 8b62782ef731ffa7 db91dfdd901160fc 1dc1e0b5e8887eff dfba7ea7e076b32b f0881428a92458e3 11acd7e3bb4c5e84 1bc311b00e49f4dd b76e4dc0f167568a acb3b50e0c4b25d8 1a951ab5c91b25a3 ba827c2dc876c6be d4c1ec96d2036875 ] wstrb=[3c 19 4b fa 46 c1 91 82 da dc 7d 20 9d e a3 77 ea 20 98 88 2e 3b ff 18 5b 97 a0 89 d2 a0 a1 2d 37 42 b6 a e2 58 ] bresp=0 bid=110
[465000] MASTER 0 B_VALID_RDY Handshake
[465000] [MASTER MONITOR] mst_id=0 s_id=1 awaddr=13b66048 awid=110 awlen=37 awsize=5 awburst=1 wdata=[3dc4575ae6c2a83c fd6d4e618763b283 9eb13dd4d9a44ba9 c066f3e5f1e33779 f946e9fcdc75952e b619e0d73dd44246 2fb779bf17f827d1 f46dbcfff680d4bc b4551702a8fe63bb c0f68b8c2a879dd7 a1087293e40c90c1 d0af47d3564488c dfebe663d55d8996 b96a1a57ce018009 8365c89580f458f6 d651e28cc6750ed4 14768edee351aef8 e44607ef0fbbfce4 d6310bb897dc5773 fb2e066cba97ea7b ca53e75feaa79a96 283f20adf740e5b 9a0bf8d62084f318 8b2c8daefdb1f876 dd2606d1e45fe036 4e4d34e8db07fb8 8b62782ef731ffa7 db91dfdd901160fc 1dc1e0b5e8887eff dfba7ea7e076b32b f0881428a92458e3 11acd7e3bb4c5e84 1bc311b00e49f4dd b76e4dc0f167568a acb3b50e0c4b25d8 1a951ab5c91b25a3 ba827c2dc876c6be d4c1ec96d2036875 ] wstrb=[3c 19 4b fa 46 c1 91 82 da dc 7d 20 9d e a3 77 ea 20 98 88 2e 3b ff 18 5b 97 a0 89 d2 a0 a1 2d 37 42 b6 a e2 58 ] bresp=0 bid=110
[465000] SLAVE 0 R_VALID_RDY Handshake beat=0 rlast=0
[465000] MEMORY READ MISS beat=1 addr=a82ac78 -> default data id=1
[465000] SCOREBOARD MATCH: decode_err expected = 0, actual =0
[465000] SCOREBOARD MATCH: slave_id expected = 1, actual =1
[465000] SCOREBOARD MATCH: awaddr passthrough expected = 13b66048, actual =13b66048
[465000] SCOREBOARD MATCH: awlen passthrough expected = 37, actual =37
[465000] SCOREBOARD MATCH: awsize passthrough expected = 5, actual =5
[465000] SCOREBOARD MATCH: awburst passthrough expected = 1, actual =1
[465000] SCOREBOARD MATCH: wdata size check expected = 26, actual =26
[465000] SCOREBOARD MATCH: wdata passthrough beat=0 expected = 3dc4575ae6c2a83c, actual =3dc4575ae6c2a83c
[465000] SCOREBOARD MATCH: wdata passthrough beat=1 expected = fd6d4e618763b283, actual =fd6d4e618763b283
[465000] SCOREBOARD MATCH: wdata passthrough beat=2 expected = 9eb13dd4d9a44ba9, actual =9eb13dd4d9a44ba9
[465000] SCOREBOARD MATCH: wdata passthrough beat=3 expected = c066f3e5f1e33779, actual =c066f3e5f1e33779
[465000] SCOREBOARD MATCH: wdata passthrough beat=4 expected = f946e9fcdc75952e, actual =f946e9fcdc75952e
[465000] SCOREBOARD MATCH: wdata passthrough beat=5 expected = b619e0d73dd44246, actual =b619e0d73dd44246
[465000] SCOREBOARD MATCH: wdata passthrough beat=6 expected = 2fb779bf17f827d1, actual =2fb779bf17f827d1
[465000] SCOREBOARD MATCH: wdata passthrough beat=7 expected = f46dbcfff680d4bc, actual =f46dbcfff680d4bc
[465000] SCOREBOARD MATCH: wdata passthrough beat=8 expected = b4551702a8fe63bb, actual =b4551702a8fe63bb
[465000] SCOREBOARD MATCH: wdata passthrough beat=9 expected = c0f68b8c2a879dd7, actual =c0f68b8c2a879dd7
[465000] SCOREBOARD MATCH: wdata passthrough beat=10 expected = a1087293e40c90c1, actual =a1087293e40c90c1
[465000] SCOREBOARD MATCH: wdata passthrough beat=11 expected = d0af47d3564488c, actual =d0af47d3564488c
[465000] SCOREBOARD MATCH: wdata passthrough beat=12 expected = dfebe663d55d8996, actual =dfebe663d55d8996
[465000] SCOREBOARD MATCH: wdata passthrough beat=13 expected = b96a1a57ce018009, actual =b96a1a57ce018009
[465000] SCOREBOARD MATCH: wdata passthrough beat=14 expected = 8365c89580f458f6, actual =8365c89580f458f6
[465000] SCOREBOARD MATCH: wdata passthrough beat=15 expected = d651e28cc6750ed4, actual =d651e28cc6750ed4
[465000] SCOREBOARD MATCH: wdata passthrough beat=16 expected = 14768edee351aef8, actual =14768edee351aef8
[465000] SCOREBOARD MATCH: wdata passthrough beat=17 expected = e44607ef0fbbfce4, actual =e44607ef0fbbfce4
[465000] SCOREBOARD MATCH: wdata passthrough beat=18 expected = d6310bb897dc5773, actual =d6310bb897dc5773
[465000] SCOREBOARD MATCH: wdata passthrough beat=19 expected = fb2e066cba97ea7b, actual =fb2e066cba97ea7b
[465000] SCOREBOARD MATCH: wdata passthrough beat=20 expected = ca53e75feaa79a96, actual =ca53e75feaa79a96
[465000] SCOREBOARD MATCH: wdata passthrough beat=21 expected = 283f20adf740e5b, actual =283f20adf740e5b
[465000] SCOREBOARD MATCH: wdata passthrough beat=22 expected = 9a0bf8d62084f318, actual =9a0bf8d62084f318
[465000] SCOREBOARD MATCH: wdata passthrough beat=23 expected = 8b2c8daefdb1f876, actual =8b2c8daefdb1f876
[465000] SCOREBOARD MATCH: wdata passthrough beat=24 expected = dd2606d1e45fe036, actual =dd2606d1e45fe036
[465000] SCOREBOARD MATCH: wdata passthrough beat=25 expected = 4e4d34e8db07fb8, actual =4e4d34e8db07fb8
[465000] SCOREBOARD MATCH: wdata passthrough beat=26 expected = 8b62782ef731ffa7, actual =8b62782ef731ffa7
[465000] SCOREBOARD MATCH: wdata passthrough beat=27 expected = db91dfdd901160fc, actual =db91dfdd901160fc
[465000] SCOREBOARD MATCH: wdata passthrough beat=28 expected = 1dc1e0b5e8887eff, actual =1dc1e0b5e8887eff
[465000] SCOREBOARD MATCH: wdata passthrough beat=29 expected = dfba7ea7e076b32b, actual =dfba7ea7e076b32b
[465000] SCOREBOARD MATCH: wdata passthrough beat=30 expected = f0881428a92458e3, actual =f0881428a92458e3
[465000] SCOREBOARD MATCH: wdata passthrough beat=31 expected = 11acd7e3bb4c5e84, actual =11acd7e3bb4c5e84
[465000] SCOREBOARD MATCH: wdata passthrough beat=32 expected = 1bc311b00e49f4dd, actual =1bc311b00e49f4dd
[465000] SCOREBOARD MATCH: wdata passthrough beat=33 expected = b76e4dc0f167568a, actual =b76e4dc0f167568a
[465000] SCOREBOARD MATCH: wdata passthrough beat=34 expected = acb3b50e0c4b25d8, actual =acb3b50e0c4b25d8
[465000] SCOREBOARD MATCH: wdata passthrough beat=35 expected = 1a951ab5c91b25a3, actual =1a951ab5c91b25a3
[465000] SCOREBOARD MATCH: wdata passthrough beat=36 expected = ba827c2dc876c6be, actual =ba827c2dc876c6be
[465000] SCOREBOARD MATCH: wdata passthrough beat=37 expected = d4c1ec96d2036875, actual =d4c1ec96d2036875
[465000] SCOREBOARD MATCH: wstrb size check expected = 26, actual =26
[465000] SCOREBOARD MATCH: wstrb passthrough beat=0 expected = 3c, actual =3c
[465000] SCOREBOARD MATCH: wstrb passthrough beat=1 expected = 19, actual =19
[465000] SCOREBOARD MATCH: wstrb passthrough beat=2 expected = 4b, actual =4b
[465000] SCOREBOARD MATCH: wstrb passthrough beat=3 expected = fa, actual =fa
[465000] SCOREBOARD MATCH: wstrb passthrough beat=4 expected = 46, actual =46
[465000] SCOREBOARD MATCH: wstrb passthrough beat=5 expected = c1, actual =c1
[465000] SCOREBOARD MATCH: wstrb passthrough beat=6 expected = 91, actual =91
[465000] SCOREBOARD MATCH: wstrb passthrough beat=7 expected = 82, actual =82
[465000] SCOREBOARD MATCH: wstrb passthrough beat=8 expected = da, actual =da
[465000] SCOREBOARD MATCH: wstrb passthrough beat=9 expected = dc, actual =dc
[465000] SCOREBOARD MATCH: wstrb passthrough beat=10 expected = 7d, actual =7d
[465000] SCOREBOARD MATCH: wstrb passthrough beat=11 expected = 20, actual =20
[465000] SCOREBOARD MATCH: wstrb passthrough beat=12 expected = 9d, actual =9d
[465000] SCOREBOARD MATCH: wstrb passthrough beat=13 expected = e, actual =e
[465000] SCOREBOARD MATCH: wstrb passthrough beat=14 expected = a3, actual =a3
[465000] SCOREBOARD MATCH: wstrb passthrough beat=15 expected = 77, actual =77
[465000] SCOREBOARD MATCH: wstrb passthrough beat=16 expected = ea, actual =ea
[465000] SCOREBOARD MATCH: wstrb passthrough beat=17 expected = 20, actual =20
[465000] SCOREBOARD MATCH: wstrb passthrough beat=18 expected = 98, actual =98
[465000] SCOREBOARD MATCH: wstrb passthrough beat=19 expected = 88, actual =88
[465000] SCOREBOARD MATCH: wstrb passthrough beat=20 expected = 2e, actual =2e
[465000] SCOREBOARD MATCH: wstrb passthrough beat=21 expected = 3b, actual =3b
[465000] SCOREBOARD MATCH: wstrb passthrough beat=22 expected = ff, actual =ff
[465000] SCOREBOARD MATCH: wstrb passthrough beat=23 expected = 18, actual =18
[465000] SCOREBOARD MATCH: wstrb passthrough beat=24 expected = 5b, actual =5b
[465000] SCOREBOARD MATCH: wstrb passthrough beat=25 expected = 97, actual =97
[465000] SCOREBOARD MATCH: wstrb passthrough beat=26 expected = a0, actual =a0
[465000] SCOREBOARD MATCH: wstrb passthrough beat=27 expected = 89, actual =89
[465000] SCOREBOARD MATCH: wstrb passthrough beat=28 expected = d2, actual =d2
[465000] SCOREBOARD MATCH: wstrb passthrough beat=29 expected = a0, actual =a0
[465000] SCOREBOARD MATCH: wstrb passthrough beat=30 expected = a1, actual =a1
[465000] SCOREBOARD MATCH: wstrb passthrough beat=31 expected = 2d, actual =2d
[465000] SCOREBOARD MATCH: wstrb passthrough beat=32 expected = 37, actual =37
[465000] SCOREBOARD MATCH: wstrb passthrough beat=33 expected = 42, actual =42
[465000] SCOREBOARD MATCH: wstrb passthrough beat=34 expected = b6, actual =b6
[465000] SCOREBOARD MATCH: wstrb passthrough beat=35 expected = a, actual =a
[465000] SCOREBOARD MATCH: wstrb passthrough beat=36 expected = e2, actual =e2
[465000] SCOREBOARD MATCH: wstrb passthrough beat=37 expected = 58, actual =58
[465000] SCOREBOARD MATCH: bresp passthrough expected = 0, actual =0
[465000] SCOREBOARD MATCH: response routed to correct master (write) expected = 0, actual =0
[465000] [SCOREBOARD-M] mst_id=0 s_id=1 awaddr=13b66048 awid=110 awlen=37 awsize=5 awburst=1 wdata=[3dc4575ae6c2a83c fd6d4e618763b283 9eb13dd4d9a44ba9 c066f3e5f1e33779 f946e9fcdc75952e b619e0d73dd44246 2fb779bf17f827d1 f46dbcfff680d4bc b4551702a8fe63bb c0f68b8c2a879dd7 a1087293e40c90c1 d0af47d3564488c dfebe663d55d8996 b96a1a57ce018009 8365c89580f458f6 d651e28cc6750ed4 14768edee351aef8 e44607ef0fbbfce4 d6310bb897dc5773 fb2e066cba97ea7b ca53e75feaa79a96 283f20adf740e5b 9a0bf8d62084f318 8b2c8daefdb1f876 dd2606d1e45fe036 4e4d34e8db07fb8 8b62782ef731ffa7 db91dfdd901160fc 1dc1e0b5e8887eff dfba7ea7e076b32b f0881428a92458e3 11acd7e3bb4c5e84 1bc311b00e49f4dd b76e4dc0f167568a acb3b50e0c4b25d8 1a951ab5c91b25a3 ba827c2dc876c6be d4c1ec96d2036875 ] wstrb=[3c 19 4b fa 46 c1 91 82 da dc 7d 20 9d e a3 77 ea 20 98 88 2e 3b ff 18 5b 97 a0 89 d2 a0 a1 2d 37 42 b6 a e2 58 ] bresp=0 bid=110
[465000] [SCOREBOARD-S] mst_id=0 s_id=1 awaddr=13b66048 awid=110 awlen=37 awsize=5 awburst=1 wdata=[3dc4575ae6c2a83c fd6d4e618763b283 9eb13dd4d9a44ba9 c066f3e5f1e33779 f946e9fcdc75952e b619e0d73dd44246 2fb779bf17f827d1 f46dbcfff680d4bc b4551702a8fe63bb c0f68b8c2a879dd7 a1087293e40c90c1 d0af47d3564488c dfebe663d55d8996 b96a1a57ce018009 8365c89580f458f6 d651e28cc6750ed4 14768edee351aef8 e44607ef0fbbfce4 d6310bb897dc5773 fb2e066cba97ea7b ca53e75feaa79a96 283f20adf740e5b 9a0bf8d62084f318 8b2c8daefdb1f876 dd2606d1e45fe036 4e4d34e8db07fb8 8b62782ef731ffa7 db91dfdd901160fc 1dc1e0b5e8887eff dfba7ea7e076b32b f0881428a92458e3 11acd7e3bb4c5e84 1bc311b00e49f4dd b76e4dc0f167568a acb3b50e0c4b25d8 1a951ab5c91b25a3 ba827c2dc876c6be d4c1ec96d2036875 ] wstrb=[3c 19 4b fa 46 c1 91 82 da dc 7d 20 9d e a3 77 ea 20 98 88 2e 3b ff 18 5b 97 a0 89 d2 a0 a1 2d 37 42 b6 a e2 58 ] bresp=0 bid=110
[465000] SCOREBOARD: Transaction 4 received. pass=136 fail=0
[465000] ALL PASS. Total transactions: 4
[475000] SLAVE 0 R_VALID_RDY Handshake beat=1 rlast=1
[475000] [SLAVE MONITOR] READ mst_id=0 s_id=0 araddr=a82ac70 arid=1 arlen=1 arsize=3 arburst=1 rid=[11] rresp=[00] rdata=[baadf00d12345678baadf00d12345678]
[485000] MASTER 0 R_VALID_RDY Handshake beat=0 rlast=0
[495000] MASTER 0 R_VALID_RDY Handshake beat=1 rlast=1
[495000] [MASTER MONITOR] READ mst_id=0 s_id=0 araddr=a82ac70 arid=1 arlen=1 arsize=3 arburst=1 rid=[11] rresp=[00] rdata=[baadf00d12345678baadf00d12345678]
[495000] [MASTER DRIVER] READ mst_id=0 s_id=0 araddr=a82ac70 arid=1 arlen=1 arsize=3 arburst=1 rid=[11] rresp=[00] rdata=[baadf00d12345678baadf00d12345678]
[495000] SCOREBOARD MATCH: decode_err expected = 0, actual =0
[495000] SCOREBOARD MATCH: slave_id expected = 0, actual =0
[495000] SCOREBOARD MATCH: araddr passthrough expected = a82ac70, actual =a82ac70
[495000] SCOREBOARD MATCH: arlen passthrough expected = 1, actual =1
[495000] SCOREBOARD MATCH: arsize passthrough expected = 3, actual =3
[495000] SCOREBOARD MATCH: arburst passthrough expected = 1, actual =1
[495000] SCOREBOARD MATCH: rdata size check expected = 2, actual =2
[495000] SCOREBOARD MATCH: rdata passthrough beat=0 expected = baadf00d12345678, actual =baadf00d12345678
[495000] SCOREBOARD MATCH: rdata passthrough beat=1 expected = baadf00d12345678, actual =baadf00d12345678
[495000] SCOREBOARD MATCH: rresp size check expected = 2, actual =2
[495000] SCOREBOARD MATCH: rresp passthrough beat=0 expected = 0, actual =0
[495000] SCOREBOARD MATCH: rresp passthrough beat=1 expected = 0, actual =0
[495000] SCOREBOARD MATCH: response routed to correct master (read beat 0) expected = 0, actual =0
[495000] SCOREBOARD MATCH: response routed to correct master (read beat 1) expected = 0, actual =0
[495000] [SCOREBOARD-M] READ mst_id=0 s_id=0 araddr=a82ac70 arid=1 arlen=1 arsize=3 arburst=1 rid=[11] rresp=[00] rdata=[baadf00d12345678baadf00d12345678]
[495000] [SCOREBOARD-S] READ mst_id=0 s_id=0 araddr=a82ac70 arid=1 arlen=1 arsize=3 arburst=1 rid=[11] rresp=[00] rdata=[baadf00d12345678baadf00d12345678]
[495000] SCOREBOARD: Transaction 5 received. pass=150 fail=0
[495000] SCOREBOARD: Expected 5 transactions completed, PASS=150 FAIL=0
[495000] ALL PASS. Total transactions: 5
[495000] ALL TRANSACTIONS MONITORED
$finish called at time : 515 ns : File "/home/nashita/Desktop/practice/axi_xbar/tb/top/axi_tb_top.sv" Line 220
exit
INFO: xsimkernel Simulation Memory Usage: 289464 KB (Peak: 337864 KB), Simulation CPU Usage: 1170 ms
INFO: [Common 17-206] Exiting xsim at Fri Sep 11 12:04:08 2026...
