#-----------------------------------------------------------
# xsim v2025.2 (64-bit)
# SW Build 6299465 on Fri Nov 14 12:34:56 MST 2025
# IP Build 6300035 on Fri Nov 14 10:48:45 MST 2025
# SharedData Build 6298862 on Thu Nov 13 04:50:51 MST 2025
# Start of session at: Fri Sep 11 11:41:53 2026
# Process ID         : 698923
# Current directory  : /home/nashita/Desktop/practice/axi_xbar/sim
# Command line       : xsim -log regress_results/BT_run49.log -mode tcl -source {xsim.dir/tb_top_snap/xsim_script.tcl}
# Log file           : /home/nashita/Desktop/practice/axi_xbar/sim/regress_results/BT_run49.log
# Journal file       : /home/nashita/Desktop/practice/axi_xbar/sim/xsim.jou
# Running On         : vlsi-vivado
# Platform           : Ubuntu
# Operating System   : Ubuntu 24.04.4 LTS
# Processor Detail   : Intel(R) Core(TM) i5-10400 CPU @ 2.90GHz
# CPU Frequency      : 4000.002 MHz
# CPU Physical cores : 6
# CPU Logical cores  : 12
# Host memory        : 41875 MB
# Swap memory        : 27648 MB
# Total Virtual      : 69524 MB
# Available Virtual  : 62760 MB
#-----------------------------------------------------------
source xsim.dir/tb_top_snap/xsim_script.tcl
# xsim {tb_top_snap} -testplusarg BT -autoloadwcfg -runall -sv_seed 50
Time resolution is 1 ps
run -all
[0] RUNNING BASE TEST
[0] INSIDE THE BASE TEST CONSTRUCTOR
[0] ENV: before agent
[0] SLAVE CONSTRUCTED
[0] MASTER MONITOR CONSTRUCTED
[0] MASTER MONITOR CONSTRUCTED
[0] SLAVE MONITOR CONSTRUCTED
[0] SLAVE MONITOR CONSTRUCTED
[0] ARB MONITOR CONSTRUCTED
GENERATOR CONSTRUCTED
[0] ENV: after agent
[0] ENV: before scoreboard
[0] ENV: after scoreboard
[15000] [SEQUENCER] READ mst_id=0 s_id=0 araddr=1ffc44b0 arid=0 arlen=1 arsize=3 arburst=1 rid=[] rresp=[] rdata=[]
[15000] [SEQUENCER] mst_id=1 s_id=0 awaddr=1f5bf5c0 awid=111 awlen=0 awsize=2 awburst=0 wdata=[ee02ead1e5d8e297 ] wstrb=[da ] bresp=0 bid=0
[15000] [SEQUENCER] READ mst_id=0 s_id=0 araddr=110ea40 arid=1 arlen=1 arsize=3 arburst=1 rid=[] rresp=[] rdata=[]
[15000] [SEQUENCER] READ mst_id=1 s_id=0 araddr=1e3342a0 arid=1 arlen=1 arsize=3 arburst=1 rid=[] rresp=[] rdata=[]
[15000] [SEQUENCER] READ mst_id=0 s_id=0 araddr=1b542d48 arid=2 arlen=1 arsize=3 arburst=1 rid=[] rresp=[] rdata=[]
[15000] MASTER_DRIVER0 received transaction, op=AXI_READ
[15000] MASTER_DRIVER1 received transaction, op=AXI_WRITE
[35000] MASTER 1 AW_VALID_RDY Handshake
[35000] MASTER_DRIVER0 received transaction, op=AXI_READ
[45000] ARB MONITOR: slave=1 m0_req=0 m1_req=1 winner=1
[45000] ARB MONITOR: slave=1 m0_req=1 m1_req=0 winner=0
[45000] AXI S0_ARVALID_RDY HANDSHAKE
[45000] MEMORY READ MISS beat=0 addr=1ffc44b0 -> default data id=0
[45000] AXI S1_AWVALID_RDY HANDSHAKE
[55000] MEMORY READ MISS beat=1 addr=1ffc44b8 -> default data id=0
[55000] SLAVE 1 R_VALID_RDY Handshake beat=0 rlast=0
[55000] MASTER 1 W_VALID_RDY Handshake beat=0 wlast=1
[55000] MASTER_DRIVER0 received transaction, op=AXI_READ
[55000] MASTER_DRIVER1 received transaction, op=AXI_READ
[65000] ARB MONITOR: slave=0 m0_req=1 m1_req=0 winner=0
[65000] SLAVE 1 R_VALID_RDY Handshake beat=1 rlast=1
[65000] [SLAVE MONITOR] READ mst_id=0 s_id=1 araddr=1ffc44b0 arid=0 arlen=1 arsize=3 arburst=1 rid=[00] rresp=[00] rdata=[baadf00d12345678baadf00d12345678]
[65000] AXI S0_ARVALID_RDY HANDSHAKE
[65000] MEMORY READ MISS beat=0 addr=110ea40 -> default data id=1
[65000] S1 MEMORY WRITE beat=0 addr=1f5bf5c0 data=ee02ead1e5d8e297 id=17
[75000] SLAVE1 sent B resp, id=7
[75000] MEMORY READ MISS beat=1 addr=110ea48 -> default data id=1
[75000] SLAVE 0 R_VALID_RDY Handshake beat=0 rlast=0
[75000] [SLAVE MONITOR] mst_id=1 s_id=1 awaddr=1f5bf5c0 awid=111 awlen=0 awsize=2 awburst=0 wdata=[ee02ead1e5d8e297 ] wstrb=[da ] bresp=0 bid=10111
[75000] MASTER 0 R_VALID_RDY Handshake beat=0 rlast=0
[85000] [MASTER DRIVER] READ mst_id=0 s_id=0 araddr=1ffc44b0 arid=0 arlen=1 arsize=3 arburst=1 rid=[00] rresp=[00] rdata=[baadf00d12345678baadf00d12345678]
[85000] MASTER 0 R_VALID_RDY Handshake beat=1 rlast=1
[85000] [MASTER MONITOR] READ mst_id=0 s_id=1 araddr=1ffc44b0 arid=0 arlen=1 arsize=3 arburst=1 rid=[00] rresp=[00] rdata=[baadf00d12345678baadf00d12345678]
[85000] ARB MONITOR: slave=1 m0_req=1 m1_req=1 winner=1
[85000] SLAVE 0 R_VALID_RDY Handshake beat=1 rlast=1
[85000] [SLAVE MONITOR] READ mst_id=0 s_id=0 araddr=110ea40 arid=1 arlen=1 arsize=3 arburst=1 rid=[11] rresp=[00] rdata=[baadf00d12345678baadf00d12345678]
[85000] AXI S0_ARVALID_RDY HANDSHAKE
[85000] MEMORY READ MISS beat=0 addr=1e3342a0 -> default data id=17
[85000] SCOREBOARD MATCH: decode_err expected = 0, actual =0
[85000] SCOREBOARD MATCH: slave_id expected = 1, actual =1
[85000] SCOREBOARD MATCH: araddr passthrough expected = 1ffc44b0, actual =1ffc44b0
[85000] SCOREBOARD MATCH: arlen passthrough expected = 1, actual =1
[85000] SCOREBOARD MATCH: arsize passthrough expected = 3, actual =3
[85000] SCOREBOARD MATCH: arburst passthrough expected = 1, actual =1
[85000] SCOREBOARD MATCH: rdata size check expected = 2, actual =2
[85000] SCOREBOARD MATCH: rdata passthrough beat=0 expected = baadf00d12345678, actual =baadf00d12345678
[85000] SCOREBOARD MATCH: rdata passthrough beat=1 expected = baadf00d12345678, actual =baadf00d12345678
[85000] SCOREBOARD MATCH: rresp size check expected = 2, actual =2
[85000] SCOREBOARD MATCH: rresp passthrough beat=0 expected = 0, actual =0
[85000] SCOREBOARD MATCH: rresp passthrough beat=1 expected = 0, actual =0
[85000] SCOREBOARD MATCH: response routed to correct master (read beat 0) expected = 0, actual =0
[85000] SCOREBOARD MATCH: response routed to correct master (read beat 1) expected = 0, actual =0
[85000] [SCOREBOARD-M] READ mst_id=0 s_id=1 araddr=1ffc44b0 arid=0 arlen=1 arsize=3 arburst=1 rid=[00] rresp=[00] rdata=[baadf00d12345678baadf00d12345678]
[85000] [SCOREBOARD-S] READ mst_id=0 s_id=1 araddr=1ffc44b0 arid=0 arlen=1 arsize=3 arburst=1 rid=[00] rresp=[00] rdata=[baadf00d12345678baadf00d12345678]
[85000] SCOREBOARD: Transaction 1 received. pass=14 fail=0
[85000] ALL PASS. Total transactions: 1
[85000] SCOREBOARD MATCH: arbitration winner (slave 1) expected = 1, actual =1
[95000] MEMORY READ MISS beat=1 addr=1e3342a8 -> default data id=17
[95000] SLAVE 1 R_VALID_RDY Handshake beat=0 rlast=0
[95000] MASTER 1 B_VALID_RDY Handshake
[95000] [MASTER MONITOR] mst_id=1 s_id=1 awaddr=1f5bf5c0 awid=111 awlen=0 awsize=2 awburst=0 wdata=[ee02ead1e5d8e297 ] wstrb=[da ] bresp=0 bid=111
[95000] MASTER 1 RECEIVED BRESP. BRESP=0
[95000] [MASTER DRIVER] mst_id=1 s_id=0 awaddr=1f5bf5c0 awid=111 awlen=0 awsize=2 awburst=0 wdata=[ee02ead1e5d8e297 ] wstrb=[da ] bresp=0 bid=111
[95000] SCOREBOARD MATCH: decode_err expected = 0, actual =0
[95000] SCOREBOARD MATCH: slave_id expected = 1, actual =1
[95000] SCOREBOARD MATCH: awaddr passthrough expected = 1f5bf5c0, actual =1f5bf5c0
[95000] SCOREBOARD MATCH: awlen passthrough expected = 0, actual =0
[95000] SCOREBOARD MATCH: awsize passthrough expected = 2, actual =2
[95000] SCOREBOARD MATCH: awburst passthrough expected = 0, actual =0
[95000] SCOREBOARD MATCH: wdata size check expected = 1, actual =1
[95000] SCOREBOARD MATCH: wdata passthrough beat=0 expected = ee02ead1e5d8e297, actual =ee02ead1e5d8e297
[95000] SCOREBOARD MATCH: wstrb size check expected = 1, actual =1
[95000] SCOREBOARD MATCH: wstrb passthrough beat=0 expected = da, actual =da
[95000] SCOREBOARD MATCH: bresp passthrough expected = 0, actual =0
[95000] SCOREBOARD MATCH: response routed to correct master (write) expected = 1, actual =1
[95000] [SCOREBOARD-M] mst_id=1 s_id=1 awaddr=1f5bf5c0 awid=111 awlen=0 awsize=2 awburst=0 wdata=[ee02ead1e5d8e297 ] wstrb=[da ] bresp=0 bid=111
[95000] [SCOREBOARD-S] mst_id=1 s_id=1 awaddr=1f5bf5c0 awid=111 awlen=0 awsize=2 awburst=0 wdata=[ee02ead1e5d8e297 ] wstrb=[da ] bresp=0 bid=10111
[95000] SCOREBOARD: Transaction 2 received. pass=27 fail=0
[95000] ALL PASS. Total transactions: 2
[105000] MASTER 0 R_VALID_RDY Handshake beat=0 rlast=0
[105000] SLAVE 1 R_VALID_RDY Handshake beat=1 rlast=1
[105000] [SLAVE MONITOR] READ mst_id=1 s_id=1 araddr=1e3342a0 arid=1 arlen=1 arsize=3 arburst=1 rid=[1111] rresp=[00] rdata=[baadf00d12345678baadf00d12345678]
[115000] AXI S0_ARVALID_RDY HANDSHAKE
[115000] MEMORY READ MISS beat=0 addr=1b542d48 -> default data id=2
[115000] ARB MONITOR: slave=1 m0_req=1 m1_req=0 winner=0
[115000] MASTER 1 R_VALID_RDY Handshake beat=0 rlast=0
[115000] MASTER 0 R_VALID_RDY Handshake beat=1 rlast=1
[115000] [MASTER MONITOR] READ mst_id=0 s_id=0 araddr=110ea40 arid=1 arlen=1 arsize=3 arburst=1 rid=[11] rresp=[00] rdata=[baadf00d12345678baadf00d12345678]
[115000] [MASTER DRIVER] READ mst_id=0 s_id=0 araddr=110ea40 arid=1 arlen=1 arsize=3 arburst=1 rid=[11] rresp=[00] rdata=[baadf00d12345678baadf00d12345678]
[115000] SCOREBOARD MATCH: decode_err expected = 0, actual =0
[115000] SCOREBOARD MATCH: slave_id expected = 0, actual =0
[115000] SCOREBOARD MATCH: araddr passthrough expected = 110ea40, actual =110ea40
[115000] SCOREBOARD MATCH: arlen passthrough expected = 1, actual =1
[115000] SCOREBOARD MATCH: arsize passthrough expected = 3, actual =3
[115000] SCOREBOARD MATCH: arburst passthrough expected = 1, actual =1
[115000] SCOREBOARD MATCH: rdata size check expected = 2, actual =2
[115000] SCOREBOARD MATCH: rdata passthrough beat=0 expected = baadf00d12345678, actual =baadf00d12345678
[115000] SCOREBOARD MATCH: rdata passthrough beat=1 expected = baadf00d12345678, actual =baadf00d12345678
[115000] SCOREBOARD MATCH: rresp size check expected = 2, actual =2
[115000] SCOREBOARD MATCH: rresp passthrough beat=0 expected = 0, actual =0
[115000] SCOREBOARD MATCH: rresp passthrough beat=1 expected = 0, actual =0
[115000] SCOREBOARD MATCH: response routed to correct master (read beat 0) expected = 0, actual =0
[115000] SCOREBOARD MATCH: response routed to correct master (read beat 1) expected = 0, actual =0
[115000] [SCOREBOARD-M] READ mst_id=0 s_id=0 araddr=110ea40 arid=1 arlen=1 arsize=3 arburst=1 rid=[11] rresp=[00] rdata=[baadf00d12345678baadf00d12345678]
[115000] [SCOREBOARD-S] READ mst_id=0 s_id=0 araddr=110ea40 arid=1 arlen=1 arsize=3 arburst=1 rid=[11] rresp=[00] rdata=[baadf00d12345678baadf00d12345678]
[115000] SCOREBOARD: Transaction 3 received. pass=41 fail=0
[115000] ALL PASS. Total transactions: 3
[125000] [MASTER DRIVER] READ mst_id=1 s_id=0 araddr=1e3342a0 arid=1 arlen=1 arsize=3 arburst=1 rid=[11] rresp=[00] rdata=[baadf00d12345678baadf00d12345678]
[125000] MASTER 1 R_VALID_RDY Handshake beat=1 rlast=1
[125000] [MASTER MONITOR] READ mst_id=1 s_id=1 araddr=1e3342a0 arid=1 arlen=1 arsize=3 arburst=1 rid=[11] rresp=[00] rdata=[baadf00d12345678baadf00d12345678]
[125000] SLAVE 1 R_VALID_RDY Handshake beat=0 rlast=0
[125000] MEMORY READ MISS beat=1 addr=1b542d50 -> default data id=2
[125000] SCOREBOARD MATCH: decode_err expected = 0, actual =0
[125000] SCOREBOARD MATCH: slave_id expected = 1, actual =1
[125000] SCOREBOARD MATCH: araddr passthrough expected = 1e3342a0, actual =1e3342a0
[125000] SCOREBOARD MATCH: arlen passthrough expected = 1, actual =1
[125000] SCOREBOARD MATCH: arsize passthrough expected = 3, actual =3
[125000] SCOREBOARD MATCH: arburst passthrough expected = 1, actual =1
[125000] SCOREBOARD MATCH: rdata size check expected = 2, actual =2
[125000] SCOREBOARD MATCH: rdata passthrough beat=0 expected = baadf00d12345678, actual =baadf00d12345678
[125000] SCOREBOARD MATCH: rdata passthrough beat=1 expected = baadf00d12345678, actual =baadf00d12345678
[125000] SCOREBOARD MATCH: rresp size check expected = 2, actual =2
[125000] SCOREBOARD MATCH: rresp passthrough beat=0 expected = 0, actual =0
[125000] SCOREBOARD MATCH: rresp passthrough beat=1 expected = 0, actual =0
[125000] SCOREBOARD MATCH: response routed to correct master (read beat 0) expected = 1, actual =1
[125000] SCOREBOARD MATCH: response routed to correct master (read beat 1) expected = 1, actual =1
[125000] [SCOREBOARD-M] READ mst_id=1 s_id=1 araddr=1e3342a0 arid=1 arlen=1 arsize=3 arburst=1 rid=[11] rresp=[00] rdata=[baadf00d12345678baadf00d12345678]
[125000] [SCOREBOARD-S] READ mst_id=1 s_id=1 araddr=1e3342a0 arid=1 arlen=1 arsize=3 arburst=1 rid=[1111] rresp=[00] rdata=[baadf00d12345678baadf00d12345678]
[125000] SCOREBOARD: Transaction 4 received. pass=55 fail=0
[125000] ALL PASS. Total transactions: 4
[135000] SLAVE 1 R_VALID_RDY Handshake beat=1 rlast=1
[135000] [SLAVE MONITOR] READ mst_id=0 s_id=1 araddr=1b542d48 arid=2 arlen=1 arsize=3 arburst=1 rid=[22] rresp=[00] rdata=[baadf00d12345678baadf00d12345678]
[145000] MASTER 0 R_VALID_RDY Handshake beat=0 rlast=0
[155000] MASTER 0 R_VALID_RDY Handshake beat=1 rlast=1
[155000] [MASTER MONITOR] READ mst_id=0 s_id=1 araddr=1b542d48 arid=2 arlen=1 arsize=3 arburst=1 rid=[22] rresp=[00] rdata=[baadf00d12345678baadf00d12345678]
[155000] [MASTER DRIVER] READ mst_id=0 s_id=0 araddr=1b542d48 arid=2 arlen=1 arsize=3 arburst=1 rid=[22] rresp=[00] rdata=[baadf00d12345678baadf00d12345678]
[155000] SCOREBOARD MATCH: decode_err expected = 0, actual =0
[155000] SCOREBOARD MATCH: slave_id expected = 1, actual =1
[155000] SCOREBOARD MATCH: araddr passthrough expected = 1b542d48, actual =1b542d48
[155000] SCOREBOARD MATCH: arlen passthrough expected = 1, actual =1
[155000] SCOREBOARD MATCH: arsize passthrough expected = 3, actual =3
[155000] SCOREBOARD MATCH: arburst passthrough expected = 1, actual =1
[155000] SCOREBOARD MATCH: rdata size check expected = 2, actual =2
[155000] SCOREBOARD MATCH: rdata passthrough beat=0 expected = baadf00d12345678, actual =baadf00d12345678
[155000] SCOREBOARD MATCH: rdata passthrough beat=1 expected = baadf00d12345678, actual =baadf00d12345678
[155000] SCOREBOARD MATCH: rresp size check expected = 2, actual =2
[155000] SCOREBOARD MATCH: rresp passthrough beat=0 expected = 0, actual =0
[155000] SCOREBOARD MATCH: rresp passthrough beat=1 expected = 0, actual =0
[155000] SCOREBOARD MATCH: response routed to correct master (read beat 0) expected = 0, actual =0
[155000] SCOREBOARD MATCH: response routed to correct master (read beat 1) expected = 0, actual =0
[155000] [SCOREBOARD-M] READ mst_id=0 s_id=1 araddr=1b542d48 arid=2 arlen=1 arsize=3 arburst=1 rid=[22] rresp=[00] rdata=[baadf00d12345678baadf00d12345678]
[155000] [SCOREBOARD-S] READ mst_id=0 s_id=1 araddr=1b542d48 arid=2 arlen=1 arsize=3 arburst=1 rid=[22] rresp=[00] rdata=[baadf00d12345678baadf00d12345678]
[155000] SCOREBOARD: Transaction 5 received. pass=69 fail=0
[155000] SCOREBOARD: Expected 5 transactions completed, PASS=69 FAIL=0
[155000] ALL PASS. Total transactions: 5
[155000] ALL TRANSACTIONS MONITORED
$finish called at time : 175 ns : File "/home/nashita/Desktop/practice/axi_xbar/tb/top/axi_tb_top.sv" Line 220
exit
INFO: xsimkernel Simulation Memory Usage: 289468 KB (Peak: 337868 KB), Simulation CPU Usage: 1190 ms
INFO: [Common 17-206] Exiting xsim at Fri Sep 11 11:41:57 2026...
