#-----------------------------------------------------------
# xsim v2025.2 (64-bit)
# SW Build 6299465 on Fri Nov 14 12:34:56 MST 2025
# IP Build 6300035 on Fri Nov 14 10:48:45 MST 2025
# SharedData Build 6298862 on Thu Nov 13 04:50:51 MST 2025
# Start of session at: Fri Sep 11 11:25:37 2026
# Process ID         : 655076
# Current directory  : /home/nashita/Desktop/practice/axi_xbar/sim
# Command line       : xsim -log regress_results/BT_run51.log -mode tcl -source {xsim.dir/tb_top_snap/xsim_script.tcl}
# Log file           : /home/nashita/Desktop/practice/axi_xbar/sim/regress_results/BT_run51.log
# Journal file       : /home/nashita/Desktop/practice/axi_xbar/sim/xsim.jou
# Running On         : vlsi-vivado
# Platform           : Ubuntu
# Operating System   : Ubuntu 24.04.4 LTS
# Processor Detail   : Intel(R) Core(TM) i5-10400 CPU @ 2.90GHz
# CPU Frequency      : 4000.001 MHz
# CPU Physical cores : 6
# CPU Logical cores  : 12
# Host memory        : 41875 MB
# Swap memory        : 27648 MB
# Total Virtual      : 69524 MB
# Available Virtual  : 63227 MB
#-----------------------------------------------------------
source xsim.dir/tb_top_snap/xsim_script.tcl
# xsim {tb_top_snap} -testplusarg BT -autoloadwcfg -runall -sv_seed 52
Time resolution is 1 ps
run -all
[0] RUNNING BASE TEST
[0] INSIDE THE BASE TEST CONSTRUCTOR
[0] ENV: before agent
[0] SLAVE CONSTRUCTED
[0] MASTER MONITOR CONSTRUCTED
[0] MASTER MONITOR CONSTRUCTED
[0] SLAVE MONITOR CONSTRUCTED
[0] SLAVE MONITOR CONSTRUCTED
[0] ARB MONITOR CONSTRUCTED
GENERATOR CONSTRUCTED
[0] ENV: after agent
[0] ENV: before scoreboard
[0] ENV: after scoreboard
[15000] [SEQUENCER] READ mst_id=1 s_id=0 araddr=124a2118 arid=0 arlen=1 arsize=3 arburst=1 rid=[] rresp=[] rdata=[]
[15000] [SEQUENCER] mst_id=0 s_id=0 awaddr=7d0c718 awid=1101 awlen=245 awsize=2 awburst=1 wdata=[3105f00dcd3487b9 f1abeaa72e1f4408 895d4a0d8574edb2 d2a9756cdaa6038b 8c54793ba633a1a 3fd827cdc4556013 9efb639e922291a0 cc85cbbb12819d39 d6d6fd4ca7c0ab31 39e33cd20c5df388 1edf90c1f5d260eb 9d930c1c0669088d 12c6fc15f5b68e0d eb88eef8d77648ee dddf517b31a68cd6 a75d1ae3091bfb15 e0924403f0a64d90 a24cda6612e609dc 1c0204f13e71957f af17e30fc9a9f54a dc8fff26fc9448f4 bb05de73d164bd76 1b0eb2c0f8920417 f5264d0bea1dc183 3b827ef9f79eb1e6 f030b5fd302c2b7f 1a49ed02d69131b9 ce2fe39fe5570308 95832e87d5cc6bfb 2c5d9db43e60999c a3b79ca4afcd1b89 85998784fa8d8153 38ee1aef393acb2c e907e6b5b1f72538 ac84a68bdca5b793 95e082bfeea16e3a a0989372e572c17a c218790efee86975 ed89d7afcd1d39fe b28ffb78d7f8fbcd d6e165428e226b21 db3fa51ff4a87486 cca17054c46b3cf1 d28da8130dcfa098 8278151ea382d596 e7ee1288adcd4d32 bb9cedcacf198572 f29c5b093a7bba9b e84907cd3e1502e9 8d2e885bda8a6d91 1506282c23e5f598 e1faf881ffcae364 da5550f5fd4f2ff9 a1352591ef2980dc eef46441ef5b7921 ecaaa91b83301e12 f2599eefc949b536 38a52e588ddfceac 110fecbfe14e0330 aa97b866254fd773 b32fa61f03698bae e4b78edee33ce6be 888cbe31c43f92de c7a91e8c8f4f4744 f28c2e033bbc6451 fffbf72fac60ad6a 3baff4affb18ec34 b6d55085c7a515bc f405c3262e3c22b2 a9550ee636d147b5 fe765d71afb5b7d5 ddf1da87e02a5f6c 16fba721f27c2097 2231d86d0746e96e e77148da15720492 87ee25298023b2f4 876a9c62fe6ceffb 13def48daa1ffd96 2a43b08beedbe53c ed48d5379bcd19b6 c5ed174db1ae4ced 208a322a8127c9c4 1cf4e37bf030c7d8 a1df14c58dd30761 efad126e2e1fac8 d312c2a0c26946ef d03c4e512befb4a1 ed1af69f4f1d765 375b1e55df371f77 b26d418e1e47209 d6d6496e07976ca6 e6ce8c1d19f88381 fbdcf58a8e3167c3 95c8d469f1f56035 bede3b6d2b33ef8 e0e4a6bcfc976086 ee8cc0bb07cad940 da7e1838f6ad7b25 f344dbacfa7aa471 82457db1bb62bef4 32103a1ae1d19c67 dc4c40d9dcc395ea 982654de255515c6 8726b22dde91be8a bb555474ca368ef8 ef8ba4bee372f306 c204b191d37ba953 9db2384bf6b256ec da2549f2fd5a0605 d0d5af580d3ddd0a 3f033f69c29fb83 19840189ee87e7a4 fbc5c4aede157de8 fa3f796cea59b0e1 d8e19885ffb5f8a4 ddcb768c13c37af5 fe1d2bd6d4a75d33 d45d55d7d80aeff8 ebce6aedd6fec45c aba6218f3228cc64 8a33bc5ce9eb96c4 c0ea5b2000037767 322c43cbf602274a dfedbe0eec907caf ec93f416bc600027 b262277120d8192e 8d6895dd9ec037e1 db203809924fe57f b327feadf9fc89f4 98bcc1d58d825f7a 1fd244fac090948b 3a8d1e7ff3dcf9de 15f5959d2fa43a7 938ad832d349e054 c726da3321319e53 f42be1face17f6b1 2161d706c886338c e9b7d1df07b6ba2d d5ceb0dee888b139 310ee4c5dde3b3d9 e59a6e06f73087e4 dfb9391d1ac6b6a4 f8aa6a7d3b691ee5 b299a6c990c81de2 ab8ed486de44d884 19adf7691252dfe7 a31afdc924393f04 27e1788cc479e32 de9a7e19cea9d250 f2e311541c2c0ef1 e873ad2301b57be3 d05f4e33f56128dc 118d37cdc70e2b3d c8c3a720c3425f87 38a38863fa00e4f0 c10f102d1922f553 dc6554daca30c030 c431a52089d2b74d a2f5aca01508dd3d df399d6d0540b54e 8f136c9bff5b017a 9463deb7a36b428d a8abf7db3209193c b1641ab6f39d7c24 1708beb237bf6477 e9c87db3c5c7f96e b9657592bfb4b68d f7741b049b2c9869 e0f491d7d06e3444 1022ead2e13c98b7 fc6931211a5a076a eac83bae879705d6 e8d39e8edd5dc2f8 f7b7ca62faeb2680 2822c57e53ccfaf c29a92a7e2800611 dd6b2c91eb55cae5 d0929a943a525d0a 1cd2631bdfed58e8 cb4323cd932d2d3b cd7f8a45fa3d8fac da2ae8959bd5be61 2f02eb9dea51ed60 e48f7d0da56e0c62 c143cac4fc8275e2 e6d463433eba65a2 e4287204f046b661 ecc92c43cb63e050 a1e45f2a56c3cc8 95b2f329d39d8f86 9f016fd6ee46b7f6 13b2f4bf027c1f6d d619aef3a91fb5c8 17666dbfa965e7e8 abe20755f51b1eca 9e3ad4922b19627e d47f4a6601fbb649 f716d513b5a14251 e0baa4cf006151bc 25d08059551a9a5 caf2ebf73539ef36 359b40f2f973dd18 8ec586bdabad90c6 e0e77ffc37f848f7 316c260fd9b872b4 566037b9682c0ee ce7b09e5c031accc 19ea1f81e64d8377 fcd04466ffe72ff4 c018dcc11f5022fc 859da673cb4b4e4b cb327e40da02fc42 f9531f3e826dead9 cdb939250b4b5b01 e54e5743fef0c5b1 15eb08b18ebb765 24371266dea17681 dd923c32cf17e9b0 e803a115098569a9 e826e02adef0ecbd ae08d66d0c3ab37b 15c01d24c5b91c5c 24aa091a960c7782 a2472afdfde6fd4e c3a019aad2b2df87 e8bf570ab8074821 b5ee456fe84a22c4 3afd024c8b068207 c30dca29f98e5f1a e1d881de23bc5956 aec2db5df8fc0f98 f28a6eb29cd5842a c091dd80f1d0a586 eaccb51fd462f091 f13874bbef54b8de e1255e64dd5723d1 b1ba146231ca523c 211f0b1acbf21383 2949375522f2891e d4bcdb5a8244697e ce367d02db034bb7 fdf5d4d5f5dbe674 f8204ff2f77fb457 d283000ed2b2b02f c88e96a3c656ccf4 bdd6814bd078d4e4 ] wstrb=[96 13 5a 8a b7 3e d6 4d 51 30 d7 8 6e ad 55 bf dd 2d c8 4b da 1d b b8 4a d3 3 25 f0 e dd 3b e1 e0 60 d2 ef 3d d d0 1d 6d a2 c aa af dd c7 1c 7f d4 c6 2f b1 8e 4b 30 62 12 5f 13 a0 ab 43 2 bd a3 15 5d 4e 58 5f b fb 74 68 49 cc c7 54 c8 3b bc 11 7 83 66 cf be 22 e1 c6 a6 47 95 64 69 76 2a f bd c0 74 27 36 9e 36 f4 5e aa 1b 95 49 51 89 a7 fc a4 3c 45 f5 c5 ec f1 69 29 36 5f ee 23 50 58 4c 87 b7 3a aa 7 92 f6 8e 49 30 38 51 c3 2e df c 5f 18 5d 22 46 3d 2e a5 55 8c c7 9b c9 f6 41 1e 82 8 b9 4b fe fa 69 80 3 22 cb 1 1d 34 82 20 57 4d 21 74 82 a3 94 d9 f1 b5 4d 73 59 e1 4c 4a 96 99 bd ef 7a 9 39 10 a2 f6 0 1c ff 39 2c a1 30 2c bd 2f 66 ea d1 96 16 8e c5 7c 78 96 12 8f 25 d8 b 9d 6e 1e 2c 93 f6 38 31 64 56 5d f8 4c 95 ] bresp=0 bid=0
[15000] [SEQUENCER] mst_id=1 s_id=0 awaddr=62abd58 awid=111 awlen=11 awsize=1 awburst=2 wdata=[dd8157ebf231f0df a42e05b18fe9efe4 f8a5f02432cdd601 a4ffc6e0f503172b 84ed070fd627480f 88f51e10c92dcc92 3e30e3bdfd92f734 d3ba3f432df4e4f1 f722b183c31deacc c0b0e200dcaf5d54 aa4424535539540 f871800c146b2144 ] wstrb=[c8 98 d 8 dd 51 14 a5 e9 21 ad c6 ] bresp=0 bid=0
[15000] [SEQUENCER] mst_id=0 s_id=0 awaddr=b6896e8 awid=111 awlen=2 awsize=1 awburst=0 wdata=[9f26b3b7f9fcadcf 1de566f5af6a1caa bdad177c93d7fcd9 ] wstrb=[f7 a9 34 ] bresp=0 bid=0
[15000] [SEQUENCER] mst_id=1 s_id=0 awaddr=9bbe9d0 awid=11 awlen=0 awsize=1 awburst=2 wdata=[e9180925d19f8a6b ] wstrb=[f3 ] bresp=0 bid=0
[15000] MASTER_DRIVER1 received transaction, op=AXI_READ
[15000] MASTER_DRIVER0 received transaction, op=AXI_WRITE
[35000] MASTER 0 AW_VALID_RDY Handshake
[35000] MASTER_DRIVER1 received transaction, op=AXI_WRITE
[45000] ARB MONITOR: slave=0 m0_req=1 m1_req=0 winner=0
[45000] ARB MONITOR: slave=1 m0_req=0 m1_req=1 winner=1
[45000] AXI S0_ARVALID_RDY HANDSHAKE
[45000] MEMORY READ MISS beat=0 addr=124a2118 -> default data id=16
[45000] AXI S0_AWVALID_RDY HANDSHAKE
[55000] MEMORY READ MISS beat=1 addr=124a2120 -> default data id=16
[55000] SLAVE 1 R_VALID_RDY Handshake beat=0 rlast=0
[55000] MASTER 1 AW_VALID_RDY Handshake
[55000] MASTER 0 W_VALID_RDY Handshake beat=0 wlast=0
[65000] MASTER 0 W_VALID_RDY Handshake beat=1 wlast=0
[65000] SLAVE 1 R_VALID_RDY Handshake beat=1 rlast=1
[65000] [SLAVE MONITOR] READ mst_id=1 s_id=1 araddr=124a2118 arid=0 arlen=1 arsize=3 arburst=1 rid=[1010] rresp=[00] rdata=[baadf00d12345678baadf00d12345678]
[65000] AXI S0_WVALID_RDY HANDSHAKE
[65000] S0 MEMORY WRITE beat=0 addr=07d0c718 data=3105f00dcd3487b9 id=0d
[75000] AXI S0_WVALID_RDY HANDSHAKE
[75000] S0 MEMORY WRITE beat=1 addr=07d0c71c data=f1abeaa72e1f4408 id=0d
[75000] MASTER 1 R_VALID_RDY Handshake beat=0 rlast=0
[75000] MASTER 1 W_VALID_RDY Handshake beat=0 wlast=0
[75000] MASTER 0 W_VALID_RDY Handshake beat=2 wlast=0
[85000] [MASTER DRIVER] READ mst_id=1 s_id=0 araddr=124a2118 arid=0 arlen=1 arsize=3 arburst=1 rid=[00] rresp=[00] rdata=[baadf00d12345678baadf00d12345678]
[85000] MASTER 0 W_VALID_RDY Handshake beat=3 wlast=0
[85000] MASTER 1 W_VALID_RDY Handshake beat=1 wlast=0
[85000] MASTER 1 R_VALID_RDY Handshake beat=1 rlast=1
[85000] [MASTER MONITOR] READ mst_id=1 s_id=1 araddr=124a2118 arid=0 arlen=1 arsize=3 arburst=1 rid=[00] rresp=[00] rdata=[baadf00d12345678baadf00d12345678]
[85000] AXI S0_WVALID_RDY HANDSHAKE
[85000] S0 MEMORY WRITE beat=2 addr=07d0c720 data=895d4a0d8574edb2 id=0d
[85000] SCOREBOARD MATCH: decode_err expected = 0, actual =0
[85000] SCOREBOARD MATCH: slave_id expected = 1, actual =1
[85000] SCOREBOARD MATCH: araddr passthrough expected = 124a2118, actual =124a2118
[85000] SCOREBOARD MATCH: arlen passthrough expected = 1, actual =1
[85000] SCOREBOARD MATCH: arsize passthrough expected = 3, actual =3
[85000] SCOREBOARD MATCH: arburst passthrough expected = 1, actual =1
[85000] SCOREBOARD MATCH: rdata size check expected = 2, actual =2
[85000] SCOREBOARD MATCH: rdata passthrough beat=0 expected = baadf00d12345678, actual =baadf00d12345678
[85000] SCOREBOARD MATCH: rdata passthrough beat=1 expected = baadf00d12345678, actual =baadf00d12345678
[85000] SCOREBOARD MATCH: rresp size check expected = 2, actual =2
[85000] SCOREBOARD MATCH: rresp passthrough beat=0 expected = 0, actual =0
[85000] SCOREBOARD MATCH: rresp passthrough beat=1 expected = 0, actual =0
[85000] SCOREBOARD MATCH: response routed to correct master (read beat 0) expected = 1, actual =1
[85000] SCOREBOARD MATCH: response routed to correct master (read beat 1) expected = 1, actual =1
[85000] [SCOREBOARD-M] READ mst_id=1 s_id=1 araddr=124a2118 arid=0 arlen=1 arsize=3 arburst=1 rid=[00] rresp=[00] rdata=[baadf00d12345678baadf00d12345678]
[85000] [SCOREBOARD-S] READ mst_id=1 s_id=1 araddr=124a2118 arid=0 arlen=1 arsize=3 arburst=1 rid=[1010] rresp=[00] rdata=[baadf00d12345678baadf00d12345678]
[85000] SCOREBOARD: Transaction 1 received. pass=14 fail=0
[85000] ALL PASS. Total transactions: 1
[95000] AXI S0_WVALID_RDY HANDSHAKE
[95000] S0 MEMORY WRITE beat=3 addr=07d0c724 data=d2a9756cdaa6038b id=0d
[95000] MASTER 1 W_VALID_RDY Handshake beat=2 wlast=0
[95000] MASTER 0 W_VALID_RDY Handshake beat=4 wlast=0
[105000] MASTER 0 W_VALID_RDY Handshake beat=5 wlast=0
[105000] MASTER 1 W_VALID_RDY Handshake beat=3 wlast=0
[105000] AXI S0_WVALID_RDY HANDSHAKE
[105000] S0 MEMORY WRITE beat=4 addr=07d0c728 data=08c54793ba633a1a id=0d
[115000] AXI S0_WVALID_RDY HANDSHAKE
[115000] S0 MEMORY WRITE beat=5 addr=07d0c72c data=3fd827cdc4556013 id=0d
[115000] MASTER 1 W_VALID_RDY Handshake beat=4 wlast=0
[115000] MASTER 0 W_VALID_RDY Handshake beat=6 wlast=0
[125000] MASTER 0 W_VALID_RDY Handshake beat=7 wlast=0
[125000] MASTER 1 W_VALID_RDY Handshake beat=5 wlast=0
[125000] AXI S0_WVALID_RDY HANDSHAKE
[125000] S0 MEMORY WRITE beat=6 addr=07d0c730 data=9efb639e922291a0 id=0d
[135000] AXI S0_WVALID_RDY HANDSHAKE
[135000] S0 MEMORY WRITE beat=7 addr=07d0c734 data=cc85cbbb12819d39 id=0d
[135000] MASTER 1 W_VALID_RDY Handshake beat=6 wlast=0
[135000] MASTER 0 W_VALID_RDY Handshake beat=8 wlast=0
[145000] MASTER 0 W_VALID_RDY Handshake beat=9 wlast=0
[145000] MASTER 1 W_VALID_RDY Handshake beat=7 wlast=0
[145000] AXI S0_WVALID_RDY HANDSHAKE
[145000] S0 MEMORY WRITE beat=8 addr=07d0c738 data=d6d6fd4ca7c0ab31 id=0d
[155000] AXI S0_WVALID_RDY HANDSHAKE
[155000] S0 MEMORY WRITE beat=9 addr=07d0c73c data=39e33cd20c5df388 id=0d
[155000] MASTER 0 W_VALID_RDY Handshake beat=10 wlast=0
[165000] MASTER 0 W_VALID_RDY Handshake beat=11 wlast=0
[165000] AXI S0_WVALID_RDY HANDSHAKE
[165000] S0 MEMORY WRITE beat=10 addr=07d0c740 data=1edf90c1f5d260eb id=0d
[175000] AXI S0_WVALID_RDY HANDSHAKE
[175000] S0 MEMORY WRITE beat=11 addr=07d0c744 data=9d930c1c0669088d id=0d
[175000] MASTER 0 W_VALID_RDY Handshake beat=12 wlast=0
[185000] MASTER 0 W_VALID_RDY Handshake beat=13 wlast=0
[185000] AXI S0_WVALID_RDY HANDSHAKE
[185000] S0 MEMORY WRITE beat=12 addr=07d0c748 data=12c6fc15f5b68e0d id=0d
[195000] AXI S0_WVALID_RDY HANDSHAKE
[195000] S0 MEMORY WRITE beat=13 addr=07d0c74c data=eb88eef8d77648ee id=0d
[195000] MASTER 0 W_VALID_RDY Handshake beat=14 wlast=0
[205000] MASTER 0 W_VALID_RDY Handshake beat=15 wlast=0
[205000] AXI S0_WVALID_RDY HANDSHAKE
[205000] S0 MEMORY WRITE beat=14 addr=07d0c750 data=dddf517b31a68cd6 id=0d
[215000] AXI S0_WVALID_RDY HANDSHAKE
[215000] S0 MEMORY WRITE beat=15 addr=07d0c754 data=a75d1ae3091bfb15 id=0d
[215000] MASTER 0 W_VALID_RDY Handshake beat=16 wlast=0
[225000] MASTER 0 W_VALID_RDY Handshake beat=17 wlast=0
[225000] AXI S0_WVALID_RDY HANDSHAKE
[225000] S0 MEMORY WRITE beat=16 addr=07d0c758 data=e0924403f0a64d90 id=0d
[235000] AXI S0_WVALID_RDY HANDSHAKE
[235000] S0 MEMORY WRITE beat=17 addr=07d0c75c data=a24cda6612e609dc id=0d
[235000] MASTER 0 W_VALID_RDY Handshake beat=18 wlast=0
[245000] MASTER 0 W_VALID_RDY Handshake beat=19 wlast=0
[245000] AXI S0_WVALID_RDY HANDSHAKE
[245000] S0 MEMORY WRITE beat=18 addr=07d0c760 data=1c0204f13e71957f id=0d
[255000] AXI S0_WVALID_RDY HANDSHAKE
[255000] S0 MEMORY WRITE beat=19 addr=07d0c764 data=af17e30fc9a9f54a id=0d
[255000] MASTER 0 W_VALID_RDY Handshake beat=20 wlast=0
[265000] MASTER 0 W_VALID_RDY Handshake beat=21 wlast=0
[265000] AXI S0_WVALID_RDY HANDSHAKE
[265000] S0 MEMORY WRITE beat=20 addr=07d0c768 data=dc8fff26fc9448f4 id=0d
[275000] AXI S0_WVALID_RDY HANDSHAKE
[275000] S0 MEMORY WRITE beat=21 addr=07d0c76c data=bb05de73d164bd76 id=0d
[275000] MASTER 0 W_VALID_RDY Handshake beat=22 wlast=0
[285000] MASTER 0 W_VALID_RDY Handshake beat=23 wlast=0
[285000] AXI S0_WVALID_RDY HANDSHAKE
[285000] S0 MEMORY WRITE beat=22 addr=07d0c770 data=1b0eb2c0f8920417 id=0d
[295000] AXI S0_WVALID_RDY HANDSHAKE
[295000] S0 MEMORY WRITE beat=23 addr=07d0c774 data=f5264d0bea1dc183 id=0d
[295000] MASTER 0 W_VALID_RDY Handshake beat=24 wlast=0
[305000] MASTER 0 W_VALID_RDY Handshake beat=25 wlast=0
[305000] AXI S0_WVALID_RDY HANDSHAKE
[305000] S0 MEMORY WRITE beat=24 addr=07d0c778 data=3b827ef9f79eb1e6 id=0d
[315000] AXI S0_WVALID_RDY HANDSHAKE
[315000] S0 MEMORY WRITE beat=25 addr=07d0c77c data=f030b5fd302c2b7f id=0d
[315000] MASTER 0 W_VALID_RDY Handshake beat=26 wlast=0
[325000] MASTER 0 W_VALID_RDY Handshake beat=27 wlast=0
[325000] AXI S0_WVALID_RDY HANDSHAKE
[325000] S0 MEMORY WRITE beat=26 addr=07d0c780 data=1a49ed02d69131b9 id=0d
[335000] AXI S0_WVALID_RDY HANDSHAKE
[335000] S0 MEMORY WRITE beat=27 addr=07d0c784 data=ce2fe39fe5570308 id=0d
[335000] MASTER 0 W_VALID_RDY Handshake beat=28 wlast=0
[345000] MASTER 0 W_VALID_RDY Handshake beat=29 wlast=0
[345000] AXI S0_WVALID_RDY HANDSHAKE
[345000] S0 MEMORY WRITE beat=28 addr=07d0c788 data=95832e87d5cc6bfb id=0d
[355000] AXI S0_WVALID_RDY HANDSHAKE
[355000] S0 MEMORY WRITE beat=29 addr=07d0c78c data=2c5d9db43e60999c id=0d
[355000] MASTER 0 W_VALID_RDY Handshake beat=30 wlast=0
[365000] MASTER 0 W_VALID_RDY Handshake beat=31 wlast=0
[365000] AXI S0_WVALID_RDY HANDSHAKE
[365000] S0 MEMORY WRITE beat=30 addr=07d0c790 data=a3b79ca4afcd1b89 id=0d
[375000] AXI S0_WVALID_RDY HANDSHAKE
[375000] S0 MEMORY WRITE beat=31 addr=07d0c794 data=85998784fa8d8153 id=0d
[375000] MASTER 0 W_VALID_RDY Handshake beat=32 wlast=0
[385000] MASTER 0 W_VALID_RDY Handshake beat=33 wlast=0
[385000] AXI S0_WVALID_RDY HANDSHAKE
[385000] S0 MEMORY WRITE beat=32 addr=07d0c798 data=38ee1aef393acb2c id=0d
[395000] AXI S0_WVALID_RDY HANDSHAKE
[395000] S0 MEMORY WRITE beat=33 addr=07d0c79c data=e907e6b5b1f72538 id=0d
[395000] MASTER 0 W_VALID_RDY Handshake beat=34 wlast=0
[405000] MASTER 0 W_VALID_RDY Handshake beat=35 wlast=0
[405000] AXI S0_WVALID_RDY HANDSHAKE
[405000] S0 MEMORY WRITE beat=34 addr=07d0c7a0 data=ac84a68bdca5b793 id=0d
[415000] AXI S0_WVALID_RDY HANDSHAKE
[415000] S0 MEMORY WRITE beat=35 addr=07d0c7a4 data=95e082bfeea16e3a id=0d
[415000] MASTER 0 W_VALID_RDY Handshake beat=36 wlast=0
[425000] MASTER 0 W_VALID_RDY Handshake beat=37 wlast=0
[425000] AXI S0_WVALID_RDY HANDSHAKE
[425000] S0 MEMORY WRITE beat=36 addr=07d0c7a8 data=a0989372e572c17a id=0d
[435000] AXI S0_WVALID_RDY HANDSHAKE
[435000] S0 MEMORY WRITE beat=37 addr=07d0c7ac data=c218790efee86975 id=0d
[435000] MASTER 0 W_VALID_RDY Handshake beat=38 wlast=0
[445000] MASTER 0 W_VALID_RDY Handshake beat=39 wlast=0
[445000] AXI S0_WVALID_RDY HANDSHAKE
[445000] S0 MEMORY WRITE beat=38 addr=07d0c7b0 data=ed89d7afcd1d39fe id=0d
[455000] AXI S0_WVALID_RDY HANDSHAKE
[455000] S0 MEMORY WRITE beat=39 addr=07d0c7b4 data=b28ffb78d7f8fbcd id=0d
[455000] MASTER 0 W_VALID_RDY Handshake beat=40 wlast=0
[465000] MASTER 0 W_VALID_RDY Handshake beat=41 wlast=0
[465000] AXI S0_WVALID_RDY HANDSHAKE
[465000] S0 MEMORY WRITE beat=40 addr=07d0c7b8 data=d6e165428e226b21 id=0d
[475000] AXI S0_WVALID_RDY HANDSHAKE
[475000] S0 MEMORY WRITE beat=41 addr=07d0c7bc data=db3fa51ff4a87486 id=0d
[475000] MASTER 0 W_VALID_RDY Handshake beat=42 wlast=0
[485000] MASTER 0 W_VALID_RDY Handshake beat=43 wlast=0
[485000] AXI S0_WVALID_RDY HANDSHAKE
[485000] S0 MEMORY WRITE beat=42 addr=07d0c7c0 data=cca17054c46b3cf1 id=0d
[495000] AXI S0_WVALID_RDY HANDSHAKE
[495000] S0 MEMORY WRITE beat=43 addr=07d0c7c4 data=d28da8130dcfa098 id=0d
[495000] MASTER 0 W_VALID_RDY Handshake beat=44 wlast=0
[505000] MASTER 0 W_VALID_RDY Handshake beat=45 wlast=0
[505000] AXI S0_WVALID_RDY HANDSHAKE
[505000] S0 MEMORY WRITE beat=44 addr=07d0c7c8 data=8278151ea382d596 id=0d
[515000] AXI S0_WVALID_RDY HANDSHAKE
[515000] S0 MEMORY WRITE beat=45 addr=07d0c7cc data=e7ee1288adcd4d32 id=0d
[515000] MASTER 0 W_VALID_RDY Handshake beat=46 wlast=0
[525000] MASTER 0 W_VALID_RDY Handshake beat=47 wlast=0
[525000] AXI S0_WVALID_RDY HANDSHAKE
[525000] S0 MEMORY WRITE beat=46 addr=07d0c7d0 data=bb9cedcacf198572 id=0d
[535000] AXI S0_WVALID_RDY HANDSHAKE
[535000] S0 MEMORY WRITE beat=47 addr=07d0c7d4 data=f29c5b093a7bba9b id=0d
[535000] MASTER 0 W_VALID_RDY Handshake beat=48 wlast=0
[545000] MASTER 0 W_VALID_RDY Handshake beat=49 wlast=0
[545000] AXI S0_WVALID_RDY HANDSHAKE
[545000] S0 MEMORY WRITE beat=48 addr=07d0c7d8 data=e84907cd3e1502e9 id=0d
[555000] AXI S0_WVALID_RDY HANDSHAKE
[555000] S0 MEMORY WRITE beat=49 addr=07d0c7dc data=8d2e885bda8a6d91 id=0d
[555000] MASTER 0 W_VALID_RDY Handshake beat=50 wlast=0
[565000] MASTER 0 W_VALID_RDY Handshake beat=51 wlast=0
[565000] AXI S0_WVALID_RDY HANDSHAKE
[565000] S0 MEMORY WRITE beat=50 addr=07d0c7e0 data=1506282c23e5f598 id=0d
[575000] AXI S0_WVALID_RDY HANDSHAKE
[575000] S0 MEMORY WRITE beat=51 addr=07d0c7e4 data=e1faf881ffcae364 id=0d
[575000] MASTER 0 W_VALID_RDY Handshake beat=52 wlast=0
[585000] MASTER 0 W_VALID_RDY Handshake beat=53 wlast=0
[585000] AXI S0_WVALID_RDY HANDSHAKE
[585000] S0 MEMORY WRITE beat=52 addr=07d0c7e8 data=da5550f5fd4f2ff9 id=0d
[595000] AXI S0_WVALID_RDY HANDSHAKE
[595000] S0 MEMORY WRITE beat=53 addr=07d0c7ec data=a1352591ef2980dc id=0d
[595000] MASTER 0 W_VALID_RDY Handshake beat=54 wlast=0
[605000] MASTER 0 W_VALID_RDY Handshake beat=55 wlast=0
[605000] AXI S0_WVALID_RDY HANDSHAKE
[605000] S0 MEMORY WRITE beat=54 addr=07d0c7f0 data=eef46441ef5b7921 id=0d
[615000] AXI S0_WVALID_RDY HANDSHAKE
[615000] S0 MEMORY WRITE beat=55 addr=07d0c7f4 data=ecaaa91b83301e12 id=0d
[615000] MASTER 0 W_VALID_RDY Handshake beat=56 wlast=0
[625000] MASTER 0 W_VALID_RDY Handshake beat=57 wlast=0
[625000] AXI S0_WVALID_RDY HANDSHAKE
[625000] S0 MEMORY WRITE beat=56 addr=07d0c7f8 data=f2599eefc949b536 id=0d
[635000] AXI S0_WVALID_RDY HANDSHAKE
[635000] S0 MEMORY WRITE beat=57 addr=07d0c7fc data=38a52e588ddfceac id=0d
[635000] MASTER 0 W_VALID_RDY Handshake beat=58 wlast=0
[645000] MASTER 0 W_VALID_RDY Handshake beat=59 wlast=0
[645000] AXI S0_WVALID_RDY HANDSHAKE
[645000] S0 MEMORY WRITE beat=58 addr=07d0c800 data=110fecbfe14e0330 id=0d
[655000] AXI S0_WVALID_RDY HANDSHAKE
[655000] S0 MEMORY WRITE beat=59 addr=07d0c804 data=aa97b866254fd773 id=0d
[655000] MASTER 0 W_VALID_RDY Handshake beat=60 wlast=0
[665000] MASTER 0 W_VALID_RDY Handshake beat=61 wlast=0
[665000] AXI S0_WVALID_RDY HANDSHAKE
[665000] S0 MEMORY WRITE beat=60 addr=07d0c808 data=b32fa61f03698bae id=0d
[675000] AXI S0_WVALID_RDY HANDSHAKE
[675000] S0 MEMORY WRITE beat=61 addr=07d0c80c data=e4b78edee33ce6be id=0d
[675000] MASTER 0 W_VALID_RDY Handshake beat=62 wlast=0
[685000] MASTER 0 W_VALID_RDY Handshake beat=63 wlast=0
[685000] AXI S0_WVALID_RDY HANDSHAKE
[685000] S0 MEMORY WRITE beat=62 addr=07d0c810 data=888cbe31c43f92de id=0d
[695000] AXI S0_WVALID_RDY HANDSHAKE
[695000] S0 MEMORY WRITE beat=63 addr=07d0c814 data=c7a91e8c8f4f4744 id=0d
[695000] MASTER 0 W_VALID_RDY Handshake beat=64 wlast=0
[705000] MASTER 0 W_VALID_RDY Handshake beat=65 wlast=0
[705000] AXI S0_WVALID_RDY HANDSHAKE
[705000] S0 MEMORY WRITE beat=64 addr=07d0c818 data=f28c2e033bbc6451 id=0d
[715000] AXI S0_WVALID_RDY HANDSHAKE
[715000] S0 MEMORY WRITE beat=65 addr=07d0c81c data=fffbf72fac60ad6a id=0d
[715000] MASTER 0 W_VALID_RDY Handshake beat=66 wlast=0
[725000] MASTER 0 W_VALID_RDY Handshake beat=67 wlast=0
[725000] AXI S0_WVALID_RDY HANDSHAKE
[725000] S0 MEMORY WRITE beat=66 addr=07d0c820 data=3baff4affb18ec34 id=0d
[735000] AXI S0_WVALID_RDY HANDSHAKE
[735000] S0 MEMORY WRITE beat=67 addr=07d0c824 data=b6d55085c7a515bc id=0d
[735000] MASTER 0 W_VALID_RDY Handshake beat=68 wlast=0
[745000] MASTER 0 W_VALID_RDY Handshake beat=69 wlast=0
[745000] AXI S0_WVALID_RDY HANDSHAKE
[745000] S0 MEMORY WRITE beat=68 addr=07d0c828 data=f405c3262e3c22b2 id=0d
[755000] AXI S0_WVALID_RDY HANDSHAKE
[755000] S0 MEMORY WRITE beat=69 addr=07d0c82c data=a9550ee636d147b5 id=0d
[755000] MASTER 0 W_VALID_RDY Handshake beat=70 wlast=0
[765000] MASTER 0 W_VALID_RDY Handshake beat=71 wlast=0
[765000] AXI S0_WVALID_RDY HANDSHAKE
[765000] S0 MEMORY WRITE beat=70 addr=07d0c830 data=fe765d71afb5b7d5 id=0d
[775000] AXI S0_WVALID_RDY HANDSHAKE
[775000] S0 MEMORY WRITE beat=71 addr=07d0c834 data=ddf1da87e02a5f6c id=0d
[775000] MASTER 0 W_VALID_RDY Handshake beat=72 wlast=0
[785000] MASTER 0 W_VALID_RDY Handshake beat=73 wlast=0
[785000] AXI S0_WVALID_RDY HANDSHAKE
[785000] S0 MEMORY WRITE beat=72 addr=07d0c838 data=16fba721f27c2097 id=0d
[795000] AXI S0_WVALID_RDY HANDSHAKE
[795000] S0 MEMORY WRITE beat=73 addr=07d0c83c data=2231d86d0746e96e id=0d
[795000] MASTER 0 W_VALID_RDY Handshake beat=74 wlast=0
[805000] MASTER 0 W_VALID_RDY Handshake beat=75 wlast=0
[805000] AXI S0_WVALID_RDY HANDSHAKE
[805000] S0 MEMORY WRITE beat=74 addr=07d0c840 data=e77148da15720492 id=0d
[815000] AXI S0_WVALID_RDY HANDSHAKE
[815000] S0 MEMORY WRITE beat=75 addr=07d0c844 data=87ee25298023b2f4 id=0d
[815000] MASTER 0 W_VALID_RDY Handshake beat=76 wlast=0
[825000] MASTER 0 W_VALID_RDY Handshake beat=77 wlast=0
[825000] AXI S0_WVALID_RDY HANDSHAKE
[825000] S0 MEMORY WRITE beat=76 addr=07d0c848 data=876a9c62fe6ceffb id=0d
[835000] AXI S0_WVALID_RDY HANDSHAKE
[835000] S0 MEMORY WRITE beat=77 addr=07d0c84c data=13def48daa1ffd96 id=0d
[835000] MASTER 0 W_VALID_RDY Handshake beat=78 wlast=0
[845000] MASTER 0 W_VALID_RDY Handshake beat=79 wlast=0
[845000] AXI S0_WVALID_RDY HANDSHAKE
[845000] S0 MEMORY WRITE beat=78 addr=07d0c850 data=2a43b08beedbe53c id=0d
[855000] AXI S0_WVALID_RDY HANDSHAKE
[855000] S0 MEMORY WRITE beat=79 addr=07d0c854 data=ed48d5379bcd19b6 id=0d
[855000] MASTER 0 W_VALID_RDY Handshake beat=80 wlast=0
[865000] MASTER 0 W_VALID_RDY Handshake beat=81 wlast=0
[865000] AXI S0_WVALID_RDY HANDSHAKE
[865000] S0 MEMORY WRITE beat=80 addr=07d0c858 data=c5ed174db1ae4ced id=0d
[875000] AXI S0_WVALID_RDY HANDSHAKE
[875000] S0 MEMORY WRITE beat=81 addr=07d0c85c data=208a322a8127c9c4 id=0d
[875000] MASTER 0 W_VALID_RDY Handshake beat=82 wlast=0
[885000] MASTER 0 W_VALID_RDY Handshake beat=83 wlast=0
[885000] AXI S0_WVALID_RDY HANDSHAKE
[885000] S0 MEMORY WRITE beat=82 addr=07d0c860 data=1cf4e37bf030c7d8 id=0d
[895000] AXI S0_WVALID_RDY HANDSHAKE
[895000] S0 MEMORY WRITE beat=83 addr=07d0c864 data=a1df14c58dd30761 id=0d
[895000] MASTER 0 W_VALID_RDY Handshake beat=84 wlast=0
[905000] MASTER 0 W_VALID_RDY Handshake beat=85 wlast=0
[905000] AXI S0_WVALID_RDY HANDSHAKE
[905000] S0 MEMORY WRITE beat=84 addr=07d0c868 data=0efad126e2e1fac8 id=0d
[915000] AXI S0_WVALID_RDY HANDSHAKE
[915000] S0 MEMORY WRITE beat=85 addr=07d0c86c data=d312c2a0c26946ef id=0d
[915000] MASTER 0 W_VALID_RDY Handshake beat=86 wlast=0
[925000] MASTER 0 W_VALID_RDY Handshake beat=87 wlast=0
[925000] AXI S0_WVALID_RDY HANDSHAKE
[925000] S0 MEMORY WRITE beat=86 addr=07d0c870 data=d03c4e512befb4a1 id=0d
[935000] AXI S0_WVALID_RDY HANDSHAKE
[935000] S0 MEMORY WRITE beat=87 addr=07d0c874 data=0ed1af69f4f1d765 id=0d
[935000] MASTER 0 W_VALID_RDY Handshake beat=88 wlast=0
[945000] MASTER 0 W_VALID_RDY Handshake beat=89 wlast=0
[945000] AXI S0_WVALID_RDY HANDSHAKE
[945000] S0 MEMORY WRITE beat=88 addr=07d0c878 data=375b1e55df371f77 id=0d
[955000] AXI S0_WVALID_RDY HANDSHAKE
[955000] S0 MEMORY WRITE beat=89 addr=07d0c87c data=0b26d418e1e47209 id=0d
[955000] MASTER 0 W_VALID_RDY Handshake beat=90 wlast=0
[965000] MASTER 0 W_VALID_RDY Handshake beat=91 wlast=0
[965000] AXI S0_WVALID_RDY HANDSHAKE
[965000] S0 MEMORY WRITE beat=90 addr=07d0c880 data=d6d6496e07976ca6 id=0d
[975000] AXI S0_WVALID_RDY HANDSHAKE
[975000] S0 MEMORY WRITE beat=91 addr=07d0c884 data=e6ce8c1d19f88381 id=0d
[975000] MASTER 0 W_VALID_RDY Handshake beat=92 wlast=0
[985000] MASTER 0 W_VALID_RDY Handshake beat=93 wlast=0
[985000] AXI S0_WVALID_RDY HANDSHAKE
[985000] S0 MEMORY WRITE beat=92 addr=07d0c888 data=fbdcf58a8e3167c3 id=0d
[995000] AXI S0_WVALID_RDY HANDSHAKE
[995000] S0 MEMORY WRITE beat=93 addr=07d0c88c data=95c8d469f1f56035 id=0d
[995000] MASTER 0 W_VALID_RDY Handshake beat=94 wlast=0
[1005000] MASTER 0 W_VALID_RDY Handshake beat=95 wlast=0
[1005000] AXI S0_WVALID_RDY HANDSHAKE
[1005000] S0 MEMORY WRITE beat=94 addr=07d0c890 data=0bede3b6d2b33ef8 id=0d
[1015000] AXI S0_WVALID_RDY HANDSHAKE
[1015000] S0 MEMORY WRITE beat=95 addr=07d0c894 data=e0e4a6bcfc976086 id=0d
[1015000] MASTER 0 W_VALID_RDY Handshake beat=96 wlast=0
[1025000] MASTER 0 W_VALID_RDY Handshake beat=97 wlast=0
[1025000] AXI S0_WVALID_RDY HANDSHAKE
[1025000] S0 MEMORY WRITE beat=96 addr=07d0c898 data=ee8cc0bb07cad940 id=0d
[1035000] AXI S0_WVALID_RDY HANDSHAKE
[1035000] S0 MEMORY WRITE beat=97 addr=07d0c89c data=da7e1838f6ad7b25 id=0d
[1035000] MASTER 0 W_VALID_RDY Handshake beat=98 wlast=0
[1045000] MASTER 0 W_VALID_RDY Handshake beat=99 wlast=0
[1045000] AXI S0_WVALID_RDY HANDSHAKE
[1045000] S0 MEMORY WRITE beat=98 addr=07d0c8a0 data=f344dbacfa7aa471 id=0d
[1055000] AXI S0_WVALID_RDY HANDSHAKE
[1055000] S0 MEMORY WRITE beat=99 addr=07d0c8a4 data=82457db1bb62bef4 id=0d
[1055000] MASTER 0 W_VALID_RDY Handshake beat=100 wlast=0
[1065000] MASTER 0 W_VALID_RDY Handshake beat=101 wlast=0
[1065000] AXI S0_WVALID_RDY HANDSHAKE
[1065000] S0 MEMORY WRITE beat=100 addr=07d0c8a8 data=32103a1ae1d19c67 id=0d
[1075000] AXI S0_WVALID_RDY HANDSHAKE
[1075000] S0 MEMORY WRITE beat=101 addr=07d0c8ac data=dc4c40d9dcc395ea id=0d
[1075000] MASTER 0 W_VALID_RDY Handshake beat=102 wlast=0
[1085000] MASTER 0 W_VALID_RDY Handshake beat=103 wlast=0
[1085000] AXI S0_WVALID_RDY HANDSHAKE
[1085000] S0 MEMORY WRITE beat=102 addr=07d0c8b0 data=982654de255515c6 id=0d
[1095000] AXI S0_WVALID_RDY HANDSHAKE
[1095000] S0 MEMORY WRITE beat=103 addr=07d0c8b4 data=8726b22dde91be8a id=0d
[1095000] MASTER 0 W_VALID_RDY Handshake beat=104 wlast=0
[1105000] MASTER 0 W_VALID_RDY Handshake beat=105 wlast=0
[1105000] AXI S0_WVALID_RDY HANDSHAKE
[1105000] S0 MEMORY WRITE beat=104 addr=07d0c8b8 data=bb555474ca368ef8 id=0d
[1115000] AXI S0_WVALID_RDY HANDSHAKE
[1115000] S0 MEMORY WRITE beat=105 addr=07d0c8bc data=ef8ba4bee372f306 id=0d
[1115000] MASTER 0 W_VALID_RDY Handshake beat=106 wlast=0
[1125000] MASTER 0 W_VALID_RDY Handshake beat=107 wlast=0
[1125000] AXI S0_WVALID_RDY HANDSHAKE
[1125000] S0 MEMORY WRITE beat=106 addr=07d0c8c0 data=c204b191d37ba953 id=0d
[1135000] AXI S0_WVALID_RDY HANDSHAKE
[1135000] S0 MEMORY WRITE beat=107 addr=07d0c8c4 data=9db2384bf6b256ec id=0d
[1135000] MASTER 0 W_VALID_RDY Handshake beat=108 wlast=0
[1145000] MASTER 0 W_VALID_RDY Handshake beat=109 wlast=0
[1145000] AXI S0_WVALID_RDY HANDSHAKE
[1145000] S0 MEMORY WRITE beat=108 addr=07d0c8c8 data=da2549f2fd5a0605 id=0d
[1155000] AXI S0_WVALID_RDY HANDSHAKE
[1155000] S0 MEMORY WRITE beat=109 addr=07d0c8cc data=d0d5af580d3ddd0a id=0d
[1155000] MASTER 0 W_VALID_RDY Handshake beat=110 wlast=0
[1165000] MASTER 0 W_VALID_RDY Handshake beat=111 wlast=0
[1165000] AXI S0_WVALID_RDY HANDSHAKE
[1165000] S0 MEMORY WRITE beat=110 addr=07d0c8d0 data=03f033f69c29fb83 id=0d
[1175000] AXI S0_WVALID_RDY HANDSHAKE
[1175000] S0 MEMORY WRITE beat=111 addr=07d0c8d4 data=19840189ee87e7a4 id=0d
[1175000] MASTER 0 W_VALID_RDY Handshake beat=112 wlast=0
[1185000] MASTER 0 W_VALID_RDY Handshake beat=113 wlast=0
[1185000] AXI S0_WVALID_RDY HANDSHAKE
[1185000] S0 MEMORY WRITE beat=112 addr=07d0c8d8 data=fbc5c4aede157de8 id=0d
[1195000] AXI S0_WVALID_RDY HANDSHAKE
[1195000] S0 MEMORY WRITE beat=113 addr=07d0c8dc data=fa3f796cea59b0e1 id=0d
[1195000] MASTER 0 W_VALID_RDY Handshake beat=114 wlast=0
[1205000] MASTER 0 W_VALID_RDY Handshake beat=115 wlast=0
[1205000] AXI S0_WVALID_RDY HANDSHAKE
[1205000] S0 MEMORY WRITE beat=114 addr=07d0c8e0 data=d8e19885ffb5f8a4 id=0d
[1215000] AXI S0_WVALID_RDY HANDSHAKE
[1215000] S0 MEMORY WRITE beat=115 addr=07d0c8e4 data=ddcb768c13c37af5 id=0d
[1215000] MASTER 0 W_VALID_RDY Handshake beat=116 wlast=0
[1225000] MASTER 0 W_VALID_RDY Handshake beat=117 wlast=0
[1225000] AXI S0_WVALID_RDY HANDSHAKE
[1225000] S0 MEMORY WRITE beat=116 addr=07d0c8e8 data=fe1d2bd6d4a75d33 id=0d
[1235000] AXI S0_WVALID_RDY HANDSHAKE
[1235000] S0 MEMORY WRITE beat=117 addr=07d0c8ec data=d45d55d7d80aeff8 id=0d
[1235000] MASTER 0 W_VALID_RDY Handshake beat=118 wlast=0
[1245000] MASTER 0 W_VALID_RDY Handshake beat=119 wlast=0
[1245000] AXI S0_WVALID_RDY HANDSHAKE
[1245000] S0 MEMORY WRITE beat=118 addr=07d0c8f0 data=ebce6aedd6fec45c id=0d
[1255000] AXI S0_WVALID_RDY HANDSHAKE
[1255000] S0 MEMORY WRITE beat=119 addr=07d0c8f4 data=aba6218f3228cc64 id=0d
[1255000] MASTER 0 W_VALID_RDY Handshake beat=120 wlast=0
[1265000] MASTER 0 W_VALID_RDY Handshake beat=121 wlast=0
[1265000] AXI S0_WVALID_RDY HANDSHAKE
[1265000] S0 MEMORY WRITE beat=120 addr=07d0c8f8 data=8a33bc5ce9eb96c4 id=0d
[1275000] AXI S0_WVALID_RDY HANDSHAKE
[1275000] S0 MEMORY WRITE beat=121 addr=07d0c8fc data=c0ea5b2000037767 id=0d
[1275000] MASTER 0 W_VALID_RDY Handshake beat=122 wlast=0
[1285000] MASTER 0 W_VALID_RDY Handshake beat=123 wlast=0
[1285000] AXI S0_WVALID_RDY HANDSHAKE
[1285000] S0 MEMORY WRITE beat=122 addr=07d0c900 data=322c43cbf602274a id=0d
[1295000] AXI S0_WVALID_RDY HANDSHAKE
[1295000] S0 MEMORY WRITE beat=123 addr=07d0c904 data=dfedbe0eec907caf id=0d
[1295000] MASTER 0 W_VALID_RDY Handshake beat=124 wlast=0
[1305000] MASTER 0 W_VALID_RDY Handshake beat=125 wlast=0
[1305000] AXI S0_WVALID_RDY HANDSHAKE
[1305000] S0 MEMORY WRITE beat=124 addr=07d0c908 data=ec93f416bc600027 id=0d
[1315000] AXI S0_WVALID_RDY HANDSHAKE
[1315000] S0 MEMORY WRITE beat=125 addr=07d0c90c data=b262277120d8192e id=0d
[1315000] MASTER 0 W_VALID_RDY Handshake beat=126 wlast=0
[1325000] MASTER 0 W_VALID_RDY Handshake beat=127 wlast=0
[1325000] AXI S0_WVALID_RDY HANDSHAKE
[1325000] S0 MEMORY WRITE beat=126 addr=07d0c910 data=8d6895dd9ec037e1 id=0d
[1335000] AXI S0_WVALID_RDY HANDSHAKE
[1335000] S0 MEMORY WRITE beat=127 addr=07d0c914 data=db203809924fe57f id=0d
[1335000] MASTER 0 W_VALID_RDY Handshake beat=128 wlast=0
[1345000] MASTER 0 W_VALID_RDY Handshake beat=129 wlast=0
[1345000] AXI S0_WVALID_RDY HANDSHAKE
[1345000] S0 MEMORY WRITE beat=128 addr=07d0c918 data=b327feadf9fc89f4 id=0d
[1355000] AXI S0_WVALID_RDY HANDSHAKE
[1355000] S0 MEMORY WRITE beat=129 addr=07d0c91c data=98bcc1d58d825f7a id=0d
[1355000] MASTER 0 W_VALID_RDY Handshake beat=130 wlast=0
[1365000] MASTER 0 W_VALID_RDY Handshake beat=131 wlast=0
[1365000] AXI S0_WVALID_RDY HANDSHAKE
[1365000] S0 MEMORY WRITE beat=130 addr=07d0c920 data=1fd244fac090948b id=0d
[1375000] AXI S0_WVALID_RDY HANDSHAKE
[1375000] S0 MEMORY WRITE beat=131 addr=07d0c924 data=3a8d1e7ff3dcf9de id=0d
[1375000] MASTER 0 W_VALID_RDY Handshake beat=132 wlast=0
[1385000] MASTER 0 W_VALID_RDY Handshake beat=133 wlast=0
[1385000] AXI S0_WVALID_RDY HANDSHAKE
[1385000] S0 MEMORY WRITE beat=132 addr=07d0c928 data=015f5959d2fa43a7 id=0d
[1395000] AXI S0_WVALID_RDY HANDSHAKE
[1395000] S0 MEMORY WRITE beat=133 addr=07d0c92c data=938ad832d349e054 id=0d
[1395000] MASTER 0 W_VALID_RDY Handshake beat=134 wlast=0
[1405000] MASTER 0 W_VALID_RDY Handshake beat=135 wlast=0
[1405000] AXI S0_WVALID_RDY HANDSHAKE
[1405000] S0 MEMORY WRITE beat=134 addr=07d0c930 data=c726da3321319e53 id=0d
[1415000] AXI S0_WVALID_RDY HANDSHAKE
[1415000] S0 MEMORY WRITE beat=135 addr=07d0c934 data=f42be1face17f6b1 id=0d
[1415000] MASTER 0 W_VALID_RDY Handshake beat=136 wlast=0
[1425000] MASTER 0 W_VALID_RDY Handshake beat=137 wlast=0
[1425000] AXI S0_WVALID_RDY HANDSHAKE
[1425000] S0 MEMORY WRITE beat=136 addr=07d0c938 data=2161d706c886338c id=0d
[1435000] AXI S0_WVALID_RDY HANDSHAKE
[1435000] S0 MEMORY WRITE beat=137 addr=07d0c93c data=e9b7d1df07b6ba2d id=0d
[1435000] MASTER 0 W_VALID_RDY Handshake beat=138 wlast=0
[1445000] MASTER 0 W_VALID_RDY Handshake beat=139 wlast=0
[1445000] AXI S0_WVALID_RDY HANDSHAKE
[1445000] S0 MEMORY WRITE beat=138 addr=07d0c940 data=d5ceb0dee888b139 id=0d
[1455000] AXI S0_WVALID_RDY HANDSHAKE
[1455000] S0 MEMORY WRITE beat=139 addr=07d0c944 data=310ee4c5dde3b3d9 id=0d
[1455000] MASTER 0 W_VALID_RDY Handshake beat=140 wlast=0
[1465000] MASTER 0 W_VALID_RDY Handshake beat=141 wlast=0
[1465000] AXI S0_WVALID_RDY HANDSHAKE
[1465000] S0 MEMORY WRITE beat=140 addr=07d0c948 data=e59a6e06f73087e4 id=0d
[1475000] AXI S0_WVALID_RDY HANDSHAKE
[1475000] S0 MEMORY WRITE beat=141 addr=07d0c94c data=dfb9391d1ac6b6a4 id=0d
[1475000] MASTER 0 W_VALID_RDY Handshake beat=142 wlast=0
[1485000] MASTER 0 W_VALID_RDY Handshake beat=143 wlast=0
[1485000] AXI S0_WVALID_RDY HANDSHAKE
[1485000] S0 MEMORY WRITE beat=142 addr=07d0c950 data=f8aa6a7d3b691ee5 id=0d
[1495000] AXI S0_WVALID_RDY HANDSHAKE
[1495000] S0 MEMORY WRITE beat=143 addr=07d0c954 data=b299a6c990c81de2 id=0d
[1495000] MASTER 0 W_VALID_RDY Handshake beat=144 wlast=0
[1505000] MASTER 0 W_VALID_RDY Handshake beat=145 wlast=0
[1505000] AXI S0_WVALID_RDY HANDSHAKE
[1505000] S0 MEMORY WRITE beat=144 addr=07d0c958 data=ab8ed486de44d884 id=0d
[1515000] AXI S0_WVALID_RDY HANDSHAKE
[1515000] S0 MEMORY WRITE beat=145 addr=07d0c95c data=19adf7691252dfe7 id=0d
[1515000] MASTER 0 W_VALID_RDY Handshake beat=146 wlast=0
[1525000] MASTER 0 W_VALID_RDY Handshake beat=147 wlast=0
[1525000] AXI S0_WVALID_RDY HANDSHAKE
[1525000] S0 MEMORY WRITE beat=146 addr=07d0c960 data=a31afdc924393f04 id=0d
[1535000] AXI S0_WVALID_RDY HANDSHAKE
[1535000] S0 MEMORY WRITE beat=147 addr=07d0c964 data=027e1788cc479e32 id=0d
[1535000] MASTER 0 W_VALID_RDY Handshake beat=148 wlast=0
[1545000] MASTER 0 W_VALID_RDY Handshake beat=149 wlast=0
[1545000] AXI S0_WVALID_RDY HANDSHAKE
[1545000] S0 MEMORY WRITE beat=148 addr=07d0c968 data=de9a7e19cea9d250 id=0d
[1555000] AXI S0_WVALID_RDY HANDSHAKE
[1555000] S0 MEMORY WRITE beat=149 addr=07d0c96c data=f2e311541c2c0ef1 id=0d
[1555000] MASTER 0 W_VALID_RDY Handshake beat=150 wlast=0
[1565000] MASTER 0 W_VALID_RDY Handshake beat=151 wlast=0
[1565000] AXI S0_WVALID_RDY HANDSHAKE
[1565000] S0 MEMORY WRITE beat=150 addr=07d0c970 data=e873ad2301b57be3 id=0d
[1575000] AXI S0_WVALID_RDY HANDSHAKE
[1575000] S0 MEMORY WRITE beat=151 addr=07d0c974 data=d05f4e33f56128dc id=0d
[1575000] MASTER 0 W_VALID_RDY Handshake beat=152 wlast=0
[1585000] MASTER 0 W_VALID_RDY Handshake beat=153 wlast=0
[1585000] AXI S0_WVALID_RDY HANDSHAKE
[1585000] S0 MEMORY WRITE beat=152 addr=07d0c978 data=118d37cdc70e2b3d id=0d
[1595000] AXI S0_WVALID_RDY HANDSHAKE
[1595000] S0 MEMORY WRITE beat=153 addr=07d0c97c data=c8c3a720c3425f87 id=0d
[1595000] MASTER 0 W_VALID_RDY Handshake beat=154 wlast=0
[1605000] MASTER 0 W_VALID_RDY Handshake beat=155 wlast=0
[1605000] AXI S0_WVALID_RDY HANDSHAKE
[1605000] S0 MEMORY WRITE beat=154 addr=07d0c980 data=38a38863fa00e4f0 id=0d
[1615000] AXI S0_WVALID_RDY HANDSHAKE
[1615000] S0 MEMORY WRITE beat=155 addr=07d0c984 data=c10f102d1922f553 id=0d
[1615000] MASTER 0 W_VALID_RDY Handshake beat=156 wlast=0
[1625000] MASTER 0 W_VALID_RDY Handshake beat=157 wlast=0
[1625000] AXI S0_WVALID_RDY HANDSHAKE
[1625000] S0 MEMORY WRITE beat=156 addr=07d0c988 data=dc6554daca30c030 id=0d
[1635000] AXI S0_WVALID_RDY HANDSHAKE
[1635000] S0 MEMORY WRITE beat=157 addr=07d0c98c data=c431a52089d2b74d id=0d
[1635000] MASTER 0 W_VALID_RDY Handshake beat=158 wlast=0
[1645000] MASTER 0 W_VALID_RDY Handshake beat=159 wlast=0
[1645000] AXI S0_WVALID_RDY HANDSHAKE
[1645000] S0 MEMORY WRITE beat=158 addr=07d0c990 data=a2f5aca01508dd3d id=0d
[1655000] AXI S0_WVALID_RDY HANDSHAKE
[1655000] S0 MEMORY WRITE beat=159 addr=07d0c994 data=df399d6d0540b54e id=0d
[1655000] MASTER 0 W_VALID_RDY Handshake beat=160 wlast=0
[1665000] MASTER 0 W_VALID_RDY Handshake beat=161 wlast=0
[1665000] AXI S0_WVALID_RDY HANDSHAKE
[1665000] S0 MEMORY WRITE beat=160 addr=07d0c998 data=8f136c9bff5b017a id=0d
[1675000] AXI S0_WVALID_RDY HANDSHAKE
[1675000] S0 MEMORY WRITE beat=161 addr=07d0c99c data=9463deb7a36b428d id=0d
[1675000] MASTER 0 W_VALID_RDY Handshake beat=162 wlast=0
[1685000] MASTER 0 W_VALID_RDY Handshake beat=163 wlast=0
[1685000] AXI S0_WVALID_RDY HANDSHAKE
[1685000] S0 MEMORY WRITE beat=162 addr=07d0c9a0 data=a8abf7db3209193c id=0d
[1695000] AXI S0_WVALID_RDY HANDSHAKE
[1695000] S0 MEMORY WRITE beat=163 addr=07d0c9a4 data=b1641ab6f39d7c24 id=0d
[1695000] MASTER 0 W_VALID_RDY Handshake beat=164 wlast=0
[1705000] MASTER 0 W_VALID_RDY Handshake beat=165 wlast=0
[1705000] AXI S0_WVALID_RDY HANDSHAKE
[1705000] S0 MEMORY WRITE beat=164 addr=07d0c9a8 data=1708beb237bf6477 id=0d
[1715000] AXI S0_WVALID_RDY HANDSHAKE
[1715000] S0 MEMORY WRITE beat=165 addr=07d0c9ac data=e9c87db3c5c7f96e id=0d
[1715000] MASTER 0 W_VALID_RDY Handshake beat=166 wlast=0
[1725000] MASTER 0 W_VALID_RDY Handshake beat=167 wlast=0
[1725000] AXI S0_WVALID_RDY HANDSHAKE
[1725000] S0 MEMORY WRITE beat=166 addr=07d0c9b0 data=b9657592bfb4b68d id=0d
[1735000] AXI S0_WVALID_RDY HANDSHAKE
[1735000] S0 MEMORY WRITE beat=167 addr=07d0c9b4 data=f7741b049b2c9869 id=0d
[1735000] MASTER 0 W_VALID_RDY Handshake beat=168 wlast=0
[1745000] MASTER 0 W_VALID_RDY Handshake beat=169 wlast=0
[1745000] AXI S0_WVALID_RDY HANDSHAKE
[1745000] S0 MEMORY WRITE beat=168 addr=07d0c9b8 data=e0f491d7d06e3444 id=0d
[1755000] AXI S0_WVALID_RDY HANDSHAKE
[1755000] S0 MEMORY WRITE beat=169 addr=07d0c9bc data=1022ead2e13c98b7 id=0d
[1755000] MASTER 0 W_VALID_RDY Handshake beat=170 wlast=0
[1765000] MASTER 0 W_VALID_RDY Handshake beat=171 wlast=0
[1765000] AXI S0_WVALID_RDY HANDSHAKE
[1765000] S0 MEMORY WRITE beat=170 addr=07d0c9c0 data=fc6931211a5a076a id=0d
[1775000] AXI S0_WVALID_RDY HANDSHAKE
[1775000] S0 MEMORY WRITE beat=171 addr=07d0c9c4 data=eac83bae879705d6 id=0d
[1775000] MASTER 0 W_VALID_RDY Handshake beat=172 wlast=0
[1785000] MASTER 0 W_VALID_RDY Handshake beat=173 wlast=0
[1785000] AXI S0_WVALID_RDY HANDSHAKE
[1785000] S0 MEMORY WRITE beat=172 addr=07d0c9c8 data=e8d39e8edd5dc2f8 id=0d
[1795000] AXI S0_WVALID_RDY HANDSHAKE
[1795000] S0 MEMORY WRITE beat=173 addr=07d0c9cc data=f7b7ca62faeb2680 id=0d
[1795000] MASTER 0 W_VALID_RDY Handshake beat=174 wlast=0
[1805000] MASTER 0 W_VALID_RDY Handshake beat=175 wlast=0
[1805000] AXI S0_WVALID_RDY HANDSHAKE
[1805000] S0 MEMORY WRITE beat=174 addr=07d0c9d0 data=02822c57e53ccfaf id=0d
[1815000] AXI S0_WVALID_RDY HANDSHAKE
[1815000] S0 MEMORY WRITE beat=175 addr=07d0c9d4 data=c29a92a7e2800611 id=0d
[1815000] MASTER 0 W_VALID_RDY Handshake beat=176 wlast=0
[1825000] MASTER 0 W_VALID_RDY Handshake beat=177 wlast=0
[1825000] AXI S0_WVALID_RDY HANDSHAKE
[1825000] S0 MEMORY WRITE beat=176 addr=07d0c9d8 data=dd6b2c91eb55cae5 id=0d
[1835000] AXI S0_WVALID_RDY HANDSHAKE
[1835000] S0 MEMORY WRITE beat=177 addr=07d0c9dc data=d0929a943a525d0a id=0d
[1835000] MASTER 0 W_VALID_RDY Handshake beat=178 wlast=0
[1845000] MASTER 0 W_VALID_RDY Handshake beat=179 wlast=0
[1845000] AXI S0_WVALID_RDY HANDSHAKE
[1845000] S0 MEMORY WRITE beat=178 addr=07d0c9e0 data=1cd2631bdfed58e8 id=0d
[1855000] AXI S0_WVALID_RDY HANDSHAKE
[1855000] S0 MEMORY WRITE beat=179 addr=07d0c9e4 data=cb4323cd932d2d3b id=0d
[1855000] MASTER 0 W_VALID_RDY Handshake beat=180 wlast=0
[1865000] MASTER 0 W_VALID_RDY Handshake beat=181 wlast=0
[1865000] AXI S0_WVALID_RDY HANDSHAKE
[1865000] S0 MEMORY WRITE beat=180 addr=07d0c9e8 data=cd7f8a45fa3d8fac id=0d
[1875000] AXI S0_WVALID_RDY HANDSHAKE
[1875000] S0 MEMORY WRITE beat=181 addr=07d0c9ec data=da2ae8959bd5be61 id=0d
[1875000] MASTER 0 W_VALID_RDY Handshake beat=182 wlast=0
[1885000] MASTER 0 W_VALID_RDY Handshake beat=183 wlast=0
[1885000] AXI S0_WVALID_RDY HANDSHAKE
[1885000] S0 MEMORY WRITE beat=182 addr=07d0c9f0 data=2f02eb9dea51ed60 id=0d
[1895000] AXI S0_WVALID_RDY HANDSHAKE
[1895000] S0 MEMORY WRITE beat=183 addr=07d0c9f4 data=e48f7d0da56e0c62 id=0d
[1895000] MASTER 0 W_VALID_RDY Handshake beat=184 wlast=0
[1905000] MASTER 0 W_VALID_RDY Handshake beat=185 wlast=0
[1905000] AXI S0_WVALID_RDY HANDSHAKE
[1905000] S0 MEMORY WRITE beat=184 addr=07d0c9f8 data=c143cac4fc8275e2 id=0d
[1915000] AXI S0_WVALID_RDY HANDSHAKE
[1915000] S0 MEMORY WRITE beat=185 addr=07d0c9fc data=e6d463433eba65a2 id=0d
[1915000] MASTER 0 W_VALID_RDY Handshake beat=186 wlast=0
[1925000] MASTER 0 W_VALID_RDY Handshake beat=187 wlast=0
[1925000] AXI S0_WVALID_RDY HANDSHAKE
[1925000] S0 MEMORY WRITE beat=186 addr=07d0ca00 data=e4287204f046b661 id=0d
[1935000] AXI S0_WVALID_RDY HANDSHAKE
[1935000] S0 MEMORY WRITE beat=187 addr=07d0ca04 data=ecc92c43cb63e050 id=0d
[1935000] MASTER 0 W_VALID_RDY Handshake beat=188 wlast=0
[1945000] MASTER 0 W_VALID_RDY Handshake beat=189 wlast=0
[1945000] AXI S0_WVALID_RDY HANDSHAKE
[1945000] S0 MEMORY WRITE beat=188 addr=07d0ca08 data=0a1e45f2a56c3cc8 id=0d
[1955000] AXI S0_WVALID_RDY HANDSHAKE
[1955000] S0 MEMORY WRITE beat=189 addr=07d0ca0c data=95b2f329d39d8f86 id=0d
[1955000] MASTER 0 W_VALID_RDY Handshake beat=190 wlast=0
[1965000] MASTER 0 W_VALID_RDY Handshake beat=191 wlast=0
[1965000] AXI S0_WVALID_RDY HANDSHAKE
[1965000] S0 MEMORY WRITE beat=190 addr=07d0ca10 data=9f016fd6ee46b7f6 id=0d
[1975000] AXI S0_WVALID_RDY HANDSHAKE
[1975000] S0 MEMORY WRITE beat=191 addr=07d0ca14 data=13b2f4bf027c1f6d id=0d
[1975000] MASTER 0 W_VALID_RDY Handshake beat=192 wlast=0
[1985000] MASTER 0 W_VALID_RDY Handshake beat=193 wlast=0
[1985000] AXI S0_WVALID_RDY HANDSHAKE
[1985000] S0 MEMORY WRITE beat=192 addr=07d0ca18 data=d619aef3a91fb5c8 id=0d
[1995000] AXI S0_WVALID_RDY HANDSHAKE
[1995000] S0 MEMORY WRITE beat=193 addr=07d0ca1c data=17666dbfa965e7e8 id=0d
[1995000] MASTER 0 W_VALID_RDY Handshake beat=194 wlast=0
[2005000] MASTER 0 W_VALID_RDY Handshake beat=195 wlast=0
[2005000] AXI S0_WVALID_RDY HANDSHAKE
[2005000] S0 MEMORY WRITE beat=194 addr=07d0ca20 data=abe20755f51b1eca id=0d
[2015000] AXI S0_WVALID_RDY HANDSHAKE
[2015000] S0 MEMORY WRITE beat=195 addr=07d0ca24 data=9e3ad4922b19627e id=0d
[2015000] MASTER 0 W_VALID_RDY Handshake beat=196 wlast=0
[2025000] MASTER 0 W_VALID_RDY Handshake beat=197 wlast=0
[2025000] AXI S0_WVALID_RDY HANDSHAKE
[2025000] S0 MEMORY WRITE beat=196 addr=07d0ca28 data=d47f4a6601fbb649 id=0d
[2035000] AXI S0_WVALID_RDY HANDSHAKE
[2035000] S0 MEMORY WRITE beat=197 addr=07d0ca2c data=f716d513b5a14251 id=0d
[2035000] MASTER 0 W_VALID_RDY Handshake beat=198 wlast=0
[2045000] MASTER 0 W_VALID_RDY Handshake beat=199 wlast=0
[2045000] AXI S0_WVALID_RDY HANDSHAKE
[2045000] S0 MEMORY WRITE beat=198 addr=07d0ca30 data=e0baa4cf006151bc id=0d
[2055000] AXI S0_WVALID_RDY HANDSHAKE
[2055000] S0 MEMORY WRITE beat=199 addr=07d0ca34 data=025d08059551a9a5 id=0d
[2055000] MASTER 0 W_VALID_RDY Handshake beat=200 wlast=0
[2065000] MASTER 0 W_VALID_RDY Handshake beat=201 wlast=0
[2065000] AXI S0_WVALID_RDY HANDSHAKE
[2065000] S0 MEMORY WRITE beat=200 addr=07d0ca38 data=caf2ebf73539ef36 id=0d
[2075000] AXI S0_WVALID_RDY HANDSHAKE
[2075000] S0 MEMORY WRITE beat=201 addr=07d0ca3c data=359b40f2f973dd18 id=0d
[2075000] MASTER 0 W_VALID_RDY Handshake beat=202 wlast=0
[2085000] MASTER 0 W_VALID_RDY Handshake beat=203 wlast=0
[2085000] AXI S0_WVALID_RDY HANDSHAKE
[2085000] S0 MEMORY WRITE beat=202 addr=07d0ca40 data=8ec586bdabad90c6 id=0d
[2095000] AXI S0_WVALID_RDY HANDSHAKE
[2095000] S0 MEMORY WRITE beat=203 addr=07d0ca44 data=e0e77ffc37f848f7 id=0d
[2095000] MASTER 0 W_VALID_RDY Handshake beat=204 wlast=0
[2105000] MASTER 0 W_VALID_RDY Handshake beat=205 wlast=0
[2105000] AXI S0_WVALID_RDY HANDSHAKE
[2105000] S0 MEMORY WRITE beat=204 addr=07d0ca48 data=316c260fd9b872b4 id=0d
[2115000] AXI S0_WVALID_RDY HANDSHAKE
[2115000] S0 MEMORY WRITE beat=205 addr=07d0ca4c data=0566037b9682c0ee id=0d
[2115000] MASTER 0 W_VALID_RDY Handshake beat=206 wlast=0
[2125000] MASTER 0 W_VALID_RDY Handshake beat=207 wlast=0
[2125000] AXI S0_WVALID_RDY HANDSHAKE
[2125000] S0 MEMORY WRITE beat=206 addr=07d0ca50 data=ce7b09e5c031accc id=0d
[2135000] AXI S0_WVALID_RDY HANDSHAKE
[2135000] S0 MEMORY WRITE beat=207 addr=07d0ca54 data=19ea1f81e64d8377 id=0d
[2135000] MASTER 0 W_VALID_RDY Handshake beat=208 wlast=0
[2145000] MASTER 0 W_VALID_RDY Handshake beat=209 wlast=0
[2145000] AXI S0_WVALID_RDY HANDSHAKE
[2145000] S0 MEMORY WRITE beat=208 addr=07d0ca58 data=fcd04466ffe72ff4 id=0d
[2155000] AXI S0_WVALID_RDY HANDSHAKE
[2155000] S0 MEMORY WRITE beat=209 addr=07d0ca5c data=c018dcc11f5022fc id=0d
[2155000] MASTER 0 W_VALID_RDY Handshake beat=210 wlast=0
[2165000] MASTER 0 W_VALID_RDY Handshake beat=211 wlast=0
[2165000] AXI S0_WVALID_RDY HANDSHAKE
[2165000] S0 MEMORY WRITE beat=210 addr=07d0ca60 data=859da673cb4b4e4b id=0d
[2175000] AXI S0_WVALID_RDY HANDSHAKE
[2175000] S0 MEMORY WRITE beat=211 addr=07d0ca64 data=cb327e40da02fc42 id=0d
[2175000] MASTER 0 W_VALID_RDY Handshake beat=212 wlast=0
[2185000] MASTER 0 W_VALID_RDY Handshake beat=213 wlast=0
[2185000] AXI S0_WVALID_RDY HANDSHAKE
[2185000] S0 MEMORY WRITE beat=212 addr=07d0ca68 data=f9531f3e826dead9 id=0d
[2195000] AXI S0_WVALID_RDY HANDSHAKE
[2195000] S0 MEMORY WRITE beat=213 addr=07d0ca6c data=cdb939250b4b5b01 id=0d
[2195000] MASTER 0 W_VALID_RDY Handshake beat=214 wlast=0
[2205000] MASTER 0 W_VALID_RDY Handshake beat=215 wlast=0
[2205000] AXI S0_WVALID_RDY HANDSHAKE
[2205000] S0 MEMORY WRITE beat=214 addr=07d0ca70 data=e54e5743fef0c5b1 id=0d
[2215000] AXI S0_WVALID_RDY HANDSHAKE
[2215000] S0 MEMORY WRITE beat=215 addr=07d0ca74 data=015eb08b18ebb765 id=0d
[2215000] MASTER 0 W_VALID_RDY Handshake beat=216 wlast=0
[2225000] MASTER 0 W_VALID_RDY Handshake beat=217 wlast=0
[2225000] AXI S0_WVALID_RDY HANDSHAKE
[2225000] S0 MEMORY WRITE beat=216 addr=07d0ca78 data=24371266dea17681 id=0d
[2235000] AXI S0_WVALID_RDY HANDSHAKE
[2235000] S0 MEMORY WRITE beat=217 addr=07d0ca7c data=dd923c32cf17e9b0 id=0d
[2235000] MASTER 0 W_VALID_RDY Handshake beat=218 wlast=0
[2245000] MASTER 0 W_VALID_RDY Handshake beat=219 wlast=0
[2245000] AXI S0_WVALID_RDY HANDSHAKE
[2245000] S0 MEMORY WRITE beat=218 addr=07d0ca80 data=e803a115098569a9 id=0d
[2255000] AXI S0_WVALID_RDY HANDSHAKE
[2255000] S0 MEMORY WRITE beat=219 addr=07d0ca84 data=e826e02adef0ecbd id=0d
[2255000] MASTER 0 W_VALID_RDY Handshake beat=220 wlast=0
[2265000] MASTER 0 W_VALID_RDY Handshake beat=221 wlast=0
[2265000] AXI S0_WVALID_RDY HANDSHAKE
[2265000] S0 MEMORY WRITE beat=220 addr=07d0ca88 data=ae08d66d0c3ab37b id=0d
[2275000] AXI S0_WVALID_RDY HANDSHAKE
[2275000] S0 MEMORY WRITE beat=221 addr=07d0ca8c data=15c01d24c5b91c5c id=0d
[2275000] MASTER 0 W_VALID_RDY Handshake beat=222 wlast=0
[2285000] MASTER 0 W_VALID_RDY Handshake beat=223 wlast=0
[2285000] AXI S0_WVALID_RDY HANDSHAKE
[2285000] S0 MEMORY WRITE beat=222 addr=07d0ca90 data=24aa091a960c7782 id=0d
[2295000] AXI S0_WVALID_RDY HANDSHAKE
[2295000] S0 MEMORY WRITE beat=223 addr=07d0ca94 data=a2472afdfde6fd4e id=0d
[2295000] MASTER 0 W_VALID_RDY Handshake beat=224 wlast=0
[2305000] MASTER 0 W_VALID_RDY Handshake beat=225 wlast=0
[2305000] AXI S0_WVALID_RDY HANDSHAKE
[2305000] S0 MEMORY WRITE beat=224 addr=07d0ca98 data=c3a019aad2b2df87 id=0d
[2315000] AXI S0_WVALID_RDY HANDSHAKE
[2315000] S0 MEMORY WRITE beat=225 addr=07d0ca9c data=e8bf570ab8074821 id=0d
[2315000] MASTER 0 W_VALID_RDY Handshake beat=226 wlast=0
[2325000] MASTER 0 W_VALID_RDY Handshake beat=227 wlast=0
[2325000] AXI S0_WVALID_RDY HANDSHAKE
[2325000] S0 MEMORY WRITE beat=226 addr=07d0caa0 data=b5ee456fe84a22c4 id=0d
[2335000] AXI S0_WVALID_RDY HANDSHAKE
[2335000] S0 MEMORY WRITE beat=227 addr=07d0caa4 data=3afd024c8b068207 id=0d
[2335000] MASTER 0 W_VALID_RDY Handshake beat=228 wlast=0
[2345000] MASTER 0 W_VALID_RDY Handshake beat=229 wlast=0
[2345000] AXI S0_WVALID_RDY HANDSHAKE
[2345000] S0 MEMORY WRITE beat=228 addr=07d0caa8 data=c30dca29f98e5f1a id=0d
[2355000] AXI S0_WVALID_RDY HANDSHAKE
[2355000] S0 MEMORY WRITE beat=229 addr=07d0caac data=e1d881de23bc5956 id=0d
[2355000] MASTER 0 W_VALID_RDY Handshake beat=230 wlast=0
[2365000] MASTER 0 W_VALID_RDY Handshake beat=231 wlast=0
[2365000] AXI S0_WVALID_RDY HANDSHAKE
[2365000] S0 MEMORY WRITE beat=230 addr=07d0cab0 data=aec2db5df8fc0f98 id=0d
[2375000] AXI S0_WVALID_RDY HANDSHAKE
[2375000] S0 MEMORY WRITE beat=231 addr=07d0cab4 data=f28a6eb29cd5842a id=0d
[2375000] MASTER 0 W_VALID_RDY Handshake beat=232 wlast=0
[2385000] MASTER 0 W_VALID_RDY Handshake beat=233 wlast=0
[2385000] AXI S0_WVALID_RDY HANDSHAKE
[2385000] S0 MEMORY WRITE beat=232 addr=07d0cab8 data=c091dd80f1d0a586 id=0d
[2395000] AXI S0_WVALID_RDY HANDSHAKE
[2395000] S0 MEMORY WRITE beat=233 addr=07d0cabc data=eaccb51fd462f091 id=0d
[2395000] MASTER 0 W_VALID_RDY Handshake beat=234 wlast=0
[2405000] MASTER 0 W_VALID_RDY Handshake beat=235 wlast=0
[2405000] AXI S0_WVALID_RDY HANDSHAKE
[2405000] S0 MEMORY WRITE beat=234 addr=07d0cac0 data=f13874bbef54b8de id=0d
[2415000] AXI S0_WVALID_RDY HANDSHAKE
[2415000] S0 MEMORY WRITE beat=235 addr=07d0cac4 data=e1255e64dd5723d1 id=0d
[2415000] MASTER 0 W_VALID_RDY Handshake beat=236 wlast=0
[2425000] MASTER 0 W_VALID_RDY Handshake beat=237 wlast=0
[2425000] AXI S0_WVALID_RDY HANDSHAKE
[2425000] S0 MEMORY WRITE beat=236 addr=07d0cac8 data=b1ba146231ca523c id=0d
[2435000] AXI S0_WVALID_RDY HANDSHAKE
[2435000] S0 MEMORY WRITE beat=237 addr=07d0cacc data=211f0b1acbf21383 id=0d
[2435000] MASTER 0 W_VALID_RDY Handshake beat=238 wlast=0
[2445000] MASTER 0 W_VALID_RDY Handshake beat=239 wlast=0
[2445000] AXI S0_WVALID_RDY HANDSHAKE
[2445000] S0 MEMORY WRITE beat=238 addr=07d0cad0 data=2949375522f2891e id=0d
[2455000] AXI S0_WVALID_RDY HANDSHAKE
[2455000] S0 MEMORY WRITE beat=239 addr=07d0cad4 data=d4bcdb5a8244697e id=0d
[2455000] MASTER 0 W_VALID_RDY Handshake beat=240 wlast=0
[2465000] MASTER 0 W_VALID_RDY Handshake beat=241 wlast=0
[2465000] AXI S0_WVALID_RDY HANDSHAKE
[2465000] S0 MEMORY WRITE beat=240 addr=07d0cad8 data=ce367d02db034bb7 id=0d
[2475000] AXI S0_WVALID_RDY HANDSHAKE
[2475000] S0 MEMORY WRITE beat=241 addr=07d0cadc data=fdf5d4d5f5dbe674 id=0d
[2475000] MASTER 0 W_VALID_RDY Handshake beat=242 wlast=0
[2485000] MASTER 0 W_VALID_RDY Handshake beat=243 wlast=0
[2485000] AXI S0_WVALID_RDY HANDSHAKE
[2485000] S0 MEMORY WRITE beat=242 addr=07d0cae0 data=f8204ff2f77fb457 id=0d
[2495000] AXI S0_WVALID_RDY HANDSHAKE
[2495000] S0 MEMORY WRITE beat=243 addr=07d0cae4 data=d283000ed2b2b02f id=0d
[2495000] MASTER 0 W_VALID_RDY Handshake beat=244 wlast=0
[2505000] MASTER_DRIVER0 received transaction, op=AXI_WRITE
[2505000] MASTER 0 W_VALID_RDY Handshake beat=245 wlast=1
[2505000] AXI S0_WVALID_RDY HANDSHAKE
[2505000] S0 MEMORY WRITE beat=244 addr=07d0cae8 data=c88e96a3c656ccf4 id=0d
[2515000] AXI S0_WVALID_RDY HANDSHAKE
[2515000] S0 MEMORY WRITE beat=245 addr=07d0caec data=bdd6814bd078d4e4 id=0d
[2525000] MASTER 0 AW_VALID_RDY Handshake
[2525000] SLAVE0 sent B resp, id=13
[2535000] AXI S0_AWVALID_RDY HANDSHAKE
[2535000] [SLAVE MONITOR] mst_id=0 s_id=0 awaddr=7d0c718 awid=1101 awlen=245 awsize=2 awburst=1 wdata=[3105f00dcd3487b9 f1abeaa72e1f4408 895d4a0d8574edb2 d2a9756cdaa6038b 8c54793ba633a1a 3fd827cdc4556013 9efb639e922291a0 cc85cbbb12819d39 d6d6fd4ca7c0ab31 39e33cd20c5df388 1edf90c1f5d260eb 9d930c1c0669088d 12c6fc15f5b68e0d eb88eef8d77648ee dddf517b31a68cd6 a75d1ae3091bfb15 e0924403f0a64d90 a24cda6612e609dc 1c0204f13e71957f af17e30fc9a9f54a dc8fff26fc9448f4 bb05de73d164bd76 1b0eb2c0f8920417 f5264d0bea1dc183 3b827ef9f79eb1e6 f030b5fd302c2b7f 1a49ed02d69131b9 ce2fe39fe5570308 95832e87d5cc6bfb 2c5d9db43e60999c a3b79ca4afcd1b89 85998784fa8d8153 38ee1aef393acb2c e907e6b5b1f72538 ac84a68bdca5b793 95e082bfeea16e3a a0989372e572c17a c218790efee86975 ed89d7afcd1d39fe b28ffb78d7f8fbcd d6e165428e226b21 db3fa51ff4a87486 cca17054c46b3cf1 d28da8130dcfa098 8278151ea382d596 e7ee1288adcd4d32 bb9cedcacf198572 f29c5b093a7bba9b e84907cd3e1502e9 8d2e885bda8a6d91 1506282c23e5f598 e1faf881ffcae364 da5550f5fd4f2ff9 a1352591ef2980dc eef46441ef5b7921 ecaaa91b83301e12 f2599eefc949b536 38a52e588ddfceac 110fecbfe14e0330 aa97b866254fd773 b32fa61f03698bae e4b78edee33ce6be 888cbe31c43f92de c7a91e8c8f4f4744 f28c2e033bbc6451 fffbf72fac60ad6a 3baff4affb18ec34 b6d55085c7a515bc f405c3262e3c22b2 a9550ee636d147b5 fe765d71afb5b7d5 ddf1da87e02a5f6c 16fba721f27c2097 2231d86d0746e96e e77148da15720492 87ee25298023b2f4 876a9c62fe6ceffb 13def48daa1ffd96 2a43b08beedbe53c ed48d5379bcd19b6 c5ed174db1ae4ced 208a322a8127c9c4 1cf4e37bf030c7d8 a1df14c58dd30761 efad126e2e1fac8 d312c2a0c26946ef d03c4e512befb4a1 ed1af69f4f1d765 375b1e55df371f77 b26d418e1e47209 d6d6496e07976ca6 e6ce8c1d19f88381 fbdcf58a8e3167c3 95c8d469f1f56035 bede3b6d2b33ef8 e0e4a6bcfc976086 ee8cc0bb07cad940 da7e1838f6ad7b25 f344dbacfa7aa471 82457db1bb62bef4 32103a1ae1d19c67 dc4c40d9dcc395ea 982654de255515c6 8726b22dde91be8a bb555474ca368ef8 ef8ba4bee372f306 c204b191d37ba953 9db2384bf6b256ec da2549f2fd5a0605 d0d5af580d3ddd0a 3f033f69c29fb83 19840189ee87e7a4 fbc5c4aede157de8 fa3f796cea59b0e1 d8e19885ffb5f8a4 ddcb768c13c37af5 fe1d2bd6d4a75d33 d45d55d7d80aeff8 ebce6aedd6fec45c aba6218f3228cc64 8a33bc5ce9eb96c4 c0ea5b2000037767 322c43cbf602274a dfedbe0eec907caf ec93f416bc600027 b262277120d8192e 8d6895dd9ec037e1 db203809924fe57f b327feadf9fc89f4 98bcc1d58d825f7a 1fd244fac090948b 3a8d1e7ff3dcf9de 15f5959d2fa43a7 938ad832d349e054 c726da3321319e53 f42be1face17f6b1 2161d706c886338c e9b7d1df07b6ba2d d5ceb0dee888b139 310ee4c5dde3b3d9 e59a6e06f73087e4 dfb9391d1ac6b6a4 f8aa6a7d3b691ee5 b299a6c990c81de2 ab8ed486de44d884 19adf7691252dfe7 a31afdc924393f04 27e1788cc479e32 de9a7e19cea9d250 f2e311541c2c0ef1 e873ad2301b57be3 d05f4e33f56128dc 118d37cdc70e2b3d c8c3a720c3425f87 38a38863fa00e4f0 c10f102d1922f553 dc6554daca30c030 c431a52089d2b74d a2f5aca01508dd3d df399d6d0540b54e 8f136c9bff5b017a 9463deb7a36b428d a8abf7db3209193c b1641ab6f39d7c24 1708beb237bf6477 e9c87db3c5c7f96e b9657592bfb4b68d f7741b049b2c9869 e0f491d7d06e3444 1022ead2e13c98b7 fc6931211a5a076a eac83bae879705d6 e8d39e8edd5dc2f8 f7b7ca62faeb2680 2822c57e53ccfaf c29a92a7e2800611 dd6b2c91eb55cae5 d0929a943a525d0a 1cd2631bdfed58e8 cb4323cd932d2d3b cd7f8a45fa3d8fac da2ae8959bd5be61 2f02eb9dea51ed60 e48f7d0da56e0c62 c143cac4fc8275e2 e6d463433eba65a2 e4287204f046b661 ecc92c43cb63e050 a1e45f2a56c3cc8 95b2f329d39d8f86 9f016fd6ee46b7f6 13b2f4bf027c1f6d d619aef3a91fb5c8 17666dbfa965e7e8 abe20755f51b1eca 9e3ad4922b19627e d47f4a6601fbb649 f716d513b5a14251 e0baa4cf006151bc 25d08059551a9a5 caf2ebf73539ef36 359b40f2f973dd18 8ec586bdabad90c6 e0e77ffc37f848f7 316c260fd9b872b4 566037b9682c0ee ce7b09e5c031accc 19ea1f81e64d8377 fcd04466ffe72ff4 c018dcc11f5022fc 859da673cb4b4e4b cb327e40da02fc42 f9531f3e826dead9 cdb939250b4b5b01 e54e5743fef0c5b1 15eb08b18ebb765 24371266dea17681 dd923c32cf17e9b0 e803a115098569a9 e826e02adef0ecbd ae08d66d0c3ab37b 15c01d24c5b91c5c 24aa091a960c7782 a2472afdfde6fd4e c3a019aad2b2df87 e8bf570ab8074821 b5ee456fe84a22c4 3afd024c8b068207 c30dca29f98e5f1a e1d881de23bc5956 aec2db5df8fc0f98 f28a6eb29cd5842a c091dd80f1d0a586 eaccb51fd462f091 f13874bbef54b8de e1255e64dd5723d1 b1ba146231ca523c 211f0b1acbf21383 2949375522f2891e d4bcdb5a8244697e ce367d02db034bb7 fdf5d4d5f5dbe674 f8204ff2f77fb457 d283000ed2b2b02f c88e96a3c656ccf4 bdd6814bd078d4e4 ] wstrb=[96 13 5a 8a b7 3e d6 4d 51 30 d7 8 6e ad 55 bf dd 2d c8 4b da 1d b b8 4a d3 3 25 f0 e dd 3b e1 e0 60 d2 ef 3d d d0 1d 6d a2 c aa af dd c7 1c 7f d4 c6 2f b1 8e 4b 30 62 12 5f 13 a0 ab 43 2 bd a3 15 5d 4e 58 5f b fb 74 68 49 cc c7 54 c8 3b bc 11 7 83 66 cf be 22 e1 c6 a6 47 95 64 69 76 2a f bd c0 74 27 36 9e 36 f4 5e aa 1b 95 49 51 89 a7 fc a4 3c 45 f5 c5 ec f1 69 29 36 5f ee 23 50 58 4c 87 b7 3a aa 7 92 f6 8e 49 30 38 51 c3 2e df c 5f 18 5d 22 46 3d 2e a5 55 8c c7 9b c9 f6 41 1e 82 8 b9 4b fe fa 69 80 3 22 cb 1 1d 34 82 20 57 4d 21 74 82 a3 94 d9 f1 b5 4d 73 59 e1 4c 4a 96 99 bd ef 7a 9 39 10 a2 f6 0 1c ff 39 2c a1 30 2c bd 2f 66 ea d1 96 16 8e c5 7c 78 96 12 8f 25 d8 b 9d 6e 1e 2c 93 f6 38 31 64 56 5d f8 4c 95 ] bresp=0 bid=1101
[2535000] ARB MONITOR: slave=0 m0_req=1 m1_req=1 winner=1
[2535000] SCOREBOARD MATCH: arbitration winner (slave 0) expected = 1, actual =1
[2545000] MASTER 0 RECEIVED BRESP. BRESP=0
[2545000] [MASTER DRIVER] mst_id=0 s_id=0 awaddr=7d0c718 awid=1101 awlen=245 awsize=2 awburst=1 wdata=[3105f00dcd3487b9 f1abeaa72e1f4408 895d4a0d8574edb2 d2a9756cdaa6038b 8c54793ba633a1a 3fd827cdc4556013 9efb639e922291a0 cc85cbbb12819d39 d6d6fd4ca7c0ab31 39e33cd20c5df388 1edf90c1f5d260eb 9d930c1c0669088d 12c6fc15f5b68e0d eb88eef8d77648ee dddf517b31a68cd6 a75d1ae3091bfb15 e0924403f0a64d90 a24cda6612e609dc 1c0204f13e71957f af17e30fc9a9f54a dc8fff26fc9448f4 bb05de73d164bd76 1b0eb2c0f8920417 f5264d0bea1dc183 3b827ef9f79eb1e6 f030b5fd302c2b7f 1a49ed02d69131b9 ce2fe39fe5570308 95832e87d5cc6bfb 2c5d9db43e60999c a3b79ca4afcd1b89 85998784fa8d8153 38ee1aef393acb2c e907e6b5b1f72538 ac84a68bdca5b793 95e082bfeea16e3a a0989372e572c17a c218790efee86975 ed89d7afcd1d39fe b28ffb78d7f8fbcd d6e165428e226b21 db3fa51ff4a87486 cca17054c46b3cf1 d28da8130dcfa098 8278151ea382d596 e7ee1288adcd4d32 bb9cedcacf198572 f29c5b093a7bba9b e84907cd3e1502e9 8d2e885bda8a6d91 1506282c23e5f598 e1faf881ffcae364 da5550f5fd4f2ff9 a1352591ef2980dc eef46441ef5b7921 ecaaa91b83301e12 f2599eefc949b536 38a52e588ddfceac 110fecbfe14e0330 aa97b866254fd773 b32fa61f03698bae e4b78edee33ce6be 888cbe31c43f92de c7a91e8c8f4f4744 f28c2e033bbc6451 fffbf72fac60ad6a 3baff4affb18ec34 b6d55085c7a515bc f405c3262e3c22b2 a9550ee636d147b5 fe765d71afb5b7d5 ddf1da87e02a5f6c 16fba721f27c2097 2231d86d0746e96e e77148da15720492 87ee25298023b2f4 876a9c62fe6ceffb 13def48daa1ffd96 2a43b08beedbe53c ed48d5379bcd19b6 c5ed174db1ae4ced 208a322a8127c9c4 1cf4e37bf030c7d8 a1df14c58dd30761 efad126e2e1fac8 d312c2a0c26946ef d03c4e512befb4a1 ed1af69f4f1d765 375b1e55df371f77 b26d418e1e47209 d6d6496e07976ca6 e6ce8c1d19f88381 fbdcf58a8e3167c3 95c8d469f1f56035 bede3b6d2b33ef8 e0e4a6bcfc976086 ee8cc0bb07cad940 da7e1838f6ad7b25 f344dbacfa7aa471 82457db1bb62bef4 32103a1ae1d19c67 dc4c40d9dcc395ea 982654de255515c6 8726b22dde91be8a bb555474ca368ef8 ef8ba4bee372f306 c204b191d37ba953 9db2384bf6b256ec da2549f2fd5a0605 d0d5af580d3ddd0a 3f033f69c29fb83 19840189ee87e7a4 fbc5c4aede157de8 fa3f796cea59b0e1 d8e19885ffb5f8a4 ddcb768c13c37af5 fe1d2bd6d4a75d33 d45d55d7d80aeff8 ebce6aedd6fec45c aba6218f3228cc64 8a33bc5ce9eb96c4 c0ea5b2000037767 322c43cbf602274a dfedbe0eec907caf ec93f416bc600027 b262277120d8192e 8d6895dd9ec037e1 db203809924fe57f b327feadf9fc89f4 98bcc1d58d825f7a 1fd244fac090948b 3a8d1e7ff3dcf9de 15f5959d2fa43a7 938ad832d349e054 c726da3321319e53 f42be1face17f6b1 2161d706c886338c e9b7d1df07b6ba2d d5ceb0dee888b139 310ee4c5dde3b3d9 e59a6e06f73087e4 dfb9391d1ac6b6a4 f8aa6a7d3b691ee5 b299a6c990c81de2 ab8ed486de44d884 19adf7691252dfe7 a31afdc924393f04 27e1788cc479e32 de9a7e19cea9d250 f2e311541c2c0ef1 e873ad2301b57be3 d05f4e33f56128dc 118d37cdc70e2b3d c8c3a720c3425f87 38a38863fa00e4f0 c10f102d1922f553 dc6554daca30c030 c431a52089d2b74d a2f5aca01508dd3d df399d6d0540b54e 8f136c9bff5b017a 9463deb7a36b428d a8abf7db3209193c b1641ab6f39d7c24 1708beb237bf6477 e9c87db3c5c7f96e b9657592bfb4b68d f7741b049b2c9869 e0f491d7d06e3444 1022ead2e13c98b7 fc6931211a5a076a eac83bae879705d6 e8d39e8edd5dc2f8 f7b7ca62faeb2680 2822c57e53ccfaf c29a92a7e2800611 dd6b2c91eb55cae5 d0929a943a525d0a 1cd2631bdfed58e8 cb4323cd932d2d3b cd7f8a45fa3d8fac da2ae8959bd5be61 2f02eb9dea51ed60 e48f7d0da56e0c62 c143cac4fc8275e2 e6d463433eba65a2 e4287204f046b661 ecc92c43cb63e050 a1e45f2a56c3cc8 95b2f329d39d8f86 9f016fd6ee46b7f6 13b2f4bf027c1f6d d619aef3a91fb5c8 17666dbfa965e7e8 abe20755f51b1eca 9e3ad4922b19627e d47f4a6601fbb649 f716d513b5a14251 e0baa4cf006151bc 25d08059551a9a5 caf2ebf73539ef36 359b40f2f973dd18 8ec586bdabad90c6 e0e77ffc37f848f7 316c260fd9b872b4 566037b9682c0ee ce7b09e5c031accc 19ea1f81e64d8377 fcd04466ffe72ff4 c018dcc11f5022fc 859da673cb4b4e4b cb327e40da02fc42 f9531f3e826dead9 cdb939250b4b5b01 e54e5743fef0c5b1 15eb08b18ebb765 24371266dea17681 dd923c32cf17e9b0 e803a115098569a9 e826e02adef0ecbd ae08d66d0c3ab37b 15c01d24c5b91c5c 24aa091a960c7782 a2472afdfde6fd4e c3a019aad2b2df87 e8bf570ab8074821 b5ee456fe84a22c4 3afd024c8b068207 c30dca29f98e5f1a e1d881de23bc5956 aec2db5df8fc0f98 f28a6eb29cd5842a c091dd80f1d0a586 eaccb51fd462f091 f13874bbef54b8de e1255e64dd5723d1 b1ba146231ca523c 211f0b1acbf21383 2949375522f2891e d4bcdb5a8244697e ce367d02db034bb7 fdf5d4d5f5dbe674 f8204ff2f77fb457 d283000ed2b2b02f c88e96a3c656ccf4 bdd6814bd078d4e4 ] wstrb=[96 13 5a 8a b7 3e d6 4d 51 30 d7 8 6e ad 55 bf dd 2d c8 4b da 1d b b8 4a d3 3 25 f0 e dd 3b e1 e0 60 d2 ef 3d d d0 1d 6d a2 c aa af dd c7 1c 7f d4 c6 2f b1 8e 4b 30 62 12 5f 13 a0 ab 43 2 bd a3 15 5d 4e 58 5f b fb 74 68 49 cc c7 54 c8 3b bc 11 7 83 66 cf be 22 e1 c6 a6 47 95 64 69 76 2a f bd c0 74 27 36 9e 36 f4 5e aa 1b 95 49 51 89 a7 fc a4 3c 45 f5 c5 ec f1 69 29 36 5f ee 23 50 58 4c 87 b7 3a aa 7 92 f6 8e 49 30 38 51 c3 2e df c 5f 18 5d 22 46 3d 2e a5 55 8c c7 9b c9 f6 41 1e 82 8 b9 4b fe fa 69 80 3 22 cb 1 1d 34 82 20 57 4d 21 74 82 a3 94 d9 f1 b5 4d 73 59 e1 4c 4a 96 99 bd ef 7a 9 39 10 a2 f6 0 1c ff 39 2c a1 30 2c bd 2f 66 ea d1 96 16 8e c5 7c 78 96 12 8f 25 d8 b 9d 6e 1e 2c 93 f6 38 31 64 56 5d f8 4c 95 ] bresp=0 bid=1101
[2545000] MASTER 0 W_VALID_RDY Handshake beat=0 wlast=0
[2545000] MASTER 0 B_VALID_RDY Handshake
[2545000] [MASTER MONITOR] mst_id=0 s_id=0 awaddr=7d0c718 awid=1101 awlen=245 awsize=2 awburst=1 wdata=[3105f00dcd3487b9 f1abeaa72e1f4408 895d4a0d8574edb2 d2a9756cdaa6038b 8c54793ba633a1a 3fd827cdc4556013 9efb639e922291a0 cc85cbbb12819d39 d6d6fd4ca7c0ab31 39e33cd20c5df388 1edf90c1f5d260eb 9d930c1c0669088d 12c6fc15f5b68e0d eb88eef8d77648ee dddf517b31a68cd6 a75d1ae3091bfb15 e0924403f0a64d90 a24cda6612e609dc 1c0204f13e71957f af17e30fc9a9f54a dc8fff26fc9448f4 bb05de73d164bd76 1b0eb2c0f8920417 f5264d0bea1dc183 3b827ef9f79eb1e6 f030b5fd302c2b7f 1a49ed02d69131b9 ce2fe39fe5570308 95832e87d5cc6bfb 2c5d9db43e60999c a3b79ca4afcd1b89 85998784fa8d8153 38ee1aef393acb2c e907e6b5b1f72538 ac84a68bdca5b793 95e082bfeea16e3a a0989372e572c17a c218790efee86975 ed89d7afcd1d39fe b28ffb78d7f8fbcd d6e165428e226b21 db3fa51ff4a87486 cca17054c46b3cf1 d28da8130dcfa098 8278151ea382d596 e7ee1288adcd4d32 bb9cedcacf198572 f29c5b093a7bba9b e84907cd3e1502e9 8d2e885bda8a6d91 1506282c23e5f598 e1faf881ffcae364 da5550f5fd4f2ff9 a1352591ef2980dc eef46441ef5b7921 ecaaa91b83301e12 f2599eefc949b536 38a52e588ddfceac 110fecbfe14e0330 aa97b866254fd773 b32fa61f03698bae e4b78edee33ce6be 888cbe31c43f92de c7a91e8c8f4f4744 f28c2e033bbc6451 fffbf72fac60ad6a 3baff4affb18ec34 b6d55085c7a515bc f405c3262e3c22b2 a9550ee636d147b5 fe765d71afb5b7d5 ddf1da87e02a5f6c 16fba721f27c2097 2231d86d0746e96e e77148da15720492 87ee25298023b2f4 876a9c62fe6ceffb 13def48daa1ffd96 2a43b08beedbe53c ed48d5379bcd19b6 c5ed174db1ae4ced 208a322a8127c9c4 1cf4e37bf030c7d8 a1df14c58dd30761 efad126e2e1fac8 d312c2a0c26946ef d03c4e512befb4a1 ed1af69f4f1d765 375b1e55df371f77 b26d418e1e47209 d6d6496e07976ca6 e6ce8c1d19f88381 fbdcf58a8e3167c3 95c8d469f1f56035 bede3b6d2b33ef8 e0e4a6bcfc976086 ee8cc0bb07cad940 da7e1838f6ad7b25 f344dbacfa7aa471 82457db1bb62bef4 32103a1ae1d19c67 dc4c40d9dcc395ea 982654de255515c6 8726b22dde91be8a bb555474ca368ef8 ef8ba4bee372f306 c204b191d37ba953 9db2384bf6b256ec da2549f2fd5a0605 d0d5af580d3ddd0a 3f033f69c29fb83 19840189ee87e7a4 fbc5c4aede157de8 fa3f796cea59b0e1 d8e19885ffb5f8a4 ddcb768c13c37af5 fe1d2bd6d4a75d33 d45d55d7d80aeff8 ebce6aedd6fec45c aba6218f3228cc64 8a33bc5ce9eb96c4 c0ea5b2000037767 322c43cbf602274a dfedbe0eec907caf ec93f416bc600027 b262277120d8192e 8d6895dd9ec037e1 db203809924fe57f b327feadf9fc89f4 98bcc1d58d825f7a 1fd244fac090948b 3a8d1e7ff3dcf9de 15f5959d2fa43a7 938ad832d349e054 c726da3321319e53 f42be1face17f6b1 2161d706c886338c e9b7d1df07b6ba2d d5ceb0dee888b139 310ee4c5dde3b3d9 e59a6e06f73087e4 dfb9391d1ac6b6a4 f8aa6a7d3b691ee5 b299a6c990c81de2 ab8ed486de44d884 19adf7691252dfe7 a31afdc924393f04 27e1788cc479e32 de9a7e19cea9d250 f2e311541c2c0ef1 e873ad2301b57be3 d05f4e33f56128dc 118d37cdc70e2b3d c8c3a720c3425f87 38a38863fa00e4f0 c10f102d1922f553 dc6554daca30c030 c431a52089d2b74d a2f5aca01508dd3d df399d6d0540b54e 8f136c9bff5b017a 9463deb7a36b428d a8abf7db3209193c b1641ab6f39d7c24 1708beb237bf6477 e9c87db3c5c7f96e b9657592bfb4b68d f7741b049b2c9869 e0f491d7d06e3444 1022ead2e13c98b7 fc6931211a5a076a eac83bae879705d6 e8d39e8edd5dc2f8 f7b7ca62faeb2680 2822c57e53ccfaf c29a92a7e2800611 dd6b2c91eb55cae5 d0929a943a525d0a 1cd2631bdfed58e8 cb4323cd932d2d3b cd7f8a45fa3d8fac da2ae8959bd5be61 2f02eb9dea51ed60 e48f7d0da56e0c62 c143cac4fc8275e2 e6d463433eba65a2 e4287204f046b661 ecc92c43cb63e050 a1e45f2a56c3cc8 95b2f329d39d8f86 9f016fd6ee46b7f6 13b2f4bf027c1f6d d619aef3a91fb5c8 17666dbfa965e7e8 abe20755f51b1eca 9e3ad4922b19627e d47f4a6601fbb649 f716d513b5a14251 e0baa4cf006151bc 25d08059551a9a5 caf2ebf73539ef36 359b40f2f973dd18 8ec586bdabad90c6 e0e77ffc37f848f7 316c260fd9b872b4 566037b9682c0ee ce7b09e5c031accc 19ea1f81e64d8377 fcd04466ffe72ff4 c018dcc11f5022fc 859da673cb4b4e4b cb327e40da02fc42 f9531f3e826dead9 cdb939250b4b5b01 e54e5743fef0c5b1 15eb08b18ebb765 24371266dea17681 dd923c32cf17e9b0 e803a115098569a9 e826e02adef0ecbd ae08d66d0c3ab37b 15c01d24c5b91c5c 24aa091a960c7782 a2472afdfde6fd4e c3a019aad2b2df87 e8bf570ab8074821 b5ee456fe84a22c4 3afd024c8b068207 c30dca29f98e5f1a e1d881de23bc5956 aec2db5df8fc0f98 f28a6eb29cd5842a c091dd80f1d0a586 eaccb51fd462f091 f13874bbef54b8de e1255e64dd5723d1 b1ba146231ca523c 211f0b1acbf21383 2949375522f2891e d4bcdb5a8244697e ce367d02db034bb7 fdf5d4d5f5dbe674 f8204ff2f77fb457 d283000ed2b2b02f c88e96a3c656ccf4 bdd6814bd078d4e4 ] wstrb=[96 13 5a 8a b7 3e d6 4d 51 30 d7 8 6e ad 55 bf dd 2d c8 4b da 1d b b8 4a d3 3 25 f0 e dd 3b e1 e0 60 d2 ef 3d d d0 1d 6d a2 c aa af dd c7 1c 7f d4 c6 2f b1 8e 4b 30 62 12 5f 13 a0 ab 43 2 bd a3 15 5d 4e 58 5f b fb 74 68 49 cc c7 54 c8 3b bc 11 7 83 66 cf be 22 e1 c6 a6 47 95 64 69 76 2a f bd c0 74 27 36 9e 36 f4 5e aa 1b 95 49 51 89 a7 fc a4 3c 45 f5 c5 ec f1 69 29 36 5f ee 23 50 58 4c 87 b7 3a aa 7 92 f6 8e 49 30 38 51 c3 2e df c 5f 18 5d 22 46 3d 2e a5 55 8c c7 9b c9 f6 41 1e 82 8 b9 4b fe fa 69 80 3 22 cb 1 1d 34 82 20 57 4d 21 74 82 a3 94 d9 f1 b5 4d 73 59 e1 4c 4a 96 99 bd ef 7a 9 39 10 a2 f6 0 1c ff 39 2c a1 30 2c bd 2f 66 ea d1 96 16 8e c5 7c 78 96 12 8f 25 d8 b 9d 6e 1e 2c 93 f6 38 31 64 56 5d f8 4c 95 ] bresp=0 bid=1101
[2545000] AXI S0_WVALID_RDY HANDSHAKE
[2545000] S0 MEMORY WRITE beat=0 addr=062abd58 data=dd8157ebf231f0df id=17
[2545000] SCOREBOARD MATCH: decode_err expected = 0, actual =0
[2545000] SCOREBOARD MATCH: slave_id expected = 0, actual =0
[2545000] SCOREBOARD MATCH: awaddr passthrough expected = 7d0c718, actual =7d0c718
[2545000] SCOREBOARD MATCH: awlen passthrough expected = 245, actual =245
[2545000] SCOREBOARD MATCH: awsize passthrough expected = 2, actual =2
[2545000] SCOREBOARD MATCH: awburst passthrough expected = 1, actual =1
[2545000] SCOREBOARD MATCH: wdata size check expected = f6, actual =f6
[2545000] SCOREBOARD MATCH: wdata passthrough beat=0 expected = 3105f00dcd3487b9, actual =3105f00dcd3487b9
[2545000] SCOREBOARD MATCH: wdata passthrough beat=1 expected = f1abeaa72e1f4408, actual =f1abeaa72e1f4408
[2545000] SCOREBOARD MATCH: wdata passthrough beat=2 expected = 895d4a0d8574edb2, actual =895d4a0d8574edb2
[2545000] SCOREBOARD MATCH: wdata passthrough beat=3 expected = d2a9756cdaa6038b, actual =d2a9756cdaa6038b
[2545000] SCOREBOARD MATCH: wdata passthrough beat=4 expected = 8c54793ba633a1a, actual =8c54793ba633a1a
[2545000] SCOREBOARD MATCH: wdata passthrough beat=5 expected = 3fd827cdc4556013, actual =3fd827cdc4556013
[2545000] SCOREBOARD MATCH: wdata passthrough beat=6 expected = 9efb639e922291a0, actual =9efb639e922291a0
[2545000] SCOREBOARD MATCH: wdata passthrough beat=7 expected = cc85cbbb12819d39, actual =cc85cbbb12819d39
[2545000] SCOREBOARD MATCH: wdata passthrough beat=8 expected = d6d6fd4ca7c0ab31, actual =d6d6fd4ca7c0ab31
[2545000] SCOREBOARD MATCH: wdata passthrough beat=9 expected = 39e33cd20c5df388, actual =39e33cd20c5df388
[2545000] SCOREBOARD MATCH: wdata passthrough beat=10 expected = 1edf90c1f5d260eb, actual =1edf90c1f5d260eb
[2545000] SCOREBOARD MATCH: wdata passthrough beat=11 expected = 9d930c1c0669088d, actual =9d930c1c0669088d
[2545000] SCOREBOARD MATCH: wdata passthrough beat=12 expected = 12c6fc15f5b68e0d, actual =12c6fc15f5b68e0d
[2545000] SCOREBOARD MATCH: wdata passthrough beat=13 expected = eb88eef8d77648ee, actual =eb88eef8d77648ee
[2545000] SCOREBOARD MATCH: wdata passthrough beat=14 expected = dddf517b31a68cd6, actual =dddf517b31a68cd6
[2545000] SCOREBOARD MATCH: wdata passthrough beat=15 expected = a75d1ae3091bfb15, actual =a75d1ae3091bfb15
[2545000] SCOREBOARD MATCH: wdata passthrough beat=16 expected = e0924403f0a64d90, actual =e0924403f0a64d90
[2545000] SCOREBOARD MATCH: wdata passthrough beat=17 expected = a24cda6612e609dc, actual =a24cda6612e609dc
[2545000] SCOREBOARD MATCH: wdata passthrough beat=18 expected = 1c0204f13e71957f, actual =1c0204f13e71957f
[2545000] SCOREBOARD MATCH: wdata passthrough beat=19 expected = af17e30fc9a9f54a, actual =af17e30fc9a9f54a
[2545000] SCOREBOARD MATCH: wdata passthrough beat=20 expected = dc8fff26fc9448f4, actual =dc8fff26fc9448f4
[2545000] SCOREBOARD MATCH: wdata passthrough beat=21 expected = bb05de73d164bd76, actual =bb05de73d164bd76
[2545000] SCOREBOARD MATCH: wdata passthrough beat=22 expected = 1b0eb2c0f8920417, actual =1b0eb2c0f8920417
[2545000] SCOREBOARD MATCH: wdata passthrough beat=23 expected = f5264d0bea1dc183, actual =f5264d0bea1dc183
[2545000] SCOREBOARD MATCH: wdata passthrough beat=24 expected = 3b827ef9f79eb1e6, actual =3b827ef9f79eb1e6
[2545000] SCOREBOARD MATCH: wdata passthrough beat=25 expected = f030b5fd302c2b7f, actual =f030b5fd302c2b7f
[2545000] SCOREBOARD MATCH: wdata passthrough beat=26 expected = 1a49ed02d69131b9, actual =1a49ed02d69131b9
[2545000] SCOREBOARD MATCH: wdata passthrough beat=27 expected = ce2fe39fe5570308, actual =ce2fe39fe5570308
[2545000] SCOREBOARD MATCH: wdata passthrough beat=28 expected = 95832e87d5cc6bfb, actual =95832e87d5cc6bfb
[2545000] SCOREBOARD MATCH: wdata passthrough beat=29 expected = 2c5d9db43e60999c, actual =2c5d9db43e60999c
[2545000] SCOREBOARD MATCH: wdata passthrough beat=30 expected = a3b79ca4afcd1b89, actual =a3b79ca4afcd1b89
[2545000] SCOREBOARD MATCH: wdata passthrough beat=31 expected = 85998784fa8d8153, actual =85998784fa8d8153
[2545000] SCOREBOARD MATCH: wdata passthrough beat=32 expected = 38ee1aef393acb2c, actual =38ee1aef393acb2c
[2545000] SCOREBOARD MATCH: wdata passthrough beat=33 expected = e907e6b5b1f72538, actual =e907e6b5b1f72538
[2545000] SCOREBOARD MATCH: wdata passthrough beat=34 expected = ac84a68bdca5b793, actual =ac84a68bdca5b793
[2545000] SCOREBOARD MATCH: wdata passthrough beat=35 expected = 95e082bfeea16e3a, actual =95e082bfeea16e3a
[2545000] SCOREBOARD MATCH: wdata passthrough beat=36 expected = a0989372e572c17a, actual =a0989372e572c17a
[2545000] SCOREBOARD MATCH: wdata passthrough beat=37 expected = c218790efee86975, actual =c218790efee86975
[2545000] SCOREBOARD MATCH: wdata passthrough beat=38 expected = ed89d7afcd1d39fe, actual =ed89d7afcd1d39fe
[2545000] SCOREBOARD MATCH: wdata passthrough beat=39 expected = b28ffb78d7f8fbcd, actual =b28ffb78d7f8fbcd
[2545000] SCOREBOARD MATCH: wdata passthrough beat=40 expected = d6e165428e226b21, actual =d6e165428e226b21
[2545000] SCOREBOARD MATCH: wdata passthrough beat=41 expected = db3fa51ff4a87486, actual =db3fa51ff4a87486
[2545000] SCOREBOARD MATCH: wdata passthrough beat=42 expected = cca17054c46b3cf1, actual =cca17054c46b3cf1
[2545000] SCOREBOARD MATCH: wdata passthrough beat=43 expected = d28da8130dcfa098, actual =d28da8130dcfa098
[2545000] SCOREBOARD MATCH: wdata passthrough beat=44 expected = 8278151ea382d596, actual =8278151ea382d596
[2545000] SCOREBOARD MATCH: wdata passthrough beat=45 expected = e7ee1288adcd4d32, actual =e7ee1288adcd4d32
[2545000] SCOREBOARD MATCH: wdata passthrough beat=46 expected = bb9cedcacf198572, actual =bb9cedcacf198572
[2545000] SCOREBOARD MATCH: wdata passthrough beat=47 expected = f29c5b093a7bba9b, actual =f29c5b093a7bba9b
[2545000] SCOREBOARD MATCH: wdata passthrough beat=48 expected = e84907cd3e1502e9, actual =e84907cd3e1502e9
[2545000] SCOREBOARD MATCH: wdata passthrough beat=49 expected = 8d2e885bda8a6d91, actual =8d2e885bda8a6d91
[2545000] SCOREBOARD MATCH: wdata passthrough beat=50 expected = 1506282c23e5f598, actual =1506282c23e5f598
[2545000] SCOREBOARD MATCH: wdata passthrough beat=51 expected = e1faf881ffcae364, actual =e1faf881ffcae364
[2545000] SCOREBOARD MATCH: wdata passthrough beat=52 expected = da5550f5fd4f2ff9, actual =da5550f5fd4f2ff9
[2545000] SCOREBOARD MATCH: wdata passthrough beat=53 expected = a1352591ef2980dc, actual =a1352591ef2980dc
[2545000] SCOREBOARD MATCH: wdata passthrough beat=54 expected = eef46441ef5b7921, actual =eef46441ef5b7921
[2545000] SCOREBOARD MATCH: wdata passthrough beat=55 expected = ecaaa91b83301e12, actual =ecaaa91b83301e12
[2545000] SCOREBOARD MATCH: wdata passthrough beat=56 expected = f2599eefc949b536, actual =f2599eefc949b536
[2545000] SCOREBOARD MATCH: wdata passthrough beat=57 expected = 38a52e588ddfceac, actual =38a52e588ddfceac
[2545000] SCOREBOARD MATCH: wdata passthrough beat=58 expected = 110fecbfe14e0330, actual =110fecbfe14e0330
[2545000] SCOREBOARD MATCH: wdata passthrough beat=59 expected = aa97b866254fd773, actual =aa97b866254fd773
[2545000] SCOREBOARD MATCH: wdata passthrough beat=60 expected = b32fa61f03698bae, actual =b32fa61f03698bae
[2545000] SCOREBOARD MATCH: wdata passthrough beat=61 expected = e4b78edee33ce6be, actual =e4b78edee33ce6be
[2545000] SCOREBOARD MATCH: wdata passthrough beat=62 expected = 888cbe31c43f92de, actual =888cbe31c43f92de
[2545000] SCOREBOARD MATCH: wdata passthrough beat=63 expected = c7a91e8c8f4f4744, actual =c7a91e8c8f4f4744
[2545000] SCOREBOARD MATCH: wdata passthrough beat=64 expected = f28c2e033bbc6451, actual =f28c2e033bbc6451
[2545000] SCOREBOARD MATCH: wdata passthrough beat=65 expected = fffbf72fac60ad6a, actual =fffbf72fac60ad6a
[2545000] SCOREBOARD MATCH: wdata passthrough beat=66 expected = 3baff4affb18ec34, actual =3baff4affb18ec34
[2545000] SCOREBOARD MATCH: wdata passthrough beat=67 expected = b6d55085c7a515bc, actual =b6d55085c7a515bc
[2545000] SCOREBOARD MATCH: wdata passthrough beat=68 expected = f405c3262e3c22b2, actual =f405c3262e3c22b2
[2545000] SCOREBOARD MATCH: wdata passthrough beat=69 expected = a9550ee636d147b5, actual =a9550ee636d147b5
[2545000] SCOREBOARD MATCH: wdata passthrough beat=70 expected = fe765d71afb5b7d5, actual =fe765d71afb5b7d5
[2545000] SCOREBOARD MATCH: wdata passthrough beat=71 expected = ddf1da87e02a5f6c, actual =ddf1da87e02a5f6c
[2545000] SCOREBOARD MATCH: wdata passthrough beat=72 expected = 16fba721f27c2097, actual =16fba721f27c2097
[2545000] SCOREBOARD MATCH: wdata passthrough beat=73 expected = 2231d86d0746e96e, actual =2231d86d0746e96e
[2545000] SCOREBOARD MATCH: wdata passthrough beat=74 expected = e77148da15720492, actual =e77148da15720492
[2545000] SCOREBOARD MATCH: wdata passthrough beat=75 expected = 87ee25298023b2f4, actual =87ee25298023b2f4
[2545000] SCOREBOARD MATCH: wdata passthrough beat=76 expected = 876a9c62fe6ceffb, actual =876a9c62fe6ceffb
[2545000] SCOREBOARD MATCH: wdata passthrough beat=77 expected = 13def48daa1ffd96, actual =13def48daa1ffd96
[2545000] SCOREBOARD MATCH: wdata passthrough beat=78 expected = 2a43b08beedbe53c, actual =2a43b08beedbe53c
[2545000] SCOREBOARD MATCH: wdata passthrough beat=79 expected = ed48d5379bcd19b6, actual =ed48d5379bcd19b6
[2545000] SCOREBOARD MATCH: wdata passthrough beat=80 expected = c5ed174db1ae4ced, actual =c5ed174db1ae4ced
[2545000] SCOREBOARD MATCH: wdata passthrough beat=81 expected = 208a322a8127c9c4, actual =208a322a8127c9c4
[2545000] SCOREBOARD MATCH: wdata passthrough beat=82 expected = 1cf4e37bf030c7d8, actual =1cf4e37bf030c7d8
[2545000] SCOREBOARD MATCH: wdata passthrough beat=83 expected = a1df14c58dd30761, actual =a1df14c58dd30761
[2545000] SCOREBOARD MATCH: wdata passthrough beat=84 expected = efad126e2e1fac8, actual =efad126e2e1fac8
[2545000] SCOREBOARD MATCH: wdata passthrough beat=85 expected = d312c2a0c26946ef, actual =d312c2a0c26946ef
[2545000] SCOREBOARD MATCH: wdata passthrough beat=86 expected = d03c4e512befb4a1, actual =d03c4e512befb4a1
[2545000] SCOREBOARD MATCH: wdata passthrough beat=87 expected = ed1af69f4f1d765, actual =ed1af69f4f1d765
[2545000] SCOREBOARD MATCH: wdata passthrough beat=88 expected = 375b1e55df371f77, actual =375b1e55df371f77
[2545000] SCOREBOARD MATCH: wdata passthrough beat=89 expected = b26d418e1e47209, actual =b26d418e1e47209
[2545000] SCOREBOARD MATCH: wdata passthrough beat=90 expected = d6d6496e07976ca6, actual =d6d6496e07976ca6
[2545000] SCOREBOARD MATCH: wdata passthrough beat=91 expected = e6ce8c1d19f88381, actual =e6ce8c1d19f88381
[2545000] SCOREBOARD MATCH: wdata passthrough beat=92 expected = fbdcf58a8e3167c3, actual =fbdcf58a8e3167c3
[2545000] SCOREBOARD MATCH: wdata passthrough beat=93 expected = 95c8d469f1f56035, actual =95c8d469f1f56035
[2545000] SCOREBOARD MATCH: wdata passthrough beat=94 expected = bede3b6d2b33ef8, actual =bede3b6d2b33ef8
[2545000] SCOREBOARD MATCH: wdata passthrough beat=95 expected = e0e4a6bcfc976086, actual =e0e4a6bcfc976086
[2545000] SCOREBOARD MATCH: wdata passthrough beat=96 expected = ee8cc0bb07cad940, actual =ee8cc0bb07cad940
[2545000] SCOREBOARD MATCH: wdata passthrough beat=97 expected = da7e1838f6ad7b25, actual =da7e1838f6ad7b25
[2545000] SCOREBOARD MATCH: wdata passthrough beat=98 expected = f344dbacfa7aa471, actual =f344dbacfa7aa471
[2545000] SCOREBOARD MATCH: wdata passthrough beat=99 expected = 82457db1bb62bef4, actual =82457db1bb62bef4
[2545000] SCOREBOARD MATCH: wdata passthrough beat=100 expected = 32103a1ae1d19c67, actual =32103a1ae1d19c67
[2545000] SCOREBOARD MATCH: wdata passthrough beat=101 expected = dc4c40d9dcc395ea, actual =dc4c40d9dcc395ea
[2545000] SCOREBOARD MATCH: wdata passthrough beat=102 expected = 982654de255515c6, actual =982654de255515c6
[2545000] SCOREBOARD MATCH: wdata passthrough beat=103 expected = 8726b22dde91be8a, actual =8726b22dde91be8a
[2545000] SCOREBOARD MATCH: wdata passthrough beat=104 expected = bb555474ca368ef8, actual =bb555474ca368ef8
[2545000] SCOREBOARD MATCH: wdata passthrough beat=105 expected = ef8ba4bee372f306, actual =ef8ba4bee372f306
[2545000] SCOREBOARD MATCH: wdata passthrough beat=106 expected = c204b191d37ba953, actual =c204b191d37ba953
[2545000] SCOREBOARD MATCH: wdata passthrough beat=107 expected = 9db2384bf6b256ec, actual =9db2384bf6b256ec
[2545000] SCOREBOARD MATCH: wdata passthrough beat=108 expected = da2549f2fd5a0605, actual =da2549f2fd5a0605
[2545000] SCOREBOARD MATCH: wdata passthrough beat=109 expected = d0d5af580d3ddd0a, actual =d0d5af580d3ddd0a
[2545000] SCOREBOARD MATCH: wdata passthrough beat=110 expected = 3f033f69c29fb83, actual =3f033f69c29fb83
[2545000] SCOREBOARD MATCH: wdata passthrough beat=111 expected = 19840189ee87e7a4, actual =19840189ee87e7a4
[2545000] SCOREBOARD MATCH: wdata passthrough beat=112 expected = fbc5c4aede157de8, actual =fbc5c4aede157de8
[2545000] SCOREBOARD MATCH: wdata passthrough beat=113 expected = fa3f796cea59b0e1, actual =fa3f796cea59b0e1
[2545000] SCOREBOARD MATCH: wdata passthrough beat=114 expected = d8e19885ffb5f8a4, actual =d8e19885ffb5f8a4
[2545000] SCOREBOARD MATCH: wdata passthrough beat=115 expected = ddcb768c13c37af5, actual =ddcb768c13c37af5
[2545000] SCOREBOARD MATCH: wdata passthrough beat=116 expected = fe1d2bd6d4a75d33, actual =fe1d2bd6d4a75d33
[2545000] SCOREBOARD MATCH: wdata passthrough beat=117 expected = d45d55d7d80aeff8, actual =d45d55d7d80aeff8
[2545000] SCOREBOARD MATCH: wdata passthrough beat=118 expected = ebce6aedd6fec45c, actual =ebce6aedd6fec45c
[2545000] SCOREBOARD MATCH: wdata passthrough beat=119 expected = aba6218f3228cc64, actual =aba6218f3228cc64
[2545000] SCOREBOARD MATCH: wdata passthrough beat=120 expected = 8a33bc5ce9eb96c4, actual =8a33bc5ce9eb96c4
[2545000] SCOREBOARD MATCH: wdata passthrough beat=121 expected = c0ea5b2000037767, actual =c0ea5b2000037767
[2545000] SCOREBOARD MATCH: wdata passthrough beat=122 expected = 322c43cbf602274a, actual =322c43cbf602274a
[2545000] SCOREBOARD MATCH: wdata passthrough beat=123 expected = dfedbe0eec907caf, actual =dfedbe0eec907caf
[2545000] SCOREBOARD MATCH: wdata passthrough beat=124 expected = ec93f416bc600027, actual =ec93f416bc600027
[2545000] SCOREBOARD MATCH: wdata passthrough beat=125 expected = b262277120d8192e, actual =b262277120d8192e
[2545000] SCOREBOARD MATCH: wdata passthrough beat=126 expected = 8d6895dd9ec037e1, actual =8d6895dd9ec037e1
[2545000] SCOREBOARD MATCH: wdata passthrough beat=127 expected = db203809924fe57f, actual =db203809924fe57f
[2545000] SCOREBOARD MATCH: wdata passthrough beat=128 expected = b327feadf9fc89f4, actual =b327feadf9fc89f4
[2545000] SCOREBOARD MATCH: wdata passthrough beat=129 expected = 98bcc1d58d825f7a, actual =98bcc1d58d825f7a
[2545000] SCOREBOARD MATCH: wdata passthrough beat=130 expected = 1fd244fac090948b, actual =1fd244fac090948b
[2545000] SCOREBOARD MATCH: wdata passthrough beat=131 expected = 3a8d1e7ff3dcf9de, actual =3a8d1e7ff3dcf9de
[2545000] SCOREBOARD MATCH: wdata passthrough beat=132 expected = 15f5959d2fa43a7, actual =15f5959d2fa43a7
[2545000] SCOREBOARD MATCH: wdata passthrough beat=133 expected = 938ad832d349e054, actual =938ad832d349e054
[2545000] SCOREBOARD MATCH: wdata passthrough beat=134 expected = c726da3321319e53, actual =c726da3321319e53
[2545000] SCOREBOARD MATCH: wdata passthrough beat=135 expected = f42be1face17f6b1, actual =f42be1face17f6b1
[2545000] SCOREBOARD MATCH: wdata passthrough beat=136 expected = 2161d706c886338c, actual =2161d706c886338c
[2545000] SCOREBOARD MATCH: wdata passthrough beat=137 expected = e9b7d1df07b6ba2d, actual =e9b7d1df07b6ba2d
[2545000] SCOREBOARD MATCH: wdata passthrough beat=138 expected = d5ceb0dee888b139, actual =d5ceb0dee888b139
[2545000] SCOREBOARD MATCH: wdata passthrough beat=139 expected = 310ee4c5dde3b3d9, actual =310ee4c5dde3b3d9
[2545000] SCOREBOARD MATCH: wdata passthrough beat=140 expected = e59a6e06f73087e4, actual =e59a6e06f73087e4
[2545000] SCOREBOARD MATCH: wdata passthrough beat=141 expected = dfb9391d1ac6b6a4, actual =dfb9391d1ac6b6a4
[2545000] SCOREBOARD MATCH: wdata passthrough beat=142 expected = f8aa6a7d3b691ee5, actual =f8aa6a7d3b691ee5
[2545000] SCOREBOARD MATCH: wdata passthrough beat=143 expected = b299a6c990c81de2, actual =b299a6c990c81de2
[2545000] SCOREBOARD MATCH: wdata passthrough beat=144 expected = ab8ed486de44d884, actual =ab8ed486de44d884
[2545000] SCOREBOARD MATCH: wdata passthrough beat=145 expected = 19adf7691252dfe7, actual =19adf7691252dfe7
[2545000] SCOREBOARD MATCH: wdata passthrough beat=146 expected = a31afdc924393f04, actual =a31afdc924393f04
[2545000] SCOREBOARD MATCH: wdata passthrough beat=147 expected = 27e1788cc479e32, actual =27e1788cc479e32
[2545000] SCOREBOARD MATCH: wdata passthrough beat=148 expected = de9a7e19cea9d250, actual =de9a7e19cea9d250
[2545000] SCOREBOARD MATCH: wdata passthrough beat=149 expected = f2e311541c2c0ef1, actual =f2e311541c2c0ef1
[2545000] SCOREBOARD MATCH: wdata passthrough beat=150 expected = e873ad2301b57be3, actual =e873ad2301b57be3
[2545000] SCOREBOARD MATCH: wdata passthrough beat=151 expected = d05f4e33f56128dc, actual =d05f4e33f56128dc
[2545000] SCOREBOARD MATCH: wdata passthrough beat=152 expected = 118d37cdc70e2b3d, actual =118d37cdc70e2b3d
[2545000] SCOREBOARD MATCH: wdata passthrough beat=153 expected = c8c3a720c3425f87, actual =c8c3a720c3425f87
[2545000] SCOREBOARD MATCH: wdata passthrough beat=154 expected = 38a38863fa00e4f0, actual =38a38863fa00e4f0
[2545000] SCOREBOARD MATCH: wdata passthrough beat=155 expected = c10f102d1922f553, actual =c10f102d1922f553
[2545000] SCOREBOARD MATCH: wdata passthrough beat=156 expected = dc6554daca30c030, actual =dc6554daca30c030
[2545000] SCOREBOARD MATCH: wdata passthrough beat=157 expected = c431a52089d2b74d, actual =c431a52089d2b74d
[2545000] SCOREBOARD MATCH: wdata passthrough beat=158 expected = a2f5aca01508dd3d, actual =a2f5aca01508dd3d
[2545000] SCOREBOARD MATCH: wdata passthrough beat=159 expected = df399d6d0540b54e, actual =df399d6d0540b54e
[2545000] SCOREBOARD MATCH: wdata passthrough beat=160 expected = 8f136c9bff5b017a, actual =8f136c9bff5b017a
[2545000] SCOREBOARD MATCH: wdata passthrough beat=161 expected = 9463deb7a36b428d, actual =9463deb7a36b428d
[2545000] SCOREBOARD MATCH: wdata passthrough beat=162 expected = a8abf7db3209193c, actual =a8abf7db3209193c
[2545000] SCOREBOARD MATCH: wdata passthrough beat=163 expected = b1641ab6f39d7c24, actual =b1641ab6f39d7c24
[2545000] SCOREBOARD MATCH: wdata passthrough beat=164 expected = 1708beb237bf6477, actual =1708beb237bf6477
[2545000] SCOREBOARD MATCH: wdata passthrough beat=165 expected = e9c87db3c5c7f96e, actual =e9c87db3c5c7f96e
[2545000] SCOREBOARD MATCH: wdata passthrough beat=166 expected = b9657592bfb4b68d, actual =b9657592bfb4b68d
[2545000] SCOREBOARD MATCH: wdata passthrough beat=167 expected = f7741b049b2c9869, actual =f7741b049b2c9869
[2545000] SCOREBOARD MATCH: wdata passthrough beat=168 expected = e0f491d7d06e3444, actual =e0f491d7d06e3444
[2545000] SCOREBOARD MATCH: wdata passthrough beat=169 expected = 1022ead2e13c98b7, actual =1022ead2e13c98b7
[2545000] SCOREBOARD MATCH: wdata passthrough beat=170 expected = fc6931211a5a076a, actual =fc6931211a5a076a
[2545000] SCOREBOARD MATCH: wdata passthrough beat=171 expected = eac83bae879705d6, actual =eac83bae879705d6
[2545000] SCOREBOARD MATCH: wdata passthrough beat=172 expected = e8d39e8edd5dc2f8, actual =e8d39e8edd5dc2f8
[2545000] SCOREBOARD MATCH: wdata passthrough beat=173 expected = f7b7ca62faeb2680, actual =f7b7ca62faeb2680
[2545000] SCOREBOARD MATCH: wdata passthrough beat=174 expected = 2822c57e53ccfaf, actual =2822c57e53ccfaf
[2545000] SCOREBOARD MATCH: wdata passthrough beat=175 expected = c29a92a7e2800611, actual =c29a92a7e2800611
[2545000] SCOREBOARD MATCH: wdata passthrough beat=176 expected = dd6b2c91eb55cae5, actual =dd6b2c91eb55cae5
[2545000] SCOREBOARD MATCH: wdata passthrough beat=177 expected = d0929a943a525d0a, actual =d0929a943a525d0a
[2545000] SCOREBOARD MATCH: wdata passthrough beat=178 expected = 1cd2631bdfed58e8, actual =1cd2631bdfed58e8
[2545000] SCOREBOARD MATCH: wdata passthrough beat=179 expected = cb4323cd932d2d3b, actual =cb4323cd932d2d3b
[2545000] SCOREBOARD MATCH: wdata passthrough beat=180 expected = cd7f8a45fa3d8fac, actual =cd7f8a45fa3d8fac
[2545000] SCOREBOARD MATCH: wdata passthrough beat=181 expected = da2ae8959bd5be61, actual =da2ae8959bd5be61
[2545000] SCOREBOARD MATCH: wdata passthrough beat=182 expected = 2f02eb9dea51ed60, actual =2f02eb9dea51ed60
[2545000] SCOREBOARD MATCH: wdata passthrough beat=183 expected = e48f7d0da56e0c62, actual =e48f7d0da56e0c62
[2545000] SCOREBOARD MATCH: wdata passthrough beat=184 expected = c143cac4fc8275e2, actual =c143cac4fc8275e2
[2545000] SCOREBOARD MATCH: wdata passthrough beat=185 expected = e6d463433eba65a2, actual =e6d463433eba65a2
[2545000] SCOREBOARD MATCH: wdata passthrough beat=186 expected = e4287204f046b661, actual =e4287204f046b661
[2545000] SCOREBOARD MATCH: wdata passthrough beat=187 expected = ecc92c43cb63e050, actual =ecc92c43cb63e050
[2545000] SCOREBOARD MATCH: wdata passthrough beat=188 expected = a1e45f2a56c3cc8, actual =a1e45f2a56c3cc8
[2545000] SCOREBOARD MATCH: wdata passthrough beat=189 expected = 95b2f329d39d8f86, actual =95b2f329d39d8f86
[2545000] SCOREBOARD MATCH: wdata passthrough beat=190 expected = 9f016fd6ee46b7f6, actual =9f016fd6ee46b7f6
[2545000] SCOREBOARD MATCH: wdata passthrough beat=191 expected = 13b2f4bf027c1f6d, actual =13b2f4bf027c1f6d
[2545000] SCOREBOARD MATCH: wdata passthrough beat=192 expected = d619aef3a91fb5c8, actual =d619aef3a91fb5c8
[2545000] SCOREBOARD MATCH: wdata passthrough beat=193 expected = 17666dbfa965e7e8, actual =17666dbfa965e7e8
[2545000] SCOREBOARD MATCH: wdata passthrough beat=194 expected = abe20755f51b1eca, actual =abe20755f51b1eca
[2545000] SCOREBOARD MATCH: wdata passthrough beat=195 expected = 9e3ad4922b19627e, actual =9e3ad4922b19627e
[2545000] SCOREBOARD MATCH: wdata passthrough beat=196 expected = d47f4a6601fbb649, actual =d47f4a6601fbb649
[2545000] SCOREBOARD MATCH: wdata passthrough beat=197 expected = f716d513b5a14251, actual =f716d513b5a14251
[2545000] SCOREBOARD MATCH: wdata passthrough beat=198 expected = e0baa4cf006151bc, actual =e0baa4cf006151bc
[2545000] SCOREBOARD MATCH: wdata passthrough beat=199 expected = 25d08059551a9a5, actual =25d08059551a9a5
[2545000] SCOREBOARD MATCH: wdata passthrough beat=200 expected = caf2ebf73539ef36, actual =caf2ebf73539ef36
[2545000] SCOREBOARD MATCH: wdata passthrough beat=201 expected = 359b40f2f973dd18, actual =359b40f2f973dd18
[2545000] SCOREBOARD MATCH: wdata passthrough beat=202 expected = 8ec586bdabad90c6, actual =8ec586bdabad90c6
[2545000] SCOREBOARD MATCH: wdata passthrough beat=203 expected = e0e77ffc37f848f7, actual =e0e77ffc37f848f7
[2545000] SCOREBOARD MATCH: wdata passthrough beat=204 expected = 316c260fd9b872b4, actual =316c260fd9b872b4
[2545000] SCOREBOARD MATCH: wdata passthrough beat=205 expected = 566037b9682c0ee, actual =566037b9682c0ee
[2545000] SCOREBOARD MATCH: wdata passthrough beat=206 expected = ce7b09e5c031accc, actual =ce7b09e5c031accc
[2545000] SCOREBOARD MATCH: wdata passthrough beat=207 expected = 19ea1f81e64d8377, actual =19ea1f81e64d8377
[2545000] SCOREBOARD MATCH: wdata passthrough beat=208 expected = fcd04466ffe72ff4, actual =fcd04466ffe72ff4
[2545000] SCOREBOARD MATCH: wdata passthrough beat=209 expected = c018dcc11f5022fc, actual =c018dcc11f5022fc
[2545000] SCOREBOARD MATCH: wdata passthrough beat=210 expected = 859da673cb4b4e4b, actual =859da673cb4b4e4b
[2545000] SCOREBOARD MATCH: wdata passthrough beat=211 expected = cb327e40da02fc42, actual =cb327e40da02fc42
[2545000] SCOREBOARD MATCH: wdata passthrough beat=212 expected = f9531f3e826dead9, actual =f9531f3e826dead9
[2545000] SCOREBOARD MATCH: wdata passthrough beat=213 expected = cdb939250b4b5b01, actual =cdb939250b4b5b01
[2545000] SCOREBOARD MATCH: wdata passthrough beat=214 expected = e54e5743fef0c5b1, actual =e54e5743fef0c5b1
[2545000] SCOREBOARD MATCH: wdata passthrough beat=215 expected = 15eb08b18ebb765, actual =15eb08b18ebb765
[2545000] SCOREBOARD MATCH: wdata passthrough beat=216 expected = 24371266dea17681, actual =24371266dea17681
[2545000] SCOREBOARD MATCH: wdata passthrough beat=217 expected = dd923c32cf17e9b0, actual =dd923c32cf17e9b0
[2545000] SCOREBOARD MATCH: wdata passthrough beat=218 expected = e803a115098569a9, actual =e803a115098569a9
[2545000] SCOREBOARD MATCH: wdata passthrough beat=219 expected = e826e02adef0ecbd, actual =e826e02adef0ecbd
[2545000] SCOREBOARD MATCH: wdata passthrough beat=220 expected = ae08d66d0c3ab37b, actual =ae08d66d0c3ab37b
[2545000] SCOREBOARD MATCH: wdata passthrough beat=221 expected = 15c01d24c5b91c5c, actual =15c01d24c5b91c5c
[2545000] SCOREBOARD MATCH: wdata passthrough beat=222 expected = 24aa091a960c7782, actual =24aa091a960c7782
[2545000] SCOREBOARD MATCH: wdata passthrough beat=223 expected = a2472afdfde6fd4e, actual =a2472afdfde6fd4e
[2545000] SCOREBOARD MATCH: wdata passthrough beat=224 expected = c3a019aad2b2df87, actual =c3a019aad2b2df87
[2545000] SCOREBOARD MATCH: wdata passthrough beat=225 expected = e8bf570ab8074821, actual =e8bf570ab8074821
[2545000] SCOREBOARD MATCH: wdata passthrough beat=226 expected = b5ee456fe84a22c4, actual =b5ee456fe84a22c4
[2545000] SCOREBOARD MATCH: wdata passthrough beat=227 expected = 3afd024c8b068207, actual =3afd024c8b068207
[2545000] SCOREBOARD MATCH: wdata passthrough beat=228 expected = c30dca29f98e5f1a, actual =c30dca29f98e5f1a
[2545000] SCOREBOARD MATCH: wdata passthrough beat=229 expected = e1d881de23bc5956, actual =e1d881de23bc5956
[2545000] SCOREBOARD MATCH: wdata passthrough beat=230 expected = aec2db5df8fc0f98, actual =aec2db5df8fc0f98
[2545000] SCOREBOARD MATCH: wdata passthrough beat=231 expected = f28a6eb29cd5842a, actual =f28a6eb29cd5842a
[2545000] SCOREBOARD MATCH: wdata passthrough beat=232 expected = c091dd80f1d0a586, actual =c091dd80f1d0a586
[2545000] SCOREBOARD MATCH: wdata passthrough beat=233 expected = eaccb51fd462f091, actual =eaccb51fd462f091
[2545000] SCOREBOARD MATCH: wdata passthrough beat=234 expected = f13874bbef54b8de, actual =f13874bbef54b8de
[2545000] SCOREBOARD MATCH: wdata passthrough beat=235 expected = e1255e64dd5723d1, actual =e1255e64dd5723d1
[2545000] SCOREBOARD MATCH: wdata passthrough beat=236 expected = b1ba146231ca523c, actual =b1ba146231ca523c
[2545000] SCOREBOARD MATCH: wdata passthrough beat=237 expected = 211f0b1acbf21383, actual =211f0b1acbf21383
[2545000] SCOREBOARD MATCH: wdata passthrough beat=238 expected = 2949375522f2891e, actual =2949375522f2891e
[2545000] SCOREBOARD MATCH: wdata passthrough beat=239 expected = d4bcdb5a8244697e, actual =d4bcdb5a8244697e
[2545000] SCOREBOARD MATCH: wdata passthrough beat=240 expected = ce367d02db034bb7, actual =ce367d02db034bb7
[2545000] SCOREBOARD MATCH: wdata passthrough beat=241 expected = fdf5d4d5f5dbe674, actual =fdf5d4d5f5dbe674
[2545000] SCOREBOARD MATCH: wdata passthrough beat=242 expected = f8204ff2f77fb457, actual =f8204ff2f77fb457
[2545000] SCOREBOARD MATCH: wdata passthrough beat=243 expected = d283000ed2b2b02f, actual =d283000ed2b2b02f
[2545000] SCOREBOARD MATCH: wdata passthrough beat=244 expected = c88e96a3c656ccf4, actual =c88e96a3c656ccf4
[2545000] SCOREBOARD MATCH: wdata passthrough beat=245 expected = bdd6814bd078d4e4, actual =bdd6814bd078d4e4
[2545000] SCOREBOARD MATCH: wstrb size check expected = f6, actual =f6
[2545000] SCOREBOARD MATCH: wstrb passthrough beat=0 expected = 96, actual =96
[2545000] SCOREBOARD MATCH: wstrb passthrough beat=1 expected = 13, actual =13
[2545000] SCOREBOARD MATCH: wstrb passthrough beat=2 expected = 5a, actual =5a
[2545000] SCOREBOARD MATCH: wstrb passthrough beat=3 expected = 8a, actual =8a
[2545000] SCOREBOARD MATCH: wstrb passthrough beat=4 expected = b7, actual =b7
[2545000] SCOREBOARD MATCH: wstrb passthrough beat=5 expected = 3e, actual =3e
[2545000] SCOREBOARD MATCH: wstrb passthrough beat=6 expected = d6, actual =d6
[2545000] SCOREBOARD MATCH: wstrb passthrough beat=7 expected = 4d, actual =4d
[2545000] SCOREBOARD MATCH: wstrb passthrough beat=8 expected = 51, actual =51
[2545000] SCOREBOARD MATCH: wstrb passthrough beat=9 expected = 30, actual =30
[2545000] SCOREBOARD MATCH: wstrb passthrough beat=10 expected = d7, actual =d7
[2545000] SCOREBOARD MATCH: wstrb passthrough beat=11 expected = 8, actual =8
[2545000] SCOREBOARD MATCH: wstrb passthrough beat=12 expected = 6e, actual =6e
[2545000] SCOREBOARD MATCH: wstrb passthrough beat=13 expected = ad, actual =ad
[2545000] SCOREBOARD MATCH: wstrb passthrough beat=14 expected = 55, actual =55
[2545000] SCOREBOARD MATCH: wstrb passthrough beat=15 expected = bf, actual =bf
[2545000] SCOREBOARD MATCH: wstrb passthrough beat=16 expected = dd, actual =dd
[2545000] SCOREBOARD MATCH: wstrb passthrough beat=17 expected = 2d, actual =2d
[2545000] SCOREBOARD MATCH: wstrb passthrough beat=18 expected = c8, actual =c8
[2545000] SCOREBOARD MATCH: wstrb passthrough beat=19 expected = 4b, actual =4b
[2545000] SCOREBOARD MATCH: wstrb passthrough beat=20 expected = da, actual =da
[2545000] SCOREBOARD MATCH: wstrb passthrough beat=21 expected = 1d, actual =1d
[2545000] SCOREBOARD MATCH: wstrb passthrough beat=22 expected = b, actual =b
[2545000] SCOREBOARD MATCH: wstrb passthrough beat=23 expected = b8, actual =b8
[2545000] SCOREBOARD MATCH: wstrb passthrough beat=24 expected = 4a, actual =4a
[2545000] SCOREBOARD MATCH: wstrb passthrough beat=25 expected = d3, actual =d3
[2545000] SCOREBOARD MATCH: wstrb passthrough beat=26 expected = 3, actual =3
[2545000] SCOREBOARD MATCH: wstrb passthrough beat=27 expected = 25, actual =25
[2545000] SCOREBOARD MATCH: wstrb passthrough beat=28 expected = f0, actual =f0
[2545000] SCOREBOARD MATCH: wstrb passthrough beat=29 expected = e, actual =e
[2545000] SCOREBOARD MATCH: wstrb passthrough beat=30 expected = dd, actual =dd
[2545000] SCOREBOARD MATCH: wstrb passthrough beat=31 expected = 3b, actual =3b
[2545000] SCOREBOARD MATCH: wstrb passthrough beat=32 expected = e1, actual =e1
[2545000] SCOREBOARD MATCH: wstrb passthrough beat=33 expected = e0, actual =e0
[2545000] SCOREBOARD MATCH: wstrb passthrough beat=34 expected = 60, actual =60
[2545000] SCOREBOARD MATCH: wstrb passthrough beat=35 expected = d2, actual =d2
[2545000] SCOREBOARD MATCH: wstrb passthrough beat=36 expected = ef, actual =ef
[2545000] SCOREBOARD MATCH: wstrb passthrough beat=37 expected = 3d, actual =3d
[2545000] SCOREBOARD MATCH: wstrb passthrough beat=38 expected = d, actual =d
[2545000] SCOREBOARD MATCH: wstrb passthrough beat=39 expected = d0, actual =d0
[2545000] SCOREBOARD MATCH: wstrb passthrough beat=40 expected = 1d, actual =1d
[2545000] SCOREBOARD MATCH: wstrb passthrough beat=41 expected = 6d, actual =6d
[2545000] SCOREBOARD MATCH: wstrb passthrough beat=42 expected = a2, actual =a2
[2545000] SCOREBOARD MATCH: wstrb passthrough beat=43 expected = c, actual =c
[2545000] SCOREBOARD MATCH: wstrb passthrough beat=44 expected = aa, actual =aa
[2545000] SCOREBOARD MATCH: wstrb passthrough beat=45 expected = af, actual =af
[2545000] SCOREBOARD MATCH: wstrb passthrough beat=46 expected = dd, actual =dd
[2545000] SCOREBOARD MATCH: wstrb passthrough beat=47 expected = c7, actual =c7
[2545000] SCOREBOARD MATCH: wstrb passthrough beat=48 expected = 1c, actual =1c
[2545000] SCOREBOARD MATCH: wstrb passthrough beat=49 expected = 7f, actual =7f
[2545000] SCOREBOARD MATCH: wstrb passthrough beat=50 expected = d4, actual =d4
[2545000] SCOREBOARD MATCH: wstrb passthrough beat=51 expected = c6, actual =c6
[2545000] SCOREBOARD MATCH: wstrb passthrough beat=52 expected = 2f, actual =2f
[2545000] SCOREBOARD MATCH: wstrb passthrough beat=53 expected = b1, actual =b1
[2545000] SCOREBOARD MATCH: wstrb passthrough beat=54 expected = 8e, actual =8e
