#-----------------------------------------------------------
# xsim v2025.2 (64-bit)
# SW Build 6299465 on Fri Nov 14 12:34:56 MST 2025
# IP Build 6300035 on Fri Nov 14 10:48:45 MST 2025
# SharedData Build 6298862 on Thu Nov 13 04:50:51 MST 2025
# Start of session at: Fri Sep 11 11:38:19 2026
# Process ID         : 689268
# Current directory  : /home/nashita/Desktop/practice/axi_xbar/sim
# Command line       : xsim -log regress_results/BT_run3.log -mode tcl -source {xsim.dir/tb_top_snap/xsim_script.tcl}
# Log file           : /home/nashita/Desktop/practice/axi_xbar/sim/regress_results/BT_run3.log
# Journal file       : /home/nashita/Desktop/practice/axi_xbar/sim/xsim.jou
# Running On         : vlsi-vivado
# Platform           : Ubuntu
# Operating System   : Ubuntu 24.04.4 LTS
# Processor Detail   : Intel(R) Core(TM) i5-10400 CPU @ 2.90GHz
# CPU Frequency      : 4100.263 MHz
# CPU Physical cores : 6
# CPU Logical cores  : 12
# Host memory        : 41875 MB
# Swap memory        : 27648 MB
# Total Virtual      : 69524 MB
# Available Virtual  : 62785 MB
#-----------------------------------------------------------
source xsim.dir/tb_top_snap/xsim_script.tcl
# xsim {tb_top_snap} -testplusarg BT -autoloadwcfg -runall -sv_seed 4
Time resolution is 1 ps
run -all
[0] RUNNING BASE TEST
[0] INSIDE THE BASE TEST CONSTRUCTOR
[0] ENV: before agent
[0] SLAVE CONSTRUCTED
[0] MASTER MONITOR CONSTRUCTED
[0] MASTER MONITOR CONSTRUCTED
[0] SLAVE MONITOR CONSTRUCTED
[0] SLAVE MONITOR CONSTRUCTED
[0] ARB MONITOR CONSTRUCTED
GENERATOR CONSTRUCTED
[0] ENV: after agent
[0] ENV: before scoreboard
[0] ENV: after scoreboard
[15000] [SEQUENCER] mst_id=0 s_id=0 awaddr=1bfd6318 awid=1001 awlen=8 awsize=6 awburst=2 wdata=[84f1ab0aa118b58b bbbe1944f2e0dbcf b052da760b2f54cd ac480a5831b0cd7b 2491a94a35448581 c073da4ee806239d 19b6f118d4e483c0 8a290941ecbbe4a6 d4c208433e489a62 ] wstrb=[8f 22 5b 36 64 bd 79 f3 e0 ] bresp=0 bid=0
[15000] [SEQUENCER] mst_id=1 s_id=0 awaddr=1e4e45e0 awid=1111 awlen=0 awsize=5 awburst=0 wdata=[cd921cf9d7fc983c ] wstrb=[d ] bresp=0 bid=0
[15000] [SEQUENCER] READ mst_id=1 s_id=0 araddr=119a1030 arid=1 arlen=1 arsize=3 arburst=1 rid=[] rresp=[] rdata=[]
[15000] [SEQUENCER] mst_id=1 s_id=0 awaddr=1d8cedf8 awid=10 awlen=6 awsize=7 awburst=2 wdata=[182fc15ef7f15551 dc69033bf5dae801 b3a21020a249f85b 9a3b4dac38c42643 2e9f0e44cbd1d17e ee1bc9daf6a450e8 2f68772be2411e64 ] wstrb=[86 e3 6f 6e bd d3 99 ] bresp=0 bid=0
[15000] [SEQUENCER] READ mst_id=0 s_id=0 araddr=42b3fe0 arid=1 arlen=1 arsize=3 arburst=1 rid=[] rresp=[] rdata=[]
[15000] MASTER_DRIVER0 received transaction, op=AXI_WRITE
[15000] MASTER_DRIVER1 received transaction, op=AXI_WRITE
[35000] MASTER 1 AW_VALID_RDY Handshake
[35000] MASTER 0 AW_VALID_RDY Handshake
[45000] ARB MONITOR: slave=1 m0_req=1 m1_req=1 winner=0
[45000] AXI S1_AWVALID_RDY HANDSHAKE
[45000] SCOREBOARD MATCH: arbitration winner (slave 1) expected = 0, actual =0
[55000] MASTER 1 W_VALID_RDY Handshake beat=0 wlast=1
[55000] MASTER 0 W_VALID_RDY Handshake beat=0 wlast=0
[55000] MASTER_DRIVER1 received transaction, op=AXI_READ
[65000] MASTER 0 W_VALID_RDY Handshake beat=1 wlast=0
[65000] S1 MEMORY WRITE beat=0 addr=1bfd6318 data=84f1ab0aa118b58b id=09
[75000] S1 MEMORY WRITE beat=1 addr=1bfd6358 data=bbbe1944f2e0dbcf id=09
[75000] MASTER 0 W_VALID_RDY Handshake beat=2 wlast=0
[75000] MASTER_DRIVER1 received transaction, op=AXI_WRITE
[85000] MASTER 0 W_VALID_RDY Handshake beat=3 wlast=0
[85000] ARB MONITOR: slave=1 m0_req=0 m1_req=1 winner=1
[85000] AXI S0_ARVALID_RDY HANDSHAKE
[85000] MEMORY READ MISS beat=0 addr=119a1030 -> default data id=17
[85000] S1 MEMORY WRITE beat=2 addr=1bfd6140 data=b052da760b2f54cd id=09
[95000] S1 MEMORY WRITE beat=3 addr=1bfd6180 data=ac480a5831b0cd7b id=09
[95000] MEMORY READ MISS beat=1 addr=119a1038 -> default data id=17
[95000] SLAVE 1 R_VALID_RDY Handshake beat=0 rlast=0
[95000] MASTER 1 AW_VALID_RDY Handshake
[95000] MASTER 0 W_VALID_RDY Handshake beat=4 wlast=0
[105000] MASTER 0 W_VALID_RDY Handshake beat=5 wlast=0
[105000] SLAVE 1 R_VALID_RDY Handshake beat=1 rlast=1
[105000] [SLAVE MONITOR] READ mst_id=1 s_id=1 araddr=119a1030 arid=1 arlen=1 arsize=3 arburst=1 rid=[1111] rresp=[00] rdata=[baadf00d12345678baadf00d12345678]
[105000] S1 MEMORY WRITE beat=4 addr=1bfd61c0 data=2491a94a35448581 id=09
[115000] S1 MEMORY WRITE beat=5 addr=1bfd6200 data=c073da4ee806239d id=09
[115000] MASTER 1 R_VALID_RDY Handshake beat=0 rlast=0
[115000] MASTER 1 W_VALID_RDY Handshake beat=0 wlast=0
[115000] MASTER 0 W_VALID_RDY Handshake beat=6 wlast=0
[125000] [MASTER DRIVER] READ mst_id=1 s_id=0 araddr=119a1030 arid=1 arlen=1 arsize=3 arburst=1 rid=[11] rresp=[00] rdata=[baadf00d12345678baadf00d12345678]
[125000] MASTER 0 W_VALID_RDY Handshake beat=7 wlast=0
[125000] MASTER 1 W_VALID_RDY Handshake beat=1 wlast=0
[125000] MASTER 1 R_VALID_RDY Handshake beat=1 rlast=1
[125000] [MASTER MONITOR] READ mst_id=1 s_id=1 araddr=119a1030 arid=1 arlen=1 arsize=3 arburst=1 rid=[11] rresp=[00] rdata=[baadf00d12345678baadf00d12345678]
[125000] S1 MEMORY WRITE beat=6 addr=1bfd6240 data=19b6f118d4e483c0 id=09
[125000] SCOREBOARD MATCH: decode_err expected = 0, actual =0
[125000] SCOREBOARD MATCH: slave_id expected = 1, actual =1
[125000] SCOREBOARD MATCH: araddr passthrough expected = 119a1030, actual =119a1030
[125000] SCOREBOARD MATCH: arlen passthrough expected = 1, actual =1
[125000] SCOREBOARD MATCH: arsize passthrough expected = 3, actual =3
[125000] SCOREBOARD MATCH: arburst passthrough expected = 1, actual =1
[125000] SCOREBOARD MATCH: rdata size check expected = 2, actual =2
[125000] SCOREBOARD MATCH: rdata passthrough beat=0 expected = baadf00d12345678, actual =baadf00d12345678
[125000] SCOREBOARD MATCH: rdata passthrough beat=1 expected = baadf00d12345678, actual =baadf00d12345678
[125000] SCOREBOARD MATCH: rresp size check expected = 2, actual =2
[125000] SCOREBOARD MATCH: rresp passthrough beat=0 expected = 0, actual =0
[125000] SCOREBOARD MATCH: rresp passthrough beat=1 expected = 0, actual =0
[125000] SCOREBOARD MATCH: response routed to correct master (read beat 0) expected = 1, actual =1
[125000] SCOREBOARD MATCH: response routed to correct master (read beat 1) expected = 1, actual =1
[125000] [SCOREBOARD-M] READ mst_id=1 s_id=1 araddr=119a1030 arid=1 arlen=1 arsize=3 arburst=1 rid=[11] rresp=[00] rdata=[baadf00d12345678baadf00d12345678]
[125000] [SCOREBOARD-S] READ mst_id=1 s_id=1 araddr=119a1030 arid=1 arlen=1 arsize=3 arburst=1 rid=[1111] rresp=[00] rdata=[baadf00d12345678baadf00d12345678]
[125000] SCOREBOARD: Transaction 1 received. pass=15 fail=0
[125000] ALL PASS. Total transactions: 1
[135000] S1 MEMORY WRITE beat=7 addr=1bfd6280 data=8a290941ecbbe4a6 id=09
[135000] MASTER 1 W_VALID_RDY Handshake beat=2 wlast=0
[135000] MASTER 0 W_VALID_RDY Handshake beat=8 wlast=1
[135000] MASTER_DRIVER0 received transaction, op=AXI_READ
[145000] MASTER 1 W_VALID_RDY Handshake beat=3 wlast=0
[145000] S1 MEMORY WRITE beat=8 addr=1bfd62c0 data=d4c208433e489a62 id=09
[155000] SLAVE1 sent B resp, id=9
[155000] [SLAVE MONITOR] mst_id=0 s_id=1 awaddr=1bfd6318 awid=1001 awlen=8 awsize=6 awburst=2 wdata=[84f1ab0aa118b58b bbbe1944f2e0dbcf b052da760b2f54cd ac480a5831b0cd7b 2491a94a35448581 c073da4ee806239d 19b6f118d4e483c0 8a290941ecbbe4a6 d4c208433e489a62 ] wstrb=[8f 22 5b 36 64 bd 79 f3 e0 ] bresp=0 bid=1001
[155000] MASTER 1 W_VALID_RDY Handshake beat=4 wlast=0
[165000] MASTER 1 W_VALID_RDY Handshake beat=5 wlast=0
[165000] ARB MONITOR: slave=0 m0_req=1 m1_req=0 winner=0
[165000] ARB MONITOR: slave=1 m0_req=0 m1_req=1 winner=1
[165000] AXI S0_ARVALID_RDY HANDSHAKE
[165000] MEMORY READ MISS beat=0 addr=42b3fe0 -> default data id=1
[165000] AXI S1_AWVALID_RDY HANDSHAKE
[175000] S1 MEMORY WRITE beat=0 addr=1e4e45e0 data=cd921cf9d7fc983c id=1f
[175000] MEMORY READ MISS beat=1 addr=42b3fe8 -> default data id=1
[175000] SLAVE 0 R_VALID_RDY Handshake beat=0 rlast=0
[175000] MASTER 1 W_VALID_RDY Handshake beat=6 wlast=1
[175000] MASTER 0 B_VALID_RDY Handshake
[175000] [MASTER MONITOR] mst_id=0 s_id=1 awaddr=1bfd6318 awid=1001 awlen=8 awsize=6 awburst=2 wdata=[84f1ab0aa118b58b bbbe1944f2e0dbcf b052da760b2f54cd ac480a5831b0cd7b 2491a94a35448581 c073da4ee806239d 19b6f118d4e483c0 8a290941ecbbe4a6 d4c208433e489a62 ] wstrb=[8f 22 5b 36 64 bd 79 f3 e0 ] bresp=0 bid=1001
[175000] MASTER 0 RECEIVED BRESP. BRESP=0
[175000] [MASTER DRIVER] mst_id=0 s_id=0 awaddr=1bfd6318 awid=1001 awlen=8 awsize=6 awburst=2 wdata=[84f1ab0aa118b58b bbbe1944f2e0dbcf b052da760b2f54cd ac480a5831b0cd7b 2491a94a35448581 c073da4ee806239d 19b6f118d4e483c0 8a290941ecbbe4a6 d4c208433e489a62 ] wstrb=[8f 22 5b 36 64 bd 79 f3 e0 ] bresp=0 bid=1001
[175000] SCOREBOARD MATCH: decode_err expected = 0, actual =0
[175000] SCOREBOARD MATCH: slave_id expected = 1, actual =1
[175000] SCOREBOARD MATCH: awaddr passthrough expected = 1bfd6318, actual =1bfd6318
[175000] SCOREBOARD MATCH: awlen passthrough expected = 8, actual =8
[175000] SCOREBOARD MATCH: awsize passthrough expected = 6, actual =6
[175000] SCOREBOARD MATCH: awburst passthrough expected = 2, actual =2
[175000] SCOREBOARD MATCH: wdata size check expected = 9, actual =9
[175000] SCOREBOARD MATCH: wdata passthrough beat=0 expected = 84f1ab0aa118b58b, actual =84f1ab0aa118b58b
[175000] SCOREBOARD MATCH: wdata passthrough beat=1 expected = bbbe1944f2e0dbcf, actual =bbbe1944f2e0dbcf
[175000] SCOREBOARD MATCH: wdata passthrough beat=2 expected = b052da760b2f54cd, actual =b052da760b2f54cd
[175000] SCOREBOARD MATCH: wdata passthrough beat=3 expected = ac480a5831b0cd7b, actual =ac480a5831b0cd7b
[175000] SCOREBOARD MATCH: wdata passthrough beat=4 expected = 2491a94a35448581, actual =2491a94a35448581
[175000] SCOREBOARD MATCH: wdata passthrough beat=5 expected = c073da4ee806239d, actual =c073da4ee806239d
[175000] SCOREBOARD MATCH: wdata passthrough beat=6 expected = 19b6f118d4e483c0, actual =19b6f118d4e483c0
[175000] SCOREBOARD MATCH: wdata passthrough beat=7 expected = 8a290941ecbbe4a6, actual =8a290941ecbbe4a6
[175000] SCOREBOARD MATCH: wdata passthrough beat=8 expected = d4c208433e489a62, actual =d4c208433e489a62
[175000] SCOREBOARD MATCH: wstrb size check expected = 9, actual =9
[175000] SCOREBOARD MATCH: wstrb passthrough beat=0 expected = 8f, actual =8f
[175000] SCOREBOARD MATCH: wstrb passthrough beat=1 expected = 22, actual =22
[175000] SCOREBOARD MATCH: wstrb passthrough beat=2 expected = 5b, actual =5b
[175000] SCOREBOARD MATCH: wstrb passthrough beat=3 expected = 36, actual =36
[175000] SCOREBOARD MATCH: wstrb passthrough beat=4 expected = 64, actual =64
[175000] SCOREBOARD MATCH: wstrb passthrough beat=5 expected = bd, actual =bd
[175000] SCOREBOARD MATCH: wstrb passthrough beat=6 expected = 79, actual =79
[175000] SCOREBOARD MATCH: wstrb passthrough beat=7 expected = f3, actual =f3
[175000] SCOREBOARD MATCH: wstrb passthrough beat=8 expected = e0, actual =e0
[175000] SCOREBOARD MATCH: bresp passthrough expected = 0, actual =0
[175000] SCOREBOARD MATCH: response routed to correct master (write) expected = 0, actual =0
[175000] [SCOREBOARD-M] mst_id=0 s_id=1 awaddr=1bfd6318 awid=1001 awlen=8 awsize=6 awburst=2 wdata=[84f1ab0aa118b58b bbbe1944f2e0dbcf b052da760b2f54cd ac480a5831b0cd7b 2491a94a35448581 c073da4ee806239d 19b6f118d4e483c0 8a290941ecbbe4a6 d4c208433e489a62 ] wstrb=[8f 22 5b 36 64 bd 79 f3 e0 ] bresp=0 bid=1001
[175000] [SCOREBOARD-S] mst_id=0 s_id=1 awaddr=1bfd6318 awid=1001 awlen=8 awsize=6 awburst=2 wdata=[84f1ab0aa118b58b bbbe1944f2e0dbcf b052da760b2f54cd ac480a5831b0cd7b 2491a94a35448581 c073da4ee806239d 19b6f118d4e483c0 8a290941ecbbe4a6 d4c208433e489a62 ] wstrb=[8f 22 5b 36 64 bd 79 f3 e0 ] bresp=0 bid=1001
[175000] SCOREBOARD: Transaction 2 received. pass=43 fail=0
[175000] ALL PASS. Total transactions: 2
[185000] SLAVE 0 R_VALID_RDY Handshake beat=1 rlast=1
[185000] [SLAVE MONITOR] READ mst_id=0 s_id=0 araddr=42b3fe0 arid=1 arlen=1 arsize=3 arburst=1 rid=[11] rresp=[00] rdata=[baadf00d12345678baadf00d12345678]
[185000] SLAVE1 sent B resp, id=15
[195000] AXI S1_AWVALID_RDY HANDSHAKE
[195000] [SLAVE MONITOR] mst_id=1 s_id=1 awaddr=1e4e45e0 awid=1111 awlen=0 awsize=5 awburst=0 wdata=[cd921cf9d7fc983c ] wstrb=[d ] bresp=0 bid=11111
[195000] ARB MONITOR: slave=1 m0_req=0 m1_req=0 winner=1
[195000] MASTER 0 R_VALID_RDY Handshake beat=0 rlast=0
[205000] MASTER 1 RECEIVED BRESP. BRESP=0
[205000] [MASTER DRIVER] mst_id=1 s_id=0 awaddr=1e4e45e0 awid=1111 awlen=0 awsize=5 awburst=0 wdata=[cd921cf9d7fc983c ] wstrb=[d ] bresp=0 bid=1111
[205000] [MASTER DRIVER] READ mst_id=0 s_id=0 araddr=42b3fe0 arid=1 arlen=1 arsize=3 arburst=1 rid=[11] rresp=[00] rdata=[baadf00d12345678baadf00d12345678]
[205000] MASTER 0 R_VALID_RDY Handshake beat=1 rlast=1
[205000] [MASTER MONITOR] READ mst_id=0 s_id=0 araddr=42b3fe0 arid=1 arlen=1 arsize=3 arburst=1 rid=[11] rresp=[00] rdata=[baadf00d12345678baadf00d12345678]
[205000] MASTER 1 B_VALID_RDY Handshake
[205000] [MASTER MONITOR] mst_id=1 s_id=1 awaddr=1e4e45e0 awid=1111 awlen=0 awsize=5 awburst=0 wdata=[cd921cf9d7fc983c ] wstrb=[d ] bresp=0 bid=1111
[205000] S1 MEMORY WRITE beat=0 addr=1d8cedf8 data=182fc15ef7f15551 id=12
[205000] SCOREBOARD MATCH: decode_err expected = 0, actual =0
[205000] SCOREBOARD MATCH: slave_id expected = 0, actual =0
[205000] SCOREBOARD MATCH: araddr passthrough expected = 42b3fe0, actual =42b3fe0
[205000] SCOREBOARD MATCH: arlen passthrough expected = 1, actual =1
[205000] SCOREBOARD MATCH: arsize passthrough expected = 3, actual =3
[205000] SCOREBOARD MATCH: arburst passthrough expected = 1, actual =1
[205000] SCOREBOARD MATCH: rdata size check expected = 2, actual =2
[205000] SCOREBOARD MATCH: rdata passthrough beat=0 expected = baadf00d12345678, actual =baadf00d12345678
[205000] SCOREBOARD MATCH: rdata passthrough beat=1 expected = baadf00d12345678, actual =baadf00d12345678
[205000] SCOREBOARD MATCH: rresp size check expected = 2, actual =2
[205000] SCOREBOARD MATCH: rresp passthrough beat=0 expected = 0, actual =0
[205000] SCOREBOARD MATCH: rresp passthrough beat=1 expected = 0, actual =0
[205000] SCOREBOARD MATCH: response routed to correct master (read beat 0) expected = 0, actual =0
[205000] SCOREBOARD MATCH: response routed to correct master (read beat 1) expected = 0, actual =0
[205000] [SCOREBOARD-M] READ mst_id=0 s_id=0 araddr=42b3fe0 arid=1 arlen=1 arsize=3 arburst=1 rid=[11] rresp=[00] rdata=[baadf00d12345678baadf00d12345678]
[205000] [SCOREBOARD-S] READ mst_id=0 s_id=0 araddr=42b3fe0 arid=1 arlen=1 arsize=3 arburst=1 rid=[11] rresp=[00] rdata=[baadf00d12345678baadf00d12345678]
[205000] SCOREBOARD: Transaction 3 received. pass=57 fail=0
[205000] ALL PASS. Total transactions: 3
[205000] SCOREBOARD MATCH: decode_err expected = 0, actual =0
[205000] SCOREBOARD MATCH: slave_id expected = 1, actual =1
[205000] SCOREBOARD MATCH: awaddr passthrough expected = 1e4e45e0, actual =1e4e45e0
[205000] SCOREBOARD MATCH: awlen passthrough expected = 0, actual =0
[205000] SCOREBOARD MATCH: awsize passthrough expected = 5, actual =5
[205000] SCOREBOARD MATCH: awburst passthrough expected = 0, actual =0
[205000] SCOREBOARD MATCH: wdata size check expected = 1, actual =1
[205000] SCOREBOARD MATCH: wdata passthrough beat=0 expected = cd921cf9d7fc983c, actual =cd921cf9d7fc983c
[205000] SCOREBOARD MATCH: wstrb size check expected = 1, actual =1
[205000] SCOREBOARD MATCH: wstrb passthrough beat=0 expected = d, actual =d
[205000] SCOREBOARD MATCH: bresp passthrough expected = 0, actual =0
[205000] SCOREBOARD MATCH: response routed to correct master (write) expected = 1, actual =1
[205000] [SCOREBOARD-M] mst_id=1 s_id=1 awaddr=1e4e45e0 awid=1111 awlen=0 awsize=5 awburst=0 wdata=[cd921cf9d7fc983c ] wstrb=[d ] bresp=0 bid=1111
[205000] [SCOREBOARD-S] mst_id=1 s_id=1 awaddr=1e4e45e0 awid=1111 awlen=0 awsize=5 awburst=0 wdata=[cd921cf9d7fc983c ] wstrb=[d ] bresp=0 bid=11111
[205000] SCOREBOARD: Transaction 4 received. pass=69 fail=0
[205000] ALL PASS. Total transactions: 4
[215000] S1 MEMORY WRITE beat=1 addr=1d8cee78 data=dc69033bf5dae801 id=12
[225000] S1 MEMORY WRITE beat=2 addr=1d8ceef8 data=b3a21020a249f85b id=12
[235000] S1 MEMORY WRITE beat=3 addr=1d8cef78 data=9a3b4dac38c42643 id=12
[245000] S1 MEMORY WRITE beat=4 addr=1d8cec00 data=2e9f0e44cbd1d17e id=12
[255000] S1 MEMORY WRITE beat=5 addr=1d8cec80 data=ee1bc9daf6a450e8 id=12
[265000] S1 MEMORY WRITE beat=6 addr=1d8ced00 data=2f68772be2411e64 id=12
[275000] SLAVE1 sent B resp, id=2
[275000] [SLAVE MONITOR] mst_id=1 s_id=1 awaddr=1d8cedf8 awid=10 awlen=6 awsize=7 awburst=2 wdata=[182fc15ef7f15551 dc69033bf5dae801 b3a21020a249f85b 9a3b4dac38c42643 2e9f0e44cbd1d17e ee1bc9daf6a450e8 2f68772be2411e64 ] wstrb=[86 e3 6f 6e bd d3 99 ] bresp=0 bid=10010
[295000] MASTER 1 B_VALID_RDY Handshake
[295000] [MASTER MONITOR] mst_id=1 s_id=1 awaddr=1d8cedf8 awid=10 awlen=6 awsize=7 awburst=2 wdata=[182fc15ef7f15551 dc69033bf5dae801 b3a21020a249f85b 9a3b4dac38c42643 2e9f0e44cbd1d17e ee1bc9daf6a450e8 2f68772be2411e64 ] wstrb=[86 e3 6f 6e bd d3 99 ] bresp=0 bid=10
[295000] MASTER 1 RECEIVED BRESP. BRESP=0
[295000] [MASTER DRIVER] mst_id=1 s_id=0 awaddr=1d8cedf8 awid=10 awlen=6 awsize=7 awburst=2 wdata=[182fc15ef7f15551 dc69033bf5dae801 b3a21020a249f85b 9a3b4dac38c42643 2e9f0e44cbd1d17e ee1bc9daf6a450e8 2f68772be2411e64 ] wstrb=[86 e3 6f 6e bd d3 99 ] bresp=0 bid=10
[295000] SCOREBOARD MATCH: decode_err expected = 0, actual =0
[295000] SCOREBOARD MATCH: slave_id expected = 1, actual =1
[295000] SCOREBOARD MATCH: awaddr passthrough expected = 1d8cedf8, actual =1d8cedf8
[295000] SCOREBOARD MATCH: awlen passthrough expected = 6, actual =6
[295000] SCOREBOARD MATCH: awsize passthrough expected = 7, actual =7
[295000] SCOREBOARD MATCH: awburst passthrough expected = 2, actual =2
[295000] SCOREBOARD MATCH: wdata size check expected = 7, actual =7
[295000] SCOREBOARD MATCH: wdata passthrough beat=0 expected = 182fc15ef7f15551, actual =182fc15ef7f15551
[295000] SCOREBOARD MATCH: wdata passthrough beat=1 expected = dc69033bf5dae801, actual =dc69033bf5dae801
[295000] SCOREBOARD MATCH: wdata passthrough beat=2 expected = b3a21020a249f85b, actual =b3a21020a249f85b
[295000] SCOREBOARD MATCH: wdata passthrough beat=3 expected = 9a3b4dac38c42643, actual =9a3b4dac38c42643
[295000] SCOREBOARD MATCH: wdata passthrough beat=4 expected = 2e9f0e44cbd1d17e, actual =2e9f0e44cbd1d17e
[295000] SCOREBOARD MATCH: wdata passthrough beat=5 expected = ee1bc9daf6a450e8, actual =ee1bc9daf6a450e8
[295000] SCOREBOARD MATCH: wdata passthrough beat=6 expected = 2f68772be2411e64, actual =2f68772be2411e64
[295000] SCOREBOARD MATCH: wstrb size check expected = 7, actual =7
[295000] SCOREBOARD MATCH: wstrb passthrough beat=0 expected = 86, actual =86
[295000] SCOREBOARD MATCH: wstrb passthrough beat=1 expected = e3, actual =e3
[295000] SCOREBOARD MATCH: wstrb passthrough beat=2 expected = 6f, actual =6f
[295000] SCOREBOARD MATCH: wstrb passthrough beat=3 expected = 6e, actual =6e
[295000] SCOREBOARD MATCH: wstrb passthrough beat=4 expected = bd, actual =bd
[295000] SCOREBOARD MATCH: wstrb passthrough beat=5 expected = d3, actual =d3
[295000] SCOREBOARD MATCH: wstrb passthrough beat=6 expected = 99, actual =99
[295000] SCOREBOARD MATCH: bresp passthrough expected = 0, actual =0
[295000] SCOREBOARD MATCH: response routed to correct master (write) expected = 1, actual =1
[295000] [SCOREBOARD-M] mst_id=1 s_id=1 awaddr=1d8cedf8 awid=10 awlen=6 awsize=7 awburst=2 wdata=[182fc15ef7f15551 dc69033bf5dae801 b3a21020a249f85b 9a3b4dac38c42643 2e9f0e44cbd1d17e ee1bc9daf6a450e8 2f68772be2411e64 ] wstrb=[86 e3 6f 6e bd d3 99 ] bresp=0 bid=10
[295000] [SCOREBOARD-S] mst_id=1 s_id=1 awaddr=1d8cedf8 awid=10 awlen=6 awsize=7 awburst=2 wdata=[182fc15ef7f15551 dc69033bf5dae801 b3a21020a249f85b 9a3b4dac38c42643 2e9f0e44cbd1d17e ee1bc9daf6a450e8 2f68772be2411e64 ] wstrb=[86 e3 6f 6e bd d3 99 ] bresp=0 bid=10010
[295000] SCOREBOARD: Transaction 5 received. pass=93 fail=0
[295000] SCOREBOARD: Expected 5 transactions completed, PASS=93 FAIL=0
[295000] ALL PASS. Total transactions: 5
[295000] ALL TRANSACTIONS MONITORED
$finish called at time : 315 ns : File "/home/nashita/Desktop/practice/axi_xbar/tb/top/axi_tb_top.sv" Line 220
exit
INFO: xsimkernel Simulation Memory Usage: 289468 KB (Peak: 337868 KB), Simulation CPU Usage: 1200 ms
INFO: [Common 17-206] Exiting xsim at Fri Sep 11 11:38:22 2026...
