#-----------------------------------------------------------
# xsim v2025.2 (64-bit)
# SW Build 6299465 on Fri Nov 14 12:34:56 MST 2025
# IP Build 6300035 on Fri Nov 14 10:48:45 MST 2025
# SharedData Build 6298862 on Thu Nov 13 04:50:51 MST 2025
# Start of session at: Fri Sep 11 12:06:25 2026
# Process ID         : 757356
# Current directory  : /home/nashita/Desktop/practice/axi_xbar/sim
# Command line       : xsim -log regress_results/BT_run87.log -mode tcl -source {xsim.dir/tb_top_snap/xsim_script.tcl}
# Log file           : /home/nashita/Desktop/practice/axi_xbar/sim/regress_results/BT_run87.log
# Journal file       : /home/nashita/Desktop/practice/axi_xbar/sim/xsim.jou
# Running On         : vlsi-vivado
# Platform           : Ubuntu
# Operating System   : Ubuntu 24.04.4 LTS
# Processor Detail   : Intel(R) Core(TM) i5-10400 CPU @ 2.90GHz
# CPU Frequency      : 4179.093 MHz
# CPU Physical cores : 6
# CPU Logical cores  : 12
# Host memory        : 41875 MB
# Swap memory        : 27648 MB
# Total Virtual      : 69524 MB
# Available Virtual  : 62538 MB
#-----------------------------------------------------------
source xsim.dir/tb_top_snap/xsim_script.tcl
# xsim {tb_top_snap} -testplusarg BT -autoloadwcfg -runall -sv_seed 88
Time resolution is 1 ps
run -all
[0] RUNNING BASE TEST
[0] INSIDE THE BASE TEST CONSTRUCTOR
[0] ENV: before agent
[0] SLAVE CONSTRUCTED
[0] MASTER MONITOR CONSTRUCTED
[0] MASTER MONITOR CONSTRUCTED
[0] SLAVE MONITOR CONSTRUCTED
[0] SLAVE MONITOR CONSTRUCTED
[0] ARB MONITOR CONSTRUCTED
GENERATOR CONSTRUCTED
[0] ENV: after agent
[0] ENV: before scoreboard
[0] ENV: after scoreboard
[15000] [SEQUENCER] READ mst_id=1 s_id=0 araddr=12954b18 arid=0 arlen=1 arsize=3 arburst=1 rid=[] rresp=[] rdata=[]
[15000] [SEQUENCER] READ mst_id=1 s_id=0 araddr=14f49948 arid=1 arlen=1 arsize=3 arburst=1 rid=[] rresp=[] rdata=[]
[15000] [SEQUENCER] mst_id=1 s_id=0 awaddr=5904548 awid=0 awlen=207 awsize=6 awburst=1 wdata=[9c1e9365dfe76be4 bf132e48e3efe611 e0a1eebbe1372e84 c11e9a689d137c7c 103628efcc08220 ddf7b0a48031c8b0 1d45452de1a55149 de65d3699f164b0c 1f4813bd1e48a7bb ffedf9043c5d840e db73cf1a3c8d58ea dad600a5de53cc6d 9ab1507bfabbe2d7 b7493bc1dac3f9a9 b917c616f6251f96 f0e1026d921f3c66 ece3360fd3c91692 c9ee3628282a3e2f ba497a9525fafc26 f9c412b8bacf3895 e2f976c4272cb0a5 cd27accbc3b248e0 fe8181751d42f15a c46fa1ffc6ebbf83 a9e0863e17af83a febde99411974eca d8830e4d891f89d8 ea9a8212c32d8b93 d4c4da5de32116b0 ec40a088e9586ba6 ac85f7392d47e8aa 1068ff5ad6db229b c0338e41814ad196 ae92ba40fca99fe2 d384c27decb9857b ee045711befbb99a 3ba5597d13b850bf 71d63a1c971152 db92caec8f2a1bfa a2e26cb9ee762d4b 8b0d3e9d97382469 26624064a35442f3 11ca703fe6a0098a fdd82df3c944ad1d ec98f0119cd7aedc 8377b866a43a6e57 ed7f1b75fe636050 9b3b0f2c014fe65a a58a54b1da180b86 d87b6bd61eb2c793 2002aded93097026 ed217bacf3b67b02 92694295c58d029e d89672c5c59ce782 39536285b26bf082 f7f8f321c5b7ee71 b54d5f4cbbca51a fe28959dd08f65e6 96475457c4a83879 9064dd93f62188be c6b0eea4a19c2a4b e64462c48e8d7330 84aefbeedcf842fb fe946d47f6a94058 8536b388cb5fea92 28582d8ee4d8d00b db82106309e5af77 d5459a0926ec9ad5 8bc56ae0e0b8c3ec ea9e7363fd9dc797 a48a626ce7477b44 c8003f30bfe40d6c 3d81d504304fcd4d 17974891329eb293 f282bfffe20c3770 925c04bddf9787c1 12363a54b0049503 1210cc74a9f34d4e 898ad50f84b8fa53 34bd8f57a46cd131 ce601e809bc10f63 207a09b7c6ce5bcb eb3b2cfcd7eaf38f f3ac02f3d537990e 1c05f4d9b99b4b7c 11863f0c14260caa e95da5b8874121d5 c0dc6d52053241ff 19584ea905639a91 8ca4bc66d262ac5e d794ee5d02b5f461 8198ef2cd8129b8 9fe3d616f0ed3d06 f3a3316794be4b58 e23f7511f778c473 e8660179fbbcc059 907b0bb182234b27 f99c0f9bdc0932e0 d7c5f339f2ba80c2 f4ddcbeae2021114 3e0b43f5e840feeb dafb7fadee79db85 d07bec9995d1372e fe123619cfd94b97 be53271c8e87308e 245867bdd90db5c7 a8e7015e0ecf13b6 9d564444a26a9dd6 fb78539de73a287b f6093c31c1aeac01 e41949d8245f54fc b997d77935f8075 d50e2c77df919d75 83f0f27101a2b9a8 95023a1d3927764f 98b913c48f8a6fe8 912d2990ea106694 a337dce31caa0636 ac34761e262f63ae 903fca423bf0f0a8 d89af6de3d619faf e391035d3377a726 ef6897ce84cf6cfc c2310cabf3d0cd9f a74874c5c8038eac ccd2fba8a5c21008 1992dda896b10c93 deb49b3f0f040854 b4c6185cc0db526d d78c5f012b8796e8 3a8b9f3cce58f604 f344872b640fa40 e1c89128ef51b798 3daaad9de6c0a773 9d01a1b39c543064 ba5e7fdccdef60f 339f9d82feca32dc 9b1e6340c950959a 162f8ba9d0a13f35 cf6b7211a6c44b3d f014e0d7c9cf292b 9a706860ea89d552 914e208f86446c80 d01395abe9dbda72 d465afc401630167 87a76de7ea83fe0c d45fd87ee5b3d053 e716d1bad7bb0393 c23f019f28c58842 8e795895eebe3fa2 c6794335169eda1d 3f64625ff5902a50 e44e69f208b844d4 1f571ef1cdddbaf4 c36de5442ac7ad27 337ff1fbdebb8150 ac993c44a7bc4f36 d283fc5dd2d710ec 3192923cf0072189 97c370bf8603ee58 d8daff44de2bce80 ce32f009ea476d1d f04b5b758a6d9180 e8996001e5f660c9 d03dcde6c9265aba d393ec3ab6cc500a 9cc2b0d3c089295b 89af8415bc2d4c3b f2f99c46ed007eb9 2d89a815dd437050 9970bc8b8fbc4d19 fcbccbd3b7392c2a 947c9c7a8c6a58d1 1c26a5eb2a4673e8 e17fa0122ded5906 ba57b1d718e371be c329e5a6f5fc3c8d 23e99593d67e57c2 ef61c980a4a985b8 9aa5c245de41476a 34bf9f2db28baf26 d73534dfbe8f57d8 1cd09f43a42168ad d6ad17d4f1daf724 306a4efdd1903e70 f5b1a71d2de24cb3 9fbd43d7cd3aee40 1ecb2cb0cc5ebef1 fa410ba4d02792d4 9d628114947cd3cd e0db92bf19fe4f7c ea25e250bc2dadc4 d0aa8192db1c9e63 f51aeddf07886365 c3b6112931861451 8ca2b2b4df40d030 e6c93395946092bb c5e6a70c01bda094 e0fe70c4aa7f44be 3edfd77ad28959c1 d446fa55c7c7a459 f246e91784c67e86 d74fd84735456b19 fd0d0f72b126c091 35ed3f18ab96d29c e0dc3db5ef53f889 207ab91b8d3d175f 38d3e9fcdde94d27 ] wstrb=[33 b1 b1 92 cc d9 8e ff 8a 40 91 56 19 20 55 a3 60 e6 f9 79 6 4e 1c 66 34 15 df 3b 63 fb a1 97 10 81 d2 73 7c 74 b 8d f5 dd 0 71 51 b fe 46 e9 ff b8 3a a b6 81 f3 b5 39 2e c0 ef af b3 a5 e8 e1 65 d7 90 18 7c 78 fa e1 50 8a fa cc 3 f4 ae 53 7e a8 1f 81 9c cd d4 1a 75 f4 9c 11 c1 70 2c 37 64 c8 48 26 38 74 5d 9d 3c a5 c3 75 1a 20 12 56 c5 d5 cb df f5 dd 36 ba b2 1 9a a7 df d0 62 91 d1 fc 39 b0 cc 9b 42 9d 97 7b 4e 63 16 90 0 ad b 4e 10 21 de 10 ce e9 5f de a 3d ee d8 27 4d b6 31 8b a5 a b2 f2 c0 e3 7d 65 ed 2f 58 ae 13 d5 13 0 5 6b ae 18 41 c2 18 46 2d c7 5e 6e 89 76 b4 b6 3d 12 25 c6 89 d9 7d c6 ec a2 8d ] bresp=0 bid=0
[15000] [SEQUENCER] mst_id=0 s_id=0 awaddr=1dee1ef0 awid=1111 awlen=14 awsize=3 awburst=2 wdata=[81c13746e088a840 1f946c2ec32f504a 863fc3bec17f0b60 2207b3a1e63c7fe3 a96bd02d0800fb05 c9800665c19c1fcf a7d89fb22fab93ec 37ac8ef1eb87ba06 ad23d9d5d1446fe0 f003cc812c9556 ecb44f5dd4fc7988 2640e968389c92bd b9c9281399d82932 eed4a2ba2730ed34 dfcd7ff1a67d7770 ] wstrb=[22 a3 4 56 5d 75 47 80 18 4c d6 75 c1 1e f5 ] bresp=0 bid=0
[15000] [SEQUENCER] mst_id=0 s_id=0 awaddr=12aa3090 awid=10 awlen=8 awsize=1 awburst=2 wdata=[ead6c9a8ed0808ed a4d6394efb940ec0 d26f962dd12c0fba 3e3418a8fd1b4631 f8af54f1bd465fd5 e726f90e30a51f6 e0259827cb1eeb1f 88654af4cca68838 afb0da2ed8d4ed19 ] wstrb=[84 38 56 bc 2c 6f eb b1 a7 ] bresp=0 bid=0
[15000] MASTER_DRIVER1 received transaction, op=AXI_READ
[15000] MASTER_DRIVER0 received transaction, op=AXI_WRITE
[35000] MASTER 0 AW_VALID_RDY Handshake
[35000] MASTER_DRIVER1 received transaction, op=AXI_READ
[45000] ARB MONITOR: slave=1 m0_req=1 m1_req=0 winner=0
[45000] ARB MONITOR: slave=1 m0_req=0 m1_req=1 winner=1
[45000] AXI S0_ARVALID_RDY HANDSHAKE
[45000] MEMORY READ MISS beat=0 addr=12954b18 -> default data id=16
[45000] AXI S1_AWVALID_RDY HANDSHAKE
[55000] MEMORY READ MISS beat=1 addr=12954b20 -> default data id=16
[55000] SLAVE 1 R_VALID_RDY Handshake beat=0 rlast=0
[55000] MASTER 0 W_VALID_RDY Handshake beat=0 wlast=0
[55000] MASTER_DRIVER1 received transaction, op=AXI_WRITE
[65000] MASTER 0 W_VALID_RDY Handshake beat=1 wlast=0
[65000] SLAVE 1 R_VALID_RDY Handshake beat=1 rlast=1
[65000] [SLAVE MONITOR] READ mst_id=1 s_id=1 araddr=12954b18 arid=0 arlen=1 arsize=3 arburst=1 rid=[1010] rresp=[00] rdata=[baadf00d12345678baadf00d12345678]
[65000] S1 MEMORY WRITE beat=0 addr=1dee1ef0 data=81c13746e088a840 id=0f
[75000] S1 MEMORY WRITE beat=1 addr=1dee1ef8 data=1f946c2ec32f504a id=0f
[75000] AXI S0_ARVALID_RDY HANDSHAKE
[75000] MEMORY READ MISS beat=0 addr=14f49948 -> default data id=17
[75000] ARB MONITOR: slave=1 m0_req=0 m1_req=1 winner=1
[75000] MASTER 1 R_VALID_RDY Handshake beat=0 rlast=0
[75000] MASTER 1 AW_VALID_RDY Handshake
[75000] MASTER 0 W_VALID_RDY Handshake beat=2 wlast=0
[85000] [MASTER DRIVER] READ mst_id=1 s_id=0 araddr=12954b18 arid=0 arlen=1 arsize=3 arburst=1 rid=[00] rresp=[00] rdata=[baadf00d12345678baadf00d12345678]
[85000] MASTER 0 W_VALID_RDY Handshake beat=3 wlast=0
[85000] MASTER 1 R_VALID_RDY Handshake beat=1 rlast=1
[85000] [MASTER MONITOR] READ mst_id=1 s_id=1 araddr=12954b18 arid=0 arlen=1 arsize=3 arburst=1 rid=[00] rresp=[00] rdata=[baadf00d12345678baadf00d12345678]
[85000] ARB MONITOR: slave=0 m0_req=0 m1_req=1 winner=1
[85000] SLAVE 1 R_VALID_RDY Handshake beat=0 rlast=0
[85000] MEMORY READ MISS beat=1 addr=14f49950 -> default data id=17
[85000] S1 MEMORY WRITE beat=2 addr=1dee1f00 data=863fc3bec17f0b60 id=0f
[85000] AXI S0_AWVALID_RDY HANDSHAKE
[85000] SCOREBOARD MATCH: decode_err expected = 0, actual =0
[85000] SCOREBOARD MATCH: slave_id expected = 1, actual =1
[85000] SCOREBOARD MATCH: araddr passthrough expected = 12954b18, actual =12954b18
[85000] SCOREBOARD MATCH: arlen passthrough expected = 1, actual =1
[85000] SCOREBOARD MATCH: arsize passthrough expected = 3, actual =3
[85000] SCOREBOARD MATCH: arburst passthrough expected = 1, actual =1
[85000] SCOREBOARD MATCH: rdata size check expected = 2, actual =2
[85000] SCOREBOARD MATCH: rdata passthrough beat=0 expected = baadf00d12345678, actual =baadf00d12345678
[85000] SCOREBOARD MATCH: rdata passthrough beat=1 expected = baadf00d12345678, actual =baadf00d12345678
[85000] SCOREBOARD MATCH: rresp size check expected = 2, actual =2
[85000] SCOREBOARD MATCH: rresp passthrough beat=0 expected = 0, actual =0
[85000] SCOREBOARD MATCH: rresp passthrough beat=1 expected = 0, actual =0
[85000] SCOREBOARD MATCH: response routed to correct master (read beat 0) expected = 1, actual =1
[85000] SCOREBOARD MATCH: response routed to correct master (read beat 1) expected = 1, actual =1
[85000] [SCOREBOARD-M] READ mst_id=1 s_id=1 araddr=12954b18 arid=0 arlen=1 arsize=3 arburst=1 rid=[00] rresp=[00] rdata=[baadf00d12345678baadf00d12345678]
[85000] [SCOREBOARD-S] READ mst_id=1 s_id=1 araddr=12954b18 arid=0 arlen=1 arsize=3 arburst=1 rid=[1010] rresp=[00] rdata=[baadf00d12345678baadf00d12345678]
[85000] SCOREBOARD: Transaction 1 received. pass=14 fail=0
[85000] ALL PASS. Total transactions: 1
[95000] S1 MEMORY WRITE beat=3 addr=1dee1f08 data=2207b3a1e63c7fe3 id=0f
[95000] SLAVE 1 R_VALID_RDY Handshake beat=1 rlast=1
[95000] [SLAVE MONITOR] READ mst_id=1 s_id=1 araddr=14f49948 arid=1 arlen=1 arsize=3 arburst=1 rid=[1111] rresp=[00] rdata=[baadf00d12345678baadf00d12345678]
[95000] MASTER 1 W_VALID_RDY Handshake beat=0 wlast=0
[95000] MASTER 0 W_VALID_RDY Handshake beat=4 wlast=0
[105000] MASTER 0 W_VALID_RDY Handshake beat=5 wlast=0
[105000] MASTER 1 W_VALID_RDY Handshake beat=1 wlast=0
[105000] MASTER 1 R_VALID_RDY Handshake beat=0 rlast=0
[105000] S1 MEMORY WRITE beat=4 addr=1dee1f10 data=a96bd02d0800fb05 id=0f
[105000] AXI S0_WVALID_RDY HANDSHAKE
[105000] S0 MEMORY WRITE beat=0 addr=05904548 data=9c1e9365dfe76be4 id=10
[115000] AXI S0_WVALID_RDY HANDSHAKE
[115000] S0 MEMORY WRITE beat=1 addr=05904588 data=bf132e48e3efe611 id=10
[115000] S1 MEMORY WRITE beat=5 addr=1dee1f18 data=c9800665c19c1fcf id=0f
[115000] MASTER 1 R_VALID_RDY Handshake beat=1 rlast=1
[115000] [MASTER MONITOR] READ mst_id=1 s_id=1 araddr=14f49948 arid=1 arlen=1 arsize=3 arburst=1 rid=[11] rresp=[00] rdata=[baadf00d12345678baadf00d12345678]
[115000] MASTER 1 W_VALID_RDY Handshake beat=2 wlast=0
[115000] MASTER 0 W_VALID_RDY Handshake beat=6 wlast=0
[115000] [MASTER DRIVER] READ mst_id=1 s_id=0 araddr=14f49948 arid=1 arlen=1 arsize=3 arburst=1 rid=[11] rresp=[00] rdata=[baadf00d12345678baadf00d12345678]
[115000] SCOREBOARD MATCH: decode_err expected = 0, actual =0
[115000] SCOREBOARD MATCH: slave_id expected = 1, actual =1
[115000] SCOREBOARD MATCH: araddr passthrough expected = 14f49948, actual =14f49948
[115000] SCOREBOARD MATCH: arlen passthrough expected = 1, actual =1
[115000] SCOREBOARD MATCH: arsize passthrough expected = 3, actual =3
[115000] SCOREBOARD MATCH: arburst passthrough expected = 1, actual =1
[115000] SCOREBOARD MATCH: rdata size check expected = 2, actual =2
[115000] SCOREBOARD MATCH: rdata passthrough beat=0 expected = baadf00d12345678, actual =baadf00d12345678
[115000] SCOREBOARD MATCH: rdata passthrough beat=1 expected = baadf00d12345678, actual =baadf00d12345678
[115000] SCOREBOARD MATCH: rresp size check expected = 2, actual =2
[115000] SCOREBOARD MATCH: rresp passthrough beat=0 expected = 0, actual =0
[115000] SCOREBOARD MATCH: rresp passthrough beat=1 expected = 0, actual =0
[115000] SCOREBOARD MATCH: response routed to correct master (read beat 0) expected = 1, actual =1
[115000] SCOREBOARD MATCH: response routed to correct master (read beat 1) expected = 1, actual =1
[115000] [SCOREBOARD-M] READ mst_id=1 s_id=1 araddr=14f49948 arid=1 arlen=1 arsize=3 arburst=1 rid=[11] rresp=[00] rdata=[baadf00d12345678baadf00d12345678]
[115000] [SCOREBOARD-S] READ mst_id=1 s_id=1 araddr=14f49948 arid=1 arlen=1 arsize=3 arburst=1 rid=[1111] rresp=[00] rdata=[baadf00d12345678baadf00d12345678]
[115000] SCOREBOARD: Transaction 2 received. pass=28 fail=0
[115000] ALL PASS. Total transactions: 2
[125000] MASTER 0 W_VALID_RDY Handshake beat=7 wlast=0
[125000] MASTER 1 W_VALID_RDY Handshake beat=3 wlast=0
[125000] S1 MEMORY WRITE beat=6 addr=1dee1ea8 data=a7d89fb22fab93ec id=0f
[125000] AXI S0_WVALID_RDY HANDSHAKE
[125000] S0 MEMORY WRITE beat=2 addr=059045c8 data=e0a1eebbe1372e84 id=10
[135000] AXI S0_WVALID_RDY HANDSHAKE
[135000] S0 MEMORY WRITE beat=3 addr=05904608 data=c11e9a689d137c7c id=10
[135000] S1 MEMORY WRITE beat=7 addr=1dee1eb0 data=37ac8ef1eb87ba06 id=0f
[135000] MASTER 1 W_VALID_RDY Handshake beat=4 wlast=0
[135000] MASTER 0 W_VALID_RDY Handshake beat=8 wlast=0
[145000] MASTER 0 W_VALID_RDY Handshake beat=9 wlast=0
[145000] MASTER 1 W_VALID_RDY Handshake beat=5 wlast=0
[145000] S1 MEMORY WRITE beat=8 addr=1dee1eb8 data=ad23d9d5d1446fe0 id=0f
[145000] AXI S0_WVALID_RDY HANDSHAKE
[145000] S0 MEMORY WRITE beat=4 addr=05904648 data=0103628efcc08220 id=10
[155000] AXI S0_WVALID_RDY HANDSHAKE
[155000] S0 MEMORY WRITE beat=5 addr=05904688 data=ddf7b0a48031c8b0 id=10
[155000] S1 MEMORY WRITE beat=9 addr=1dee1ec0 data=00f003cc812c9556 id=0f
[155000] MASTER 1 W_VALID_RDY Handshake beat=6 wlast=0
[155000] MASTER 0 W_VALID_RDY Handshake beat=10 wlast=0
[165000] MASTER 0 W_VALID_RDY Handshake beat=11 wlast=0
[165000] MASTER 1 W_VALID_RDY Handshake beat=7 wlast=0
[165000] S1 MEMORY WRITE beat=10 addr=1dee1ec8 data=ecb44f5dd4fc7988 id=0f
[165000] AXI S0_WVALID_RDY HANDSHAKE
[165000] S0 MEMORY WRITE beat=6 addr=059046c8 data=1d45452de1a55149 id=10
[175000] AXI S0_WVALID_RDY HANDSHAKE
[175000] S0 MEMORY WRITE beat=7 addr=05904708 data=de65d3699f164b0c id=10
[175000] S1 MEMORY WRITE beat=11 addr=1dee1ed0 data=2640e968389c92bd id=0f
[175000] MASTER 1 W_VALID_RDY Handshake beat=8 wlast=0
[175000] MASTER 0 W_VALID_RDY Handshake beat=12 wlast=0
[185000] MASTER 0 W_VALID_RDY Handshake beat=13 wlast=0
[185000] MASTER 1 W_VALID_RDY Handshake beat=9 wlast=0
[185000] S1 MEMORY WRITE beat=12 addr=1dee1ed8 data=b9c9281399d82932 id=0f
[185000] AXI S0_WVALID_RDY HANDSHAKE
[185000] S0 MEMORY WRITE beat=8 addr=05904748 data=1f4813bd1e48a7bb id=10
[195000] AXI S0_WVALID_RDY HANDSHAKE
[195000] S0 MEMORY WRITE beat=9 addr=05904788 data=ffedf9043c5d840e id=10
[195000] S1 MEMORY WRITE beat=13 addr=1dee1ee0 data=eed4a2ba2730ed34 id=0f
[195000] MASTER 1 W_VALID_RDY Handshake beat=10 wlast=0
[195000] MASTER 0 W_VALID_RDY Handshake beat=14 wlast=1
[195000] MASTER_DRIVER0 received transaction, op=AXI_WRITE
[205000] MASTER 1 W_VALID_RDY Handshake beat=11 wlast=0
[205000] S1 MEMORY WRITE beat=14 addr=1dee1ee8 data=dfcd7ff1a67d7770 id=0f
[205000] AXI S0_WVALID_RDY HANDSHAKE
[205000] S0 MEMORY WRITE beat=10 addr=059047c8 data=db73cf1a3c8d58ea id=10
[215000] AXI S0_WVALID_RDY HANDSHAKE
[215000] S0 MEMORY WRITE beat=11 addr=05904808 data=dad600a5de53cc6d id=10
[215000] SLAVE1 sent B resp, id=15
[215000] [SLAVE MONITOR] mst_id=0 s_id=1 awaddr=1dee1ef0 awid=1111 awlen=14 awsize=3 awburst=2 wdata=[81c13746e088a840 1f946c2ec32f504a 863fc3bec17f0b60 2207b3a1e63c7fe3 a96bd02d0800fb05 c9800665c19c1fcf a7d89fb22fab93ec 37ac8ef1eb87ba06 ad23d9d5d1446fe0 f003cc812c9556 ecb44f5dd4fc7988 2640e968389c92bd b9c9281399d82932 eed4a2ba2730ed34 dfcd7ff1a67d7770 ] wstrb=[22 a3 4 56 5d 75 47 80 18 4c d6 75 c1 1e f5 ] bresp=0 bid=1111
[215000] MASTER 1 W_VALID_RDY Handshake beat=12 wlast=0
[215000] MASTER 0 AW_VALID_RDY Handshake
[225000] MASTER 1 W_VALID_RDY Handshake beat=13 wlast=0
[225000] ARB MONITOR: slave=1 m0_req=1 m1_req=0 winner=0
[225000] AXI S1_AWVALID_RDY HANDSHAKE
[225000] AXI S0_WVALID_RDY HANDSHAKE
[225000] S0 MEMORY WRITE beat=12 addr=05904848 data=9ab1507bfabbe2d7 id=10
[235000] AXI S0_WVALID_RDY HANDSHAKE
[235000] S0 MEMORY WRITE beat=13 addr=05904888 data=b7493bc1dac3f9a9 id=10
[235000] MASTER 1 W_VALID_RDY Handshake beat=14 wlast=0
[235000] MASTER 0 W_VALID_RDY Handshake beat=0 wlast=0
[235000] MASTER 0 B_VALID_RDY Handshake
[235000] [MASTER MONITOR] mst_id=0 s_id=1 awaddr=1dee1ef0 awid=1111 awlen=14 awsize=3 awburst=2 wdata=[81c13746e088a840 1f946c2ec32f504a 863fc3bec17f0b60 2207b3a1e63c7fe3 a96bd02d0800fb05 c9800665c19c1fcf a7d89fb22fab93ec 37ac8ef1eb87ba06 ad23d9d5d1446fe0 f003cc812c9556 ecb44f5dd4fc7988 2640e968389c92bd b9c9281399d82932 eed4a2ba2730ed34 dfcd7ff1a67d7770 ] wstrb=[22 a3 4 56 5d 75 47 80 18 4c d6 75 c1 1e f5 ] bresp=0 bid=1111
[235000] MASTER 0 RECEIVED BRESP. BRESP=0
[235000] [MASTER DRIVER] mst_id=0 s_id=0 awaddr=1dee1ef0 awid=1111 awlen=14 awsize=3 awburst=2 wdata=[81c13746e088a840 1f946c2ec32f504a 863fc3bec17f0b60 2207b3a1e63c7fe3 a96bd02d0800fb05 c9800665c19c1fcf a7d89fb22fab93ec 37ac8ef1eb87ba06 ad23d9d5d1446fe0 f003cc812c9556 ecb44f5dd4fc7988 2640e968389c92bd b9c9281399d82932 eed4a2ba2730ed34 dfcd7ff1a67d7770 ] wstrb=[22 a3 4 56 5d 75 47 80 18 4c d6 75 c1 1e f5 ] bresp=0 bid=1111
[235000] SCOREBOARD MATCH: decode_err expected = 0, actual =0
[235000] SCOREBOARD MATCH: slave_id expected = 1, actual =1
[235000] SCOREBOARD MATCH: awaddr passthrough expected = 1dee1ef0, actual =1dee1ef0
[235000] SCOREBOARD MATCH: awlen passthrough expected = 14, actual =14
[235000] SCOREBOARD MATCH: awsize passthrough expected = 3, actual =3
[235000] SCOREBOARD MATCH: awburst passthrough expected = 2, actual =2
[235000] SCOREBOARD MATCH: wdata size check expected = f, actual =f
[235000] SCOREBOARD MATCH: wdata passthrough beat=0 expected = 81c13746e088a840, actual =81c13746e088a840
[235000] SCOREBOARD MATCH: wdata passthrough beat=1 expected = 1f946c2ec32f504a, actual =1f946c2ec32f504a
[235000] SCOREBOARD MATCH: wdata passthrough beat=2 expected = 863fc3bec17f0b60, actual =863fc3bec17f0b60
[235000] SCOREBOARD MATCH: wdata passthrough beat=3 expected = 2207b3a1e63c7fe3, actual =2207b3a1e63c7fe3
[235000] SCOREBOARD MATCH: wdata passthrough beat=4 expected = a96bd02d0800fb05, actual =a96bd02d0800fb05
[235000] SCOREBOARD MATCH: wdata passthrough beat=5 expected = c9800665c19c1fcf, actual =c9800665c19c1fcf
[235000] SCOREBOARD MATCH: wdata passthrough beat=6 expected = a7d89fb22fab93ec, actual =a7d89fb22fab93ec
[235000] SCOREBOARD MATCH: wdata passthrough beat=7 expected = 37ac8ef1eb87ba06, actual =37ac8ef1eb87ba06
[235000] SCOREBOARD MATCH: wdata passthrough beat=8 expected = ad23d9d5d1446fe0, actual =ad23d9d5d1446fe0
[235000] SCOREBOARD MATCH: wdata passthrough beat=9 expected = f003cc812c9556, actual =f003cc812c9556
[235000] SCOREBOARD MATCH: wdata passthrough beat=10 expected = ecb44f5dd4fc7988, actual =ecb44f5dd4fc7988
[235000] SCOREBOARD MATCH: wdata passthrough beat=11 expected = 2640e968389c92bd, actual =2640e968389c92bd
[235000] SCOREBOARD MATCH: wdata passthrough beat=12 expected = b9c9281399d82932, actual =b9c9281399d82932
[235000] SCOREBOARD MATCH: wdata passthrough beat=13 expected = eed4a2ba2730ed34, actual =eed4a2ba2730ed34
[235000] SCOREBOARD MATCH: wdata passthrough beat=14 expected = dfcd7ff1a67d7770, actual =dfcd7ff1a67d7770
[235000] SCOREBOARD MATCH: wstrb size check expected = f, actual =f
[235000] SCOREBOARD MATCH: wstrb passthrough beat=0 expected = 22, actual =22
[235000] SCOREBOARD MATCH: wstrb passthrough beat=1 expected = a3, actual =a3
[235000] SCOREBOARD MATCH: wstrb passthrough beat=2 expected = 4, actual =4
[235000] SCOREBOARD MATCH: wstrb passthrough beat=3 expected = 56, actual =56
[235000] SCOREBOARD MATCH: wstrb passthrough beat=4 expected = 5d, actual =5d
[235000] SCOREBOARD MATCH: wstrb passthrough beat=5 expected = 75, actual =75
[235000] SCOREBOARD MATCH: wstrb passthrough beat=6 expected = 47, actual =47
[235000] SCOREBOARD MATCH: wstrb passthrough beat=7 expected = 80, actual =80
[235000] SCOREBOARD MATCH: wstrb passthrough beat=8 expected = 18, actual =18
[235000] SCOREBOARD MATCH: wstrb passthrough beat=9 expected = 4c, actual =4c
[235000] SCOREBOARD MATCH: wstrb passthrough beat=10 expected = d6, actual =d6
[235000] SCOREBOARD MATCH: wstrb passthrough beat=11 expected = 75, actual =75
[235000] SCOREBOARD MATCH: wstrb passthrough beat=12 expected = c1, actual =c1
[235000] SCOREBOARD MATCH: wstrb passthrough beat=13 expected = 1e, actual =1e
[235000] SCOREBOARD MATCH: wstrb passthrough beat=14 expected = f5, actual =f5
[235000] SCOREBOARD MATCH: bresp passthrough expected = 0, actual =0
[235000] SCOREBOARD MATCH: response routed to correct master (write) expected = 0, actual =0
[235000] [SCOREBOARD-M] mst_id=0 s_id=1 awaddr=1dee1ef0 awid=1111 awlen=14 awsize=3 awburst=2 wdata=[81c13746e088a840 1f946c2ec32f504a 863fc3bec17f0b60 2207b3a1e63c7fe3 a96bd02d0800fb05 c9800665c19c1fcf a7d89fb22fab93ec 37ac8ef1eb87ba06 ad23d9d5d1446fe0 f003cc812c9556 ecb44f5dd4fc7988 2640e968389c92bd b9c9281399d82932 eed4a2ba2730ed34 dfcd7ff1a67d7770 ] wstrb=[22 a3 4 56 5d 75 47 80 18 4c d6 75 c1 1e f5 ] bresp=0 bid=1111
[235000] [SCOREBOARD-S] mst_id=0 s_id=1 awaddr=1dee1ef0 awid=1111 awlen=14 awsize=3 awburst=2 wdata=[81c13746e088a840 1f946c2ec32f504a 863fc3bec17f0b60 2207b3a1e63c7fe3 a96bd02d0800fb05 c9800665c19c1fcf a7d89fb22fab93ec 37ac8ef1eb87ba06 ad23d9d5d1446fe0 f003cc812c9556 ecb44f5dd4fc7988 2640e968389c92bd b9c9281399d82932 eed4a2ba2730ed34 dfcd7ff1a67d7770 ] wstrb=[22 a3 4 56 5d 75 47 80 18 4c d6 75 c1 1e f5 ] bresp=0 bid=1111
[235000] SCOREBOARD: Transaction 3 received. pass=68 fail=0
[235000] ALL PASS. Total transactions: 3
[245000] MASTER 0 W_VALID_RDY Handshake beat=1 wlast=0
[245000] MASTER 1 W_VALID_RDY Handshake beat=15 wlast=0
[245000] S1 MEMORY WRITE beat=0 addr=12aa3090 data=ead6c9a8ed0808ed id=02
[245000] AXI S0_WVALID_RDY HANDSHAKE
[245000] S0 MEMORY WRITE beat=14 addr=059048c8 data=b917c616f6251f96 id=10
[255000] AXI S0_WVALID_RDY HANDSHAKE
[255000] S0 MEMORY WRITE beat=15 addr=05904908 data=f0e1026d921f3c66 id=10
[255000] S1 MEMORY WRITE beat=1 addr=12aa3092 data=a4d6394efb940ec0 id=02
[255000] MASTER 1 W_VALID_RDY Handshake beat=16 wlast=0
[255000] MASTER 0 W_VALID_RDY Handshake beat=2 wlast=0
[265000] MASTER 0 W_VALID_RDY Handshake beat=3 wlast=0
[265000] MASTER 1 W_VALID_RDY Handshake beat=17 wlast=0
[265000] S1 MEMORY WRITE beat=2 addr=12aa3082 data=d26f962dd12c0fba id=02
[265000] AXI S0_WVALID_RDY HANDSHAKE
[265000] S0 MEMORY WRITE beat=16 addr=05904948 data=ece3360fd3c91692 id=10
[275000] AXI S0_WVALID_RDY HANDSHAKE
[275000] S0 MEMORY WRITE beat=17 addr=05904988 data=c9ee3628282a3e2f id=10
[275000] S1 MEMORY WRITE beat=3 addr=12aa3084 data=3e3418a8fd1b4631 id=02
[275000] MASTER 1 W_VALID_RDY Handshake beat=18 wlast=0
[275000] MASTER 0 W_VALID_RDY Handshake beat=4 wlast=0
[285000] MASTER 0 W_VALID_RDY Handshake beat=5 wlast=0
[285000] MASTER 1 W_VALID_RDY Handshake beat=19 wlast=0
[285000] S1 MEMORY WRITE beat=4 addr=12aa3086 data=f8af54f1bd465fd5 id=02
[285000] AXI S0_WVALID_RDY HANDSHAKE
[285000] S0 MEMORY WRITE beat=18 addr=059049c8 data=ba497a9525fafc26 id=10
[295000] AXI S0_WVALID_RDY HANDSHAKE
[295000] S0 MEMORY WRITE beat=19 addr=05904a08 data=f9c412b8bacf3895 id=10
[295000] S1 MEMORY WRITE beat=5 addr=12aa3088 data=0e726f90e30a51f6 id=02
[295000] MASTER 1 W_VALID_RDY Handshake beat=20 wlast=0
[295000] MASTER 0 W_VALID_RDY Handshake beat=6 wlast=0
[305000] MASTER 0 W_VALID_RDY Handshake beat=7 wlast=0
[305000] MASTER 1 W_VALID_RDY Handshake beat=21 wlast=0
[305000] S1 MEMORY WRITE beat=6 addr=12aa308a data=e0259827cb1eeb1f id=02
[305000] AXI S0_WVALID_RDY HANDSHAKE
[305000] S0 MEMORY WRITE beat=20 addr=05904a48 data=e2f976c4272cb0a5 id=10
[315000] AXI S0_WVALID_RDY HANDSHAKE
[315000] S0 MEMORY WRITE beat=21 addr=05904a88 data=cd27accbc3b248e0 id=10
[315000] S1 MEMORY WRITE beat=7 addr=12aa308c data=88654af4cca68838 id=02
[315000] MASTER 1 W_VALID_RDY Handshake beat=22 wlast=0
[315000] MASTER 0 W_VALID_RDY Handshake beat=8 wlast=1
[325000] MASTER 1 W_VALID_RDY Handshake beat=23 wlast=0
[325000] S1 MEMORY WRITE beat=8 addr=12aa308e data=afb0da2ed8d4ed19 id=02
[325000] AXI S0_WVALID_RDY HANDSHAKE
[325000] S0 MEMORY WRITE beat=22 addr=05904ac8 data=fe8181751d42f15a id=10
[335000] AXI S0_WVALID_RDY HANDSHAKE
[335000] S0 MEMORY WRITE beat=23 addr=05904b08 data=c46fa1ffc6ebbf83 id=10
[335000] SLAVE1 sent B resp, id=2
[335000] [SLAVE MONITOR] mst_id=0 s_id=1 awaddr=12aa3090 awid=10 awlen=8 awsize=1 awburst=2 wdata=[ead6c9a8ed0808ed a4d6394efb940ec0 d26f962dd12c0fba 3e3418a8fd1b4631 f8af54f1bd465fd5 e726f90e30a51f6 e0259827cb1eeb1f 88654af4cca68838 afb0da2ed8d4ed19 ] wstrb=[84 38 56 bc 2c 6f eb b1 a7 ] bresp=0 bid=10
[335000] MASTER 1 W_VALID_RDY Handshake beat=24 wlast=0
[345000] MASTER 1 W_VALID_RDY Handshake beat=25 wlast=0
[345000] AXI S0_WVALID_RDY HANDSHAKE
[345000] S0 MEMORY WRITE beat=24 addr=05904b48 data=0a9e0863e17af83a id=10
[355000] AXI S0_WVALID_RDY HANDSHAKE
[355000] S0 MEMORY WRITE beat=25 addr=05904b88 data=febde99411974eca id=10
[355000] MASTER 1 W_VALID_RDY Handshake beat=26 wlast=0
[355000] MASTER 0 B_VALID_RDY Handshake
[355000] [MASTER MONITOR] mst_id=0 s_id=1 awaddr=12aa3090 awid=10 awlen=8 awsize=1 awburst=2 wdata=[ead6c9a8ed0808ed a4d6394efb940ec0 d26f962dd12c0fba 3e3418a8fd1b4631 f8af54f1bd465fd5 e726f90e30a51f6 e0259827cb1eeb1f 88654af4cca68838 afb0da2ed8d4ed19 ] wstrb=[84 38 56 bc 2c 6f eb b1 a7 ] bresp=0 bid=10
[355000] MASTER 0 RECEIVED BRESP. BRESP=0
[355000] [MASTER DRIVER] mst_id=0 s_id=0 awaddr=12aa3090 awid=10 awlen=8 awsize=1 awburst=2 wdata=[ead6c9a8ed0808ed a4d6394efb940ec0 d26f962dd12c0fba 3e3418a8fd1b4631 f8af54f1bd465fd5 e726f90e30a51f6 e0259827cb1eeb1f 88654af4cca68838 afb0da2ed8d4ed19 ] wstrb=[84 38 56 bc 2c 6f eb b1 a7 ] bresp=0 bid=10
[355000] SCOREBOARD MATCH: decode_err expected = 0, actual =0
[355000] SCOREBOARD MATCH: slave_id expected = 1, actual =1
[355000] SCOREBOARD MATCH: awaddr passthrough expected = 12aa3090, actual =12aa3090
[355000] SCOREBOARD MATCH: awlen passthrough expected = 8, actual =8
[355000] SCOREBOARD MATCH: awsize passthrough expected = 1, actual =1
[355000] SCOREBOARD MATCH: awburst passthrough expected = 2, actual =2
[355000] SCOREBOARD MATCH: wdata size check expected = 9, actual =9
[355000] SCOREBOARD MATCH: wdata passthrough beat=0 expected = ead6c9a8ed0808ed, actual =ead6c9a8ed0808ed
[355000] SCOREBOARD MATCH: wdata passthrough beat=1 expected = a4d6394efb940ec0, actual =a4d6394efb940ec0
[355000] SCOREBOARD MATCH: wdata passthrough beat=2 expected = d26f962dd12c0fba, actual =d26f962dd12c0fba
[355000] SCOREBOARD MATCH: wdata passthrough beat=3 expected = 3e3418a8fd1b4631, actual =3e3418a8fd1b4631
[355000] SCOREBOARD MATCH: wdata passthrough beat=4 expected = f8af54f1bd465fd5, actual =f8af54f1bd465fd5
[355000] SCOREBOARD MATCH: wdata passthrough beat=5 expected = e726f90e30a51f6, actual =e726f90e30a51f6
[355000] SCOREBOARD MATCH: wdata passthrough beat=6 expected = e0259827cb1eeb1f, actual =e0259827cb1eeb1f
[355000] SCOREBOARD MATCH: wdata passthrough beat=7 expected = 88654af4cca68838, actual =88654af4cca68838
[355000] SCOREBOARD MATCH: wdata passthrough beat=8 expected = afb0da2ed8d4ed19, actual =afb0da2ed8d4ed19
[355000] SCOREBOARD MATCH: wstrb size check expected = 9, actual =9
[355000] SCOREBOARD MATCH: wstrb passthrough beat=0 expected = 84, actual =84
[355000] SCOREBOARD MATCH: wstrb passthrough beat=1 expected = 38, actual =38
[355000] SCOREBOARD MATCH: wstrb passthrough beat=2 expected = 56, actual =56
[355000] SCOREBOARD MATCH: wstrb passthrough beat=3 expected = bc, actual =bc
[355000] SCOREBOARD MATCH: wstrb passthrough beat=4 expected = 2c, actual =2c
[355000] SCOREBOARD MATCH: wstrb passthrough beat=5 expected = 6f, actual =6f
[355000] SCOREBOARD MATCH: wstrb passthrough beat=6 expected = eb, actual =eb
[355000] SCOREBOARD MATCH: wstrb passthrough beat=7 expected = b1, actual =b1
[355000] SCOREBOARD MATCH: wstrb passthrough beat=8 expected = a7, actual =a7
[355000] SCOREBOARD MATCH: bresp passthrough expected = 0, actual =0
[355000] SCOREBOARD MATCH: response routed to correct master (write) expected = 0, actual =0
[355000] [SCOREBOARD-M] mst_id=0 s_id=1 awaddr=12aa3090 awid=10 awlen=8 awsize=1 awburst=2 wdata=[ead6c9a8ed0808ed a4d6394efb940ec0 d26f962dd12c0fba 3e3418a8fd1b4631 f8af54f1bd465fd5 e726f90e30a51f6 e0259827cb1eeb1f 88654af4cca68838 afb0da2ed8d4ed19 ] wstrb=[84 38 56 bc 2c 6f eb b1 a7 ] bresp=0 bid=10
[355000] [SCOREBOARD-S] mst_id=0 s_id=1 awaddr=12aa3090 awid=10 awlen=8 awsize=1 awburst=2 wdata=[ead6c9a8ed0808ed a4d6394efb940ec0 d26f962dd12c0fba 3e3418a8fd1b4631 f8af54f1bd465fd5 e726f90e30a51f6 e0259827cb1eeb1f 88654af4cca68838 afb0da2ed8d4ed19 ] wstrb=[84 38 56 bc 2c 6f eb b1 a7 ] bresp=0 bid=10
[355000] SCOREBOARD: Transaction 4 received. pass=96 fail=0
[355000] ALL PASS. Total transactions: 4
[365000] MASTER 1 W_VALID_RDY Handshake beat=27 wlast=0
[365000] AXI S0_WVALID_RDY HANDSHAKE
[365000] S0 MEMORY WRITE beat=26 addr=05904bc8 data=d8830e4d891f89d8 id=10
[375000] AXI S0_WVALID_RDY HANDSHAKE
[375000] S0 MEMORY WRITE beat=27 addr=05904c08 data=ea9a8212c32d8b93 id=10
[375000] MASTER 1 W_VALID_RDY Handshake beat=28 wlast=0
[385000] MASTER 1 W_VALID_RDY Handshake beat=29 wlast=0
[385000] AXI S0_WVALID_RDY HANDSHAKE
[385000] S0 MEMORY WRITE beat=28 addr=05904c48 data=d4c4da5de32116b0 id=10
[395000] AXI S0_WVALID_RDY HANDSHAKE
[395000] S0 MEMORY WRITE beat=29 addr=05904c88 data=ec40a088e9586ba6 id=10
[395000] MASTER 1 W_VALID_RDY Handshake beat=30 wlast=0
[405000] MASTER 1 W_VALID_RDY Handshake beat=31 wlast=0
[405000] AXI S0_WVALID_RDY HANDSHAKE
[405000] S0 MEMORY WRITE beat=30 addr=05904cc8 data=ac85f7392d47e8aa id=10
[415000] AXI S0_WVALID_RDY HANDSHAKE
[415000] S0 MEMORY WRITE beat=31 addr=05904d08 data=1068ff5ad6db229b id=10
[415000] MASTER 1 W_VALID_RDY Handshake beat=32 wlast=0
[425000] MASTER 1 W_VALID_RDY Handshake beat=33 wlast=0
[425000] AXI S0_WVALID_RDY HANDSHAKE
[425000] S0 MEMORY WRITE beat=32 addr=05904d48 data=c0338e41814ad196 id=10
[435000] AXI S0_WVALID_RDY HANDSHAKE
[435000] S0 MEMORY WRITE beat=33 addr=05904d88 data=ae92ba40fca99fe2 id=10
[435000] MASTER 1 W_VALID_RDY Handshake beat=34 wlast=0
[445000] MASTER 1 W_VALID_RDY Handshake beat=35 wlast=0
[445000] AXI S0_WVALID_RDY HANDSHAKE
[445000] S0 MEMORY WRITE beat=34 addr=05904dc8 data=d384c27decb9857b id=10
[455000] AXI S0_WVALID_RDY HANDSHAKE
[455000] S0 MEMORY WRITE beat=35 addr=05904e08 data=ee045711befbb99a id=10
[455000] MASTER 1 W_VALID_RDY Handshake beat=36 wlast=0
[465000] MASTER 1 W_VALID_RDY Handshake beat=37 wlast=0
[465000] AXI S0_WVALID_RDY HANDSHAKE
[465000] S0 MEMORY WRITE beat=36 addr=05904e48 data=3ba5597d13b850bf id=10
[475000] AXI S0_WVALID_RDY HANDSHAKE
[475000] S0 MEMORY WRITE beat=37 addr=05904e88 data=0071d63a1c971152 id=10
[475000] MASTER 1 W_VALID_RDY Handshake beat=38 wlast=0
[485000] MASTER 1 W_VALID_RDY Handshake beat=39 wlast=0
[485000] AXI S0_WVALID_RDY HANDSHAKE
[485000] S0 MEMORY WRITE beat=38 addr=05904ec8 data=db92caec8f2a1bfa id=10
[495000] AXI S0_WVALID_RDY HANDSHAKE
[495000] S0 MEMORY WRITE beat=39 addr=05904f08 data=a2e26cb9ee762d4b id=10
[495000] MASTER 1 W_VALID_RDY Handshake beat=40 wlast=0
[505000] MASTER 1 W_VALID_RDY Handshake beat=41 wlast=0
[505000] AXI S0_WVALID_RDY HANDSHAKE
[505000] S0 MEMORY WRITE beat=40 addr=05904f48 data=8b0d3e9d97382469 id=10
[515000] AXI S0_WVALID_RDY HANDSHAKE
[515000] S0 MEMORY WRITE beat=41 addr=05904f88 data=26624064a35442f3 id=10
[515000] MASTER 1 W_VALID_RDY Handshake beat=42 wlast=0
[525000] MASTER 1 W_VALID_RDY Handshake beat=43 wlast=0
[525000] AXI S0_WVALID_RDY HANDSHAKE
[525000] S0 MEMORY WRITE beat=42 addr=05904fc8 data=11ca703fe6a0098a id=10
[535000] AXI S0_WVALID_RDY HANDSHAKE
[535000] S0 MEMORY WRITE beat=43 addr=05905008 data=fdd82df3c944ad1d id=10
[535000] MASTER 1 W_VALID_RDY Handshake beat=44 wlast=0
[545000] MASTER 1 W_VALID_RDY Handshake beat=45 wlast=0
[545000] AXI S0_WVALID_RDY HANDSHAKE
[545000] S0 MEMORY WRITE beat=44 addr=05905048 data=ec98f0119cd7aedc id=10
[555000] AXI S0_WVALID_RDY HANDSHAKE
[555000] S0 MEMORY WRITE beat=45 addr=05905088 data=8377b866a43a6e57 id=10
[555000] MASTER 1 W_VALID_RDY Handshake beat=46 wlast=0
[565000] MASTER 1 W_VALID_RDY Handshake beat=47 wlast=0
[565000] AXI S0_WVALID_RDY HANDSHAKE
[565000] S0 MEMORY WRITE beat=46 addr=059050c8 data=ed7f1b75fe636050 id=10
[575000] AXI S0_WVALID_RDY HANDSHAKE
[575000] S0 MEMORY WRITE beat=47 addr=05905108 data=9b3b0f2c014fe65a id=10
[575000] MASTER 1 W_VALID_RDY Handshake beat=48 wlast=0
[585000] MASTER 1 W_VALID_RDY Handshake beat=49 wlast=0
[585000] AXI S0_WVALID_RDY HANDSHAKE
[585000] S0 MEMORY WRITE beat=48 addr=05905148 data=a58a54b1da180b86 id=10
[595000] AXI S0_WVALID_RDY HANDSHAKE
[595000] S0 MEMORY WRITE beat=49 addr=05905188 data=d87b6bd61eb2c793 id=10
[595000] MASTER 1 W_VALID_RDY Handshake beat=50 wlast=0
[605000] MASTER 1 W_VALID_RDY Handshake beat=51 wlast=0
[605000] AXI S0_WVALID_RDY HANDSHAKE
[605000] S0 MEMORY WRITE beat=50 addr=059051c8 data=2002aded93097026 id=10
[615000] AXI S0_WVALID_RDY HANDSHAKE
[615000] S0 MEMORY WRITE beat=51 addr=05905208 data=ed217bacf3b67b02 id=10
[615000] MASTER 1 W_VALID_RDY Handshake beat=52 wlast=0
[625000] MASTER 1 W_VALID_RDY Handshake beat=53 wlast=0
[625000] AXI S0_WVALID_RDY HANDSHAKE
[625000] S0 MEMORY WRITE beat=52 addr=05905248 data=92694295c58d029e id=10
[635000] AXI S0_WVALID_RDY HANDSHAKE
[635000] S0 MEMORY WRITE beat=53 addr=05905288 data=d89672c5c59ce782 id=10
[635000] MASTER 1 W_VALID_RDY Handshake beat=54 wlast=0
[645000] MASTER 1 W_VALID_RDY Handshake beat=55 wlast=0
[645000] AXI S0_WVALID_RDY HANDSHAKE
[645000] S0 MEMORY WRITE beat=54 addr=059052c8 data=39536285b26bf082 id=10
[655000] AXI S0_WVALID_RDY HANDSHAKE
[655000] S0 MEMORY WRITE beat=55 addr=05905308 data=f7f8f321c5b7ee71 id=10
[655000] MASTER 1 W_VALID_RDY Handshake beat=56 wlast=0
[665000] MASTER 1 W_VALID_RDY Handshake beat=57 wlast=0
[665000] AXI S0_WVALID_RDY HANDSHAKE
[665000] S0 MEMORY WRITE beat=56 addr=05905348 data=0b54d5f4cbbca51a id=10
[675000] AXI S0_WVALID_RDY HANDSHAKE
[675000] S0 MEMORY WRITE beat=57 addr=05905388 data=fe28959dd08f65e6 id=10
[675000] MASTER 1 W_VALID_RDY Handshake beat=58 wlast=0
[685000] MASTER 1 W_VALID_RDY Handshake beat=59 wlast=0
[685000] AXI S0_WVALID_RDY HANDSHAKE
[685000] S0 MEMORY WRITE beat=58 addr=059053c8 data=96475457c4a83879 id=10
[695000] AXI S0_WVALID_RDY HANDSHAKE
[695000] S0 MEMORY WRITE beat=59 addr=05905408 data=9064dd93f62188be id=10
[695000] MASTER 1 W_VALID_RDY Handshake beat=60 wlast=0
[705000] MASTER 1 W_VALID_RDY Handshake beat=61 wlast=0
[705000] AXI S0_WVALID_RDY HANDSHAKE
[705000] S0 MEMORY WRITE beat=60 addr=05905448 data=c6b0eea4a19c2a4b id=10
[715000] AXI S0_WVALID_RDY HANDSHAKE
[715000] S0 MEMORY WRITE beat=61 addr=05905488 data=e64462c48e8d7330 id=10
[715000] MASTER 1 W_VALID_RDY Handshake beat=62 wlast=0
[725000] MASTER 1 W_VALID_RDY Handshake beat=63 wlast=0
[725000] AXI S0_WVALID_RDY HANDSHAKE
[725000] S0 MEMORY WRITE beat=62 addr=059054c8 data=84aefbeedcf842fb id=10
[735000] AXI S0_WVALID_RDY HANDSHAKE
[735000] S0 MEMORY WRITE beat=63 addr=05905508 data=fe946d47f6a94058 id=10
[735000] MASTER 1 W_VALID_RDY Handshake beat=64 wlast=0
[745000] MASTER 1 W_VALID_RDY Handshake beat=65 wlast=0
[745000] AXI S0_WVALID_RDY HANDSHAKE
[745000] S0 MEMORY WRITE beat=64 addr=05905548 data=8536b388cb5fea92 id=10
[755000] AXI S0_WVALID_RDY HANDSHAKE
[755000] S0 MEMORY WRITE beat=65 addr=05905588 data=28582d8ee4d8d00b id=10
[755000] MASTER 1 W_VALID_RDY Handshake beat=66 wlast=0
[765000] MASTER 1 W_VALID_RDY Handshake beat=67 wlast=0
[765000] AXI S0_WVALID_RDY HANDSHAKE
[765000] S0 MEMORY WRITE beat=66 addr=059055c8 data=db82106309e5af77 id=10
[775000] AXI S0_WVALID_RDY HANDSHAKE
[775000] S0 MEMORY WRITE beat=67 addr=05905608 data=d5459a0926ec9ad5 id=10
[775000] MASTER 1 W_VALID_RDY Handshake beat=68 wlast=0
[785000] MASTER 1 W_VALID_RDY Handshake beat=69 wlast=0
[785000] AXI S0_WVALID_RDY HANDSHAKE
[785000] S0 MEMORY WRITE beat=68 addr=05905648 data=8bc56ae0e0b8c3ec id=10
[795000] AXI S0_WVALID_RDY HANDSHAKE
[795000] S0 MEMORY WRITE beat=69 addr=05905688 data=ea9e7363fd9dc797 id=10
[795000] MASTER 1 W_VALID_RDY Handshake beat=70 wlast=0
[805000] MASTER 1 W_VALID_RDY Handshake beat=71 wlast=0
[805000] AXI S0_WVALID_RDY HANDSHAKE
[805000] S0 MEMORY WRITE beat=70 addr=059056c8 data=a48a626ce7477b44 id=10
[815000] AXI S0_WVALID_RDY HANDSHAKE
[815000] S0 MEMORY WRITE beat=71 addr=05905708 data=c8003f30bfe40d6c id=10
[815000] MASTER 1 W_VALID_RDY Handshake beat=72 wlast=0
[825000] MASTER 1 W_VALID_RDY Handshake beat=73 wlast=0
[825000] AXI S0_WVALID_RDY HANDSHAKE
[825000] S0 MEMORY WRITE beat=72 addr=05905748 data=3d81d504304fcd4d id=10
[835000] AXI S0_WVALID_RDY HANDSHAKE
[835000] S0 MEMORY WRITE beat=73 addr=05905788 data=17974891329eb293 id=10
[835000] MASTER 1 W_VALID_RDY Handshake beat=74 wlast=0
[845000] MASTER 1 W_VALID_RDY Handshake beat=75 wlast=0
[845000] AXI S0_WVALID_RDY HANDSHAKE
[845000] S0 MEMORY WRITE beat=74 addr=059057c8 data=f282bfffe20c3770 id=10
[855000] AXI S0_WVALID_RDY HANDSHAKE
[855000] S0 MEMORY WRITE beat=75 addr=05905808 data=925c04bddf9787c1 id=10
[855000] MASTER 1 W_VALID_RDY Handshake beat=76 wlast=0
[865000] MASTER 1 W_VALID_RDY Handshake beat=77 wlast=0
[865000] AXI S0_WVALID_RDY HANDSHAKE
[865000] S0 MEMORY WRITE beat=76 addr=05905848 data=12363a54b0049503 id=10
[875000] AXI S0_WVALID_RDY HANDSHAKE
[875000] S0 MEMORY WRITE beat=77 addr=05905888 data=1210cc74a9f34d4e id=10
[875000] MASTER 1 W_VALID_RDY Handshake beat=78 wlast=0
[885000] MASTER 1 W_VALID_RDY Handshake beat=79 wlast=0
[885000] AXI S0_WVALID_RDY HANDSHAKE
[885000] S0 MEMORY WRITE beat=78 addr=059058c8 data=898ad50f84b8fa53 id=10
[895000] AXI S0_WVALID_RDY HANDSHAKE
[895000] S0 MEMORY WRITE beat=79 addr=05905908 data=34bd8f57a46cd131 id=10
[895000] MASTER 1 W_VALID_RDY Handshake beat=80 wlast=0
[905000] MASTER 1 W_VALID_RDY Handshake beat=81 wlast=0
[905000] AXI S0_WVALID_RDY HANDSHAKE
[905000] S0 MEMORY WRITE beat=80 addr=05905948 data=ce601e809bc10f63 id=10
[915000] AXI S0_WVALID_RDY HANDSHAKE
[915000] S0 MEMORY WRITE beat=81 addr=05905988 data=207a09b7c6ce5bcb id=10
[915000] MASTER 1 W_VALID_RDY Handshake beat=82 wlast=0
[925000] MASTER 1 W_VALID_RDY Handshake beat=83 wlast=0
[925000] AXI S0_WVALID_RDY HANDSHAKE
[925000] S0 MEMORY WRITE beat=82 addr=059059c8 data=eb3b2cfcd7eaf38f id=10
[935000] AXI S0_WVALID_RDY HANDSHAKE
[935000] S0 MEMORY WRITE beat=83 addr=05905a08 data=f3ac02f3d537990e id=10
[935000] MASTER 1 W_VALID_RDY Handshake beat=84 wlast=0
[945000] MASTER 1 W_VALID_RDY Handshake beat=85 wlast=0
[945000] AXI S0_WVALID_RDY HANDSHAKE
[945000] S0 MEMORY WRITE beat=84 addr=05905a48 data=1c05f4d9b99b4b7c id=10
[955000] AXI S0_WVALID_RDY HANDSHAKE
[955000] S0 MEMORY WRITE beat=85 addr=05905a88 data=11863f0c14260caa id=10
[955000] MASTER 1 W_VALID_RDY Handshake beat=86 wlast=0
[965000] MASTER 1 W_VALID_RDY Handshake beat=87 wlast=0
[965000] AXI S0_WVALID_RDY HANDSHAKE
[965000] S0 MEMORY WRITE beat=86 addr=05905ac8 data=e95da5b8874121d5 id=10
[975000] AXI S0_WVALID_RDY HANDSHAKE
[975000] S0 MEMORY WRITE beat=87 addr=05905b08 data=c0dc6d52053241ff id=10
[975000] MASTER 1 W_VALID_RDY Handshake beat=88 wlast=0
[985000] MASTER 1 W_VALID_RDY Handshake beat=89 wlast=0
[985000] AXI S0_WVALID_RDY HANDSHAKE
[985000] S0 MEMORY WRITE beat=88 addr=05905b48 data=19584ea905639a91 id=10
[995000] AXI S0_WVALID_RDY HANDSHAKE
[995000] S0 MEMORY WRITE beat=89 addr=05905b88 data=8ca4bc66d262ac5e id=10
[995000] MASTER 1 W_VALID_RDY Handshake beat=90 wlast=0
[1005000] MASTER 1 W_VALID_RDY Handshake beat=91 wlast=0
[1005000] AXI S0_WVALID_RDY HANDSHAKE
[1005000] S0 MEMORY WRITE beat=90 addr=05905bc8 data=d794ee5d02b5f461 id=10
[1015000] AXI S0_WVALID_RDY HANDSHAKE
[1015000] S0 MEMORY WRITE beat=91 addr=05905c08 data=08198ef2cd8129b8 id=10
[1015000] MASTER 1 W_VALID_RDY Handshake beat=92 wlast=0
[1025000] MASTER 1 W_VALID_RDY Handshake beat=93 wlast=0
[1025000] AXI S0_WVALID_RDY HANDSHAKE
[1025000] S0 MEMORY WRITE beat=92 addr=05905c48 data=9fe3d616f0ed3d06 id=10
[1035000] AXI S0_WVALID_RDY HANDSHAKE
[1035000] S0 MEMORY WRITE beat=93 addr=05905c88 data=f3a3316794be4b58 id=10
[1035000] MASTER 1 W_VALID_RDY Handshake beat=94 wlast=0
[1045000] MASTER 1 W_VALID_RDY Handshake beat=95 wlast=0
[1045000] AXI S0_WVALID_RDY HANDSHAKE
[1045000] S0 MEMORY WRITE beat=94 addr=05905cc8 data=e23f7511f778c473 id=10
[1055000] AXI S0_WVALID_RDY HANDSHAKE
[1055000] S0 MEMORY WRITE beat=95 addr=05905d08 data=e8660179fbbcc059 id=10
[1055000] MASTER 1 W_VALID_RDY Handshake beat=96 wlast=0
[1065000] MASTER 1 W_VALID_RDY Handshake beat=97 wlast=0
[1065000] AXI S0_WVALID_RDY HANDSHAKE
[1065000] S0 MEMORY WRITE beat=96 addr=05905d48 data=907b0bb182234b27 id=10
[1075000] AXI S0_WVALID_RDY HANDSHAKE
[1075000] S0 MEMORY WRITE beat=97 addr=05905d88 data=f99c0f9bdc0932e0 id=10
[1075000] MASTER 1 W_VALID_RDY Handshake beat=98 wlast=0
[1085000] MASTER 1 W_VALID_RDY Handshake beat=99 wlast=0
[1085000] AXI S0_WVALID_RDY HANDSHAKE
[1085000] S0 MEMORY WRITE beat=98 addr=05905dc8 data=d7c5f339f2ba80c2 id=10
[1095000] AXI S0_WVALID_RDY HANDSHAKE
[1095000] S0 MEMORY WRITE beat=99 addr=05905e08 data=f4ddcbeae2021114 id=10
[1095000] MASTER 1 W_VALID_RDY Handshake beat=100 wlast=0
[1105000] MASTER 1 W_VALID_RDY Handshake beat=101 wlast=0
[1105000] AXI S0_WVALID_RDY HANDSHAKE
[1105000] S0 MEMORY WRITE beat=100 addr=05905e48 data=3e0b43f5e840feeb id=10
[1115000] AXI S0_WVALID_RDY HANDSHAKE
[1115000] S0 MEMORY WRITE beat=101 addr=05905e88 data=dafb7fadee79db85 id=10
[1115000] MASTER 1 W_VALID_RDY Handshake beat=102 wlast=0
[1125000] MASTER 1 W_VALID_RDY Handshake beat=103 wlast=0
[1125000] AXI S0_WVALID_RDY HANDSHAKE
[1125000] S0 MEMORY WRITE beat=102 addr=05905ec8 data=d07bec9995d1372e id=10
[1135000] AXI S0_WVALID_RDY HANDSHAKE
[1135000] S0 MEMORY WRITE beat=103 addr=05905f08 data=fe123619cfd94b97 id=10
[1135000] MASTER 1 W_VALID_RDY Handshake beat=104 wlast=0
[1145000] MASTER 1 W_VALID_RDY Handshake beat=105 wlast=0
[1145000] AXI S0_WVALID_RDY HANDSHAKE
[1145000] S0 MEMORY WRITE beat=104 addr=05905f48 data=be53271c8e87308e id=10
[1155000] AXI S0_WVALID_RDY HANDSHAKE
[1155000] S0 MEMORY WRITE beat=105 addr=05905f88 data=245867bdd90db5c7 id=10
[1155000] MASTER 1 W_VALID_RDY Handshake beat=106 wlast=0
[1165000] MASTER 1 W_VALID_RDY Handshake beat=107 wlast=0
[1165000] AXI S0_WVALID_RDY HANDSHAKE
[1165000] S0 MEMORY WRITE beat=106 addr=05905fc8 data=a8e7015e0ecf13b6 id=10
[1175000] AXI S0_WVALID_RDY HANDSHAKE
[1175000] S0 MEMORY WRITE beat=107 addr=05906008 data=9d564444a26a9dd6 id=10
[1175000] MASTER 1 W_VALID_RDY Handshake beat=108 wlast=0
[1185000] MASTER 1 W_VALID_RDY Handshake beat=109 wlast=0
[1185000] AXI S0_WVALID_RDY HANDSHAKE
[1185000] S0 MEMORY WRITE beat=108 addr=05906048 data=fb78539de73a287b id=10
[1195000] AXI S0_WVALID_RDY HANDSHAKE
[1195000] S0 MEMORY WRITE beat=109 addr=05906088 data=f6093c31c1aeac01 id=10
[1195000] MASTER 1 W_VALID_RDY Handshake beat=110 wlast=0
[1205000] MASTER 1 W_VALID_RDY Handshake beat=111 wlast=0
[1205000] AXI S0_WVALID_RDY HANDSHAKE
[1205000] S0 MEMORY WRITE beat=110 addr=059060c8 data=e41949d8245f54fc id=10
[1215000] AXI S0_WVALID_RDY HANDSHAKE
[1215000] S0 MEMORY WRITE beat=111 addr=05906108 data=0b997d77935f8075 id=10
[1215000] MASTER 1 W_VALID_RDY Handshake beat=112 wlast=0
[1225000] MASTER 1 W_VALID_RDY Handshake beat=113 wlast=0
[1225000] AXI S0_WVALID_RDY HANDSHAKE
[1225000] S0 MEMORY WRITE beat=112 addr=05906148 data=d50e2c77df919d75 id=10
[1235000] AXI S0_WVALID_RDY HANDSHAKE
[1235000] S0 MEMORY WRITE beat=113 addr=05906188 data=83f0f27101a2b9a8 id=10
[1235000] MASTER 1 W_VALID_RDY Handshake beat=114 wlast=0
[1245000] MASTER 1 W_VALID_RDY Handshake beat=115 wlast=0
[1245000] AXI S0_WVALID_RDY HANDSHAKE
[1245000] S0 MEMORY WRITE beat=114 addr=059061c8 data=95023a1d3927764f id=10
[1255000] AXI S0_WVALID_RDY HANDSHAKE
[1255000] S0 MEMORY WRITE beat=115 addr=05906208 data=98b913c48f8a6fe8 id=10
[1255000] MASTER 1 W_VALID_RDY Handshake beat=116 wlast=0
[1265000] MASTER 1 W_VALID_RDY Handshake beat=117 wlast=0
[1265000] AXI S0_WVALID_RDY HANDSHAKE
[1265000] S0 MEMORY WRITE beat=116 addr=05906248 data=912d2990ea106694 id=10
[1275000] AXI S0_WVALID_RDY HANDSHAKE
[1275000] S0 MEMORY WRITE beat=117 addr=05906288 data=a337dce31caa0636 id=10
[1275000] MASTER 1 W_VALID_RDY Handshake beat=118 wlast=0
[1285000] MASTER 1 W_VALID_RDY Handshake beat=119 wlast=0
[1285000] AXI S0_WVALID_RDY HANDSHAKE
[1285000] S0 MEMORY WRITE beat=118 addr=059062c8 data=ac34761e262f63ae id=10
[1295000] AXI S0_WVALID_RDY HANDSHAKE
[1295000] S0 MEMORY WRITE beat=119 addr=05906308 data=903fca423bf0f0a8 id=10
[1295000] MASTER 1 W_VALID_RDY Handshake beat=120 wlast=0
[1305000] MASTER 1 W_VALID_RDY Handshake beat=121 wlast=0
[1305000] AXI S0_WVALID_RDY HANDSHAKE
[1305000] S0 MEMORY WRITE beat=120 addr=05906348 data=d89af6de3d619faf id=10
[1315000] AXI S0_WVALID_RDY HANDSHAKE
[1315000] S0 MEMORY WRITE beat=121 addr=05906388 data=e391035d3377a726 id=10
[1315000] MASTER 1 W_VALID_RDY Handshake beat=122 wlast=0
[1325000] MASTER 1 W_VALID_RDY Handshake beat=123 wlast=0
[1325000] AXI S0_WVALID_RDY HANDSHAKE
[1325000] S0 MEMORY WRITE beat=122 addr=059063c8 data=ef6897ce84cf6cfc id=10
[1335000] AXI S0_WVALID_RDY HANDSHAKE
[1335000] S0 MEMORY WRITE beat=123 addr=05906408 data=c2310cabf3d0cd9f id=10
[1335000] MASTER 1 W_VALID_RDY Handshake beat=124 wlast=0
[1345000] MASTER 1 W_VALID_RDY Handshake beat=125 wlast=0
[1345000] AXI S0_WVALID_RDY HANDSHAKE
[1345000] S0 MEMORY WRITE beat=124 addr=05906448 data=a74874c5c8038eac id=10
[1355000] AXI S0_WVALID_RDY HANDSHAKE
[1355000] S0 MEMORY WRITE beat=125 addr=05906488 data=ccd2fba8a5c21008 id=10
[1355000] MASTER 1 W_VALID_RDY Handshake beat=126 wlast=0
[1365000] MASTER 1 W_VALID_RDY Handshake beat=127 wlast=0
[1365000] AXI S0_WVALID_RDY HANDSHAKE
[1365000] S0 MEMORY WRITE beat=126 addr=059064c8 data=1992dda896b10c93 id=10
[1375000] AXI S0_WVALID_RDY HANDSHAKE
[1375000] S0 MEMORY WRITE beat=127 addr=05906508 data=deb49b3f0f040854 id=10
[1375000] MASTER 1 W_VALID_RDY Handshake beat=128 wlast=0
[1385000] MASTER 1 W_VALID_RDY Handshake beat=129 wlast=0
[1385000] AXI S0_WVALID_RDY HANDSHAKE
[1385000] S0 MEMORY WRITE beat=128 addr=05906548 data=b4c6185cc0db526d id=10
[1395000] AXI S0_WVALID_RDY HANDSHAKE
[1395000] S0 MEMORY WRITE beat=129 addr=05906588 data=d78c5f012b8796e8 id=10
[1395000] MASTER 1 W_VALID_RDY Handshake beat=130 wlast=0
[1405000] MASTER 1 W_VALID_RDY Handshake beat=131 wlast=0
[1405000] AXI S0_WVALID_RDY HANDSHAKE
[1405000] S0 MEMORY WRITE beat=130 addr=059065c8 data=3a8b9f3cce58f604 id=10
[1415000] AXI S0_WVALID_RDY HANDSHAKE
[1415000] S0 MEMORY WRITE beat=131 addr=05906608 data=0f344872b640fa40 id=10
[1415000] MASTER 1 W_VALID_RDY Handshake beat=132 wlast=0
[1425000] MASTER 1 W_VALID_RDY Handshake beat=133 wlast=0
[1425000] AXI S0_WVALID_RDY HANDSHAKE
[1425000] S0 MEMORY WRITE beat=132 addr=05906648 data=e1c89128ef51b798 id=10
[1435000] AXI S0_WVALID_RDY HANDSHAKE
[1435000] S0 MEMORY WRITE beat=133 addr=05906688 data=3daaad9de6c0a773 id=10
[1435000] MASTER 1 W_VALID_RDY Handshake beat=134 wlast=0
[1445000] MASTER 1 W_VALID_RDY Handshake beat=135 wlast=0
[1445000] AXI S0_WVALID_RDY HANDSHAKE
[1445000] S0 MEMORY WRITE beat=134 addr=059066c8 data=9d01a1b39c543064 id=10
[1455000] AXI S0_WVALID_RDY HANDSHAKE
[1455000] S0 MEMORY WRITE beat=135 addr=05906708 data=0ba5e7fdccdef60f id=10
[1455000] MASTER 1 W_VALID_RDY Handshake beat=136 wlast=0
[1465000] MASTER 1 W_VALID_RDY Handshake beat=137 wlast=0
[1465000] AXI S0_WVALID_RDY HANDSHAKE
[1465000] S0 MEMORY WRITE beat=136 addr=05906748 data=339f9d82feca32dc id=10
[1475000] AXI S0_WVALID_RDY HANDSHAKE
[1475000] S0 MEMORY WRITE beat=137 addr=05906788 data=9b1e6340c950959a id=10
[1475000] MASTER 1 W_VALID_RDY Handshake beat=138 wlast=0
[1485000] MASTER 1 W_VALID_RDY Handshake beat=139 wlast=0
[1485000] AXI S0_WVALID_RDY HANDSHAKE
[1485000] S0 MEMORY WRITE beat=138 addr=059067c8 data=162f8ba9d0a13f35 id=10
[1495000] AXI S0_WVALID_RDY HANDSHAKE
[1495000] S0 MEMORY WRITE beat=139 addr=05906808 data=cf6b7211a6c44b3d id=10
[1495000] MASTER 1 W_VALID_RDY Handshake beat=140 wlast=0
[1505000] MASTER 1 W_VALID_RDY Handshake beat=141 wlast=0
[1505000] AXI S0_WVALID_RDY HANDSHAKE
[1505000] S0 MEMORY WRITE beat=140 addr=05906848 data=f014e0d7c9cf292b id=10
[1515000] AXI S0_WVALID_RDY HANDSHAKE
[1515000] S0 MEMORY WRITE beat=141 addr=05906888 data=9a706860ea89d552 id=10
[1515000] MASTER 1 W_VALID_RDY Handshake beat=142 wlast=0
[1525000] MASTER 1 W_VALID_RDY Handshake beat=143 wlast=0
[1525000] AXI S0_WVALID_RDY HANDSHAKE
[1525000] S0 MEMORY WRITE beat=142 addr=059068c8 data=914e208f86446c80 id=10
[1535000] AXI S0_WVALID_RDY HANDSHAKE
[1535000] S0 MEMORY WRITE beat=143 addr=05906908 data=d01395abe9dbda72 id=10
[1535000] MASTER 1 W_VALID_RDY Handshake beat=144 wlast=0
[1545000] MASTER 1 W_VALID_RDY Handshake beat=145 wlast=0
[1545000] AXI S0_WVALID_RDY HANDSHAKE
[1545000] S0 MEMORY WRITE beat=144 addr=05906948 data=d465afc401630167 id=10
[1555000] AXI S0_WVALID_RDY HANDSHAKE
[1555000] S0 MEMORY WRITE beat=145 addr=05906988 data=87a76de7ea83fe0c id=10
[1555000] MASTER 1 W_VALID_RDY Handshake beat=146 wlast=0
[1565000] MASTER 1 W_VALID_RDY Handshake beat=147 wlast=0
[1565000] AXI S0_WVALID_RDY HANDSHAKE
[1565000] S0 MEMORY WRITE beat=146 addr=059069c8 data=d45fd87ee5b3d053 id=10
[1575000] AXI S0_WVALID_RDY HANDSHAKE
[1575000] S0 MEMORY WRITE beat=147 addr=05906a08 data=e716d1bad7bb0393 id=10
[1575000] MASTER 1 W_VALID_RDY Handshake beat=148 wlast=0
[1585000] MASTER 1 W_VALID_RDY Handshake beat=149 wlast=0
[1585000] AXI S0_WVALID_RDY HANDSHAKE
[1585000] S0 MEMORY WRITE beat=148 addr=05906a48 data=c23f019f28c58842 id=10
[1595000] AXI S0_WVALID_RDY HANDSHAKE
[1595000] S0 MEMORY WRITE beat=149 addr=05906a88 data=8e795895eebe3fa2 id=10
[1595000] MASTER 1 W_VALID_RDY Handshake beat=150 wlast=0
[1605000] MASTER 1 W_VALID_RDY Handshake beat=151 wlast=0
[1605000] AXI S0_WVALID_RDY HANDSHAKE
[1605000] S0 MEMORY WRITE beat=150 addr=05906ac8 data=c6794335169eda1d id=10
[1615000] AXI S0_WVALID_RDY HANDSHAKE
[1615000] S0 MEMORY WRITE beat=151 addr=05906b08 data=3f64625ff5902a50 id=10
[1615000] MASTER 1 W_VALID_RDY Handshake beat=152 wlast=0
[1625000] MASTER 1 W_VALID_RDY Handshake beat=153 wlast=0
[1625000] AXI S0_WVALID_RDY HANDSHAKE
[1625000] S0 MEMORY WRITE beat=152 addr=05906b48 data=e44e69f208b844d4 id=10
[1635000] AXI S0_WVALID_RDY HANDSHAKE
[1635000] S0 MEMORY WRITE beat=153 addr=05906b88 data=1f571ef1cdddbaf4 id=10
[1635000] MASTER 1 W_VALID_RDY Handshake beat=154 wlast=0
[1645000] MASTER 1 W_VALID_RDY Handshake beat=155 wlast=0
[1645000] AXI S0_WVALID_RDY HANDSHAKE
[1645000] S0 MEMORY WRITE beat=154 addr=05906bc8 data=c36de5442ac7ad27 id=10
[1655000] AXI S0_WVALID_RDY HANDSHAKE
[1655000] S0 MEMORY WRITE beat=155 addr=05906c08 data=337ff1fbdebb8150 id=10
[1655000] MASTER 1 W_VALID_RDY Handshake beat=156 wlast=0
[1665000] MASTER 1 W_VALID_RDY Handshake beat=157 wlast=0
[1665000] AXI S0_WVALID_RDY HANDSHAKE
[1665000] S0 MEMORY WRITE beat=156 addr=05906c48 data=ac993c44a7bc4f36 id=10
[1675000] AXI S0_WVALID_RDY HANDSHAKE
[1675000] S0 MEMORY WRITE beat=157 addr=05906c88 data=d283fc5dd2d710ec id=10
[1675000] MASTER 1 W_VALID_RDY Handshake beat=158 wlast=0
[1685000] MASTER 1 W_VALID_RDY Handshake beat=159 wlast=0
[1685000] AXI S0_WVALID_RDY HANDSHAKE
[1685000] S0 MEMORY WRITE beat=158 addr=05906cc8 data=3192923cf0072189 id=10
[1695000] AXI S0_WVALID_RDY HANDSHAKE
[1695000] S0 MEMORY WRITE beat=159 addr=05906d08 data=97c370bf8603ee58 id=10
[1695000] MASTER 1 W_VALID_RDY Handshake beat=160 wlast=0
[1705000] MASTER 1 W_VALID_RDY Handshake beat=161 wlast=0
[1705000] AXI S0_WVALID_RDY HANDSHAKE
[1705000] S0 MEMORY WRITE beat=160 addr=05906d48 data=d8daff44de2bce80 id=10
[1715000] AXI S0_WVALID_RDY HANDSHAKE
[1715000] S0 MEMORY WRITE beat=161 addr=05906d88 data=ce32f009ea476d1d id=10
[1715000] MASTER 1 W_VALID_RDY Handshake beat=162 wlast=0
[1725000] MASTER 1 W_VALID_RDY Handshake beat=163 wlast=0
[1725000] AXI S0_WVALID_RDY HANDSHAKE
[1725000] S0 MEMORY WRITE beat=162 addr=05906dc8 data=f04b5b758a6d9180 id=10
[1735000] AXI S0_WVALID_RDY HANDSHAKE
[1735000] S0 MEMORY WRITE beat=163 addr=05906e08 data=e8996001e5f660c9 id=10
[1735000] MASTER 1 W_VALID_RDY Handshake beat=164 wlast=0
[1745000] MASTER 1 W_VALID_RDY Handshake beat=165 wlast=0
[1745000] AXI S0_WVALID_RDY HANDSHAKE
[1745000] S0 MEMORY WRITE beat=164 addr=05906e48 data=d03dcde6c9265aba id=10
[1755000] AXI S0_WVALID_RDY HANDSHAKE
[1755000] S0 MEMORY WRITE beat=165 addr=05906e88 data=d393ec3ab6cc500a id=10
[1755000] MASTER 1 W_VALID_RDY Handshake beat=166 wlast=0
[1765000] MASTER 1 W_VALID_RDY Handshake beat=167 wlast=0
[1765000] AXI S0_WVALID_RDY HANDSHAKE
[1765000] S0 MEMORY WRITE beat=166 addr=05906ec8 data=9cc2b0d3c089295b id=10
[1775000] AXI S0_WVALID_RDY HANDSHAKE
[1775000] S0 MEMORY WRITE beat=167 addr=05906f08 data=89af8415bc2d4c3b id=10
[1775000] MASTER 1 W_VALID_RDY Handshake beat=168 wlast=0
[1785000] MASTER 1 W_VALID_RDY Handshake beat=169 wlast=0
[1785000] AXI S0_WVALID_RDY HANDSHAKE
[1785000] S0 MEMORY WRITE beat=168 addr=05906f48 data=f2f99c46ed007eb9 id=10
[1795000] AXI S0_WVALID_RDY HANDSHAKE
[1795000] S0 MEMORY WRITE beat=169 addr=05906f88 data=2d89a815dd437050 id=10
[1795000] MASTER 1 W_VALID_RDY Handshake beat=170 wlast=0
[1805000] MASTER 1 W_VALID_RDY Handshake beat=171 wlast=0
[1805000] AXI S0_WVALID_RDY HANDSHAKE
[1805000] S0 MEMORY WRITE beat=170 addr=05906fc8 data=9970bc8b8fbc4d19 id=10
[1815000] AXI S0_WVALID_RDY HANDSHAKE
[1815000] S0 MEMORY WRITE beat=171 addr=05907008 data=fcbccbd3b7392c2a id=10
[1815000] MASTER 1 W_VALID_RDY Handshake beat=172 wlast=0
[1825000] MASTER 1 W_VALID_RDY Handshake beat=173 wlast=0
[1825000] AXI S0_WVALID_RDY HANDSHAKE
[1825000] S0 MEMORY WRITE beat=172 addr=05907048 data=947c9c7a8c6a58d1 id=10
[1835000] AXI S0_WVALID_RDY HANDSHAKE
[1835000] S0 MEMORY WRITE beat=173 addr=05907088 data=1c26a5eb2a4673e8 id=10
[1835000] MASTER 1 W_VALID_RDY Handshake beat=174 wlast=0
[1845000] MASTER 1 W_VALID_RDY Handshake beat=175 wlast=0
[1845000] AXI S0_WVALID_RDY HANDSHAKE
[1845000] S0 MEMORY WRITE beat=174 addr=059070c8 data=e17fa0122ded5906 id=10
[1855000] AXI S0_WVALID_RDY HANDSHAKE
[1855000] S0 MEMORY WRITE beat=175 addr=05907108 data=ba57b1d718e371be id=10
[1855000] MASTER 1 W_VALID_RDY Handshake beat=176 wlast=0
[1865000] MASTER 1 W_VALID_RDY Handshake beat=177 wlast=0
[1865000] AXI S0_WVALID_RDY HANDSHAKE
[1865000] S0 MEMORY WRITE beat=176 addr=05907148 data=c329e5a6f5fc3c8d id=10
[1875000] AXI S0_WVALID_RDY HANDSHAKE
[1875000] S0 MEMORY WRITE beat=177 addr=05907188 data=23e99593d67e57c2 id=10
[1875000] MASTER 1 W_VALID_RDY Handshake beat=178 wlast=0
[1885000] MASTER 1 W_VALID_RDY Handshake beat=179 wlast=0
[1885000] AXI S0_WVALID_RDY HANDSHAKE
[1885000] S0 MEMORY WRITE beat=178 addr=059071c8 data=ef61c980a4a985b8 id=10
[1895000] AXI S0_WVALID_RDY HANDSHAKE
[1895000] S0 MEMORY WRITE beat=179 addr=05907208 data=9aa5c245de41476a id=10
[1895000] MASTER 1 W_VALID_RDY Handshake beat=180 wlast=0
[1905000] MASTER 1 W_VALID_RDY Handshake beat=181 wlast=0
[1905000] AXI S0_WVALID_RDY HANDSHAKE
[1905000] S0 MEMORY WRITE beat=180 addr=05907248 data=34bf9f2db28baf26 id=10
[1915000] AXI S0_WVALID_RDY HANDSHAKE
[1915000] S0 MEMORY WRITE beat=181 addr=05907288 data=d73534dfbe8f57d8 id=10
[1915000] MASTER 1 W_VALID_RDY Handshake beat=182 wlast=0
[1925000] MASTER 1 W_VALID_RDY Handshake beat=183 wlast=0
[1925000] AXI S0_WVALID_RDY HANDSHAKE
[1925000] S0 MEMORY WRITE beat=182 addr=059072c8 data=1cd09f43a42168ad id=10
[1935000] AXI S0_WVALID_RDY HANDSHAKE
[1935000] S0 MEMORY WRITE beat=183 addr=05907308 data=d6ad17d4f1daf724 id=10
[1935000] MASTER 1 W_VALID_RDY Handshake beat=184 wlast=0
[1945000] MASTER 1 W_VALID_RDY Handshake beat=185 wlast=0
[1945000] AXI S0_WVALID_RDY HANDSHAKE
[1945000] S0 MEMORY WRITE beat=184 addr=05907348 data=306a4efdd1903e70 id=10
[1955000] AXI S0_WVALID_RDY HANDSHAKE
[1955000] S0 MEMORY WRITE beat=185 addr=05907388 data=f5b1a71d2de24cb3 id=10
[1955000] MASTER 1 W_VALID_RDY Handshake beat=186 wlast=0
[1965000] MASTER 1 W_VALID_RDY Handshake beat=187 wlast=0
[1965000] AXI S0_WVALID_RDY HANDSHAKE
[1965000] S0 MEMORY WRITE beat=186 addr=059073c8 data=9fbd43d7cd3aee40 id=10
[1975000] AXI S0_WVALID_RDY HANDSHAKE
[1975000] S0 MEMORY WRITE beat=187 addr=05907408 data=1ecb2cb0cc5ebef1 id=10
[1975000] MASTER 1 W_VALID_RDY Handshake beat=188 wlast=0
[1985000] MASTER 1 W_VALID_RDY Handshake beat=189 wlast=0
[1985000] AXI S0_WVALID_RDY HANDSHAKE
[1985000] S0 MEMORY WRITE beat=188 addr=05907448 data=fa410ba4d02792d4 id=10
[1995000] AXI S0_WVALID_RDY HANDSHAKE
[1995000] S0 MEMORY WRITE beat=189 addr=05907488 data=9d628114947cd3cd id=10
[1995000] MASTER 1 W_VALID_RDY Handshake beat=190 wlast=0
[2005000] MASTER 1 W_VALID_RDY Handshake beat=191 wlast=0
[2005000] AXI S0_WVALID_RDY HANDSHAKE
[2005000] S0 MEMORY WRITE beat=190 addr=059074c8 data=e0db92bf19fe4f7c id=10
[2015000] AXI S0_WVALID_RDY HANDSHAKE
[2015000] S0 MEMORY WRITE beat=191 addr=05907508 data=ea25e250bc2dadc4 id=10
[2015000] MASTER 1 W_VALID_RDY Handshake beat=192 wlast=0
[2025000] MASTER 1 W_VALID_RDY Handshake beat=193 wlast=0
[2025000] AXI S0_WVALID_RDY HANDSHAKE
[2025000] S0 MEMORY WRITE beat=192 addr=05907548 data=d0aa8192db1c9e63 id=10
[2035000] AXI S0_WVALID_RDY HANDSHAKE
[2035000] S0 MEMORY WRITE beat=193 addr=05907588 data=f51aeddf07886365 id=10
[2035000] MASTER 1 W_VALID_RDY Handshake beat=194 wlast=0
[2045000] MASTER 1 W_VALID_RDY Handshake beat=195 wlast=0
[2045000] AXI S0_WVALID_RDY HANDSHAKE
[2045000] S0 MEMORY WRITE beat=194 addr=059075c8 data=c3b6112931861451 id=10
[2055000] AXI S0_WVALID_RDY HANDSHAKE
[2055000] S0 MEMORY WRITE beat=195 addr=05907608 data=8ca2b2b4df40d030 id=10
[2055000] MASTER 1 W_VALID_RDY Handshake beat=196 wlast=0
[2065000] MASTER 1 W_VALID_RDY Handshake beat=197 wlast=0
[2065000] AXI S0_WVALID_RDY HANDSHAKE
[2065000] S0 MEMORY WRITE beat=196 addr=05907648 data=e6c93395946092bb id=10
[2075000] AXI S0_WVALID_RDY HANDSHAKE
[2075000] S0 MEMORY WRITE beat=197 addr=05907688 data=c5e6a70c01bda094 id=10
[2075000] MASTER 1 W_VALID_RDY Handshake beat=198 wlast=0
[2085000] MASTER 1 W_VALID_RDY Handshake beat=199 wlast=0
[2085000] AXI S0_WVALID_RDY HANDSHAKE
[2085000] S0 MEMORY WRITE beat=198 addr=059076c8 data=e0fe70c4aa7f44be id=10
[2095000] AXI S0_WVALID_RDY HANDSHAKE
[2095000] S0 MEMORY WRITE beat=199 addr=05907708 data=3edfd77ad28959c1 id=10
[2095000] MASTER 1 W_VALID_RDY Handshake beat=200 wlast=0
[2105000] MASTER 1 W_VALID_RDY Handshake beat=201 wlast=0
[2105000] AXI S0_WVALID_RDY HANDSHAKE
[2105000] S0 MEMORY WRITE beat=200 addr=05907748 data=d446fa55c7c7a459 id=10
[2115000] AXI S0_WVALID_RDY HANDSHAKE
[2115000] S0 MEMORY WRITE beat=201 addr=05907788 data=f246e91784c67e86 id=10
[2115000] MASTER 1 W_VALID_RDY Handshake beat=202 wlast=0
[2125000] MASTER 1 W_VALID_RDY Handshake beat=203 wlast=0
[2125000] AXI S0_WVALID_RDY HANDSHAKE
[2125000] S0 MEMORY WRITE beat=202 addr=059077c8 data=d74fd84735456b19 id=10
[2135000] AXI S0_WVALID_RDY HANDSHAKE
[2135000] S0 MEMORY WRITE beat=203 addr=05907808 data=fd0d0f72b126c091 id=10
[2135000] MASTER 1 W_VALID_RDY Handshake beat=204 wlast=0
[2145000] MASTER 1 W_VALID_RDY Handshake beat=205 wlast=0
[2145000] AXI S0_WVALID_RDY HANDSHAKE
[2145000] S0 MEMORY WRITE beat=204 addr=05907848 data=35ed3f18ab96d29c id=10
[2155000] AXI S0_WVALID_RDY HANDSHAKE
[2155000] S0 MEMORY WRITE beat=205 addr=05907888 data=e0dc3db5ef53f889 id=10
[2155000] MASTER 1 W_VALID_RDY Handshake beat=206 wlast=0
[2165000] MASTER 1 W_VALID_RDY Handshake beat=207 wlast=1
[2165000] AXI S0_WVALID_RDY HANDSHAKE
[2165000] S0 MEMORY WRITE beat=206 addr=059078c8 data=207ab91b8d3d175f id=10
[2175000] AXI S0_WVALID_RDY HANDSHAKE
[2175000] S0 MEMORY WRITE beat=207 addr=05907908 data=38d3e9fcdde94d27 id=10
[2185000] SLAVE0 sent B resp, id=0
[2195000] [SLAVE MONITOR] mst_id=1 s_id=0 awaddr=5904548 awid=0 awlen=207 awsize=6 awburst=1 wdata=[9c1e9365dfe76be4 bf132e48e3efe611 e0a1eebbe1372e84 c11e9a689d137c7c 103628efcc08220 ddf7b0a48031c8b0 1d45452de1a55149 de65d3699f164b0c 1f4813bd1e48a7bb ffedf9043c5d840e db73cf1a3c8d58ea dad600a5de53cc6d 9ab1507bfabbe2d7 b7493bc1dac3f9a9 b917c616f6251f96 f0e1026d921f3c66 ece3360fd3c91692 c9ee3628282a3e2f ba497a9525fafc26 f9c412b8bacf3895 e2f976c4272cb0a5 cd27accbc3b248e0 fe8181751d42f15a c46fa1ffc6ebbf83 a9e0863e17af83a febde99411974eca d8830e4d891f89d8 ea9a8212c32d8b93 d4c4da5de32116b0 ec40a088e9586ba6 ac85f7392d47e8aa 1068ff5ad6db229b c0338e41814ad196 ae92ba40fca99fe2 d384c27decb9857b ee045711befbb99a 3ba5597d13b850bf 71d63a1c971152 db92caec8f2a1bfa a2e26cb9ee762d4b 8b0d3e9d97382469 26624064a35442f3 11ca703fe6a0098a fdd82df3c944ad1d ec98f0119cd7aedc 8377b866a43a6e57 ed7f1b75fe636050 9b3b0f2c014fe65a a58a54b1da180b86 d87b6bd61eb2c793 2002aded93097026 ed217bacf3b67b02 92694295c58d029e d89672c5c59ce782 39536285b26bf082 f7f8f321c5b7ee71 b54d5f4cbbca51a fe28959dd08f65e6 96475457c4a83879 9064dd93f62188be c6b0eea4a19c2a4b e64462c48e8d7330 84aefbeedcf842fb fe946d47f6a94058 8536b388cb5fea92 28582d8ee4d8d00b db82106309e5af77 d5459a0926ec9ad5 8bc56ae0e0b8c3ec ea9e7363fd9dc797 a48a626ce7477b44 c8003f30bfe40d6c 3d81d504304fcd4d 17974891329eb293 f282bfffe20c3770 925c04bddf9787c1 12363a54b0049503 1210cc74a9f34d4e 898ad50f84b8fa53 34bd8f57a46cd131 ce601e809bc10f63 207a09b7c6ce5bcb eb3b2cfcd7eaf38f f3ac02f3d537990e 1c05f4d9b99b4b7c 11863f0c14260caa e95da5b8874121d5 c0dc6d52053241ff 19584ea905639a91 8ca4bc66d262ac5e d794ee5d02b5f461 8198ef2cd8129b8 9fe3d616f0ed3d06 f3a3316794be4b58 e23f7511f778c473 e8660179fbbcc059 907b0bb182234b27 f99c0f9bdc0932e0 d7c5f339f2ba80c2 f4ddcbeae2021114 3e0b43f5e840feeb dafb7fadee79db85 d07bec9995d1372e fe123619cfd94b97 be53271c8e87308e 245867bdd90db5c7 a8e7015e0ecf13b6 9d564444a26a9dd6 fb78539de73a287b f6093c31c1aeac01 e41949d8245f54fc b997d77935f8075 d50e2c77df919d75 83f0f27101a2b9a8 95023a1d3927764f 98b913c48f8a6fe8 912d2990ea106694 a337dce31caa0636 ac34761e262f63ae 903fca423bf0f0a8 d89af6de3d619faf e391035d3377a726 ef6897ce84cf6cfc c2310cabf3d0cd9f a74874c5c8038eac ccd2fba8a5c21008 1992dda896b10c93 deb49b3f0f040854 b4c6185cc0db526d d78c5f012b8796e8 3a8b9f3cce58f604 f344872b640fa40 e1c89128ef51b798 3daaad9de6c0a773 9d01a1b39c543064 ba5e7fdccdef60f 339f9d82feca32dc 9b1e6340c950959a 162f8ba9d0a13f35 cf6b7211a6c44b3d f014e0d7c9cf292b 9a706860ea89d552 914e208f86446c80 d01395abe9dbda72 d465afc401630167 87a76de7ea83fe0c d45fd87ee5b3d053 e716d1bad7bb0393 c23f019f28c58842 8e795895eebe3fa2 c6794335169eda1d 3f64625ff5902a50 e44e69f208b844d4 1f571ef1cdddbaf4 c36de5442ac7ad27 337ff1fbdebb8150 ac993c44a7bc4f36 d283fc5dd2d710ec 3192923cf0072189 97c370bf8603ee58 d8daff44de2bce80 ce32f009ea476d1d f04b5b758a6d9180 e8996001e5f660c9 d03dcde6c9265aba d393ec3ab6cc500a 9cc2b0d3c089295b 89af8415bc2d4c3b f2f99c46ed007eb9 2d89a815dd437050 9970bc8b8fbc4d19 fcbccbd3b7392c2a 947c9c7a8c6a58d1 1c26a5eb2a4673e8 e17fa0122ded5906 ba57b1d718e371be c329e5a6f5fc3c8d 23e99593d67e57c2 ef61c980a4a985b8 9aa5c245de41476a 34bf9f2db28baf26 d73534dfbe8f57d8 1cd09f43a42168ad d6ad17d4f1daf724 306a4efdd1903e70 f5b1a71d2de24cb3 9fbd43d7cd3aee40 1ecb2cb0cc5ebef1 fa410ba4d02792d4 9d628114947cd3cd e0db92bf19fe4f7c ea25e250bc2dadc4 d0aa8192db1c9e63 f51aeddf07886365 c3b6112931861451 8ca2b2b4df40d030 e6c93395946092bb c5e6a70c01bda094 e0fe70c4aa7f44be 3edfd77ad28959c1 d446fa55c7c7a459 f246e91784c67e86 d74fd84735456b19 fd0d0f72b126c091 35ed3f18ab96d29c e0dc3db5ef53f889 207ab91b8d3d175f 38d3e9fcdde94d27 ] wstrb=[33 b1 b1 92 cc d9 8e ff 8a 40 91 56 19 20 55 a3 60 e6 f9 79 6 4e 1c 66 34 15 df 3b 63 fb a1 97 10 81 d2 73 7c 74 b 8d f5 dd 0 71 51 b fe 46 e9 ff b8 3a a b6 81 f3 b5 39 2e c0 ef af b3 a5 e8 e1 65 d7 90 18 7c 78 fa e1 50 8a fa cc 3 f4 ae 53 7e a8 1f 81 9c cd d4 1a 75 f4 9c 11 c1 70 2c 37 64 c8 48 26 38 74 5d 9d 3c a5 c3 75 1a 20 12 56 c5 d5 cb df f5 dd 36 ba b2 1 9a a7 df d0 62 91 d1 fc 39 b0 cc 9b 42 9d 97 7b 4e 63 16 90 0 ad b 4e 10 21 de 10 ce e9 5f de a 3d ee d8 27 4d b6 31 8b a5 a b2 f2 c0 e3 7d 65 ed 2f 58 ae 13 d5 13 0 5 6b ae 18 41 c2 18 46 2d c7 5e 6e 89 76 b4 b6 3d 12 25 c6 89 d9 7d c6 ec a2 8d ] bresp=0 bid=10000
[2205000] MASTER 1 RECEIVED BRESP. BRESP=0
[2205000] [MASTER DRIVER] mst_id=1 s_id=0 awaddr=5904548 awid=0 awlen=207 awsize=6 awburst=1 wdata=[9c1e9365dfe76be4 bf132e48e3efe611 e0a1eebbe1372e84 c11e9a689d137c7c 103628efcc08220 ddf7b0a48031c8b0 1d45452de1a55149 de65d3699f164b0c 1f4813bd1e48a7bb ffedf9043c5d840e db73cf1a3c8d58ea dad600a5de53cc6d 9ab1507bfabbe2d7 b7493bc1dac3f9a9 b917c616f6251f96 f0e1026d921f3c66 ece3360fd3c91692 c9ee3628282a3e2f ba497a9525fafc26 f9c412b8bacf3895 e2f976c4272cb0a5 cd27accbc3b248e0 fe8181751d42f15a c46fa1ffc6ebbf83 a9e0863e17af83a febde99411974eca d8830e4d891f89d8 ea9a8212c32d8b93 d4c4da5de32116b0 ec40a088e9586ba6 ac85f7392d47e8aa 1068ff5ad6db229b c0338e41814ad196 ae92ba40fca99fe2 d384c27decb9857b ee045711befbb99a 3ba5597d13b850bf 71d63a1c971152 db92caec8f2a1bfa a2e26cb9ee762d4b 8b0d3e9d97382469 26624064a35442f3 11ca703fe6a0098a fdd82df3c944ad1d ec98f0119cd7aedc 8377b866a43a6e57 ed7f1b75fe636050 9b3b0f2c014fe65a a58a54b1da180b86 d87b6bd61eb2c793 2002aded93097026 ed217bacf3b67b02 92694295c58d029e d89672c5c59ce782 39536285b26bf082 f7f8f321c5b7ee71 b54d5f4cbbca51a fe28959dd08f65e6 96475457c4a83879 9064dd93f62188be c6b0eea4a19c2a4b e64462c48e8d7330 84aefbeedcf842fb fe946d47f6a94058 8536b388cb5fea92 28582d8ee4d8d00b db82106309e5af77 d5459a0926ec9ad5 8bc56ae0e0b8c3ec ea9e7363fd9dc797 a48a626ce7477b44 c8003f30bfe40d6c 3d81d504304fcd4d 17974891329eb293 f282bfffe20c3770 925c04bddf9787c1 12363a54b0049503 1210cc74a9f34d4e 898ad50f84b8fa53 34bd8f57a46cd131 ce601e809bc10f63 207a09b7c6ce5bcb eb3b2cfcd7eaf38f f3ac02f3d537990e 1c05f4d9b99b4b7c 11863f0c14260caa e95da5b8874121d5 c0dc6d52053241ff 19584ea905639a91 8ca4bc66d262ac5e d794ee5d02b5f461 8198ef2cd8129b8 9fe3d616f0ed3d06 f3a3316794be4b58 e23f7511f778c473 e8660179fbbcc059 907b0bb182234b27 f99c0f9bdc0932e0 d7c5f339f2ba80c2 f4ddcbeae2021114 3e0b43f5e840feeb dafb7fadee79db85 d07bec9995d1372e fe123619cfd94b97 be53271c8e87308e 245867bdd90db5c7 a8e7015e0ecf13b6 9d564444a26a9dd6 fb78539de73a287b f6093c31c1aeac01 e41949d8245f54fc b997d77935f8075 d50e2c77df919d75 83f0f27101a2b9a8 95023a1d3927764f 98b913c48f8a6fe8 912d2990ea106694 a337dce31caa0636 ac34761e262f63ae 903fca423bf0f0a8 d89af6de3d619faf e391035d3377a726 ef6897ce84cf6cfc c2310cabf3d0cd9f a74874c5c8038eac ccd2fba8a5c21008 1992dda896b10c93 deb49b3f0f040854 b4c6185cc0db526d d78c5f012b8796e8 3a8b9f3cce58f604 f344872b640fa40 e1c89128ef51b798 3daaad9de6c0a773 9d01a1b39c543064 ba5e7fdccdef60f 339f9d82feca32dc 9b1e6340c950959a 162f8ba9d0a13f35 cf6b7211a6c44b3d f014e0d7c9cf292b 9a706860ea89d552 914e208f86446c80 d01395abe9dbda72 d465afc401630167 87a76de7ea83fe0c d45fd87ee5b3d053 e716d1bad7bb0393 c23f019f28c58842 8e795895eebe3fa2 c6794335169eda1d 3f64625ff5902a50 e44e69f208b844d4 1f571ef1cdddbaf4 c36de5442ac7ad27 337ff1fbdebb8150 ac993c44a7bc4f36 d283fc5dd2d710ec 3192923cf0072189 97c370bf8603ee58 d8daff44de2bce80 ce32f009ea476d1d f04b5b758a6d9180 e8996001e5f660c9 d03dcde6c9265aba d393ec3ab6cc500a 9cc2b0d3c089295b 89af8415bc2d4c3b f2f99c46ed007eb9 2d89a815dd437050 9970bc8b8fbc4d19 fcbccbd3b7392c2a 947c9c7a8c6a58d1 1c26a5eb2a4673e8 e17fa0122ded5906 ba57b1d718e371be c329e5a6f5fc3c8d 23e99593d67e57c2 ef61c980a4a985b8 9aa5c245de41476a 34bf9f2db28baf26 d73534dfbe8f57d8 1cd09f43a42168ad d6ad17d4f1daf724 306a4efdd1903e70 f5b1a71d2de24cb3 9fbd43d7cd3aee40 1ecb2cb0cc5ebef1 fa410ba4d02792d4 9d628114947cd3cd e0db92bf19fe4f7c ea25e250bc2dadc4 d0aa8192db1c9e63 f51aeddf07886365 c3b6112931861451 8ca2b2b4df40d030 e6c93395946092bb c5e6a70c01bda094 e0fe70c4aa7f44be 3edfd77ad28959c1 d446fa55c7c7a459 f246e91784c67e86 d74fd84735456b19 fd0d0f72b126c091 35ed3f18ab96d29c e0dc3db5ef53f889 207ab91b8d3d175f 38d3e9fcdde94d27 ] wstrb=[33 b1 b1 92 cc d9 8e ff 8a 40 91 56 19 20 55 a3 60 e6 f9 79 6 4e 1c 66 34 15 df 3b 63 fb a1 97 10 81 d2 73 7c 74 b 8d f5 dd 0 71 51 b fe 46 e9 ff b8 3a a b6 81 f3 b5 39 2e c0 ef af b3 a5 e8 e1 65 d7 90 18 7c 78 fa e1 50 8a fa cc 3 f4 ae 53 7e a8 1f 81 9c cd d4 1a 75 f4 9c 11 c1 70 2c 37 64 c8 48 26 38 74 5d 9d 3c a5 c3 75 1a 20 12 56 c5 d5 cb df f5 dd 36 ba b2 1 9a a7 df d0 62 91 d1 fc 39 b0 cc 9b 42 9d 97 7b 4e 63 16 90 0 ad b 4e 10 21 de 10 ce e9 5f de a 3d ee d8 27 4d b6 31 8b a5 a b2 f2 c0 e3 7d 65 ed 2f 58 ae 13 d5 13 0 5 6b ae 18 41 c2 18 46 2d c7 5e 6e 89 76 b4 b6 3d 12 25 c6 89 d9 7d c6 ec a2 8d ] bresp=0 bid=0
[2205000] MASTER 1 B_VALID_RDY Handshake
[2205000] [MASTER MONITOR] mst_id=1 s_id=0 awaddr=5904548 awid=0 awlen=207 awsize=6 awburst=1 wdata=[9c1e9365dfe76be4 bf132e48e3efe611 e0a1eebbe1372e84 c11e9a689d137c7c 103628efcc08220 ddf7b0a48031c8b0 1d45452de1a55149 de65d3699f164b0c 1f4813bd1e48a7bb ffedf9043c5d840e db73cf1a3c8d58ea dad600a5de53cc6d 9ab1507bfabbe2d7 b7493bc1dac3f9a9 b917c616f6251f96 f0e1026d921f3c66 ece3360fd3c91692 c9ee3628282a3e2f ba497a9525fafc26 f9c412b8bacf3895 e2f976c4272cb0a5 cd27accbc3b248e0 fe8181751d42f15a c46fa1ffc6ebbf83 a9e0863e17af83a febde99411974eca d8830e4d891f89d8 ea9a8212c32d8b93 d4c4da5de32116b0 ec40a088e9586ba6 ac85f7392d47e8aa 1068ff5ad6db229b c0338e41814ad196 ae92ba40fca99fe2 d384c27decb9857b ee045711befbb99a 3ba5597d13b850bf 71d63a1c971152 db92caec8f2a1bfa a2e26cb9ee762d4b 8b0d3e9d97382469 26624064a35442f3 11ca703fe6a0098a fdd82df3c944ad1d ec98f0119cd7aedc 8377b866a43a6e57 ed7f1b75fe636050 9b3b0f2c014fe65a a58a54b1da180b86 d87b6bd61eb2c793 2002aded93097026 ed217bacf3b67b02 92694295c58d029e d89672c5c59ce782 39536285b26bf082 f7f8f321c5b7ee71 b54d5f4cbbca51a fe28959dd08f65e6 96475457c4a83879 9064dd93f62188be c6b0eea4a19c2a4b e64462c48e8d7330 84aefbeedcf842fb fe946d47f6a94058 8536b388cb5fea92 28582d8ee4d8d00b db82106309e5af77 d5459a0926ec9ad5 8bc56ae0e0b8c3ec ea9e7363fd9dc797 a48a626ce7477b44 c8003f30bfe40d6c 3d81d504304fcd4d 17974891329eb293 f282bfffe20c3770 925c04bddf9787c1 12363a54b0049503 1210cc74a9f34d4e 898ad50f84b8fa53 34bd8f57a46cd131 ce601e809bc10f63 207a09b7c6ce5bcb eb3b2cfcd7eaf38f f3ac02f3d537990e 1c05f4d9b99b4b7c 11863f0c14260caa e95da5b8874121d5 c0dc6d52053241ff 19584ea905639a91 8ca4bc66d262ac5e d794ee5d02b5f461 8198ef2cd8129b8 9fe3d616f0ed3d06 f3a3316794be4b58 e23f7511f778c473 e8660179fbbcc059 907b0bb182234b27 f99c0f9bdc0932e0 d7c5f339f2ba80c2 f4ddcbeae2021114 3e0b43f5e840feeb dafb7fadee79db85 d07bec9995d1372e fe123619cfd94b97 be53271c8e87308e 245867bdd90db5c7 a8e7015e0ecf13b6 9d564444a26a9dd6 fb78539de73a287b f6093c31c1aeac01 e41949d8245f54fc b997d77935f8075 d50e2c77df919d75 83f0f27101a2b9a8 95023a1d3927764f 98b913c48f8a6fe8 912d2990ea106694 a337dce31caa0636 ac34761e262f63ae 903fca423bf0f0a8 d89af6de3d619faf e391035d3377a726 ef6897ce84cf6cfc c2310cabf3d0cd9f a74874c5c8038eac ccd2fba8a5c21008 1992dda896b10c93 deb49b3f0f040854 b4c6185cc0db526d d78c5f012b8796e8 3a8b9f3cce58f604 f344872b640fa40 e1c89128ef51b798 3daaad9de6c0a773 9d01a1b39c543064 ba5e7fdccdef60f 339f9d82feca32dc 9b1e6340c950959a 162f8ba9d0a13f35 cf6b7211a6c44b3d f014e0d7c9cf292b 9a706860ea89d552 914e208f86446c80 d01395abe9dbda72 d465afc401630167 87a76de7ea83fe0c d45fd87ee5b3d053 e716d1bad7bb0393 c23f019f28c58842 8e795895eebe3fa2 c6794335169eda1d 3f64625ff5902a50 e44e69f208b844d4 1f571ef1cdddbaf4 c36de5442ac7ad27 337ff1fbdebb8150 ac993c44a7bc4f36 d283fc5dd2d710ec 3192923cf0072189 97c370bf8603ee58 d8daff44de2bce80 ce32f009ea476d1d f04b5b758a6d9180 e8996001e5f660c9 d03dcde6c9265aba d393ec3ab6cc500a 9cc2b0d3c089295b 89af8415bc2d4c3b f2f99c46ed007eb9 2d89a815dd437050 9970bc8b8fbc4d19 fcbccbd3b7392c2a 947c9c7a8c6a58d1 1c26a5eb2a4673e8 e17fa0122ded5906 ba57b1d718e371be c329e5a6f5fc3c8d 23e99593d67e57c2 ef61c980a4a985b8 9aa5c245de41476a 34bf9f2db28baf26 d73534dfbe8f57d8 1cd09f43a42168ad d6ad17d4f1daf724 306a4efdd1903e70 f5b1a71d2de24cb3 9fbd43d7cd3aee40 1ecb2cb0cc5ebef1 fa410ba4d02792d4 9d628114947cd3cd e0db92bf19fe4f7c ea25e250bc2dadc4 d0aa8192db1c9e63 f51aeddf07886365 c3b6112931861451 8ca2b2b4df40d030 e6c93395946092bb c5e6a70c01bda094 e0fe70c4aa7f44be 3edfd77ad28959c1 d446fa55c7c7a459 f246e91784c67e86 d74fd84735456b19 fd0d0f72b126c091 35ed3f18ab96d29c e0dc3db5ef53f889 207ab91b8d3d175f 38d3e9fcdde94d27 ] wstrb=[33 b1 b1 92 cc d9 8e ff 8a 40 91 56 19 20 55 a3 60 e6 f9 79 6 4e 1c 66 34 15 df 3b 63 fb a1 97 10 81 d2 73 7c 74 b 8d f5 dd 0 71 51 b fe 46 e9 ff b8 3a a b6 81 f3 b5 39 2e c0 ef af b3 a5 e8 e1 65 d7 90 18 7c 78 fa e1 50 8a fa cc 3 f4 ae 53 7e a8 1f 81 9c cd d4 1a 75 f4 9c 11 c1 70 2c 37 64 c8 48 26 38 74 5d 9d 3c a5 c3 75 1a 20 12 56 c5 d5 cb df f5 dd 36 ba b2 1 9a a7 df d0 62 91 d1 fc 39 b0 cc 9b 42 9d 97 7b 4e 63 16 90 0 ad b 4e 10 21 de 10 ce e9 5f de a 3d ee d8 27 4d b6 31 8b a5 a b2 f2 c0 e3 7d 65 ed 2f 58 ae 13 d5 13 0 5 6b ae 18 41 c2 18 46 2d c7 5e 6e 89 76 b4 b6 3d 12 25 c6 89 d9 7d c6 ec a2 8d ] bresp=0 bid=0
[2205000] SCOREBOARD MATCH: decode_err expected = 0, actual =0
[2205000] SCOREBOARD MATCH: slave_id expected = 0, actual =0
[2205000] SCOREBOARD MATCH: awaddr passthrough expected = 5904548, actual =5904548
[2205000] SCOREBOARD MATCH: awlen passthrough expected = 207, actual =207
[2205000] SCOREBOARD MATCH: awsize passthrough expected = 6, actual =6
[2205000] SCOREBOARD MATCH: awburst passthrough expected = 1, actual =1
[2205000] SCOREBOARD MATCH: wdata size check expected = d0, actual =d0
[2205000] SCOREBOARD MATCH: wdata passthrough beat=0 expected = 9c1e9365dfe76be4, actual =9c1e9365dfe76be4
[2205000] SCOREBOARD MATCH: wdata passthrough beat=1 expected = bf132e48e3efe611, actual =bf132e48e3efe611
[2205000] SCOREBOARD MATCH: wdata passthrough beat=2 expected = e0a1eebbe1372e84, actual =e0a1eebbe1372e84
[2205000] SCOREBOARD MATCH: wdata passthrough beat=3 expected = c11e9a689d137c7c, actual =c11e9a689d137c7c
[2205000] SCOREBOARD MATCH: wdata passthrough beat=4 expected = 103628efcc08220, actual =103628efcc08220
[2205000] SCOREBOARD MATCH: wdata passthrough beat=5 expected = ddf7b0a48031c8b0, actual =ddf7b0a48031c8b0
[2205000] SCOREBOARD MATCH: wdata passthrough beat=6 expected = 1d45452de1a55149, actual =1d45452de1a55149
[2205000] SCOREBOARD MATCH: wdata passthrough beat=7 expected = de65d3699f164b0c, actual =de65d3699f164b0c
[2205000] SCOREBOARD MATCH: wdata passthrough beat=8 expected = 1f4813bd1e48a7bb, actual =1f4813bd1e48a7bb
[2205000] SCOREBOARD MATCH: wdata passthrough beat=9 expected = ffedf9043c5d840e, actual =ffedf9043c5d840e
[2205000] SCOREBOARD MATCH: wdata passthrough beat=10 expected = db73cf1a3c8d58ea, actual =db73cf1a3c8d58ea
[2205000] SCOREBOARD MATCH: wdata passthrough beat=11 expected = dad600a5de53cc6d, actual =dad600a5de53cc6d
[2205000] SCOREBOARD MATCH: wdata passthrough beat=12 expected = 9ab1507bfabbe2d7, actual =9ab1507bfabbe2d7
[2205000] SCOREBOARD MATCH: wdata passthrough beat=13 expected = b7493bc1dac3f9a9, actual =b7493bc1dac3f9a9
[2205000] SCOREBOARD MATCH: wdata passthrough beat=14 expected = b917c616f6251f96, actual =b917c616f6251f96
[2205000] SCOREBOARD MATCH: wdata passthrough beat=15 expected = f0e1026d921f3c66, actual =f0e1026d921f3c66
[2205000] SCOREBOARD MATCH: wdata passthrough beat=16 expected = ece3360fd3c91692, actual =ece3360fd3c91692
[2205000] SCOREBOARD MATCH: wdata passthrough beat=17 expected = c9ee3628282a3e2f, actual =c9ee3628282a3e2f
[2205000] SCOREBOARD MATCH: wdata passthrough beat=18 expected = ba497a9525fafc26, actual =ba497a9525fafc26
[2205000] SCOREBOARD MATCH: wdata passthrough beat=19 expected = f9c412b8bacf3895, actual =f9c412b8bacf3895
[2205000] SCOREBOARD MATCH: wdata passthrough beat=20 expected = e2f976c4272cb0a5, actual =e2f976c4272cb0a5
[2205000] SCOREBOARD MATCH: wdata passthrough beat=21 expected = cd27accbc3b248e0, actual =cd27accbc3b248e0
[2205000] SCOREBOARD MATCH: wdata passthrough beat=22 expected = fe8181751d42f15a, actual =fe8181751d42f15a
[2205000] SCOREBOARD MATCH: wdata passthrough beat=23 expected = c46fa1ffc6ebbf83, actual =c46fa1ffc6ebbf83
[2205000] SCOREBOARD MATCH: wdata passthrough beat=24 expected = a9e0863e17af83a, actual =a9e0863e17af83a
[2205000] SCOREBOARD MATCH: wdata passthrough beat=25 expected = febde99411974eca, actual =febde99411974eca
[2205000] SCOREBOARD MATCH: wdata passthrough beat=26 expected = d8830e4d891f89d8, actual =d8830e4d891f89d8
[2205000] SCOREBOARD MATCH: wdata passthrough beat=27 expected = ea9a8212c32d8b93, actual =ea9a8212c32d8b93
[2205000] SCOREBOARD MATCH: wdata passthrough beat=28 expected = d4c4da5de32116b0, actual =d4c4da5de32116b0
[2205000] SCOREBOARD MATCH: wdata passthrough beat=29 expected = ec40a088e9586ba6, actual =ec40a088e9586ba6
[2205000] SCOREBOARD MATCH: wdata passthrough beat=30 expected = ac85f7392d47e8aa, actual =ac85f7392d47e8aa
[2205000] SCOREBOARD MATCH: wdata passthrough beat=31 expected = 1068ff5ad6db229b, actual =1068ff5ad6db229b
[2205000] SCOREBOARD MATCH: wdata passthrough beat=32 expected = c0338e41814ad196, actual =c0338e41814ad196
[2205000] SCOREBOARD MATCH: wdata passthrough beat=33 expected = ae92ba40fca99fe2, actual =ae92ba40fca99fe2
[2205000] SCOREBOARD MATCH: wdata passthrough beat=34 expected = d384c27decb9857b, actual =d384c27decb9857b
[2205000] SCOREBOARD MATCH: wdata passthrough beat=35 expected = ee045711befbb99a, actual =ee045711befbb99a
[2205000] SCOREBOARD MATCH: wdata passthrough beat=36 expected = 3ba5597d13b850bf, actual =3ba5597d13b850bf
[2205000] SCOREBOARD MATCH: wdata passthrough beat=37 expected = 71d63a1c971152, actual =71d63a1c971152
[2205000] SCOREBOARD MATCH: wdata passthrough beat=38 expected = db92caec8f2a1bfa, actual =db92caec8f2a1bfa
[2205000] SCOREBOARD MATCH: wdata passthrough beat=39 expected = a2e26cb9ee762d4b, actual =a2e26cb9ee762d4b
[2205000] SCOREBOARD MATCH: wdata passthrough beat=40 expected = 8b0d3e9d97382469, actual =8b0d3e9d97382469
[2205000] SCOREBOARD MATCH: wdata passthrough beat=41 expected = 26624064a35442f3, actual =26624064a35442f3
[2205000] SCOREBOARD MATCH: wdata passthrough beat=42 expected = 11ca703fe6a0098a, actual =11ca703fe6a0098a
[2205000] SCOREBOARD MATCH: wdata passthrough beat=43 expected = fdd82df3c944ad1d, actual =fdd82df3c944ad1d
[2205000] SCOREBOARD MATCH: wdata passthrough beat=44 expected = ec98f0119cd7aedc, actual =ec98f0119cd7aedc
[2205000] SCOREBOARD MATCH: wdata passthrough beat=45 expected = 8377b866a43a6e57, actual =8377b866a43a6e57
[2205000] SCOREBOARD MATCH: wdata passthrough beat=46 expected = ed7f1b75fe636050, actual =ed7f1b75fe636050
[2205000] SCOREBOARD MATCH: wdata passthrough beat=47 expected = 9b3b0f2c014fe65a, actual =9b3b0f2c014fe65a
[2205000] SCOREBOARD MATCH: wdata passthrough beat=48 expected = a58a54b1da180b86, actual =a58a54b1da180b86
[2205000] SCOREBOARD MATCH: wdata passthrough beat=49 expected = d87b6bd61eb2c793, actual =d87b6bd61eb2c793
[2205000] SCOREBOARD MATCH: wdata passthrough beat=50 expected = 2002aded93097026, actual =2002aded93097026
[2205000] SCOREBOARD MATCH: wdata passthrough beat=51 expected = ed217bacf3b67b02, actual =ed217bacf3b67b02
[2205000] SCOREBOARD MATCH: wdata passthrough beat=52 expected = 92694295c58d029e, actual =92694295c58d029e
[2205000] SCOREBOARD MATCH: wdata passthrough beat=53 expected = d89672c5c59ce782, actual =d89672c5c59ce782
[2205000] SCOREBOARD MATCH: wdata passthrough beat=54 expected = 39536285b26bf082, actual =39536285b26bf082
[2205000] SCOREBOARD MATCH: wdata passthrough beat=55 expected = f7f8f321c5b7ee71, actual =f7f8f321c5b7ee71
[2205000] SCOREBOARD MATCH: wdata passthrough beat=56 expected = b54d5f4cbbca51a, actual =b54d5f4cbbca51a
[2205000] SCOREBOARD MATCH: wdata passthrough beat=57 expected = fe28959dd08f65e6, actual =fe28959dd08f65e6
[2205000] SCOREBOARD MATCH: wdata passthrough beat=58 expected = 96475457c4a83879, actual =96475457c4a83879
[2205000] SCOREBOARD MATCH: wdata passthrough beat=59 expected = 9064dd93f62188be, actual =9064dd93f62188be
[2205000] SCOREBOARD MATCH: wdata passthrough beat=60 expected = c6b0eea4a19c2a4b, actual =c6b0eea4a19c2a4b
[2205000] SCOREBOARD MATCH: wdata passthrough beat=61 expected = e64462c48e8d7330, actual =e64462c48e8d7330
[2205000] SCOREBOARD MATCH: wdata passthrough beat=62 expected = 84aefbeedcf842fb, actual =84aefbeedcf842fb
[2205000] SCOREBOARD MATCH: wdata passthrough beat=63 expected = fe946d47f6a94058, actual =fe946d47f6a94058
[2205000] SCOREBOARD MATCH: wdata passthrough beat=64 expected = 8536b388cb5fea92, actual =8536b388cb5fea92
[2205000] SCOREBOARD MATCH: wdata passthrough beat=65 expected = 28582d8ee4d8d00b, actual =28582d8ee4d8d00b
[2205000] SCOREBOARD MATCH: wdata passthrough beat=66 expected = db82106309e5af77, actual =db82106309e5af77
[2205000] SCOREBOARD MATCH: wdata passthrough beat=67 expected = d5459a0926ec9ad5, actual =d5459a0926ec9ad5
[2205000] SCOREBOARD MATCH: wdata passthrough beat=68 expected = 8bc56ae0e0b8c3ec, actual =8bc56ae0e0b8c3ec
[2205000] SCOREBOARD MATCH: wdata passthrough beat=69 expected = ea9e7363fd9dc797, actual =ea9e7363fd9dc797
[2205000] SCOREBOARD MATCH: wdata passthrough beat=70 expected = a48a626ce7477b44, actual =a48a626ce7477b44
[2205000] SCOREBOARD MATCH: wdata passthrough beat=71 expected = c8003f30bfe40d6c, actual =c8003f30bfe40d6c
[2205000] SCOREBOARD MATCH: wdata passthrough beat=72 expected = 3d81d504304fcd4d, actual =3d81d504304fcd4d
[2205000] SCOREBOARD MATCH: wdata passthrough beat=73 expected = 17974891329eb293, actual =17974891329eb293
[2205000] SCOREBOARD MATCH: wdata passthrough beat=74 expected = f282bfffe20c3770, actual =f282bfffe20c3770
[2205000] SCOREBOARD MATCH: wdata passthrough beat=75 expected = 925c04bddf9787c1, actual =925c04bddf9787c1
[2205000] SCOREBOARD MATCH: wdata passthrough beat=76 expected = 12363a54b0049503, actual =12363a54b0049503
[2205000] SCOREBOARD MATCH: wdata passthrough beat=77 expected = 1210cc74a9f34d4e, actual =1210cc74a9f34d4e
[2205000] SCOREBOARD MATCH: wdata passthrough beat=78 expected = 898ad50f84b8fa53, actual =898ad50f84b8fa53
[2205000] SCOREBOARD MATCH: wdata passthrough beat=79 expected = 34bd8f57a46cd131, actual =34bd8f57a46cd131
[2205000] SCOREBOARD MATCH: wdata passthrough beat=80 expected = ce601e809bc10f63, actual =ce601e809bc10f63
[2205000] SCOREBOARD MATCH: wdata passthrough beat=81 expected = 207a09b7c6ce5bcb, actual =207a09b7c6ce5bcb
[2205000] SCOREBOARD MATCH: wdata passthrough beat=82 expected = eb3b2cfcd7eaf38f, actual =eb3b2cfcd7eaf38f
[2205000] SCOREBOARD MATCH: wdata passthrough beat=83 expected = f3ac02f3d537990e, actual =f3ac02f3d537990e
[2205000] SCOREBOARD MATCH: wdata passthrough beat=84 expected = 1c05f4d9b99b4b7c, actual =1c05f4d9b99b4b7c
[2205000] SCOREBOARD MATCH: wdata passthrough beat=85 expected = 11863f0c14260caa, actual =11863f0c14260caa
[2205000] SCOREBOARD MATCH: wdata passthrough beat=86 expected = e95da5b8874121d5, actual =e95da5b8874121d5
[2205000] SCOREBOARD MATCH: wdata passthrough beat=87 expected = c0dc6d52053241ff, actual =c0dc6d52053241ff
[2205000] SCOREBOARD MATCH: wdata passthrough beat=88 expected = 19584ea905639a91, actual =19584ea905639a91
[2205000] SCOREBOARD MATCH: wdata passthrough beat=89 expected = 8ca4bc66d262ac5e, actual =8ca4bc66d262ac5e
[2205000] SCOREBOARD MATCH: wdata passthrough beat=90 expected = d794ee5d02b5f461, actual =d794ee5d02b5f461
[2205000] SCOREBOARD MATCH: wdata passthrough beat=91 expected = 8198ef2cd8129b8, actual =8198ef2cd8129b8
[2205000] SCOREBOARD MATCH: wdata passthrough beat=92 expected = 9fe3d616f0ed3d06, actual =9fe3d616f0ed3d06
[2205000] SCOREBOARD MATCH: wdata passthrough beat=93 expected = f3a3316794be4b58, actual =f3a3316794be4b58
[2205000] SCOREBOARD MATCH: wdata passthrough beat=94 expected = e23f7511f778c473, actual =e23f7511f778c473
[2205000] SCOREBOARD MATCH: wdata passthrough beat=95 expected = e8660179fbbcc059, actual =e8660179fbbcc059
[2205000] SCOREBOARD MATCH: wdata passthrough beat=96 expected = 907b0bb182234b27, actual =907b0bb182234b27
[2205000] SCOREBOARD MATCH: wdata passthrough beat=97 expected = f99c0f9bdc0932e0, actual =f99c0f9bdc0932e0
[2205000] SCOREBOARD MATCH: wdata passthrough beat=98 expected = d7c5f339f2ba80c2, actual =d7c5f339f2ba80c2
[2205000] SCOREBOARD MATCH: wdata passthrough beat=99 expected = f4ddcbeae2021114, actual =f4ddcbeae2021114
[2205000] SCOREBOARD MATCH: wdata passthrough beat=100 expected = 3e0b43f5e840feeb, actual =3e0b43f5e840feeb
[2205000] SCOREBOARD MATCH: wdata passthrough beat=101 expected = dafb7fadee79db85, actual =dafb7fadee79db85
[2205000] SCOREBOARD MATCH: wdata passthrough beat=102 expected = d07bec9995d1372e, actual =d07bec9995d1372e
[2205000] SCOREBOARD MATCH: wdata passthrough beat=103 expected = fe123619cfd94b97, actual =fe123619cfd94b97
[2205000] SCOREBOARD MATCH: wdata passthrough beat=104 expected = be53271c8e87308e, actual =be53271c8e87308e
[2205000] SCOREBOARD MATCH: wdata passthrough beat=105 expected = 245867bdd90db5c7, actual =245867bdd90db5c7
[2205000] SCOREBOARD MATCH: wdata passthrough beat=106 expected = a8e7015e0ecf13b6, actual =a8e7015e0ecf13b6
[2205000] SCOREBOARD MATCH: wdata passthrough beat=107 expected = 9d564444a26a9dd6, actual =9d564444a26a9dd6
[2205000] SCOREBOARD MATCH: wdata passthrough beat=108 expected = fb78539de73a287b, actual =fb78539de73a287b
[2205000] SCOREBOARD MATCH: wdata passthrough beat=109 expected = f6093c31c1aeac01, actual =f6093c31c1aeac01
[2205000] SCOREBOARD MATCH: wdata passthrough beat=110 expected = e41949d8245f54fc, actual =e41949d8245f54fc
[2205000] SCOREBOARD MATCH: wdata passthrough beat=111 expected = b997d77935f8075, actual =b997d77935f8075
[2205000] SCOREBOARD MATCH: wdata passthrough beat=112 expected = d50e2c77df919d75, actual =d50e2c77df919d75
[2205000] SCOREBOARD MATCH: wdata passthrough beat=113 expected = 83f0f27101a2b9a8, actual =83f0f27101a2b9a8
[2205000] SCOREBOARD MATCH: wdata passthrough beat=114 expected = 95023a1d3927764f, actual =95023a1d3927764f
[2205000] SCOREBOARD MATCH: wdata passthrough beat=115 expected = 98b913c48f8a6fe8, actual =98b913c48f8a6fe8
[2205000] SCOREBOARD MATCH: wdata passthrough beat=116 expected = 912d2990ea106694, actual =912d2990ea106694
[2205000] SCOREBOARD MATCH: wdata passthrough beat=117 expected = a337dce31caa0636, actual =a337dce31caa0636
[2205000] SCOREBOARD MATCH: wdata passthrough beat=118 expected = ac34761e262f63ae, actual =ac34761e262f63ae
[2205000] SCOREBOARD MATCH: wdata passthrough beat=119 expected = 903fca423bf0f0a8, actual =903fca423bf0f0a8
[2205000] SCOREBOARD MATCH: wdata passthrough beat=120 expected = d89af6de3d619faf, actual =d89af6de3d619faf
[2205000] SCOREBOARD MATCH: wdata passthrough beat=121 expected = e391035d3377a726, actual =e391035d3377a726
[2205000] SCOREBOARD MATCH: wdata passthrough beat=122 expected = ef6897ce84cf6cfc, actual =ef6897ce84cf6cfc
[2205000] SCOREBOARD MATCH: wdata passthrough beat=123 expected = c2310cabf3d0cd9f, actual =c2310cabf3d0cd9f
[2205000] SCOREBOARD MATCH: wdata passthrough beat=124 expected = a74874c5c8038eac, actual =a74874c5c8038eac
[2205000] SCOREBOARD MATCH: wdata passthrough beat=125 expected = ccd2fba8a5c21008, actual =ccd2fba8a5c21008
[2205000] SCOREBOARD MATCH: wdata passthrough beat=126 expected = 1992dda896b10c93, actual =1992dda896b10c93
[2205000] SCOREBOARD MATCH: wdata passthrough beat=127 expected = deb49b3f0f040854, actual =deb49b3f0f040854
[2205000] SCOREBOARD MATCH: wdata passthrough beat=128 expected = b4c6185cc0db526d, actual =b4c6185cc0db526d
[2205000] SCOREBOARD MATCH: wdata passthrough beat=129 expected = d78c5f012b8796e8, actual =d78c5f012b8796e8
[2205000] SCOREBOARD MATCH: wdata passthrough beat=130 expected = 3a8b9f3cce58f604, actual =3a8b9f3cce58f604
[2205000] SCOREBOARD MATCH: wdata passthrough beat=131 expected = f344872b640fa40, actual =f344872b640fa40
[2205000] SCOREBOARD MATCH: wdata passthrough beat=132 expected = e1c89128ef51b798, actual =e1c89128ef51b798
[2205000] SCOREBOARD MATCH: wdata passthrough beat=133 expected = 3daaad9de6c0a773, actual =3daaad9de6c0a773
[2205000] SCOREBOARD MATCH: wdata passthrough beat=134 expected = 9d01a1b39c543064, actual =9d01a1b39c543064
[2205000] SCOREBOARD MATCH: wdata passthrough beat=135 expected = ba5e7fdccdef60f, actual =ba5e7fdccdef60f
[2205000] SCOREBOARD MATCH: wdata passthrough beat=136 expected = 339f9d82feca32dc, actual =339f9d82feca32dc
[2205000] SCOREBOARD MATCH: wdata passthrough beat=137 expected = 9b1e6340c950959a, actual =9b1e6340c950959a
[2205000] SCOREBOARD MATCH: wdata passthrough beat=138 expected = 162f8ba9d0a13f35, actual =162f8ba9d0a13f35
[2205000] SCOREBOARD MATCH: wdata passthrough beat=139 expected = cf6b7211a6c44b3d, actual =cf6b7211a6c44b3d
[2205000] SCOREBOARD MATCH: wdata passthrough beat=140 expected = f014e0d7c9cf292b, actual =f014e0d7c9cf292b
[2205000] SCOREBOARD MATCH: wdata passthrough beat=141 expected = 9a706860ea89d552, actual =9a706860ea89d552
[2205000] SCOREBOARD MATCH: wdata passthrough beat=142 expected = 914e208f86446c80, actual =914e208f86446c80
[2205000] SCOREBOARD MATCH: wdata passthrough beat=143 expected = d01395abe9dbda72, actual =d01395abe9dbda72
[2205000] SCOREBOARD MATCH: wdata passthrough beat=144 expected = d465afc401630167, actual =d465afc401630167
[2205000] SCOREBOARD MATCH: wdata passthrough beat=145 expected = 87a76de7ea83fe0c, actual =87a76de7ea83fe0c
[2205000] SCOREBOARD MATCH: wdata passthrough beat=146 expected = d45fd87ee5b3d053, actual =d45fd87ee5b3d053
[2205000] SCOREBOARD MATCH: wdata passthrough beat=147 expected = e716d1bad7bb0393, actual =e716d1bad7bb0393
[2205000] SCOREBOARD MATCH: wdata passthrough beat=148 expected = c23f019f28c58842, actual =c23f019f28c58842
[2205000] SCOREBOARD MATCH: wdata passthrough beat=149 expected = 8e795895eebe3fa2, actual =8e795895eebe3fa2
[2205000] SCOREBOARD MATCH: wdata passthrough beat=150 expected = c6794335169eda1d, actual =c6794335169eda1d
[2205000] SCOREBOARD MATCH: wdata passthrough beat=151 expected = 3f64625ff5902a50, actual =3f64625ff5902a50
[2205000] SCOREBOARD MATCH: wdata passthrough beat=152 expected = e44e69f208b844d4, actual =e44e69f208b844d4
[2205000] SCOREBOARD MATCH: wdata passthrough beat=153 expected = 1f571ef1cdddbaf4, actual =1f571ef1cdddbaf4
[2205000] SCOREBOARD MATCH: wdata passthrough beat=154 expected = c36de5442ac7ad27, actual =c36de5442ac7ad27
[2205000] SCOREBOARD MATCH: wdata passthrough beat=155 expected = 337ff1fbdebb8150, actual =337ff1fbdebb8150
[2205000] SCOREBOARD MATCH: wdata passthrough beat=156 expected = ac993c44a7bc4f36, actual =ac993c44a7bc4f36
[2205000] SCOREBOARD MATCH: wdata passthrough beat=157 expected = d283fc5dd2d710ec, actual =d283fc5dd2d710ec
[2205000] SCOREBOARD MATCH: wdata passthrough beat=158 expected = 3192923cf0072189, actual =3192923cf0072189
[2205000] SCOREBOARD MATCH: wdata passthrough beat=159 expected = 97c370bf8603ee58, actual =97c370bf8603ee58
[2205000] SCOREBOARD MATCH: wdata passthrough beat=160 expected = d8daff44de2bce80, actual =d8daff44de2bce80
[2205000] SCOREBOARD MATCH: wdata passthrough beat=161 expected = ce32f009ea476d1d, actual =ce32f009ea476d1d
[2205000] SCOREBOARD MATCH: wdata passthrough beat=162 expected = f04b5b758a6d9180, actual =f04b5b758a6d9180
[2205000] SCOREBOARD MATCH: wdata passthrough beat=163 expected = e8996001e5f660c9, actual =e8996001e5f660c9
[2205000] SCOREBOARD MATCH: wdata passthrough beat=164 expected = d03dcde6c9265aba, actual =d03dcde6c9265aba
[2205000] SCOREBOARD MATCH: wdata passthrough beat=165 expected = d393ec3ab6cc500a, actual =d393ec3ab6cc500a
[2205000] SCOREBOARD MATCH: wdata passthrough beat=166 expected = 9cc2b0d3c089295b, actual =9cc2b0d3c089295b
[2205000] SCOREBOARD MATCH: wdata passthrough beat=167 expected = 89af8415bc2d4c3b, actual =89af8415bc2d4c3b
[2205000] SCOREBOARD MATCH: wdata passthrough beat=168 expected = f2f99c46ed007eb9, actual =f2f99c46ed007eb9
[2205000] SCOREBOARD MATCH: wdata passthrough beat=169 expected = 2d89a815dd437050, actual =2d89a815dd437050
[2205000] SCOREBOARD MATCH: wdata passthrough beat=170 expected = 9970bc8b8fbc4d19, actual =9970bc8b8fbc4d19
[2205000] SCOREBOARD MATCH: wdata passthrough beat=171 expected = fcbccbd3b7392c2a, actual =fcbccbd3b7392c2a
[2205000] SCOREBOARD MATCH: wdata passthrough beat=172 expected = 947c9c7a8c6a58d1, actual =947c9c7a8c6a58d1
[2205000] SCOREBOARD MATCH: wdata passthrough beat=173 expected = 1c26a5eb2a4673e8, actual =1c26a5eb2a4673e8
[2205000] SCOREBOARD MATCH: wdata passthrough beat=174 expected = e17fa0122ded5906, actual =e17fa0122ded5906
[2205000] SCOREBOARD MATCH: wdata passthrough beat=175 expected = ba57b1d718e371be, actual =ba57b1d718e371be
[2205000] SCOREBOARD MATCH: wdata passthrough beat=176 expected = c329e5a6f5fc3c8d, actual =c329e5a6f5fc3c8d
[2205000] SCOREBOARD MATCH: wdata passthrough beat=177 expected = 23e99593d67e57c2, actual =23e99593d67e57c2
[2205000] SCOREBOARD MATCH: wdata passthrough beat=178 expected = ef61c980a4a985b8, actual =ef61c980a4a985b8
[2205000] SCOREBOARD MATCH: wdata passthrough beat=179 expected = 9aa5c245de41476a, actual =9aa5c245de41476a
[2205000] SCOREBOARD MATCH: wdata passthrough beat=180 expected = 34bf9f2db28baf26, actual =34bf9f2db28baf26
[2205000] SCOREBOARD MATCH: wdata passthrough beat=181 expected = d73534dfbe8f57d8, actual =d73534dfbe8f57d8
[2205000] SCOREBOARD MATCH: wdata passthrough beat=182 expected = 1cd09f43a42168ad, actual =1cd09f43a42168ad
[2205000] SCOREBOARD MATCH: wdata passthrough beat=183 expected = d6ad17d4f1daf724, actual =d6ad17d4f1daf724
[2205000] SCOREBOARD MATCH: wdata passthrough beat=184 expected = 306a4efdd1903e70, actual =306a4efdd1903e70
[2205000] SCOREBOARD MATCH: wdata passthrough beat=185 expected = f5b1a71d2de24cb3, actual =f5b1a71d2de24cb3
[2205000] SCOREBOARD MATCH: wdata passthrough beat=186 expected = 9fbd43d7cd3aee40, actual =9fbd43d7cd3aee40
[2205000] SCOREBOARD MATCH: wdata passthrough beat=187 expected = 1ecb2cb0cc5ebef1, actual =1ecb2cb0cc5ebef1
[2205000] SCOREBOARD MATCH: wdata passthrough beat=188 expected = fa410ba4d02792d4, actual =fa410ba4d02792d4
[2205000] SCOREBOARD MATCH: wdata passthrough beat=189 expected = 9d628114947cd3cd, actual =9d628114947cd3cd
[2205000] SCOREBOARD MATCH: wdata passthrough beat=190 expected = e0db92bf19fe4f7c, actual =e0db92bf19fe4f7c
[2205000] SCOREBOARD MATCH: wdata passthrough beat=191 expected = ea25e250bc2dadc4, actual =ea25e250bc2dadc4
[2205000] SCOREBOARD MATCH: wdata passthrough beat=192 expected = d0aa8192db1c9e63, actual =d0aa8192db1c9e63
[2205000] SCOREBOARD MATCH: wdata passthrough beat=193 expected = f51aeddf07886365, actual =f51aeddf07886365
[2205000] SCOREBOARD MATCH: wdata passthrough beat=194 expected = c3b6112931861451, actual =c3b6112931861451
[2205000] SCOREBOARD MATCH: wdata passthrough beat=195 expected = 8ca2b2b4df40d030, actual =8ca2b2b4df40d030
[2205000] SCOREBOARD MATCH: wdata passthrough beat=196 expected = e6c93395946092bb, actual =e6c93395946092bb
[2205000] SCOREBOARD MATCH: wdata passthrough beat=197 expected = c5e6a70c01bda094, actual =c5e6a70c01bda094
[2205000] SCOREBOARD MATCH: wdata passthrough beat=198 expected = e0fe70c4aa7f44be, actual =e0fe70c4aa7f44be
[2205000] SCOREBOARD MATCH: wdata passthrough beat=199 expected = 3edfd77ad28959c1, actual =3edfd77ad28959c1
[2205000] SCOREBOARD MATCH: wdata passthrough beat=200 expected = d446fa55c7c7a459, actual =d446fa55c7c7a459
[2205000] SCOREBOARD MATCH: wdata passthrough beat=201 expected = f246e91784c67e86, actual =f246e91784c67e86
[2205000] SCOREBOARD MATCH: wdata passthrough beat=202 expected = d74fd84735456b19, actual =d74fd84735456b19
[2205000] SCOREBOARD MATCH: wdata passthrough beat=203 expected = fd0d0f72b126c091, actual =fd0d0f72b126c091
[2205000] SCOREBOARD MATCH: wdata passthrough beat=204 expected = 35ed3f18ab96d29c, actual =35ed3f18ab96d29c
[2205000] SCOREBOARD MATCH: wdata passthrough beat=205 expected = e0dc3db5ef53f889, actual =e0dc3db5ef53f889
[2205000] SCOREBOARD MATCH: wdata passthrough beat=206 expected = 207ab91b8d3d175f, actual =207ab91b8d3d175f
[2205000] SCOREBOARD MATCH: wdata passthrough beat=207 expected = 38d3e9fcdde94d27, actual =38d3e9fcdde94d27
[2205000] SCOREBOARD MATCH: wstrb size check expected = d0, actual =d0
[2205000] SCOREBOARD MATCH: wstrb passthrough beat=0 expected = 33, actual =33
[2205000] SCOREBOARD MATCH: wstrb passthrough beat=1 expected = b1, actual =b1
[2205000] SCOREBOARD MATCH: wstrb passthrough beat=2 expected = b1, actual =b1
[2205000] SCOREBOARD MATCH: wstrb passthrough beat=3 expected = 92, actual =92
[2205000] SCOREBOARD MATCH: wstrb passthrough beat=4 expected = cc, actual =cc
[2205000] SCOREBOARD MATCH: wstrb passthrough beat=5 expected = d9, actual =d9
[2205000] SCOREBOARD MATCH: wstrb passthrough beat=6 expected = 8e, actual =8e
[2205000] SCOREBOARD MATCH: wstrb passthrough beat=7 expected = ff, actual =ff
[2205000] SCOREBOARD MATCH: wstrb passthrough beat=8 expected = 8a, actual =8a
[2205000] SCOREBOARD MATCH: wstrb passthrough beat=9 expected = 40, actual =40
[2205000] SCOREBOARD MATCH: wstrb passthrough beat=10 expected = 91, actual =91
[2205000] SCOREBOARD MATCH: wstrb passthrough beat=11 expected = 56, actual =56
[2205000] SCOREBOARD MATCH: wstrb passthrough beat=12 expected = 19, actual =19
[2205000] SCOREBOARD MATCH: wstrb passthrough beat=13 expected = 20, actual =20
[2205000] SCOREBOARD MATCH: wstrb passthrough beat=14 expected = 55, actual =55
[2205000] SCOREBOARD MATCH: wstrb passthrough beat=15 expected = a3, actual =a3
[2205000] SCOREBOARD MATCH: wstrb passthrough beat=16 expected = 60, actual =60
[2205000] SCOREBOARD MATCH: wstrb passthrough beat=17 expected = e6, actual =e6
[2205000] SCOREBOARD MATCH: wstrb passthrough beat=18 expected = f9, actual =f9
[2205000] SCOREBOARD MATCH: wstrb passthrough beat=19 expected = 79, actual =79
[2205000] SCOREBOARD MATCH: wstrb passthrough beat=20 expected = 6, actual =6
[2205000] SCOREBOARD MATCH: wstrb passthrough beat=21 expected = 4e, actual =4e
[2205000] SCOREBOARD MATCH: wstrb passthrough beat=22 expected = 1c, actual =1c
[2205000] SCOREBOARD MATCH: wstrb passthrough beat=23 expected = 66, actual =66
[2205000] SCOREBOARD MATCH: wstrb passthrough beat=24 expected = 34, actual =34
[2205000] SCOREBOARD MATCH: wstrb passthrough beat=25 expected = 15, actual =15
[2205000] SCOREBOARD MATCH: wstrb passthrough beat=26 expected = df, actual =df
[2205000] SCOREBOARD MATCH: wstrb passthrough beat=27 expected = 3b, actual =3b
[2205000] SCOREBOARD MATCH: wstrb passthrough beat=28 expected = 63, actual =63
[2205000] SCOREBOARD MATCH: wstrb passthrough beat=29 expected = fb, actual =fb
[2205000] SCOREBOARD MATCH: wstrb passthrough beat=30 expected = a1, actual =a1
[2205000] SCOREBOARD MATCH: wstrb passthrough beat=31 expected = 97, actual =97
[2205000] SCOREBOARD MATCH: wstrb passthrough beat=32 expected = 10, actual =10
[2205000] SCOREBOARD MATCH: wstrb passthrough beat=33 expected = 81, actual =81
[2205000] SCOREBOARD MATCH: wstrb passthrough beat=34 expected = d2, actual =d2
[2205000] SCOREBOARD MATCH: wstrb passthrough beat=35 expected = 73, actual =73
[2205000] SCOREBOARD MATCH: wstrb passthrough beat=36 expected = 7c, actual =7c
[2205000] SCOREBOARD MATCH: wstrb passthrough beat=37 expected = 74, actual =74
