#-----------------------------------------------------------
# xsim v2025.2 (64-bit)
# SW Build 6299465 on Fri Nov 14 12:34:56 MST 2025
# IP Build 6300035 on Fri Nov 14 10:48:45 MST 2025
# SharedData Build 6298862 on Thu Nov 13 04:50:51 MST 2025
# Start of session at: Fri Sep 11 11:50:40 2026
# Process ID         : 722513
# Current directory  : /home/nashita/Desktop/practice/axi_xbar/sim
# Command line       : xsim -log regress_results/BT_run162.log -mode tcl -source {xsim.dir/tb_top_snap/xsim_script.tcl}
# Log file           : /home/nashita/Desktop/practice/axi_xbar/sim/regress_results/BT_run162.log
# Journal file       : /home/nashita/Desktop/practice/axi_xbar/sim/xsim.jou
# Running On         : vlsi-vivado
# Platform           : Ubuntu
# Operating System   : Ubuntu 24.04.4 LTS
# Processor Detail   : Intel(R) Core(TM) i5-10400 CPU @ 2.90GHz
# CPU Frequency      : 3999.992 MHz
# CPU Physical cores : 6
# CPU Logical cores  : 12
# Host memory        : 41875 MB
# Swap memory        : 27648 MB
# Total Virtual      : 69524 MB
# Available Virtual  : 62786 MB
#-----------------------------------------------------------
source xsim.dir/tb_top_snap/xsim_script.tcl
# xsim {tb_top_snap} -testplusarg BT -autoloadwcfg -runall -sv_seed 163
Time resolution is 1 ps
run -all
[0] RUNNING BASE TEST
[0] INSIDE THE BASE TEST CONSTRUCTOR
[0] ENV: before agent
[0] SLAVE CONSTRUCTED
[0] MASTER MONITOR CONSTRUCTED
[0] MASTER MONITOR CONSTRUCTED
[0] SLAVE MONITOR CONSTRUCTED
[0] SLAVE MONITOR CONSTRUCTED
[0] ARB MONITOR CONSTRUCTED
GENERATOR CONSTRUCTED
[0] ENV: after agent
[0] ENV: before scoreboard
[0] ENV: after scoreboard
[15000] [SEQUENCER] mst_id=1 s_id=0 awaddr=18dd098 awid=110 awlen=162 awsize=6 awburst=1 wdata=[f2a4b1f917000c07 cfbdcc28d0f9923f d0af4ce1961d7ddc ad1d89e3bcccc2d8 dc65518c353feda d9717cb7fcdb560b 39a818e4de75a1f9 21c9a0d4868f069a 36a5ca6c76e6dfc a5e40ff5fb3b1d8b 81ca24253d12758a 480e386c7adb0c9 c2e8ce54853480cb c246f655aa64f37b f212a445c4b2f27a c9e77345c6c7d9db f12ccd57b4fb7299 f9ae65130c2e699b d2f64376e33f719c 983ae435c395d859 cfc441f4c42310cd a762826911e94949 d57f21a2a2ba856a e6dd96383f9d669f d186afe825436396 c7fde9008e4018a1 cddd7f402705d18a cc493520aedb7f38 3d1b97da9f642f28 c66a00b294471e20 c3229d598af9171a 2a5d464392b335d2 26fa53f3003e3533 8b374c4df0c746f5 37a7cc8ea1cf14c ea5b267fb5949290 265bd9862a74d0bb 1491c207f59272cc 2b27055d29d6564e d44b2709feece886 f47f5b52d182dee3 fb593531e8dce910 e7c9d1969fa660af f1293f92cfa45c3a 3881454adc492ce8 fbef8d98ec8274c3 bc26d0fd204b16e0 fc9443c8ed18cd2a d99b41eef4a81647 94f32d27f883d160 e59c9e8b95c212eb a6a2933118770f0 8a0b42503f37e079 d4f9f3649f5d565a b0e4c74aefa7e0db aedfc154df641c97 fec172f23af0099b aa97ea7603d9b4b9 e33dd150afa63a3c ea9643d7d977abcb dd516084e1ff4442 11a57e7f152e2e4e eea5da19c08f31d4 228e7617fc3bc256 9169f0a4cbf73a9d 8c866c713433f496 b06fb6ec800fcabd cc07055aaf14e288 e348d71ec1d9a791 c1e9724ed88d71cc 87a2545413b88e0b d592359c0df077a9 e67de975eaeb2b73 fea3b97e977ba7ea a56c1f93ee203dc9 d90b693cd435ef1a ebb197048bea0908 fa0a46d2d7af22ba abe511d4111db698 9d07bfa0d315b00e 2ac4d2c91796a8d9 28b45f7197120672 ea27b681d6a9e49d ee408d76c5bc1f11 dcce258414ec894a eb966de796f4ece7 dcb10bf9c6f5dc05 dbe2654fd9d6fb5e f0cbe845397f317d 750d82c778d336 a14fce94cd7cf43e 86fc25bbdc5772d1 a3d04607121bb6da df98ab188771333d e3c8a60ec520149c d73bcb76e694d0d4 ee0604110798ec16 ccb900b2b6d4768e 9d694762d1ceaa20 d967963623f4cc28 dac942b60b6f4b74 dd3df594262096e8 ca156310f8328a19 3a1d58d36a58bca dcc622b2a4dea5c6 9d112fdfe0dfcb21 178556eb26db85c2 cbba2b88a0b3056c 8192d08df44b799d 1b26ff5fe8cb5b68 897e60d499182778 8d63a115e6e12ae7 cfac864f0b113162 a42958daa88aa074 f6bcb5cd92ae724 e43c1886318cf9f0 da179a64df1851ab b84338cf88657160 b9f26b50e98365c0 c89bb76c9c7f5155 24e4c2b6140a05b5 fd8d6b7580def03b 1d5e4191ded72e06 f2e133bbc62922e1 c708131dc2430447 a11a324df06e9f31 b697c212e46654ae 26a958f513fb6609 46a053afd9fd52f e20629ddc7c38b42 dbbef14bbb01c74c 38a19c7c88af82d2 d0730e15e028f685 1b2abdd29aa7c659 2357492cac31ff60 c5af5e6d3cc5a4e ee7420a7f3ca5741 9ffc56a12785b3b8 fb520e0691cb69d3 8595c114ac574c87 d3dd003fe9c62ead fb919881259217b6 d1e9643dcf2f0e45 38f53cf381275995 a6b9714b25c6647d f4f572c23486d574 b5ae2f09f8a2d589 1e693a06adeaafb5 e2718529dc67a055 d50a75de935eacc8 c1495c7e181fb433 f4875488f373afe4 86d25caca3bae1a7 bbda95dac991ca66 3d057a4ac81bb92a ebd69ad2b061ea62 f9f3b4c8c3d7d6f6 bf39021a7b130ac d8131b0fb6f92f12 fad10609f7ca2af3 9f7b5b9fd206cfd7 8fffeea06c4962a fe8ec11df78e76ae ] wstrb=[f3 86 bc 1d 70 6b 3a 63 f1 f6 80 61 61 ba c4 52 b0 44 b3 12 fe 77 64 ae bb 18 c0 b9 8f 25 68 4b 3d 28 4 cc 4d 6c 17 8a 95 1c 57 e2 88 6e 6d 1d 8a c4 0 13 32 6d 30 bd 31 30 d0 63 9d 0 20 ce 31 f0 32 ce f1 52 9d 22 43 cf f0 34 21 8d 56 64 5c 46 98 7e d4 ee e2 30 35 7b ae 9 69 91 39 9e c e8 a7 75 79 e1 14 85 c9 bb fa 42 9c e c7 65 ca c1 a7 66 d0 6e cc 9a 30 73 0 0 e2 cc 9a 12 40 9a 12 22 67 ac 34 a7 46 46 c9 ad f2 fd 54 38 43 1d e6 35 1a 3a 6d 5d 58 53 92 72 8e 0 d0 e6 53 62 58 ] bresp=0 bid=0
[15000] [SEQUENCER] mst_id=1 s_id=0 awaddr=c2cdaa8 awid=1011 awlen=15 awsize=1 awburst=0 wdata=[4aeb51807ac0da4 e56e77fb0a10a57b e6d372efdbcae30b e376f0afd1f98221 dc0a279ceb822807 c74d0b12c8e568aa 1adeeaccc2dd9a8c ae5fc293aac3fbc1 f3a9646cf6e91268 b9c6acf4f5accda6 a070c9670e884f38 857161a0e8266f88 ddd33d2e941a2dd3 a2a27d0b3f380e95 275e7e1dfe440695 125e34692813deac ] wstrb=[4b 41 74 e0 5e 20 49 a9 61 be 89 bf de d3 68 40 ] bresp=0 bid=0
[15000] [SEQUENCER] READ mst_id=0 s_id=0 araddr=1735d478 arid=0 arlen=1 arsize=3 arburst=1 rid=[] rresp=[] rdata=[]
[15000] [SEQUENCER] READ mst_id=0 s_id=0 araddr=1e410ca0 arid=1 arlen=1 arsize=3 arburst=1 rid=[] rresp=[] rdata=[]
[15000] [SEQUENCER] READ mst_id=1 s_id=0 araddr=ddbced0 arid=2 arlen=1 arsize=3 arburst=1 rid=[] rresp=[] rdata=[]
[15000] MASTER_DRIVER1 received transaction, op=AXI_WRITE
[15000] MASTER_DRIVER0 received transaction, op=AXI_READ
[35000] MASTER 1 AW_VALID_RDY Handshake
[35000] MASTER_DRIVER0 received transaction, op=AXI_READ
[45000] ARB MONITOR: slave=0 m0_req=0 m1_req=1 winner=1
[45000] ARB MONITOR: slave=1 m0_req=1 m1_req=0 winner=0
[45000] AXI S0_ARVALID_RDY HANDSHAKE
[45000] MEMORY READ MISS beat=0 addr=1735d478 -> default data id=0
[45000] AXI S0_AWVALID_RDY HANDSHAKE
[55000] MEMORY READ MISS beat=1 addr=1735d480 -> default data id=0
[55000] SLAVE 1 R_VALID_RDY Handshake beat=0 rlast=0
[55000] MASTER 1 W_VALID_RDY Handshake beat=0 wlast=0
[65000] MASTER 1 W_VALID_RDY Handshake beat=1 wlast=0
[65000] SLAVE 1 R_VALID_RDY Handshake beat=1 rlast=1
[65000] [SLAVE MONITOR] READ mst_id=0 s_id=1 araddr=1735d478 arid=0 arlen=1 arsize=3 arburst=1 rid=[00] rresp=[00] rdata=[baadf00d12345678baadf00d12345678]
[65000] AXI S0_WVALID_RDY HANDSHAKE
[65000] S0 MEMORY WRITE beat=0 addr=018dd098 data=f2a4b1f917000c07 id=16
[75000] AXI S0_WVALID_RDY HANDSHAKE
[75000] S0 MEMORY WRITE beat=1 addr=018dd0d8 data=cfbdcc28d0f9923f id=16
[75000] AXI S0_ARVALID_RDY HANDSHAKE
[75000] MEMORY READ MISS beat=0 addr=1e410ca0 -> default data id=1
[75000] ARB MONITOR: slave=1 m0_req=1 m1_req=0 winner=0
[75000] MASTER 1 W_VALID_RDY Handshake beat=2 wlast=0
[75000] MASTER 0 R_VALID_RDY Handshake beat=0 rlast=0
[85000] [MASTER DRIVER] READ mst_id=0 s_id=0 araddr=1735d478 arid=0 arlen=1 arsize=3 arburst=1 rid=[00] rresp=[00] rdata=[baadf00d12345678baadf00d12345678]
[85000] MASTER 0 R_VALID_RDY Handshake beat=1 rlast=1
[85000] [MASTER MONITOR] READ mst_id=0 s_id=1 araddr=1735d478 arid=0 arlen=1 arsize=3 arburst=1 rid=[00] rresp=[00] rdata=[baadf00d12345678baadf00d12345678]
[85000] MASTER 1 W_VALID_RDY Handshake beat=3 wlast=0
[85000] SLAVE 1 R_VALID_RDY Handshake beat=0 rlast=0
[85000] MEMORY READ MISS beat=1 addr=1e410ca8 -> default data id=1
[85000] AXI S0_WVALID_RDY HANDSHAKE
[85000] S0 MEMORY WRITE beat=2 addr=018dd118 data=d0af4ce1961d7ddc id=16
[85000] SCOREBOARD MATCH: decode_err expected = 0, actual =0
[85000] SCOREBOARD MATCH: slave_id expected = 1, actual =1
[85000] SCOREBOARD MATCH: araddr passthrough expected = 1735d478, actual =1735d478
[85000] SCOREBOARD MATCH: arlen passthrough expected = 1, actual =1
[85000] SCOREBOARD MATCH: arsize passthrough expected = 3, actual =3
[85000] SCOREBOARD MATCH: arburst passthrough expected = 1, actual =1
[85000] SCOREBOARD MATCH: rdata size check expected = 2, actual =2
[85000] SCOREBOARD MATCH: rdata passthrough beat=0 expected = baadf00d12345678, actual =baadf00d12345678
[85000] SCOREBOARD MATCH: rdata passthrough beat=1 expected = baadf00d12345678, actual =baadf00d12345678
[85000] SCOREBOARD MATCH: rresp size check expected = 2, actual =2
[85000] SCOREBOARD MATCH: rresp passthrough beat=0 expected = 0, actual =0
[85000] SCOREBOARD MATCH: rresp passthrough beat=1 expected = 0, actual =0
[85000] SCOREBOARD MATCH: response routed to correct master (read beat 0) expected = 0, actual =0
[85000] SCOREBOARD MATCH: response routed to correct master (read beat 1) expected = 0, actual =0
[85000] [SCOREBOARD-M] READ mst_id=0 s_id=1 araddr=1735d478 arid=0 arlen=1 arsize=3 arburst=1 rid=[00] rresp=[00] rdata=[baadf00d12345678baadf00d12345678]
[85000] [SCOREBOARD-S] READ mst_id=0 s_id=1 araddr=1735d478 arid=0 arlen=1 arsize=3 arburst=1 rid=[00] rresp=[00] rdata=[baadf00d12345678baadf00d12345678]
[85000] SCOREBOARD: Transaction 1 received. pass=14 fail=0
[85000] ALL PASS. Total transactions: 1
[95000] AXI S0_WVALID_RDY HANDSHAKE
[95000] S0 MEMORY WRITE beat=3 addr=018dd158 data=ad1d89e3bcccc2d8 id=16
[95000] SLAVE 1 R_VALID_RDY Handshake beat=1 rlast=1
[95000] [SLAVE MONITOR] READ mst_id=0 s_id=1 araddr=1e410ca0 arid=1 arlen=1 arsize=3 arburst=1 rid=[11] rresp=[00] rdata=[baadf00d12345678baadf00d12345678]
[95000] MASTER 1 W_VALID_RDY Handshake beat=4 wlast=0
[105000] MASTER 0 R_VALID_RDY Handshake beat=0 rlast=0
[105000] MASTER 1 W_VALID_RDY Handshake beat=5 wlast=0
[105000] AXI S0_WVALID_RDY HANDSHAKE
[105000] S0 MEMORY WRITE beat=4 addr=018dd198 data=0dc65518c353feda id=16
[115000] AXI S0_WVALID_RDY HANDSHAKE
[115000] S0 MEMORY WRITE beat=5 addr=018dd1d8 data=d9717cb7fcdb560b id=16
[115000] MASTER 1 W_VALID_RDY Handshake beat=6 wlast=0
[115000] MASTER 0 R_VALID_RDY Handshake beat=1 rlast=1
[115000] [MASTER MONITOR] READ mst_id=0 s_id=1 araddr=1e410ca0 arid=1 arlen=1 arsize=3 arburst=1 rid=[11] rresp=[00] rdata=[baadf00d12345678baadf00d12345678]
[115000] [MASTER DRIVER] READ mst_id=0 s_id=0 araddr=1e410ca0 arid=1 arlen=1 arsize=3 arburst=1 rid=[11] rresp=[00] rdata=[baadf00d12345678baadf00d12345678]
[115000] SCOREBOARD MATCH: decode_err expected = 0, actual =0
[115000] SCOREBOARD MATCH: slave_id expected = 1, actual =1
[115000] SCOREBOARD MATCH: araddr passthrough expected = 1e410ca0, actual =1e410ca0
[115000] SCOREBOARD MATCH: arlen passthrough expected = 1, actual =1
[115000] SCOREBOARD MATCH: arsize passthrough expected = 3, actual =3
[115000] SCOREBOARD MATCH: arburst passthrough expected = 1, actual =1
[115000] SCOREBOARD MATCH: rdata size check expected = 2, actual =2
[115000] SCOREBOARD MATCH: rdata passthrough beat=0 expected = baadf00d12345678, actual =baadf00d12345678
[115000] SCOREBOARD MATCH: rdata passthrough beat=1 expected = baadf00d12345678, actual =baadf00d12345678
[115000] SCOREBOARD MATCH: rresp size check expected = 2, actual =2
[115000] SCOREBOARD MATCH: rresp passthrough beat=0 expected = 0, actual =0
[115000] SCOREBOARD MATCH: rresp passthrough beat=1 expected = 0, actual =0
[115000] SCOREBOARD MATCH: response routed to correct master (read beat 0) expected = 0, actual =0
[115000] SCOREBOARD MATCH: response routed to correct master (read beat 1) expected = 0, actual =0
[115000] [SCOREBOARD-M] READ mst_id=0 s_id=1 araddr=1e410ca0 arid=1 arlen=1 arsize=3 arburst=1 rid=[11] rresp=[00] rdata=[baadf00d12345678baadf00d12345678]
[115000] [SCOREBOARD-S] READ mst_id=0 s_id=1 araddr=1e410ca0 arid=1 arlen=1 arsize=3 arburst=1 rid=[11] rresp=[00] rdata=[baadf00d12345678baadf00d12345678]
[115000] SCOREBOARD: Transaction 2 received. pass=28 fail=0
[115000] ALL PASS. Total transactions: 2
[125000] MASTER 1 W_VALID_RDY Handshake beat=7 wlast=0
[125000] AXI S0_WVALID_RDY HANDSHAKE
[125000] S0 MEMORY WRITE beat=6 addr=018dd218 data=39a818e4de75a1f9 id=16
[135000] AXI S0_WVALID_RDY HANDSHAKE
[135000] S0 MEMORY WRITE beat=7 addr=018dd258 data=21c9a0d4868f069a id=16
[135000] MASTER 1 W_VALID_RDY Handshake beat=8 wlast=0
[145000] MASTER 1 W_VALID_RDY Handshake beat=9 wlast=0
[145000] AXI S0_WVALID_RDY HANDSHAKE
[145000] S0 MEMORY WRITE beat=8 addr=018dd298 data=036a5ca6c76e6dfc id=16
[155000] AXI S0_WVALID_RDY HANDSHAKE
[155000] S0 MEMORY WRITE beat=9 addr=018dd2d8 data=a5e40ff5fb3b1d8b id=16
[155000] MASTER 1 W_VALID_RDY Handshake beat=10 wlast=0
[165000] MASTER 1 W_VALID_RDY Handshake beat=11 wlast=0
[165000] AXI S0_WVALID_RDY HANDSHAKE
[165000] S0 MEMORY WRITE beat=10 addr=018dd318 data=81ca24253d12758a id=16
[175000] AXI S0_WVALID_RDY HANDSHAKE
[175000] S0 MEMORY WRITE beat=11 addr=018dd358 data=0480e386c7adb0c9 id=16
[175000] MASTER 1 W_VALID_RDY Handshake beat=12 wlast=0
[185000] MASTER 1 W_VALID_RDY Handshake beat=13 wlast=0
[185000] AXI S0_WVALID_RDY HANDSHAKE
[185000] S0 MEMORY WRITE beat=12 addr=018dd398 data=c2e8ce54853480cb id=16
[195000] AXI S0_WVALID_RDY HANDSHAKE
[195000] S0 MEMORY WRITE beat=13 addr=018dd3d8 data=c246f655aa64f37b id=16
[195000] MASTER 1 W_VALID_RDY Handshake beat=14 wlast=0
[205000] MASTER 1 W_VALID_RDY Handshake beat=15 wlast=0
[205000] AXI S0_WVALID_RDY HANDSHAKE
[205000] S0 MEMORY WRITE beat=14 addr=018dd418 data=f212a445c4b2f27a id=16
[215000] AXI S0_WVALID_RDY HANDSHAKE
[215000] S0 MEMORY WRITE beat=15 addr=018dd458 data=c9e77345c6c7d9db id=16
[215000] MASTER 1 W_VALID_RDY Handshake beat=16 wlast=0
[225000] MASTER 1 W_VALID_RDY Handshake beat=17 wlast=0
[225000] AXI S0_WVALID_RDY HANDSHAKE
[225000] S0 MEMORY WRITE beat=16 addr=018dd498 data=f12ccd57b4fb7299 id=16
[235000] AXI S0_WVALID_RDY HANDSHAKE
[235000] S0 MEMORY WRITE beat=17 addr=018dd4d8 data=f9ae65130c2e699b id=16
[235000] MASTER 1 W_VALID_RDY Handshake beat=18 wlast=0
[245000] MASTER 1 W_VALID_RDY Handshake beat=19 wlast=0
[245000] AXI S0_WVALID_RDY HANDSHAKE
[245000] S0 MEMORY WRITE beat=18 addr=018dd518 data=d2f64376e33f719c id=16
[255000] AXI S0_WVALID_RDY HANDSHAKE
[255000] S0 MEMORY WRITE beat=19 addr=018dd558 data=983ae435c395d859 id=16
[255000] MASTER 1 W_VALID_RDY Handshake beat=20 wlast=0
[265000] MASTER 1 W_VALID_RDY Handshake beat=21 wlast=0
[265000] AXI S0_WVALID_RDY HANDSHAKE
[265000] S0 MEMORY WRITE beat=20 addr=018dd598 data=cfc441f4c42310cd id=16
[275000] AXI S0_WVALID_RDY HANDSHAKE
[275000] S0 MEMORY WRITE beat=21 addr=018dd5d8 data=a762826911e94949 id=16
[275000] MASTER 1 W_VALID_RDY Handshake beat=22 wlast=0
[285000] MASTER 1 W_VALID_RDY Handshake beat=23 wlast=0
[285000] AXI S0_WVALID_RDY HANDSHAKE
[285000] S0 MEMORY WRITE beat=22 addr=018dd618 data=d57f21a2a2ba856a id=16
[295000] AXI S0_WVALID_RDY HANDSHAKE
[295000] S0 MEMORY WRITE beat=23 addr=018dd658 data=e6dd96383f9d669f id=16
[295000] MASTER 1 W_VALID_RDY Handshake beat=24 wlast=0
[305000] MASTER 1 W_VALID_RDY Handshake beat=25 wlast=0
[305000] AXI S0_WVALID_RDY HANDSHAKE
[305000] S0 MEMORY WRITE beat=24 addr=018dd698 data=d186afe825436396 id=16
[315000] AXI S0_WVALID_RDY HANDSHAKE
[315000] S0 MEMORY WRITE beat=25 addr=018dd6d8 data=c7fde9008e4018a1 id=16
[315000] MASTER 1 W_VALID_RDY Handshake beat=26 wlast=0
[325000] MASTER 1 W_VALID_RDY Handshake beat=27 wlast=0
[325000] AXI S0_WVALID_RDY HANDSHAKE
[325000] S0 MEMORY WRITE beat=26 addr=018dd718 data=cddd7f402705d18a id=16
[335000] AXI S0_WVALID_RDY HANDSHAKE
[335000] S0 MEMORY WRITE beat=27 addr=018dd758 data=cc493520aedb7f38 id=16
[335000] MASTER 1 W_VALID_RDY Handshake beat=28 wlast=0
[345000] MASTER 1 W_VALID_RDY Handshake beat=29 wlast=0
[345000] AXI S0_WVALID_RDY HANDSHAKE
[345000] S0 MEMORY WRITE beat=28 addr=018dd798 data=3d1b97da9f642f28 id=16
[355000] AXI S0_WVALID_RDY HANDSHAKE
[355000] S0 MEMORY WRITE beat=29 addr=018dd7d8 data=c66a00b294471e20 id=16
[355000] MASTER 1 W_VALID_RDY Handshake beat=30 wlast=0
[365000] MASTER 1 W_VALID_RDY Handshake beat=31 wlast=0
[365000] AXI S0_WVALID_RDY HANDSHAKE
[365000] S0 MEMORY WRITE beat=30 addr=018dd818 data=c3229d598af9171a id=16
[375000] AXI S0_WVALID_RDY HANDSHAKE
[375000] S0 MEMORY WRITE beat=31 addr=018dd858 data=2a5d464392b335d2 id=16
[375000] MASTER 1 W_VALID_RDY Handshake beat=32 wlast=0
[385000] MASTER 1 W_VALID_RDY Handshake beat=33 wlast=0
[385000] AXI S0_WVALID_RDY HANDSHAKE
[385000] S0 MEMORY WRITE beat=32 addr=018dd898 data=26fa53f3003e3533 id=16
[395000] AXI S0_WVALID_RDY HANDSHAKE
[395000] S0 MEMORY WRITE beat=33 addr=018dd8d8 data=8b374c4df0c746f5 id=16
[395000] MASTER 1 W_VALID_RDY Handshake beat=34 wlast=0
[405000] MASTER 1 W_VALID_RDY Handshake beat=35 wlast=0
[405000] AXI S0_WVALID_RDY HANDSHAKE
[405000] S0 MEMORY WRITE beat=34 addr=018dd918 data=037a7cc8ea1cf14c id=16
[415000] AXI S0_WVALID_RDY HANDSHAKE
[415000] S0 MEMORY WRITE beat=35 addr=018dd958 data=ea5b267fb5949290 id=16
[415000] MASTER 1 W_VALID_RDY Handshake beat=36 wlast=0
[425000] MASTER 1 W_VALID_RDY Handshake beat=37 wlast=0
[425000] AXI S0_WVALID_RDY HANDSHAKE
[425000] S0 MEMORY WRITE beat=36 addr=018dd998 data=265bd9862a74d0bb id=16
[435000] AXI S0_WVALID_RDY HANDSHAKE
[435000] S0 MEMORY WRITE beat=37 addr=018dd9d8 data=1491c207f59272cc id=16
[435000] MASTER 1 W_VALID_RDY Handshake beat=38 wlast=0
[445000] MASTER 1 W_VALID_RDY Handshake beat=39 wlast=0
[445000] AXI S0_WVALID_RDY HANDSHAKE
[445000] S0 MEMORY WRITE beat=38 addr=018dda18 data=2b27055d29d6564e id=16
[455000] AXI S0_WVALID_RDY HANDSHAKE
[455000] S0 MEMORY WRITE beat=39 addr=018dda58 data=d44b2709feece886 id=16
[455000] MASTER 1 W_VALID_RDY Handshake beat=40 wlast=0
[465000] MASTER 1 W_VALID_RDY Handshake beat=41 wlast=0
[465000] AXI S0_WVALID_RDY HANDSHAKE
[465000] S0 MEMORY WRITE beat=40 addr=018dda98 data=f47f5b52d182dee3 id=16
[475000] AXI S0_WVALID_RDY HANDSHAKE
[475000] S0 MEMORY WRITE beat=41 addr=018ddad8 data=fb593531e8dce910 id=16
[475000] MASTER 1 W_VALID_RDY Handshake beat=42 wlast=0
[485000] MASTER 1 W_VALID_RDY Handshake beat=43 wlast=0
[485000] AXI S0_WVALID_RDY HANDSHAKE
[485000] S0 MEMORY WRITE beat=42 addr=018ddb18 data=e7c9d1969fa660af id=16
[495000] AXI S0_WVALID_RDY HANDSHAKE
[495000] S0 MEMORY WRITE beat=43 addr=018ddb58 data=f1293f92cfa45c3a id=16
[495000] MASTER 1 W_VALID_RDY Handshake beat=44 wlast=0
[505000] MASTER 1 W_VALID_RDY Handshake beat=45 wlast=0
[505000] AXI S0_WVALID_RDY HANDSHAKE
[505000] S0 MEMORY WRITE beat=44 addr=018ddb98 data=3881454adc492ce8 id=16
[515000] AXI S0_WVALID_RDY HANDSHAKE
[515000] S0 MEMORY WRITE beat=45 addr=018ddbd8 data=fbef8d98ec8274c3 id=16
[515000] MASTER 1 W_VALID_RDY Handshake beat=46 wlast=0
[525000] MASTER 1 W_VALID_RDY Handshake beat=47 wlast=0
[525000] AXI S0_WVALID_RDY HANDSHAKE
[525000] S0 MEMORY WRITE beat=46 addr=018ddc18 data=bc26d0fd204b16e0 id=16
[535000] AXI S0_WVALID_RDY HANDSHAKE
[535000] S0 MEMORY WRITE beat=47 addr=018ddc58 data=fc9443c8ed18cd2a id=16
[535000] MASTER 1 W_VALID_RDY Handshake beat=48 wlast=0
[545000] MASTER 1 W_VALID_RDY Handshake beat=49 wlast=0
[545000] AXI S0_WVALID_RDY HANDSHAKE
[545000] S0 MEMORY WRITE beat=48 addr=018ddc98 data=d99b41eef4a81647 id=16
[555000] AXI S0_WVALID_RDY HANDSHAKE
[555000] S0 MEMORY WRITE beat=49 addr=018ddcd8 data=94f32d27f883d160 id=16
[555000] MASTER 1 W_VALID_RDY Handshake beat=50 wlast=0
[565000] MASTER 1 W_VALID_RDY Handshake beat=51 wlast=0
[565000] AXI S0_WVALID_RDY HANDSHAKE
[565000] S0 MEMORY WRITE beat=50 addr=018ddd18 data=e59c9e8b95c212eb id=16
[575000] AXI S0_WVALID_RDY HANDSHAKE
[575000] S0 MEMORY WRITE beat=51 addr=018ddd58 data=0a6a2933118770f0 id=16
[575000] MASTER 1 W_VALID_RDY Handshake beat=52 wlast=0
[585000] MASTER 1 W_VALID_RDY Handshake beat=53 wlast=0
[585000] AXI S0_WVALID_RDY HANDSHAKE
[585000] S0 MEMORY WRITE beat=52 addr=018ddd98 data=8a0b42503f37e079 id=16
[595000] AXI S0_WVALID_RDY HANDSHAKE
[595000] S0 MEMORY WRITE beat=53 addr=018dddd8 data=d4f9f3649f5d565a id=16
[595000] MASTER 1 W_VALID_RDY Handshake beat=54 wlast=0
[605000] MASTER 1 W_VALID_RDY Handshake beat=55 wlast=0
[605000] AXI S0_WVALID_RDY HANDSHAKE
[605000] S0 MEMORY WRITE beat=54 addr=018dde18 data=b0e4c74aefa7e0db id=16
[615000] AXI S0_WVALID_RDY HANDSHAKE
[615000] S0 MEMORY WRITE beat=55 addr=018dde58 data=aedfc154df641c97 id=16
[615000] MASTER 1 W_VALID_RDY Handshake beat=56 wlast=0
[625000] MASTER 1 W_VALID_RDY Handshake beat=57 wlast=0
[625000] AXI S0_WVALID_RDY HANDSHAKE
[625000] S0 MEMORY WRITE beat=56 addr=018dde98 data=fec172f23af0099b id=16
[635000] AXI S0_WVALID_RDY HANDSHAKE
[635000] S0 MEMORY WRITE beat=57 addr=018dded8 data=aa97ea7603d9b4b9 id=16
[635000] MASTER 1 W_VALID_RDY Handshake beat=58 wlast=0
[645000] MASTER 1 W_VALID_RDY Handshake beat=59 wlast=0
[645000] AXI S0_WVALID_RDY HANDSHAKE
[645000] S0 MEMORY WRITE beat=58 addr=018ddf18 data=e33dd150afa63a3c id=16
[655000] AXI S0_WVALID_RDY HANDSHAKE
[655000] S0 MEMORY WRITE beat=59 addr=018ddf58 data=ea9643d7d977abcb id=16
[655000] MASTER 1 W_VALID_RDY Handshake beat=60 wlast=0
[665000] MASTER 1 W_VALID_RDY Handshake beat=61 wlast=0
[665000] AXI S0_WVALID_RDY HANDSHAKE
[665000] S0 MEMORY WRITE beat=60 addr=018ddf98 data=dd516084e1ff4442 id=16
[675000] AXI S0_WVALID_RDY HANDSHAKE
[675000] S0 MEMORY WRITE beat=61 addr=018ddfd8 data=11a57e7f152e2e4e id=16
[675000] MASTER 1 W_VALID_RDY Handshake beat=62 wlast=0
[685000] MASTER 1 W_VALID_RDY Handshake beat=63 wlast=0
[685000] AXI S0_WVALID_RDY HANDSHAKE
[685000] S0 MEMORY WRITE beat=62 addr=018de018 data=eea5da19c08f31d4 id=16
[695000] AXI S0_WVALID_RDY HANDSHAKE
[695000] S0 MEMORY WRITE beat=63 addr=018de058 data=228e7617fc3bc256 id=16
[695000] MASTER 1 W_VALID_RDY Handshake beat=64 wlast=0
[705000] MASTER 1 W_VALID_RDY Handshake beat=65 wlast=0
[705000] AXI S0_WVALID_RDY HANDSHAKE
[705000] S0 MEMORY WRITE beat=64 addr=018de098 data=9169f0a4cbf73a9d id=16
[715000] AXI S0_WVALID_RDY HANDSHAKE
[715000] S0 MEMORY WRITE beat=65 addr=018de0d8 data=8c866c713433f496 id=16
[715000] MASTER 1 W_VALID_RDY Handshake beat=66 wlast=0
[725000] MASTER 1 W_VALID_RDY Handshake beat=67 wlast=0
[725000] AXI S0_WVALID_RDY HANDSHAKE
[725000] S0 MEMORY WRITE beat=66 addr=018de118 data=b06fb6ec800fcabd id=16
[735000] AXI S0_WVALID_RDY HANDSHAKE
[735000] S0 MEMORY WRITE beat=67 addr=018de158 data=cc07055aaf14e288 id=16
[735000] MASTER 1 W_VALID_RDY Handshake beat=68 wlast=0
[745000] MASTER 1 W_VALID_RDY Handshake beat=69 wlast=0
[745000] AXI S0_WVALID_RDY HANDSHAKE
[745000] S0 MEMORY WRITE beat=68 addr=018de198 data=e348d71ec1d9a791 id=16
[755000] AXI S0_WVALID_RDY HANDSHAKE
[755000] S0 MEMORY WRITE beat=69 addr=018de1d8 data=c1e9724ed88d71cc id=16
[755000] MASTER 1 W_VALID_RDY Handshake beat=70 wlast=0
[765000] MASTER 1 W_VALID_RDY Handshake beat=71 wlast=0
[765000] AXI S0_WVALID_RDY HANDSHAKE
[765000] S0 MEMORY WRITE beat=70 addr=018de218 data=87a2545413b88e0b id=16
[775000] AXI S0_WVALID_RDY HANDSHAKE
[775000] S0 MEMORY WRITE beat=71 addr=018de258 data=d592359c0df077a9 id=16
[775000] MASTER 1 W_VALID_RDY Handshake beat=72 wlast=0
[785000] MASTER 1 W_VALID_RDY Handshake beat=73 wlast=0
[785000] AXI S0_WVALID_RDY HANDSHAKE
[785000] S0 MEMORY WRITE beat=72 addr=018de298 data=e67de975eaeb2b73 id=16
[795000] AXI S0_WVALID_RDY HANDSHAKE
[795000] S0 MEMORY WRITE beat=73 addr=018de2d8 data=fea3b97e977ba7ea id=16
[795000] MASTER 1 W_VALID_RDY Handshake beat=74 wlast=0
[805000] MASTER 1 W_VALID_RDY Handshake beat=75 wlast=0
[805000] AXI S0_WVALID_RDY HANDSHAKE
[805000] S0 MEMORY WRITE beat=74 addr=018de318 data=a56c1f93ee203dc9 id=16
[815000] AXI S0_WVALID_RDY HANDSHAKE
[815000] S0 MEMORY WRITE beat=75 addr=018de358 data=d90b693cd435ef1a id=16
[815000] MASTER 1 W_VALID_RDY Handshake beat=76 wlast=0
[825000] MASTER 1 W_VALID_RDY Handshake beat=77 wlast=0
[825000] AXI S0_WVALID_RDY HANDSHAKE
[825000] S0 MEMORY WRITE beat=76 addr=018de398 data=ebb197048bea0908 id=16
[835000] AXI S0_WVALID_RDY HANDSHAKE
[835000] S0 MEMORY WRITE beat=77 addr=018de3d8 data=fa0a46d2d7af22ba id=16
[835000] MASTER 1 W_VALID_RDY Handshake beat=78 wlast=0
[845000] MASTER 1 W_VALID_RDY Handshake beat=79 wlast=0
[845000] AXI S0_WVALID_RDY HANDSHAKE
[845000] S0 MEMORY WRITE beat=78 addr=018de418 data=abe511d4111db698 id=16
[855000] AXI S0_WVALID_RDY HANDSHAKE
[855000] S0 MEMORY WRITE beat=79 addr=018de458 data=9d07bfa0d315b00e id=16
[855000] MASTER 1 W_VALID_RDY Handshake beat=80 wlast=0
[865000] MASTER 1 W_VALID_RDY Handshake beat=81 wlast=0
[865000] AXI S0_WVALID_RDY HANDSHAKE
[865000] S0 MEMORY WRITE beat=80 addr=018de498 data=2ac4d2c91796a8d9 id=16
[875000] AXI S0_WVALID_RDY HANDSHAKE
[875000] S0 MEMORY WRITE beat=81 addr=018de4d8 data=28b45f7197120672 id=16
[875000] MASTER 1 W_VALID_RDY Handshake beat=82 wlast=0
[885000] MASTER 1 W_VALID_RDY Handshake beat=83 wlast=0
[885000] AXI S0_WVALID_RDY HANDSHAKE
[885000] S0 MEMORY WRITE beat=82 addr=018de518 data=ea27b681d6a9e49d id=16
[895000] AXI S0_WVALID_RDY HANDSHAKE
[895000] S0 MEMORY WRITE beat=83 addr=018de558 data=ee408d76c5bc1f11 id=16
[895000] MASTER 1 W_VALID_RDY Handshake beat=84 wlast=0
[905000] MASTER 1 W_VALID_RDY Handshake beat=85 wlast=0
[905000] AXI S0_WVALID_RDY HANDSHAKE
[905000] S0 MEMORY WRITE beat=84 addr=018de598 data=dcce258414ec894a id=16
[915000] AXI S0_WVALID_RDY HANDSHAKE
[915000] S0 MEMORY WRITE beat=85 addr=018de5d8 data=eb966de796f4ece7 id=16
[915000] MASTER 1 W_VALID_RDY Handshake beat=86 wlast=0
[925000] MASTER 1 W_VALID_RDY Handshake beat=87 wlast=0
[925000] AXI S0_WVALID_RDY HANDSHAKE
[925000] S0 MEMORY WRITE beat=86 addr=018de618 data=dcb10bf9c6f5dc05 id=16
[935000] AXI S0_WVALID_RDY HANDSHAKE
[935000] S0 MEMORY WRITE beat=87 addr=018de658 data=dbe2654fd9d6fb5e id=16
[935000] MASTER 1 W_VALID_RDY Handshake beat=88 wlast=0
[945000] MASTER 1 W_VALID_RDY Handshake beat=89 wlast=0
[945000] AXI S0_WVALID_RDY HANDSHAKE
[945000] S0 MEMORY WRITE beat=88 addr=018de698 data=f0cbe845397f317d id=16
[955000] AXI S0_WVALID_RDY HANDSHAKE
[955000] S0 MEMORY WRITE beat=89 addr=018de6d8 data=00750d82c778d336 id=16
[955000] MASTER 1 W_VALID_RDY Handshake beat=90 wlast=0
[965000] MASTER 1 W_VALID_RDY Handshake beat=91 wlast=0
[965000] AXI S0_WVALID_RDY HANDSHAKE
[965000] S0 MEMORY WRITE beat=90 addr=018de718 data=a14fce94cd7cf43e id=16
[975000] AXI S0_WVALID_RDY HANDSHAKE
[975000] S0 MEMORY WRITE beat=91 addr=018de758 data=86fc25bbdc5772d1 id=16
[975000] MASTER 1 W_VALID_RDY Handshake beat=92 wlast=0
[985000] MASTER 1 W_VALID_RDY Handshake beat=93 wlast=0
[985000] AXI S0_WVALID_RDY HANDSHAKE
[985000] S0 MEMORY WRITE beat=92 addr=018de798 data=a3d04607121bb6da id=16
[995000] AXI S0_WVALID_RDY HANDSHAKE
[995000] S0 MEMORY WRITE beat=93 addr=018de7d8 data=df98ab188771333d id=16
[995000] MASTER 1 W_VALID_RDY Handshake beat=94 wlast=0
[1005000] MASTER 1 W_VALID_RDY Handshake beat=95 wlast=0
[1005000] AXI S0_WVALID_RDY HANDSHAKE
[1005000] S0 MEMORY WRITE beat=94 addr=018de818 data=e3c8a60ec520149c id=16
[1015000] AXI S0_WVALID_RDY HANDSHAKE
[1015000] S0 MEMORY WRITE beat=95 addr=018de858 data=d73bcb76e694d0d4 id=16
[1015000] MASTER 1 W_VALID_RDY Handshake beat=96 wlast=0
[1025000] MASTER 1 W_VALID_RDY Handshake beat=97 wlast=0
[1025000] AXI S0_WVALID_RDY HANDSHAKE
[1025000] S0 MEMORY WRITE beat=96 addr=018de898 data=ee0604110798ec16 id=16
[1035000] AXI S0_WVALID_RDY HANDSHAKE
[1035000] S0 MEMORY WRITE beat=97 addr=018de8d8 data=ccb900b2b6d4768e id=16
[1035000] MASTER 1 W_VALID_RDY Handshake beat=98 wlast=0
[1045000] MASTER 1 W_VALID_RDY Handshake beat=99 wlast=0
[1045000] AXI S0_WVALID_RDY HANDSHAKE
[1045000] S0 MEMORY WRITE beat=98 addr=018de918 data=9d694762d1ceaa20 id=16
[1055000] AXI S0_WVALID_RDY HANDSHAKE
[1055000] S0 MEMORY WRITE beat=99 addr=018de958 data=d967963623f4cc28 id=16
[1055000] MASTER 1 W_VALID_RDY Handshake beat=100 wlast=0
[1065000] MASTER 1 W_VALID_RDY Handshake beat=101 wlast=0
[1065000] AXI S0_WVALID_RDY HANDSHAKE
[1065000] S0 MEMORY WRITE beat=100 addr=018de998 data=dac942b60b6f4b74 id=16
[1075000] AXI S0_WVALID_RDY HANDSHAKE
[1075000] S0 MEMORY WRITE beat=101 addr=018de9d8 data=dd3df594262096e8 id=16
[1075000] MASTER 1 W_VALID_RDY Handshake beat=102 wlast=0
[1085000] MASTER 1 W_VALID_RDY Handshake beat=103 wlast=0
[1085000] AXI S0_WVALID_RDY HANDSHAKE
[1085000] S0 MEMORY WRITE beat=102 addr=018dea18 data=ca156310f8328a19 id=16
[1095000] AXI S0_WVALID_RDY HANDSHAKE
[1095000] S0 MEMORY WRITE beat=103 addr=018dea58 data=03a1d58d36a58bca id=16
[1095000] MASTER 1 W_VALID_RDY Handshake beat=104 wlast=0
[1105000] MASTER 1 W_VALID_RDY Handshake beat=105 wlast=0
[1105000] AXI S0_WVALID_RDY HANDSHAKE
[1105000] S0 MEMORY WRITE beat=104 addr=018dea98 data=dcc622b2a4dea5c6 id=16
[1115000] AXI S0_WVALID_RDY HANDSHAKE
[1115000] S0 MEMORY WRITE beat=105 addr=018dead8 data=9d112fdfe0dfcb21 id=16
[1115000] MASTER 1 W_VALID_RDY Handshake beat=106 wlast=0
[1125000] MASTER 1 W_VALID_RDY Handshake beat=107 wlast=0
[1125000] AXI S0_WVALID_RDY HANDSHAKE
[1125000] S0 MEMORY WRITE beat=106 addr=018deb18 data=178556eb26db85c2 id=16
[1135000] AXI S0_WVALID_RDY HANDSHAKE
[1135000] S0 MEMORY WRITE beat=107 addr=018deb58 data=cbba2b88a0b3056c id=16
[1135000] MASTER 1 W_VALID_RDY Handshake beat=108 wlast=0
[1145000] MASTER 1 W_VALID_RDY Handshake beat=109 wlast=0
[1145000] AXI S0_WVALID_RDY HANDSHAKE
[1145000] S0 MEMORY WRITE beat=108 addr=018deb98 data=8192d08df44b799d id=16
[1155000] AXI S0_WVALID_RDY HANDSHAKE
[1155000] S0 MEMORY WRITE beat=109 addr=018debd8 data=1b26ff5fe8cb5b68 id=16
[1155000] MASTER 1 W_VALID_RDY Handshake beat=110 wlast=0
[1165000] MASTER 1 W_VALID_RDY Handshake beat=111 wlast=0
[1165000] AXI S0_WVALID_RDY HANDSHAKE
[1165000] S0 MEMORY WRITE beat=110 addr=018dec18 data=897e60d499182778 id=16
[1175000] AXI S0_WVALID_RDY HANDSHAKE
[1175000] S0 MEMORY WRITE beat=111 addr=018dec58 data=8d63a115e6e12ae7 id=16
[1175000] MASTER 1 W_VALID_RDY Handshake beat=112 wlast=0
[1185000] MASTER 1 W_VALID_RDY Handshake beat=113 wlast=0
[1185000] AXI S0_WVALID_RDY HANDSHAKE
[1185000] S0 MEMORY WRITE beat=112 addr=018dec98 data=cfac864f0b113162 id=16
[1195000] AXI S0_WVALID_RDY HANDSHAKE
[1195000] S0 MEMORY WRITE beat=113 addr=018decd8 data=a42958daa88aa074 id=16
[1195000] MASTER 1 W_VALID_RDY Handshake beat=114 wlast=0
[1205000] MASTER 1 W_VALID_RDY Handshake beat=115 wlast=0
[1205000] AXI S0_WVALID_RDY HANDSHAKE
[1205000] S0 MEMORY WRITE beat=114 addr=018ded18 data=0f6bcb5cd92ae724 id=16
[1215000] AXI S0_WVALID_RDY HANDSHAKE
[1215000] S0 MEMORY WRITE beat=115 addr=018ded58 data=e43c1886318cf9f0 id=16
[1215000] MASTER 1 W_VALID_RDY Handshake beat=116 wlast=0
[1225000] MASTER 1 W_VALID_RDY Handshake beat=117 wlast=0
[1225000] AXI S0_WVALID_RDY HANDSHAKE
[1225000] S0 MEMORY WRITE beat=116 addr=018ded98 data=da179a64df1851ab id=16
[1235000] AXI S0_WVALID_RDY HANDSHAKE
[1235000] S0 MEMORY WRITE beat=117 addr=018dedd8 data=b84338cf88657160 id=16
[1235000] MASTER 1 W_VALID_RDY Handshake beat=118 wlast=0
[1245000] MASTER 1 W_VALID_RDY Handshake beat=119 wlast=0
[1245000] AXI S0_WVALID_RDY HANDSHAKE
[1245000] S0 MEMORY WRITE beat=118 addr=018dee18 data=b9f26b50e98365c0 id=16
[1255000] AXI S0_WVALID_RDY HANDSHAKE
[1255000] S0 MEMORY WRITE beat=119 addr=018dee58 data=c89bb76c9c7f5155 id=16
[1255000] MASTER 1 W_VALID_RDY Handshake beat=120 wlast=0
[1265000] MASTER 1 W_VALID_RDY Handshake beat=121 wlast=0
[1265000] AXI S0_WVALID_RDY HANDSHAKE
[1265000] S0 MEMORY WRITE beat=120 addr=018dee98 data=24e4c2b6140a05b5 id=16
[1275000] AXI S0_WVALID_RDY HANDSHAKE
[1275000] S0 MEMORY WRITE beat=121 addr=018deed8 data=fd8d6b7580def03b id=16
[1275000] MASTER 1 W_VALID_RDY Handshake beat=122 wlast=0
[1285000] MASTER 1 W_VALID_RDY Handshake beat=123 wlast=0
[1285000] AXI S0_WVALID_RDY HANDSHAKE
[1285000] S0 MEMORY WRITE beat=122 addr=018def18 data=1d5e4191ded72e06 id=16
[1295000] AXI S0_WVALID_RDY HANDSHAKE
[1295000] S0 MEMORY WRITE beat=123 addr=018def58 data=f2e133bbc62922e1 id=16
[1295000] MASTER 1 W_VALID_RDY Handshake beat=124 wlast=0
[1305000] MASTER 1 W_VALID_RDY Handshake beat=125 wlast=0
[1305000] AXI S0_WVALID_RDY HANDSHAKE
[1305000] S0 MEMORY WRITE beat=124 addr=018def98 data=c708131dc2430447 id=16
[1315000] AXI S0_WVALID_RDY HANDSHAKE
[1315000] S0 MEMORY WRITE beat=125 addr=018defd8 data=a11a324df06e9f31 id=16
[1315000] MASTER 1 W_VALID_RDY Handshake beat=126 wlast=0
[1325000] MASTER 1 W_VALID_RDY Handshake beat=127 wlast=0
[1325000] AXI S0_WVALID_RDY HANDSHAKE
[1325000] S0 MEMORY WRITE beat=126 addr=018df018 data=b697c212e46654ae id=16
[1335000] AXI S0_WVALID_RDY HANDSHAKE
[1335000] S0 MEMORY WRITE beat=127 addr=018df058 data=26a958f513fb6609 id=16
[1335000] MASTER 1 W_VALID_RDY Handshake beat=128 wlast=0
[1345000] MASTER 1 W_VALID_RDY Handshake beat=129 wlast=0
[1345000] AXI S0_WVALID_RDY HANDSHAKE
[1345000] S0 MEMORY WRITE beat=128 addr=018df098 data=046a053afd9fd52f id=16
[1355000] AXI S0_WVALID_RDY HANDSHAKE
[1355000] S0 MEMORY WRITE beat=129 addr=018df0d8 data=e20629ddc7c38b42 id=16
[1355000] MASTER 1 W_VALID_RDY Handshake beat=130 wlast=0
[1365000] MASTER 1 W_VALID_RDY Handshake beat=131 wlast=0
[1365000] AXI S0_WVALID_RDY HANDSHAKE
[1365000] S0 MEMORY WRITE beat=130 addr=018df118 data=dbbef14bbb01c74c id=16
[1375000] AXI S0_WVALID_RDY HANDSHAKE
[1375000] S0 MEMORY WRITE beat=131 addr=018df158 data=38a19c7c88af82d2 id=16
[1375000] MASTER 1 W_VALID_RDY Handshake beat=132 wlast=0
[1385000] MASTER 1 W_VALID_RDY Handshake beat=133 wlast=0
[1385000] AXI S0_WVALID_RDY HANDSHAKE
[1385000] S0 MEMORY WRITE beat=132 addr=018df198 data=d0730e15e028f685 id=16
[1395000] AXI S0_WVALID_RDY HANDSHAKE
[1395000] S0 MEMORY WRITE beat=133 addr=018df1d8 data=1b2abdd29aa7c659 id=16
[1395000] MASTER 1 W_VALID_RDY Handshake beat=134 wlast=0
[1405000] MASTER 1 W_VALID_RDY Handshake beat=135 wlast=0
[1405000] AXI S0_WVALID_RDY HANDSHAKE
[1405000] S0 MEMORY WRITE beat=134 addr=018df218 data=2357492cac31ff60 id=16
[1415000] AXI S0_WVALID_RDY HANDSHAKE
[1415000] S0 MEMORY WRITE beat=135 addr=018df258 data=0c5af5e6d3cc5a4e id=16
[1415000] MASTER 1 W_VALID_RDY Handshake beat=136 wlast=0
[1425000] MASTER 1 W_VALID_RDY Handshake beat=137 wlast=0
[1425000] AXI S0_WVALID_RDY HANDSHAKE
[1425000] S0 MEMORY WRITE beat=136 addr=018df298 data=ee7420a7f3ca5741 id=16
[1435000] AXI S0_WVALID_RDY HANDSHAKE
[1435000] S0 MEMORY WRITE beat=137 addr=018df2d8 data=9ffc56a12785b3b8 id=16
[1435000] MASTER 1 W_VALID_RDY Handshake beat=138 wlast=0
[1445000] MASTER 1 W_VALID_RDY Handshake beat=139 wlast=0
[1445000] AXI S0_WVALID_RDY HANDSHAKE
[1445000] S0 MEMORY WRITE beat=138 addr=018df318 data=fb520e0691cb69d3 id=16
[1455000] AXI S0_WVALID_RDY HANDSHAKE
[1455000] S0 MEMORY WRITE beat=139 addr=018df358 data=8595c114ac574c87 id=16
[1455000] MASTER 1 W_VALID_RDY Handshake beat=140 wlast=0
[1465000] MASTER 1 W_VALID_RDY Handshake beat=141 wlast=0
[1465000] AXI S0_WVALID_RDY HANDSHAKE
[1465000] S0 MEMORY WRITE beat=140 addr=018df398 data=d3dd003fe9c62ead id=16
[1475000] AXI S0_WVALID_RDY HANDSHAKE
[1475000] S0 MEMORY WRITE beat=141 addr=018df3d8 data=fb919881259217b6 id=16
[1475000] MASTER 1 W_VALID_RDY Handshake beat=142 wlast=0
[1485000] MASTER 1 W_VALID_RDY Handshake beat=143 wlast=0
[1485000] AXI S0_WVALID_RDY HANDSHAKE
[1485000] S0 MEMORY WRITE beat=142 addr=018df418 data=d1e9643dcf2f0e45 id=16
[1495000] AXI S0_WVALID_RDY HANDSHAKE
[1495000] S0 MEMORY WRITE beat=143 addr=018df458 data=38f53cf381275995 id=16
[1495000] MASTER 1 W_VALID_RDY Handshake beat=144 wlast=0
[1505000] MASTER 1 W_VALID_RDY Handshake beat=145 wlast=0
[1505000] AXI S0_WVALID_RDY HANDSHAKE
[1505000] S0 MEMORY WRITE beat=144 addr=018df498 data=a6b9714b25c6647d id=16
[1515000] AXI S0_WVALID_RDY HANDSHAKE
[1515000] S0 MEMORY WRITE beat=145 addr=018df4d8 data=f4f572c23486d574 id=16
[1515000] MASTER 1 W_VALID_RDY Handshake beat=146 wlast=0
[1525000] MASTER 1 W_VALID_RDY Handshake beat=147 wlast=0
[1525000] AXI S0_WVALID_RDY HANDSHAKE
[1525000] S0 MEMORY WRITE beat=146 addr=018df518 data=b5ae2f09f8a2d589 id=16
[1535000] AXI S0_WVALID_RDY HANDSHAKE
[1535000] S0 MEMORY WRITE beat=147 addr=018df558 data=1e693a06adeaafb5 id=16
[1535000] MASTER 1 W_VALID_RDY Handshake beat=148 wlast=0
[1545000] MASTER 1 W_VALID_RDY Handshake beat=149 wlast=0
[1545000] AXI S0_WVALID_RDY HANDSHAKE
[1545000] S0 MEMORY WRITE beat=148 addr=018df598 data=e2718529dc67a055 id=16
[1555000] AXI S0_WVALID_RDY HANDSHAKE
[1555000] S0 MEMORY WRITE beat=149 addr=018df5d8 data=d50a75de935eacc8 id=16
[1555000] MASTER 1 W_VALID_RDY Handshake beat=150 wlast=0
[1565000] MASTER 1 W_VALID_RDY Handshake beat=151 wlast=0
[1565000] AXI S0_WVALID_RDY HANDSHAKE
[1565000] S0 MEMORY WRITE beat=150 addr=018df618 data=c1495c7e181fb433 id=16
[1575000] AXI S0_WVALID_RDY HANDSHAKE
[1575000] S0 MEMORY WRITE beat=151 addr=018df658 data=f4875488f373afe4 id=16
[1575000] MASTER 1 W_VALID_RDY Handshake beat=152 wlast=0
[1585000] MASTER 1 W_VALID_RDY Handshake beat=153 wlast=0
[1585000] AXI S0_WVALID_RDY HANDSHAKE
[1585000] S0 MEMORY WRITE beat=152 addr=018df698 data=86d25caca3bae1a7 id=16
[1595000] AXI S0_WVALID_RDY HANDSHAKE
[1595000] S0 MEMORY WRITE beat=153 addr=018df6d8 data=bbda95dac991ca66 id=16
[1595000] MASTER 1 W_VALID_RDY Handshake beat=154 wlast=0
[1605000] MASTER 1 W_VALID_RDY Handshake beat=155 wlast=0
[1605000] AXI S0_WVALID_RDY HANDSHAKE
[1605000] S0 MEMORY WRITE beat=154 addr=018df718 data=3d057a4ac81bb92a id=16
[1615000] AXI S0_WVALID_RDY HANDSHAKE
[1615000] S0 MEMORY WRITE beat=155 addr=018df758 data=ebd69ad2b061ea62 id=16
[1615000] MASTER 1 W_VALID_RDY Handshake beat=156 wlast=0
[1625000] MASTER 1 W_VALID_RDY Handshake beat=157 wlast=0
[1625000] AXI S0_WVALID_RDY HANDSHAKE
[1625000] S0 MEMORY WRITE beat=156 addr=018df798 data=f9f3b4c8c3d7d6f6 id=16
[1635000] AXI S0_WVALID_RDY HANDSHAKE
[1635000] S0 MEMORY WRITE beat=157 addr=018df7d8 data=0bf39021a7b130ac id=16
[1635000] MASTER 1 W_VALID_RDY Handshake beat=158 wlast=0
[1645000] MASTER 1 W_VALID_RDY Handshake beat=159 wlast=0
[1645000] AXI S0_WVALID_RDY HANDSHAKE
[1645000] S0 MEMORY WRITE beat=158 addr=018df818 data=d8131b0fb6f92f12 id=16
[1655000] AXI S0_WVALID_RDY HANDSHAKE
[1655000] S0 MEMORY WRITE beat=159 addr=018df858 data=fad10609f7ca2af3 id=16
[1655000] MASTER 1 W_VALID_RDY Handshake beat=160 wlast=0
[1665000] MASTER 1 W_VALID_RDY Handshake beat=161 wlast=0
[1665000] AXI S0_WVALID_RDY HANDSHAKE
[1665000] S0 MEMORY WRITE beat=160 addr=018df898 data=9f7b5b9fd206cfd7 id=16
[1675000] AXI S0_WVALID_RDY HANDSHAKE
[1675000] S0 MEMORY WRITE beat=161 addr=018df8d8 data=08fffeea06c4962a id=16
[1675000] MASTER 1 W_VALID_RDY Handshake beat=162 wlast=1
[1675000] MASTER_DRIVER1 received transaction, op=AXI_WRITE
[1685000] AXI S0_WVALID_RDY HANDSHAKE
[1685000] S0 MEMORY WRITE beat=162 addr=018df918 data=fe8ec11df78e76ae id=16
[1695000] SLAVE0 sent B resp, id=6
[1695000] [SLAVE MONITOR] mst_id=1 s_id=0 awaddr=18dd098 awid=110 awlen=162 awsize=6 awburst=1 wdata=[f2a4b1f917000c07 cfbdcc28d0f9923f d0af4ce1961d7ddc ad1d89e3bcccc2d8 dc65518c353feda d9717cb7fcdb560b 39a818e4de75a1f9 21c9a0d4868f069a 36a5ca6c76e6dfc a5e40ff5fb3b1d8b 81ca24253d12758a 480e386c7adb0c9 c2e8ce54853480cb c246f655aa64f37b f212a445c4b2f27a c9e77345c6c7d9db f12ccd57b4fb7299 f9ae65130c2e699b d2f64376e33f719c 983ae435c395d859 cfc441f4c42310cd a762826911e94949 d57f21a2a2ba856a e6dd96383f9d669f d186afe825436396 c7fde9008e4018a1 cddd7f402705d18a cc493520aedb7f38 3d1b97da9f642f28 c66a00b294471e20 c3229d598af9171a 2a5d464392b335d2 26fa53f3003e3533 8b374c4df0c746f5 37a7cc8ea1cf14c ea5b267fb5949290 265bd9862a74d0bb 1491c207f59272cc 2b27055d29d6564e d44b2709feece886 f47f5b52d182dee3 fb593531e8dce910 e7c9d1969fa660af f1293f92cfa45c3a 3881454adc492ce8 fbef8d98ec8274c3 bc26d0fd204b16e0 fc9443c8ed18cd2a d99b41eef4a81647 94f32d27f883d160 e59c9e8b95c212eb a6a2933118770f0 8a0b42503f37e079 d4f9f3649f5d565a b0e4c74aefa7e0db aedfc154df641c97 fec172f23af0099b aa97ea7603d9b4b9 e33dd150afa63a3c ea9643d7d977abcb dd516084e1ff4442 11a57e7f152e2e4e eea5da19c08f31d4 228e7617fc3bc256 9169f0a4cbf73a9d 8c866c713433f496 b06fb6ec800fcabd cc07055aaf14e288 e348d71ec1d9a791 c1e9724ed88d71cc 87a2545413b88e0b d592359c0df077a9 e67de975eaeb2b73 fea3b97e977ba7ea a56c1f93ee203dc9 d90b693cd435ef1a ebb197048bea0908 fa0a46d2d7af22ba abe511d4111db698 9d07bfa0d315b00e 2ac4d2c91796a8d9 28b45f7197120672 ea27b681d6a9e49d ee408d76c5bc1f11 dcce258414ec894a eb966de796f4ece7 dcb10bf9c6f5dc05 dbe2654fd9d6fb5e f0cbe845397f317d 750d82c778d336 a14fce94cd7cf43e 86fc25bbdc5772d1 a3d04607121bb6da df98ab188771333d e3c8a60ec520149c d73bcb76e694d0d4 ee0604110798ec16 ccb900b2b6d4768e 9d694762d1ceaa20 d967963623f4cc28 dac942b60b6f4b74 dd3df594262096e8 ca156310f8328a19 3a1d58d36a58bca dcc622b2a4dea5c6 9d112fdfe0dfcb21 178556eb26db85c2 cbba2b88a0b3056c 8192d08df44b799d 1b26ff5fe8cb5b68 897e60d499182778 8d63a115e6e12ae7 cfac864f0b113162 a42958daa88aa074 f6bcb5cd92ae724 e43c1886318cf9f0 da179a64df1851ab b84338cf88657160 b9f26b50e98365c0 c89bb76c9c7f5155 24e4c2b6140a05b5 fd8d6b7580def03b 1d5e4191ded72e06 f2e133bbc62922e1 c708131dc2430447 a11a324df06e9f31 b697c212e46654ae 26a958f513fb6609 46a053afd9fd52f e20629ddc7c38b42 dbbef14bbb01c74c 38a19c7c88af82d2 d0730e15e028f685 1b2abdd29aa7c659 2357492cac31ff60 c5af5e6d3cc5a4e ee7420a7f3ca5741 9ffc56a12785b3b8 fb520e0691cb69d3 8595c114ac574c87 d3dd003fe9c62ead fb919881259217b6 d1e9643dcf2f0e45 38f53cf381275995 a6b9714b25c6647d f4f572c23486d574 b5ae2f09f8a2d589 1e693a06adeaafb5 e2718529dc67a055 d50a75de935eacc8 c1495c7e181fb433 f4875488f373afe4 86d25caca3bae1a7 bbda95dac991ca66 3d057a4ac81bb92a ebd69ad2b061ea62 f9f3b4c8c3d7d6f6 bf39021a7b130ac d8131b0fb6f92f12 fad10609f7ca2af3 9f7b5b9fd206cfd7 8fffeea06c4962a fe8ec11df78e76ae ] wstrb=[f3 86 bc 1d 70 6b 3a 63 f1 f6 80 61 61 ba c4 52 b0 44 b3 12 fe 77 64 ae bb 18 c0 b9 8f 25 68 4b 3d 28 4 cc 4d 6c 17 8a 95 1c 57 e2 88 6e 6d 1d 8a c4 0 13 32 6d 30 bd 31 30 d0 63 9d 0 20 ce 31 f0 32 ce f1 52 9d 22 43 cf f0 34 21 8d 56 64 5c 46 98 7e d4 ee e2 30 35 7b ae 9 69 91 39 9e c e8 a7 75 79 e1 14 85 c9 bb fa 42 9c e c7 65 ca c1 a7 66 d0 6e cc 9a 30 73 0 0 e2 cc 9a 12 40 9a 12 22 67 ac 34 a7 46 46 c9 ad f2 fd 54 38 43 1d e6 35 1a 3a 6d 5d 58 53 92 72 8e 0 d0 e6 53 62 58 ] bresp=0 bid=10110
[1695000] MASTER 1 AW_VALID_RDY Handshake
[1705000] ARB MONITOR: slave=0 m0_req=0 m1_req=1 winner=1
[1705000] AXI S0_AWVALID_RDY HANDSHAKE
[1715000] MASTER 1 W_VALID_RDY Handshake beat=0 wlast=0
[1715000] MASTER 1 B_VALID_RDY Handshake
[1715000] [MASTER MONITOR] mst_id=1 s_id=0 awaddr=18dd098 awid=110 awlen=162 awsize=6 awburst=1 wdata=[f2a4b1f917000c07 cfbdcc28d0f9923f d0af4ce1961d7ddc ad1d89e3bcccc2d8 dc65518c353feda d9717cb7fcdb560b 39a818e4de75a1f9 21c9a0d4868f069a 36a5ca6c76e6dfc a5e40ff5fb3b1d8b 81ca24253d12758a 480e386c7adb0c9 c2e8ce54853480cb c246f655aa64f37b f212a445c4b2f27a c9e77345c6c7d9db f12ccd57b4fb7299 f9ae65130c2e699b d2f64376e33f719c 983ae435c395d859 cfc441f4c42310cd a762826911e94949 d57f21a2a2ba856a e6dd96383f9d669f d186afe825436396 c7fde9008e4018a1 cddd7f402705d18a cc493520aedb7f38 3d1b97da9f642f28 c66a00b294471e20 c3229d598af9171a 2a5d464392b335d2 26fa53f3003e3533 8b374c4df0c746f5 37a7cc8ea1cf14c ea5b267fb5949290 265bd9862a74d0bb 1491c207f59272cc 2b27055d29d6564e d44b2709feece886 f47f5b52d182dee3 fb593531e8dce910 e7c9d1969fa660af f1293f92cfa45c3a 3881454adc492ce8 fbef8d98ec8274c3 bc26d0fd204b16e0 fc9443c8ed18cd2a d99b41eef4a81647 94f32d27f883d160 e59c9e8b95c212eb a6a2933118770f0 8a0b42503f37e079 d4f9f3649f5d565a b0e4c74aefa7e0db aedfc154df641c97 fec172f23af0099b aa97ea7603d9b4b9 e33dd150afa63a3c ea9643d7d977abcb dd516084e1ff4442 11a57e7f152e2e4e eea5da19c08f31d4 228e7617fc3bc256 9169f0a4cbf73a9d 8c866c713433f496 b06fb6ec800fcabd cc07055aaf14e288 e348d71ec1d9a791 c1e9724ed88d71cc 87a2545413b88e0b d592359c0df077a9 e67de975eaeb2b73 fea3b97e977ba7ea a56c1f93ee203dc9 d90b693cd435ef1a ebb197048bea0908 fa0a46d2d7af22ba abe511d4111db698 9d07bfa0d315b00e 2ac4d2c91796a8d9 28b45f7197120672 ea27b681d6a9e49d ee408d76c5bc1f11 dcce258414ec894a eb966de796f4ece7 dcb10bf9c6f5dc05 dbe2654fd9d6fb5e f0cbe845397f317d 750d82c778d336 a14fce94cd7cf43e 86fc25bbdc5772d1 a3d04607121bb6da df98ab188771333d e3c8a60ec520149c d73bcb76e694d0d4 ee0604110798ec16 ccb900b2b6d4768e 9d694762d1ceaa20 d967963623f4cc28 dac942b60b6f4b74 dd3df594262096e8 ca156310f8328a19 3a1d58d36a58bca dcc622b2a4dea5c6 9d112fdfe0dfcb21 178556eb26db85c2 cbba2b88a0b3056c 8192d08df44b799d 1b26ff5fe8cb5b68 897e60d499182778 8d63a115e6e12ae7 cfac864f0b113162 a42958daa88aa074 f6bcb5cd92ae724 e43c1886318cf9f0 da179a64df1851ab b84338cf88657160 b9f26b50e98365c0 c89bb76c9c7f5155 24e4c2b6140a05b5 fd8d6b7580def03b 1d5e4191ded72e06 f2e133bbc62922e1 c708131dc2430447 a11a324df06e9f31 b697c212e46654ae 26a958f513fb6609 46a053afd9fd52f e20629ddc7c38b42 dbbef14bbb01c74c 38a19c7c88af82d2 d0730e15e028f685 1b2abdd29aa7c659 2357492cac31ff60 c5af5e6d3cc5a4e ee7420a7f3ca5741 9ffc56a12785b3b8 fb520e0691cb69d3 8595c114ac574c87 d3dd003fe9c62ead fb919881259217b6 d1e9643dcf2f0e45 38f53cf381275995 a6b9714b25c6647d f4f572c23486d574 b5ae2f09f8a2d589 1e693a06adeaafb5 e2718529dc67a055 d50a75de935eacc8 c1495c7e181fb433 f4875488f373afe4 86d25caca3bae1a7 bbda95dac991ca66 3d057a4ac81bb92a ebd69ad2b061ea62 f9f3b4c8c3d7d6f6 bf39021a7b130ac d8131b0fb6f92f12 fad10609f7ca2af3 9f7b5b9fd206cfd7 8fffeea06c4962a fe8ec11df78e76ae ] wstrb=[f3 86 bc 1d 70 6b 3a 63 f1 f6 80 61 61 ba c4 52 b0 44 b3 12 fe 77 64 ae bb 18 c0 b9 8f 25 68 4b 3d 28 4 cc 4d 6c 17 8a 95 1c 57 e2 88 6e 6d 1d 8a c4 0 13 32 6d 30 bd 31 30 d0 63 9d 0 20 ce 31 f0 32 ce f1 52 9d 22 43 cf f0 34 21 8d 56 64 5c 46 98 7e d4 ee e2 30 35 7b ae 9 69 91 39 9e c e8 a7 75 79 e1 14 85 c9 bb fa 42 9c e c7 65 ca c1 a7 66 d0 6e cc 9a 30 73 0 0 e2 cc 9a 12 40 9a 12 22 67 ac 34 a7 46 46 c9 ad f2 fd 54 38 43 1d e6 35 1a 3a 6d 5d 58 53 92 72 8e 0 d0 e6 53 62 58 ] bresp=0 bid=110
[1715000] MASTER 1 RECEIVED BRESP. BRESP=0
[1715000] [MASTER DRIVER] mst_id=1 s_id=0 awaddr=18dd098 awid=110 awlen=162 awsize=6 awburst=1 wdata=[f2a4b1f917000c07 cfbdcc28d0f9923f d0af4ce1961d7ddc ad1d89e3bcccc2d8 dc65518c353feda d9717cb7fcdb560b 39a818e4de75a1f9 21c9a0d4868f069a 36a5ca6c76e6dfc a5e40ff5fb3b1d8b 81ca24253d12758a 480e386c7adb0c9 c2e8ce54853480cb c246f655aa64f37b f212a445c4b2f27a c9e77345c6c7d9db f12ccd57b4fb7299 f9ae65130c2e699b d2f64376e33f719c 983ae435c395d859 cfc441f4c42310cd a762826911e94949 d57f21a2a2ba856a e6dd96383f9d669f d186afe825436396 c7fde9008e4018a1 cddd7f402705d18a cc493520aedb7f38 3d1b97da9f642f28 c66a00b294471e20 c3229d598af9171a 2a5d464392b335d2 26fa53f3003e3533 8b374c4df0c746f5 37a7cc8ea1cf14c ea5b267fb5949290 265bd9862a74d0bb 1491c207f59272cc 2b27055d29d6564e d44b2709feece886 f47f5b52d182dee3 fb593531e8dce910 e7c9d1969fa660af f1293f92cfa45c3a 3881454adc492ce8 fbef8d98ec8274c3 bc26d0fd204b16e0 fc9443c8ed18cd2a d99b41eef4a81647 94f32d27f883d160 e59c9e8b95c212eb a6a2933118770f0 8a0b42503f37e079 d4f9f3649f5d565a b0e4c74aefa7e0db aedfc154df641c97 fec172f23af0099b aa97ea7603d9b4b9 e33dd150afa63a3c ea9643d7d977abcb dd516084e1ff4442 11a57e7f152e2e4e eea5da19c08f31d4 228e7617fc3bc256 9169f0a4cbf73a9d 8c866c713433f496 b06fb6ec800fcabd cc07055aaf14e288 e348d71ec1d9a791 c1e9724ed88d71cc 87a2545413b88e0b d592359c0df077a9 e67de975eaeb2b73 fea3b97e977ba7ea a56c1f93ee203dc9 d90b693cd435ef1a ebb197048bea0908 fa0a46d2d7af22ba abe511d4111db698 9d07bfa0d315b00e 2ac4d2c91796a8d9 28b45f7197120672 ea27b681d6a9e49d ee408d76c5bc1f11 dcce258414ec894a eb966de796f4ece7 dcb10bf9c6f5dc05 dbe2654fd9d6fb5e f0cbe845397f317d 750d82c778d336 a14fce94cd7cf43e 86fc25bbdc5772d1 a3d04607121bb6da df98ab188771333d e3c8a60ec520149c d73bcb76e694d0d4 ee0604110798ec16 ccb900b2b6d4768e 9d694762d1ceaa20 d967963623f4cc28 dac942b60b6f4b74 dd3df594262096e8 ca156310f8328a19 3a1d58d36a58bca dcc622b2a4dea5c6 9d112fdfe0dfcb21 178556eb26db85c2 cbba2b88a0b3056c 8192d08df44b799d 1b26ff5fe8cb5b68 897e60d499182778 8d63a115e6e12ae7 cfac864f0b113162 a42958daa88aa074 f6bcb5cd92ae724 e43c1886318cf9f0 da179a64df1851ab b84338cf88657160 b9f26b50e98365c0 c89bb76c9c7f5155 24e4c2b6140a05b5 fd8d6b7580def03b 1d5e4191ded72e06 f2e133bbc62922e1 c708131dc2430447 a11a324df06e9f31 b697c212e46654ae 26a958f513fb6609 46a053afd9fd52f e20629ddc7c38b42 dbbef14bbb01c74c 38a19c7c88af82d2 d0730e15e028f685 1b2abdd29aa7c659 2357492cac31ff60 c5af5e6d3cc5a4e ee7420a7f3ca5741 9ffc56a12785b3b8 fb520e0691cb69d3 8595c114ac574c87 d3dd003fe9c62ead fb919881259217b6 d1e9643dcf2f0e45 38f53cf381275995 a6b9714b25c6647d f4f572c23486d574 b5ae2f09f8a2d589 1e693a06adeaafb5 e2718529dc67a055 d50a75de935eacc8 c1495c7e181fb433 f4875488f373afe4 86d25caca3bae1a7 bbda95dac991ca66 3d057a4ac81bb92a ebd69ad2b061ea62 f9f3b4c8c3d7d6f6 bf39021a7b130ac d8131b0fb6f92f12 fad10609f7ca2af3 9f7b5b9fd206cfd7 8fffeea06c4962a fe8ec11df78e76ae ] wstrb=[f3 86 bc 1d 70 6b 3a 63 f1 f6 80 61 61 ba c4 52 b0 44 b3 12 fe 77 64 ae bb 18 c0 b9 8f 25 68 4b 3d 28 4 cc 4d 6c 17 8a 95 1c 57 e2 88 6e 6d 1d 8a c4 0 13 32 6d 30 bd 31 30 d0 63 9d 0 20 ce 31 f0 32 ce f1 52 9d 22 43 cf f0 34 21 8d 56 64 5c 46 98 7e d4 ee e2 30 35 7b ae 9 69 91 39 9e c e8 a7 75 79 e1 14 85 c9 bb fa 42 9c e c7 65 ca c1 a7 66 d0 6e cc 9a 30 73 0 0 e2 cc 9a 12 40 9a 12 22 67 ac 34 a7 46 46 c9 ad f2 fd 54 38 43 1d e6 35 1a 3a 6d 5d 58 53 92 72 8e 0 d0 e6 53 62 58 ] bresp=0 bid=110
[1715000] SCOREBOARD MATCH: decode_err expected = 0, actual =0
[1715000] SCOREBOARD MATCH: slave_id expected = 0, actual =0
[1715000] SCOREBOARD MATCH: awaddr passthrough expected = 18dd098, actual =18dd098
[1715000] SCOREBOARD MATCH: awlen passthrough expected = 162, actual =162
[1715000] SCOREBOARD MATCH: awsize passthrough expected = 6, actual =6
[1715000] SCOREBOARD MATCH: awburst passthrough expected = 1, actual =1
[1715000] SCOREBOARD MATCH: wdata size check expected = a3, actual =a3
[1715000] SCOREBOARD MATCH: wdata passthrough beat=0 expected = f2a4b1f917000c07, actual =f2a4b1f917000c07
[1715000] SCOREBOARD MATCH: wdata passthrough beat=1 expected = cfbdcc28d0f9923f, actual =cfbdcc28d0f9923f
[1715000] SCOREBOARD MATCH: wdata passthrough beat=2 expected = d0af4ce1961d7ddc, actual =d0af4ce1961d7ddc
[1715000] SCOREBOARD MATCH: wdata passthrough beat=3 expected = ad1d89e3bcccc2d8, actual =ad1d89e3bcccc2d8
[1715000] SCOREBOARD MATCH: wdata passthrough beat=4 expected = dc65518c353feda, actual =dc65518c353feda
[1715000] SCOREBOARD MATCH: wdata passthrough beat=5 expected = d9717cb7fcdb560b, actual =d9717cb7fcdb560b
[1715000] SCOREBOARD MATCH: wdata passthrough beat=6 expected = 39a818e4de75a1f9, actual =39a818e4de75a1f9
[1715000] SCOREBOARD MATCH: wdata passthrough beat=7 expected = 21c9a0d4868f069a, actual =21c9a0d4868f069a
[1715000] SCOREBOARD MATCH: wdata passthrough beat=8 expected = 36a5ca6c76e6dfc, actual =36a5ca6c76e6dfc
[1715000] SCOREBOARD MATCH: wdata passthrough beat=9 expected = a5e40ff5fb3b1d8b, actual =a5e40ff5fb3b1d8b
[1715000] SCOREBOARD MATCH: wdata passthrough beat=10 expected = 81ca24253d12758a, actual =81ca24253d12758a
[1715000] SCOREBOARD MATCH: wdata passthrough beat=11 expected = 480e386c7adb0c9, actual =480e386c7adb0c9
[1715000] SCOREBOARD MATCH: wdata passthrough beat=12 expected = c2e8ce54853480cb, actual =c2e8ce54853480cb
[1715000] SCOREBOARD MATCH: wdata passthrough beat=13 expected = c246f655aa64f37b, actual =c246f655aa64f37b
[1715000] SCOREBOARD MATCH: wdata passthrough beat=14 expected = f212a445c4b2f27a, actual =f212a445c4b2f27a
[1715000] SCOREBOARD MATCH: wdata passthrough beat=15 expected = c9e77345c6c7d9db, actual =c9e77345c6c7d9db
[1715000] SCOREBOARD MATCH: wdata passthrough beat=16 expected = f12ccd57b4fb7299, actual =f12ccd57b4fb7299
[1715000] SCOREBOARD MATCH: wdata passthrough beat=17 expected = f9ae65130c2e699b, actual =f9ae65130c2e699b
[1715000] SCOREBOARD MATCH: wdata passthrough beat=18 expected = d2f64376e33f719c, actual =d2f64376e33f719c
[1715000] SCOREBOARD MATCH: wdata passthrough beat=19 expected = 983ae435c395d859, actual =983ae435c395d859
[1715000] SCOREBOARD MATCH: wdata passthrough beat=20 expected = cfc441f4c42310cd, actual =cfc441f4c42310cd
[1715000] SCOREBOARD MATCH: wdata passthrough beat=21 expected = a762826911e94949, actual =a762826911e94949
[1715000] SCOREBOARD MATCH: wdata passthrough beat=22 expected = d57f21a2a2ba856a, actual =d57f21a2a2ba856a
[1715000] SCOREBOARD MATCH: wdata passthrough beat=23 expected = e6dd96383f9d669f, actual =e6dd96383f9d669f
[1715000] SCOREBOARD MATCH: wdata passthrough beat=24 expected = d186afe825436396, actual =d186afe825436396
[1715000] SCOREBOARD MATCH: wdata passthrough beat=25 expected = c7fde9008e4018a1, actual =c7fde9008e4018a1
[1715000] SCOREBOARD MATCH: wdata passthrough beat=26 expected = cddd7f402705d18a, actual =cddd7f402705d18a
[1715000] SCOREBOARD MATCH: wdata passthrough beat=27 expected = cc493520aedb7f38, actual =cc493520aedb7f38
[1715000] SCOREBOARD MATCH: wdata passthrough beat=28 expected = 3d1b97da9f642f28, actual =3d1b97da9f642f28
[1715000] SCOREBOARD MATCH: wdata passthrough beat=29 expected = c66a00b294471e20, actual =c66a00b294471e20
[1715000] SCOREBOARD MATCH: wdata passthrough beat=30 expected = c3229d598af9171a, actual =c3229d598af9171a
[1715000] SCOREBOARD MATCH: wdata passthrough beat=31 expected = 2a5d464392b335d2, actual =2a5d464392b335d2
[1715000] SCOREBOARD MATCH: wdata passthrough beat=32 expected = 26fa53f3003e3533, actual =26fa53f3003e3533
[1715000] SCOREBOARD MATCH: wdata passthrough beat=33 expected = 8b374c4df0c746f5, actual =8b374c4df0c746f5
[1715000] SCOREBOARD MATCH: wdata passthrough beat=34 expected = 37a7cc8ea1cf14c, actual =37a7cc8ea1cf14c
[1715000] SCOREBOARD MATCH: wdata passthrough beat=35 expected = ea5b267fb5949290, actual =ea5b267fb5949290
[1715000] SCOREBOARD MATCH: wdata passthrough beat=36 expected = 265bd9862a74d0bb, actual =265bd9862a74d0bb
[1715000] SCOREBOARD MATCH: wdata passthrough beat=37 expected = 1491c207f59272cc, actual =1491c207f59272cc
[1715000] SCOREBOARD MATCH: wdata passthrough beat=38 expected = 2b27055d29d6564e, actual =2b27055d29d6564e
[1715000] SCOREBOARD MATCH: wdata passthrough beat=39 expected = d44b2709feece886, actual =d44b2709feece886
[1715000] SCOREBOARD MATCH: wdata passthrough beat=40 expected = f47f5b52d182dee3, actual =f47f5b52d182dee3
[1715000] SCOREBOARD MATCH: wdata passthrough beat=41 expected = fb593531e8dce910, actual =fb593531e8dce910
[1715000] SCOREBOARD MATCH: wdata passthrough beat=42 expected = e7c9d1969fa660af, actual =e7c9d1969fa660af
[1715000] SCOREBOARD MATCH: wdata passthrough beat=43 expected = f1293f92cfa45c3a, actual =f1293f92cfa45c3a
[1715000] SCOREBOARD MATCH: wdata passthrough beat=44 expected = 3881454adc492ce8, actual =3881454adc492ce8
[1715000] SCOREBOARD MATCH: wdata passthrough beat=45 expected = fbef8d98ec8274c3, actual =fbef8d98ec8274c3
[1715000] SCOREBOARD MATCH: wdata passthrough beat=46 expected = bc26d0fd204b16e0, actual =bc26d0fd204b16e0
[1715000] SCOREBOARD MATCH: wdata passthrough beat=47 expected = fc9443c8ed18cd2a, actual =fc9443c8ed18cd2a
[1715000] SCOREBOARD MATCH: wdata passthrough beat=48 expected = d99b41eef4a81647, actual =d99b41eef4a81647
[1715000] SCOREBOARD MATCH: wdata passthrough beat=49 expected = 94f32d27f883d160, actual =94f32d27f883d160
[1715000] SCOREBOARD MATCH: wdata passthrough beat=50 expected = e59c9e8b95c212eb, actual =e59c9e8b95c212eb
[1715000] SCOREBOARD MATCH: wdata passthrough beat=51 expected = a6a2933118770f0, actual =a6a2933118770f0
[1715000] SCOREBOARD MATCH: wdata passthrough beat=52 expected = 8a0b42503f37e079, actual =8a0b42503f37e079
[1715000] SCOREBOARD MATCH: wdata passthrough beat=53 expected = d4f9f3649f5d565a, actual =d4f9f3649f5d565a
[1715000] SCOREBOARD MATCH: wdata passthrough beat=54 expected = b0e4c74aefa7e0db, actual =b0e4c74aefa7e0db
[1715000] SCOREBOARD MATCH: wdata passthrough beat=55 expected = aedfc154df641c97, actual =aedfc154df641c97
[1715000] SCOREBOARD MATCH: wdata passthrough beat=56 expected = fec172f23af0099b, actual =fec172f23af0099b
[1715000] SCOREBOARD MATCH: wdata passthrough beat=57 expected = aa97ea7603d9b4b9, actual =aa97ea7603d9b4b9
[1715000] SCOREBOARD MATCH: wdata passthrough beat=58 expected = e33dd150afa63a3c, actual =e33dd150afa63a3c
[1715000] SCOREBOARD MATCH: wdata passthrough beat=59 expected = ea9643d7d977abcb, actual =ea9643d7d977abcb
[1715000] SCOREBOARD MATCH: wdata passthrough beat=60 expected = dd516084e1ff4442, actual =dd516084e1ff4442
[1715000] SCOREBOARD MATCH: wdata passthrough beat=61 expected = 11a57e7f152e2e4e, actual =11a57e7f152e2e4e
[1715000] SCOREBOARD MATCH: wdata passthrough beat=62 expected = eea5da19c08f31d4, actual =eea5da19c08f31d4
[1715000] SCOREBOARD MATCH: wdata passthrough beat=63 expected = 228e7617fc3bc256, actual =228e7617fc3bc256
[1715000] SCOREBOARD MATCH: wdata passthrough beat=64 expected = 9169f0a4cbf73a9d, actual =9169f0a4cbf73a9d
[1715000] SCOREBOARD MATCH: wdata passthrough beat=65 expected = 8c866c713433f496, actual =8c866c713433f496
[1715000] SCOREBOARD MATCH: wdata passthrough beat=66 expected = b06fb6ec800fcabd, actual =b06fb6ec800fcabd
[1715000] SCOREBOARD MATCH: wdata passthrough beat=67 expected = cc07055aaf14e288, actual =cc07055aaf14e288
[1715000] SCOREBOARD MATCH: wdata passthrough beat=68 expected = e348d71ec1d9a791, actual =e348d71ec1d9a791
[1715000] SCOREBOARD MATCH: wdata passthrough beat=69 expected = c1e9724ed88d71cc, actual =c1e9724ed88d71cc
[1715000] SCOREBOARD MATCH: wdata passthrough beat=70 expected = 87a2545413b88e0b, actual =87a2545413b88e0b
[1715000] SCOREBOARD MATCH: wdata passthrough beat=71 expected = d592359c0df077a9, actual =d592359c0df077a9
[1715000] SCOREBOARD MATCH: wdata passthrough beat=72 expected = e67de975eaeb2b73, actual =e67de975eaeb2b73
[1715000] SCOREBOARD MATCH: wdata passthrough beat=73 expected = fea3b97e977ba7ea, actual =fea3b97e977ba7ea
[1715000] SCOREBOARD MATCH: wdata passthrough beat=74 expected = a56c1f93ee203dc9, actual =a56c1f93ee203dc9
[1715000] SCOREBOARD MATCH: wdata passthrough beat=75 expected = d90b693cd435ef1a, actual =d90b693cd435ef1a
[1715000] SCOREBOARD MATCH: wdata passthrough beat=76 expected = ebb197048bea0908, actual =ebb197048bea0908
[1715000] SCOREBOARD MATCH: wdata passthrough beat=77 expected = fa0a46d2d7af22ba, actual =fa0a46d2d7af22ba
[1715000] SCOREBOARD MATCH: wdata passthrough beat=78 expected = abe511d4111db698, actual =abe511d4111db698
[1715000] SCOREBOARD MATCH: wdata passthrough beat=79 expected = 9d07bfa0d315b00e, actual =9d07bfa0d315b00e
[1715000] SCOREBOARD MATCH: wdata passthrough beat=80 expected = 2ac4d2c91796a8d9, actual =2ac4d2c91796a8d9
[1715000] SCOREBOARD MATCH: wdata passthrough beat=81 expected = 28b45f7197120672, actual =28b45f7197120672
[1715000] SCOREBOARD MATCH: wdata passthrough beat=82 expected = ea27b681d6a9e49d, actual =ea27b681d6a9e49d
[1715000] SCOREBOARD MATCH: wdata passthrough beat=83 expected = ee408d76c5bc1f11, actual =ee408d76c5bc1f11
[1715000] SCOREBOARD MATCH: wdata passthrough beat=84 expected = dcce258414ec894a, actual =dcce258414ec894a
[1715000] SCOREBOARD MATCH: wdata passthrough beat=85 expected = eb966de796f4ece7, actual =eb966de796f4ece7
[1715000] SCOREBOARD MATCH: wdata passthrough beat=86 expected = dcb10bf9c6f5dc05, actual =dcb10bf9c6f5dc05
[1715000] SCOREBOARD MATCH: wdata passthrough beat=87 expected = dbe2654fd9d6fb5e, actual =dbe2654fd9d6fb5e
[1715000] SCOREBOARD MATCH: wdata passthrough beat=88 expected = f0cbe845397f317d, actual =f0cbe845397f317d
[1715000] SCOREBOARD MATCH: wdata passthrough beat=89 expected = 750d82c778d336, actual =750d82c778d336
[1715000] SCOREBOARD MATCH: wdata passthrough beat=90 expected = a14fce94cd7cf43e, actual =a14fce94cd7cf43e
[1715000] SCOREBOARD MATCH: wdata passthrough beat=91 expected = 86fc25bbdc5772d1, actual =86fc25bbdc5772d1
[1715000] SCOREBOARD MATCH: wdata passthrough beat=92 expected = a3d04607121bb6da, actual =a3d04607121bb6da
[1715000] SCOREBOARD MATCH: wdata passthrough beat=93 expected = df98ab188771333d, actual =df98ab188771333d
[1715000] SCOREBOARD MATCH: wdata passthrough beat=94 expected = e3c8a60ec520149c, actual =e3c8a60ec520149c
[1715000] SCOREBOARD MATCH: wdata passthrough beat=95 expected = d73bcb76e694d0d4, actual =d73bcb76e694d0d4
[1715000] SCOREBOARD MATCH: wdata passthrough beat=96 expected = ee0604110798ec16, actual =ee0604110798ec16
[1715000] SCOREBOARD MATCH: wdata passthrough beat=97 expected = ccb900b2b6d4768e, actual =ccb900b2b6d4768e
[1715000] SCOREBOARD MATCH: wdata passthrough beat=98 expected = 9d694762d1ceaa20, actual =9d694762d1ceaa20
[1715000] SCOREBOARD MATCH: wdata passthrough beat=99 expected = d967963623f4cc28, actual =d967963623f4cc28
[1715000] SCOREBOARD MATCH: wdata passthrough beat=100 expected = dac942b60b6f4b74, actual =dac942b60b6f4b74
[1715000] SCOREBOARD MATCH: wdata passthrough beat=101 expected = dd3df594262096e8, actual =dd3df594262096e8
[1715000] SCOREBOARD MATCH: wdata passthrough beat=102 expected = ca156310f8328a19, actual =ca156310f8328a19
[1715000] SCOREBOARD MATCH: wdata passthrough beat=103 expected = 3a1d58d36a58bca, actual =3a1d58d36a58bca
[1715000] SCOREBOARD MATCH: wdata passthrough beat=104 expected = dcc622b2a4dea5c6, actual =dcc622b2a4dea5c6
[1715000] SCOREBOARD MATCH: wdata passthrough beat=105 expected = 9d112fdfe0dfcb21, actual =9d112fdfe0dfcb21
[1715000] SCOREBOARD MATCH: wdata passthrough beat=106 expected = 178556eb26db85c2, actual =178556eb26db85c2
[1715000] SCOREBOARD MATCH: wdata passthrough beat=107 expected = cbba2b88a0b3056c, actual =cbba2b88a0b3056c
[1715000] SCOREBOARD MATCH: wdata passthrough beat=108 expected = 8192d08df44b799d, actual =8192d08df44b799d
[1715000] SCOREBOARD MATCH: wdata passthrough beat=109 expected = 1b26ff5fe8cb5b68, actual =1b26ff5fe8cb5b68
[1715000] SCOREBOARD MATCH: wdata passthrough beat=110 expected = 897e60d499182778, actual =897e60d499182778
[1715000] SCOREBOARD MATCH: wdata passthrough beat=111 expected = 8d63a115e6e12ae7, actual =8d63a115e6e12ae7
[1715000] SCOREBOARD MATCH: wdata passthrough beat=112 expected = cfac864f0b113162, actual =cfac864f0b113162
[1715000] SCOREBOARD MATCH: wdata passthrough beat=113 expected = a42958daa88aa074, actual =a42958daa88aa074
[1715000] SCOREBOARD MATCH: wdata passthrough beat=114 expected = f6bcb5cd92ae724, actual =f6bcb5cd92ae724
[1715000] SCOREBOARD MATCH: wdata passthrough beat=115 expected = e43c1886318cf9f0, actual =e43c1886318cf9f0
[1715000] SCOREBOARD MATCH: wdata passthrough beat=116 expected = da179a64df1851ab, actual =da179a64df1851ab
[1715000] SCOREBOARD MATCH: wdata passthrough beat=117 expected = b84338cf88657160, actual =b84338cf88657160
[1715000] SCOREBOARD MATCH: wdata passthrough beat=118 expected = b9f26b50e98365c0, actual =b9f26b50e98365c0
[1715000] SCOREBOARD MATCH: wdata passthrough beat=119 expected = c89bb76c9c7f5155, actual =c89bb76c9c7f5155
[1715000] SCOREBOARD MATCH: wdata passthrough beat=120 expected = 24e4c2b6140a05b5, actual =24e4c2b6140a05b5
[1715000] SCOREBOARD MATCH: wdata passthrough beat=121 expected = fd8d6b7580def03b, actual =fd8d6b7580def03b
[1715000] SCOREBOARD MATCH: wdata passthrough beat=122 expected = 1d5e4191ded72e06, actual =1d5e4191ded72e06
[1715000] SCOREBOARD MATCH: wdata passthrough beat=123 expected = f2e133bbc62922e1, actual =f2e133bbc62922e1
[1715000] SCOREBOARD MATCH: wdata passthrough beat=124 expected = c708131dc2430447, actual =c708131dc2430447
[1715000] SCOREBOARD MATCH: wdata passthrough beat=125 expected = a11a324df06e9f31, actual =a11a324df06e9f31
[1715000] SCOREBOARD MATCH: wdata passthrough beat=126 expected = b697c212e46654ae, actual =b697c212e46654ae
[1715000] SCOREBOARD MATCH: wdata passthrough beat=127 expected = 26a958f513fb6609, actual =26a958f513fb6609
[1715000] SCOREBOARD MATCH: wdata passthrough beat=128 expected = 46a053afd9fd52f, actual =46a053afd9fd52f
[1715000] SCOREBOARD MATCH: wdata passthrough beat=129 expected = e20629ddc7c38b42, actual =e20629ddc7c38b42
[1715000] SCOREBOARD MATCH: wdata passthrough beat=130 expected = dbbef14bbb01c74c, actual =dbbef14bbb01c74c
[1715000] SCOREBOARD MATCH: wdata passthrough beat=131 expected = 38a19c7c88af82d2, actual =38a19c7c88af82d2
[1715000] SCOREBOARD MATCH: wdata passthrough beat=132 expected = d0730e15e028f685, actual =d0730e15e028f685
[1715000] SCOREBOARD MATCH: wdata passthrough beat=133 expected = 1b2abdd29aa7c659, actual =1b2abdd29aa7c659
[1715000] SCOREBOARD MATCH: wdata passthrough beat=134 expected = 2357492cac31ff60, actual =2357492cac31ff60
[1715000] SCOREBOARD MATCH: wdata passthrough beat=135 expected = c5af5e6d3cc5a4e, actual =c5af5e6d3cc5a4e
[1715000] SCOREBOARD MATCH: wdata passthrough beat=136 expected = ee7420a7f3ca5741, actual =ee7420a7f3ca5741
[1715000] SCOREBOARD MATCH: wdata passthrough beat=137 expected = 9ffc56a12785b3b8, actual =9ffc56a12785b3b8
[1715000] SCOREBOARD MATCH: wdata passthrough beat=138 expected = fb520e0691cb69d3, actual =fb520e0691cb69d3
[1715000] SCOREBOARD MATCH: wdata passthrough beat=139 expected = 8595c114ac574c87, actual =8595c114ac574c87
[1715000] SCOREBOARD MATCH: wdata passthrough beat=140 expected = d3dd003fe9c62ead, actual =d3dd003fe9c62ead
[1715000] SCOREBOARD MATCH: wdata passthrough beat=141 expected = fb919881259217b6, actual =fb919881259217b6
[1715000] SCOREBOARD MATCH: wdata passthrough beat=142 expected = d1e9643dcf2f0e45, actual =d1e9643dcf2f0e45
[1715000] SCOREBOARD MATCH: wdata passthrough beat=143 expected = 38f53cf381275995, actual =38f53cf381275995
[1715000] SCOREBOARD MATCH: wdata passthrough beat=144 expected = a6b9714b25c6647d, actual =a6b9714b25c6647d
[1715000] SCOREBOARD MATCH: wdata passthrough beat=145 expected = f4f572c23486d574, actual =f4f572c23486d574
[1715000] SCOREBOARD MATCH: wdata passthrough beat=146 expected = b5ae2f09f8a2d589, actual =b5ae2f09f8a2d589
[1715000] SCOREBOARD MATCH: wdata passthrough beat=147 expected = 1e693a06adeaafb5, actual =1e693a06adeaafb5
[1715000] SCOREBOARD MATCH: wdata passthrough beat=148 expected = e2718529dc67a055, actual =e2718529dc67a055
[1715000] SCOREBOARD MATCH: wdata passthrough beat=149 expected = d50a75de935eacc8, actual =d50a75de935eacc8
[1715000] SCOREBOARD MATCH: wdata passthrough beat=150 expected = c1495c7e181fb433, actual =c1495c7e181fb433
[1715000] SCOREBOARD MATCH: wdata passthrough beat=151 expected = f4875488f373afe4, actual =f4875488f373afe4
[1715000] SCOREBOARD MATCH: wdata passthrough beat=152 expected = 86d25caca3bae1a7, actual =86d25caca3bae1a7
[1715000] SCOREBOARD MATCH: wdata passthrough beat=153 expected = bbda95dac991ca66, actual =bbda95dac991ca66
[1715000] SCOREBOARD MATCH: wdata passthrough beat=154 expected = 3d057a4ac81bb92a, actual =3d057a4ac81bb92a
[1715000] SCOREBOARD MATCH: wdata passthrough beat=155 expected = ebd69ad2b061ea62, actual =ebd69ad2b061ea62
[1715000] SCOREBOARD MATCH: wdata passthrough beat=156 expected = f9f3b4c8c3d7d6f6, actual =f9f3b4c8c3d7d6f6
[1715000] SCOREBOARD MATCH: wdata passthrough beat=157 expected = bf39021a7b130ac, actual =bf39021a7b130ac
[1715000] SCOREBOARD MATCH: wdata passthrough beat=158 expected = d8131b0fb6f92f12, actual =d8131b0fb6f92f12
[1715000] SCOREBOARD MATCH: wdata passthrough beat=159 expected = fad10609f7ca2af3, actual =fad10609f7ca2af3
[1715000] SCOREBOARD MATCH: wdata passthrough beat=160 expected = 9f7b5b9fd206cfd7, actual =9f7b5b9fd206cfd7
[1715000] SCOREBOARD MATCH: wdata passthrough beat=161 expected = 8fffeea06c4962a, actual =8fffeea06c4962a
[1715000] SCOREBOARD MATCH: wdata passthrough beat=162 expected = fe8ec11df78e76ae, actual =fe8ec11df78e76ae
[1715000] SCOREBOARD MATCH: wstrb size check expected = a3, actual =a3
[1715000] SCOREBOARD MATCH: wstrb passthrough beat=0 expected = f3, actual =f3
[1715000] SCOREBOARD MATCH: wstrb passthrough beat=1 expected = 86, actual =86
[1715000] SCOREBOARD MATCH: wstrb passthrough beat=2 expected = bc, actual =bc
[1715000] SCOREBOARD MATCH: wstrb passthrough beat=3 expected = 1d, actual =1d
[1715000] SCOREBOARD MATCH: wstrb passthrough beat=4 expected = 70, actual =70
[1715000] SCOREBOARD MATCH: wstrb passthrough beat=5 expected = 6b, actual =6b
[1715000] SCOREBOARD MATCH: wstrb passthrough beat=6 expected = 3a, actual =3a
[1715000] SCOREBOARD MATCH: wstrb passthrough beat=7 expected = 63, actual =63
[1715000] SCOREBOARD MATCH: wstrb passthrough beat=8 expected = f1, actual =f1
[1715000] SCOREBOARD MATCH: wstrb passthrough beat=9 expected = f6, actual =f6
[1715000] SCOREBOARD MATCH: wstrb passthrough beat=10 expected = 80, actual =80
[1715000] SCOREBOARD MATCH: wstrb passthrough beat=11 expected = 61, actual =61
[1715000] SCOREBOARD MATCH: wstrb passthrough beat=12 expected = 61, actual =61
[1715000] SCOREBOARD MATCH: wstrb passthrough beat=13 expected = ba, actual =ba
[1715000] SCOREBOARD MATCH: wstrb passthrough beat=14 expected = c4, actual =c4
[1715000] SCOREBOARD MATCH: wstrb passthrough beat=15 expected = 52, actual =52
[1715000] SCOREBOARD MATCH: wstrb passthrough beat=16 expected = b0, actual =b0
[1715000] SCOREBOARD MATCH: wstrb passthrough beat=17 expected = 44, actual =44
[1715000] SCOREBOARD MATCH: wstrb passthrough beat=18 expected = b3, actual =b3
[1715000] SCOREBOARD MATCH: wstrb passthrough beat=19 expected = 12, actual =12
[1715000] SCOREBOARD MATCH: wstrb passthrough beat=20 expected = fe, actual =fe
[1715000] SCOREBOARD MATCH: wstrb passthrough beat=21 expected = 77, actual =77
[1715000] SCOREBOARD MATCH: wstrb passthrough beat=22 expected = 64, actual =64
[1715000] SCOREBOARD MATCH: wstrb passthrough beat=23 expected = ae, actual =ae
[1715000] SCOREBOARD MATCH: wstrb passthrough beat=24 expected = bb, actual =bb
[1715000] SCOREBOARD MATCH: wstrb passthrough beat=25 expected = 18, actual =18
[1715000] SCOREBOARD MATCH: wstrb passthrough beat=26 expected = c0, actual =c0
[1715000] SCOREBOARD MATCH: wstrb passthrough beat=27 expected = b9, actual =b9
[1715000] SCOREBOARD MATCH: wstrb passthrough beat=28 expected = 8f, actual =8f
[1715000] SCOREBOARD MATCH: wstrb passthrough beat=29 expected = 25, actual =25
[1715000] SCOREBOARD MATCH: wstrb passthrough beat=30 expected = 68, actual =68
[1715000] SCOREBOARD MATCH: wstrb passthrough beat=31 expected = 4b, actual =4b
[1715000] SCOREBOARD MATCH: wstrb passthrough beat=32 expected = 3d, actual =3d
[1715000] SCOREBOARD MATCH: wstrb passthrough beat=33 expected = 28, actual =28
[1715000] SCOREBOARD MATCH: wstrb passthrough beat=34 expected = 4, actual =4
[1715000] SCOREBOARD MATCH: wstrb passthrough beat=35 expected = cc, actual =cc
[1715000] SCOREBOARD MATCH: wstrb passthrough beat=36 expected = 4d, actual =4d
[1715000] SCOREBOARD MATCH: wstrb passthrough beat=37 expected = 6c, actual =6c
[1715000] SCOREBOARD MATCH: wstrb passthrough beat=38 expected = 17, actual =17
[1715000] SCOREBOARD MATCH: wstrb passthrough beat=39 expected = 8a, actual =8a
[1715000] SCOREBOARD MATCH: wstrb passthrough beat=40 expected = 95, actual =95
[1715000] SCOREBOARD MATCH: wstrb passthrough beat=41 expected = 1c, actual =1c
[1715000] SCOREBOARD MATCH: wstrb passthrough beat=42 expected = 57, actual =57
[1715000] SCOREBOARD MATCH: wstrb passthrough beat=43 expected = e2, actual =e2
[1715000] SCOREBOARD MATCH: wstrb passthrough beat=44 expected = 88, actual =88
[1715000] SCOREBOARD MATCH: wstrb passthrough beat=45 expected = 6e, actual =6e
[1715000] SCOREBOARD MATCH: wstrb passthrough beat=46 expected = 6d, actual =6d
[1715000] SCOREBOARD MATCH: wstrb passthrough beat=47 expected = 1d, actual =1d
[1715000] SCOREBOARD MATCH: wstrb passthrough beat=48 expected = 8a, actual =8a
[1715000] SCOREBOARD MATCH: wstrb passthrough beat=49 expected = c4, actual =c4
[1715000] SCOREBOARD MATCH: wstrb passthrough beat=50 expected = 0, actual =0
[1715000] SCOREBOARD MATCH: wstrb passthrough beat=51 expected = 13, actual =13
[1715000] SCOREBOARD MATCH: wstrb passthrough beat=52 expected = 32, actual =32
[1715000] SCOREBOARD MATCH: wstrb passthrough beat=53 expected = 6d, actual =6d
[1715000] SCOREBOARD MATCH: wstrb passthrough beat=54 expected = 30, actual =30
[1715000] SCOREBOARD MATCH: wstrb passthrough beat=55 expected = bd, actual =bd
[1715000] SCOREBOARD MATCH: wstrb passthrough beat=56 expected = 31, actual =31
[1715000] SCOREBOARD MATCH: wstrb passthrough beat=57 expected = 30, actual =30
[1715000] SCOREBOARD MATCH: wstrb passthrough beat=58 expected = d0, actual =d0
[1715000] SCOREBOARD MATCH: wstrb passthrough beat=59 expected = 63, actual =63
[1715000] SCOREBOARD MATCH: wstrb passthrough beat=60 expected = 9d, actual =9d
[1715000] SCOREBOARD MATCH: wstrb passthrough beat=61 expected = 0, actual =0
[1715000] SCOREBOARD MATCH: wstrb passthrough beat=62 expected = 20, actual =20
[1715000] SCOREBOARD MATCH: wstrb passthrough beat=63 expected = ce, actual =ce
[1715000] SCOREBOARD MATCH: wstrb passthrough beat=64 expected = 31, actual =31
[1715000] SCOREBOARD MATCH: wstrb passthrough beat=65 expected = f0, actual =f0
[1715000] SCOREBOARD MATCH: wstrb passthrough beat=66 expected = 32, actual =32
[1715000] SCOREBOARD MATCH: wstrb passthrough beat=67 expected = ce, actual =ce
[1715000] SCOREBOARD MATCH: wstrb passthrough beat=68 expected = f1, actual =f1
[1715000] SCOREBOARD MATCH: wstrb passthrough beat=69 expected = 52, actual =52
[1715000] SCOREBOARD MATCH: wstrb passthrough beat=70 expected = 9d, actual =9d
[1715000] SCOREBOARD MATCH: wstrb passthrough beat=71 expected = 22, actual =22
[1715000] SCOREBOARD MATCH: wstrb passthrough beat=72 expected = 43, actual =43
[1715000] SCOREBOARD MATCH: wstrb passthrough beat=73 expected = cf, actual =cf
[1715000] SCOREBOARD MATCH: wstrb passthrough beat=74 expected = f0, actual =f0
[1715000] SCOREBOARD MATCH: wstrb passthrough beat=75 expected = 34, actual =34
[1715000] SCOREBOARD MATCH: wstrb passthrough beat=76 expected = 21, actual =21
[1715000] SCOREBOARD MATCH: wstrb passthrough beat=77 expected = 8d, actual =8d
[1715000] SCOREBOARD MATCH: wstrb passthrough beat=78 expected = 56, actual =56
[1715000] SCOREBOARD MATCH: wstrb passthrough beat=79 expected = 64, actual =64
[1715000] SCOREBOARD MATCH: wstrb passthrough beat=80 expected = 5c, actual =5c
[1715000] SCOREBOARD MATCH: wstrb passthrough beat=81 expected = 46, actual =46
[1715000] SCOREBOARD MATCH: wstrb passthrough beat=82 expected = 98, actual =98
[1715000] SCOREBOARD MATCH: wstrb passthrough beat=83 expected = 7e, actual =7e
[1715000] SCOREBOARD MATCH: wstrb passthrough beat=84 expected = d4, actual =d4
[1715000] SCOREBOARD MATCH: wstrb passthrough beat=85 expected = ee, actual =ee
[1715000] SCOREBOARD MATCH: wstrb passthrough beat=86 expected = e2, actual =e2
[1715000] SCOREBOARD MATCH: wstrb passthrough beat=87 expected = 30, actual =30
[1715000] SCOREBOARD MATCH: wstrb passthrough beat=88 expected = 35, actual =35
[1715000] SCOREBOARD MATCH: wstrb passthrough beat=89 expected = 7b, actual =7b
[1715000] SCOREBOARD MATCH: wstrb passthrough beat=90 expected = ae, actual =ae
[1715000] SCOREBOARD MATCH: wstrb passthrough beat=91 expected = 9, actual =9
[1715000] SCOREBOARD MATCH: wstrb passthrough beat=92 expected = 69, actual =69
[1715000] SCOREBOARD MATCH: wstrb passthrough beat=93 expected = 91, actual =91
[1715000] SCOREBOARD MATCH: wstrb passthrough beat=94 expected = 39, actual =39
[1715000] SCOREBOARD MATCH: wstrb passthrough beat=95 expected = 9e, actual =9e
[1715000] SCOREBOARD MATCH: wstrb passthrough beat=96 expected = c, actual =c
[1715000] SCOREBOARD MATCH: wstrb passthrough beat=97 expected = e8, actual =e8
[1715000] SCOREBOARD MATCH: wstrb passthrough beat=98 expected = a7, actual =a7
[1715000] SCOREBOARD MATCH: wstrb passthrough beat=99 expected = 75, actual =75
[1715000] SCOREBOARD MATCH: wstrb passthrough beat=100 expected = 79, actual =79
[1715000] SCOREBOARD MATCH: wstrb passthrough beat=101 expected = e1, actual =e1
[1715000] SCOREBOARD MATCH: wstrb passthrough beat=102 expected = 14, actual =14
[1715000] SCOREBOARD MATCH: wstrb passthrough beat=103 expected = 85, actual =85
[1715000] SCOREBOARD MATCH: wstrb passthrough beat=104 expected = c9, actual =c9
[1715000] SCOREBOARD MATCH: wstrb passthrough beat=105 expected = bb, actual =bb
[1715000] SCOREBOARD MATCH: wstrb passthrough beat=106 expected = fa, actual =fa
[1715000] SCOREBOARD MATCH: wstrb passthrough beat=107 expected = 42, actual =42
[1715000] SCOREBOARD MATCH: wstrb passthrough beat=108 expected = 9c, actual =9c
[1715000] SCOREBOARD MATCH: wstrb passthrough beat=109 expected = e, actual =e
[1715000] SCOREBOARD MATCH: wstrb passthrough beat=110 expected = c7, actual =c7
[1715000] SCOREBOARD MATCH: wstrb passthrough beat=111 expected = 65, actual =65
[1715000] SCOREBOARD MATCH: wstrb passthrough beat=112 expected = ca, actual =ca
[1715000] SCOREBOARD MATCH: wstrb passthrough beat=113 expected = c1, actual =c1
[1715000] SCOREBOARD MATCH: wstrb passthrough beat=114 expected = a7, actual =a7
[1715000] SCOREBOARD MATCH: wstrb passthrough beat=115 expected = 66, actual =66
[1715000] SCOREBOARD MATCH: wstrb passthrough beat=116 expected = d0, actual =d0
[1715000] SCOREBOARD MATCH: wstrb passthrough beat=117 expected = 6e, actual =6e
[1715000] SCOREBOARD MATCH: wstrb passthrough beat=118 expected = cc, actual =cc
[1715000] SCOREBOARD MATCH: wstrb passthrough beat=119 expected = 9a, actual =9a
[1715000] SCOREBOARD MATCH: wstrb passthrough beat=120 expected = 30, actual =30
[1715000] SCOREBOARD MATCH: wstrb passthrough beat=121 expected = 73, actual =73
[1715000] SCOREBOARD MATCH: wstrb passthrough beat=122 expected = 0, actual =0
[1715000] SCOREBOARD MATCH: wstrb passthrough beat=123 expected = 0, actual =0
[1715000] SCOREBOARD MATCH: wstrb passthrough beat=124 expected = e2, actual =e2
[1715000] SCOREBOARD MATCH: wstrb passthrough beat=125 expected = cc, actual =cc
[1715000] SCOREBOARD MATCH: wstrb passthrough beat=126 expected = 9a, actual =9a
[1715000] SCOREBOARD MATCH: wstrb passthrough beat=127 expected = 12, actual =12
[1715000] SCOREBOARD MATCH: wstrb passthrough beat=128 expected = 40, actual =40
[1715000] SCOREBOARD MATCH: wstrb passthrough beat=129 expected = 9a, actual =9a
[1715000] SCOREBOARD MATCH: wstrb passthrough beat=130 expected = 12, actual =12
[1715000] SCOREBOARD MATCH: wstrb passthrough beat=131 expected = 22, actual =22
[1715000] SCOREBOARD MATCH: wstrb passthrough beat=132 expected = 67, actual =67
[1715000] SCOREBOARD MATCH: wstrb passthrough beat=133 expected = ac, actual =ac
[1715000] SCOREBOARD MATCH: wstrb passthrough beat=134 expected = 34, actual =34
[1715000] SCOREBOARD MATCH: wstrb passthrough beat=135 expected = a7, actual =a7
[1715000] SCOREBOARD MATCH: wstrb passthrough beat=136 expected = 46, actual =46
[1715000] SCOREBOARD MATCH: wstrb passthrough beat=137 expected = 46, actual =46
[1715000] SCOREBOARD MATCH: wstrb passthrough beat=138 expected = c9, actual =c9
[1715000] SCOREBOARD MATCH: wstrb passthrough beat=139 expected = ad, actual =ad
[1715000] SCOREBOARD MATCH: wstrb passthrough beat=140 expected = f2, actual =f2
[1715000] SCOREBOARD MATCH: wstrb passthrough beat=141 expected = fd, actual =fd
[1715000] SCOREBOARD MATCH: wstrb passthrough beat=142 expected = 54, actual =54
[1715000] SCOREBOARD MATCH: wstrb passthrough beat=143 expected = 38, actual =38
[1715000] SCOREBOARD MATCH: wstrb passthrough beat=144 expected = 43, actual =43
[1715000] SCOREBOARD MATCH: wstrb passthrough beat=145 expected = 1d, actual =1d
[1715000] SCOREBOARD MATCH: wstrb passthrough beat=146 expected = e6, actual =e6
[1715000] SCOREBOARD MATCH: wstrb passthrough beat=147 expected = 35, actual =35
[1715000] SCOREBOARD MATCH: wstrb passthrough beat=148 expected = 1a, actual =1a
[1715000] SCOREBOARD MATCH: wstrb passthrough beat=149 expected = 3a, actual =3a
[1715000] SCOREBOARD MATCH: wstrb passthrough beat=150 expected = 6d, actual =6d
[1715000] SCOREBOARD MATCH: wstrb passthrough beat=151 expected = 5d, actual =5d
[1715000] SCOREBOARD MATCH: wstrb passthrough beat=152 expected = 58, actual =58
[1715000] SCOREBOARD MATCH: wstrb passthrough beat=153 expected = 53, actual =53
[1715000] SCOREBOARD MATCH: wstrb passthrough beat=154 expected = 92, actual =92
[1715000] SCOREBOARD MATCH: wstrb passthrough beat=155 expected = 72, actual =72
[1715000] SCOREBOARD MATCH: wstrb passthrough beat=156 expected = 8e, actual =8e
[1715000] SCOREBOARD MATCH: wstrb passthrough beat=157 expected = 0, actual =0
[1715000] SCOREBOARD MATCH: wstrb passthrough beat=158 expected = d0, actual =d0
[1715000] SCOREBOARD MATCH: wstrb passthrough beat=159 expected = e6, actual =e6
[1715000] SCOREBOARD MATCH: wstrb passthrough beat=160 expected = 53, actual =53
[1715000] SCOREBOARD MATCH: wstrb passthrough beat=161 expected = 62, actual =62
[1715000] SCOREBOARD MATCH: wstrb passthrough beat=162 expected = 58, actual =58
[1715000] SCOREBOARD MATCH: bresp passthrough expected = 0, actual =0
[1715000] SCOREBOARD MATCH: response routed to correct master (write) expected = 1, actual =1
[1715000] [SCOREBOARD-M] mst_id=1 s_id=0 awaddr=18dd098 awid=110 awlen=162 awsize=6 awburst=1 wdata=[f2a4b1f917000c07 cfbdcc28d0f9923f d0af4ce1961d7ddc ad1d89e3bcccc2d8 dc65518c353feda d9717cb7fcdb560b 39a818e4de75a1f9 21c9a0d4868f069a 36a5ca6c76e6dfc a5e40ff5fb3b1d8b 81ca24253d12758a 480e386c7adb0c9 c2e8ce54853480cb c246f655aa64f37b f212a445c4b2f27a c9e77345c6c7d9db f12ccd57b4fb7299 f9ae65130c2e699b d2f64376e33f719c 983ae435c395d859 cfc441f4c42310cd a762826911e94949 d57f21a2a2ba856a e6dd96383f9d669f d186afe825436396 c7fde9008e4018a1 cddd7f402705d18a cc493520aedb7f38 3d1b97da9f642f28 c66a00b294471e20 c3229d598af9171a 2a5d464392b335d2 26fa53f3003e3533 8b374c4df0c746f5 37a7cc8ea1cf14c ea5b267fb5949290 265bd9862a74d0bb 1491c207f59272cc 2b27055d29d6564e d44b2709feece886 f47f5b52d182dee3 fb593531e8dce910 e7c9d1969fa660af f1293f92cfa45c3a 3881454adc492ce8 fbef8d98ec8274c3 bc26d0fd204b16e0 fc9443c8ed18cd2a d99b41eef4a81647 94f32d27f883d160 e59c9e8b95c212eb a6a2933118770f0 8a0b42503f37e079 d4f9f3649f5d565a b0e4c74aefa7e0db aedfc154df641c97 fec172f23af0099b aa97ea7603d9b4b9 e33dd150afa63a3c ea9643d7d977abcb dd516084e1ff4442 11a57e7f152e2e4e eea5da19c08f31d4 228e7617fc3bc256 9169f0a4cbf73a9d 8c866c713433f496 b06fb6ec800fcabd cc07055aaf14e288 e348d71ec1d9a791 c1e9724ed88d71cc 87a2545413b88e0b d592359c0df077a9 e67de975eaeb2b73 fea3b97e977ba7ea a56c1f93ee203dc9 d90b693cd435ef1a ebb197048bea0908 fa0a46d2d7af22ba abe511d4111db698 9d07bfa0d315b00e 2ac4d2c91796a8d9 28b45f7197120672 ea27b681d6a9e49d ee408d76c5bc1f11 dcce258414ec894a eb966de796f4ece7 dcb10bf9c6f5dc05 dbe2654fd9d6fb5e f0cbe845397f317d 750d82c778d336 a14fce94cd7cf43e 86fc25bbdc5772d1 a3d04607121bb6da df98ab188771333d e3c8a60ec520149c d73bcb76e694d0d4 ee0604110798ec16 ccb900b2b6d4768e 9d694762d1ceaa20 d967963623f4cc28 dac942b60b6f4b74 dd3df594262096e8 ca156310f8328a19 3a1d58d36a58bca dcc622b2a4dea5c6 9d112fdfe0dfcb21 178556eb26db85c2 cbba2b88a0b3056c 8192d08df44b799d 1b26ff5fe8cb5b68 897e60d499182778 8d63a115e6e12ae7 cfac864f0b113162 a42958daa88aa074 f6bcb5cd92ae724 e43c1886318cf9f0 da179a64df1851ab b84338cf88657160 b9f26b50e98365c0 c89bb76c9c7f5155 24e4c2b6140a05b5 fd8d6b7580def03b 1d5e4191ded72e06 f2e133bbc62922e1 c708131dc2430447 a11a324df06e9f31 b697c212e46654ae 26a958f513fb6609 46a053afd9fd52f e20629ddc7c38b42 dbbef14bbb01c74c 38a19c7c88af82d2 d0730e15e028f685 1b2abdd29aa7c659 2357492cac31ff60 c5af5e6d3cc5a4e ee7420a7f3ca5741 9ffc56a12785b3b8 fb520e0691cb69d3 8595c114ac574c87 d3dd003fe9c62ead fb919881259217b6 d1e9643dcf2f0e45 38f53cf381275995 a6b9714b25c6647d f4f572c23486d574 b5ae2f09f8a2d589 1e693a06adeaafb5 e2718529dc67a055 d50a75de935eacc8 c1495c7e181fb433 f4875488f373afe4 86d25caca3bae1a7 bbda95dac991ca66 3d057a4ac81bb92a ebd69ad2b061ea62 f9f3b4c8c3d7d6f6 bf39021a7b130ac d8131b0fb6f92f12 fad10609f7ca2af3 9f7b5b9fd206cfd7 8fffeea06c4962a fe8ec11df78e76ae ] wstrb=[f3 86 bc 1d 70 6b 3a 63 f1 f6 80 61 61 ba c4 52 b0 44 b3 12 fe 77 64 ae bb 18 c0 b9 8f 25 68 4b 3d 28 4 cc 4d 6c 17 8a 95 1c 57 e2 88 6e 6d 1d 8a c4 0 13 32 6d 30 bd 31 30 d0 63 9d 0 20 ce 31 f0 32 ce f1 52 9d 22 43 cf f0 34 21 8d 56 64 5c 46 98 7e d4 ee e2 30 35 7b ae 9 69 91 39 9e c e8 a7 75 79 e1 14 85 c9 bb fa 42 9c e c7 65 ca c1 a7 66 d0 6e cc 9a 30 73 0 0 e2 cc 9a 12 40 9a 12 22 67 ac 34 a7 46 46 c9 ad f2 fd 54 38 43 1d e6 35 1a 3a 6d 5d 58 53 92 72 8e 0 d0 e6 53 62 58 ] bresp=0 bid=110
[1715000] [SCOREBOARD-S] mst_id=1 s_id=0 awaddr=18dd098 awid=110 awlen=162 awsize=6 awburst=1 wdata=[f2a4b1f917000c07 cfbdcc28d0f9923f d0af4ce1961d7ddc ad1d89e3bcccc2d8 dc65518c353feda d9717cb7fcdb560b 39a818e4de75a1f9 21c9a0d4868f069a 36a5ca6c76e6dfc a5e40ff5fb3b1d8b 81ca24253d12758a 480e386c7adb0c9 c2e8ce54853480cb c246f655aa64f37b f212a445c4b2f27a c9e77345c6c7d9db f12ccd57b4fb7299 f9ae65130c2e699b d2f64376e33f719c 983ae435c395d859 cfc441f4c42310cd a762826911e94949 d57f21a2a2ba856a e6dd96383f9d669f d186afe825436396 c7fde9008e4018a1 cddd7f402705d18a cc493520aedb7f38 3d1b97da9f642f28 c66a00b294471e20 c3229d598af9171a 2a5d464392b335d2 26fa53f3003e3533 8b374c4df0c746f5 37a7cc8ea1cf14c ea5b267fb5949290 265bd9862a74d0bb 1491c207f59272cc 2b27055d29d6564e d44b2709feece886 f47f5b52d182dee3 fb593531e8dce910 e7c9d1969fa660af f1293f92cfa45c3a 3881454adc492ce8 fbef8d98ec8274c3 bc26d0fd204b16e0 fc9443c8ed18cd2a d99b41eef4a81647 94f32d27f883d160 e59c9e8b95c212eb a6a2933118770f0 8a0b42503f37e079 d4f9f3649f5d565a b0e4c74aefa7e0db aedfc154df641c97 fec172f23af0099b aa97ea7603d9b4b9 e33dd150afa63a3c ea9643d7d977abcb dd516084e1ff4442 11a57e7f152e2e4e eea5da19c08f31d4 228e7617fc3bc256 9169f0a4cbf73a9d 8c866c713433f496 b06fb6ec800fcabd cc07055aaf14e288 e348d71ec1d9a791 c1e9724ed88d71cc 87a2545413b88e0b d592359c0df077a9 e67de975eaeb2b73 fea3b97e977ba7ea a56c1f93ee203dc9 d90b693cd435ef1a ebb197048bea0908 fa0a46d2d7af22ba abe511d4111db698 9d07bfa0d315b00e 2ac4d2c91796a8d9 28b45f7197120672 ea27b681d6a9e49d ee408d76c5bc1f11 dcce258414ec894a eb966de796f4ece7 dcb10bf9c6f5dc05 dbe2654fd9d6fb5e f0cbe845397f317d 750d82c778d336 a14fce94cd7cf43e 86fc25bbdc5772d1 a3d04607121bb6da df98ab188771333d e3c8a60ec520149c d73bcb76e694d0d4 ee0604110798ec16 ccb900b2b6d4768e 9d694762d1ceaa20 d967963623f4cc28 dac942b60b6f4b74 dd3df594262096e8 ca156310f8328a19 3a1d58d36a58bca dcc622b2a4dea5c6 9d112fdfe0dfcb21 178556eb26db85c2 cbba2b88a0b3056c 8192d08df44b799d 1b26ff5fe8cb5b68 897e60d499182778 8d63a115e6e12ae7 cfac864f0b113162 a42958daa88aa074 f6bcb5cd92ae724 e43c1886318cf9f0 da179a64df1851ab b84338cf88657160 b9f26b50e98365c0 c89bb76c9c7f5155 24e4c2b6140a05b5 fd8d6b7580def03b 1d5e4191ded72e06 f2e133bbc62922e1 c708131dc2430447 a11a324df06e9f31 b697c212e46654ae 26a958f513fb6609 46a053afd9fd52f e20629ddc7c38b42 dbbef14bbb01c74c 38a19c7c88af82d2 d0730e15e028f685 1b2abdd29aa7c659 2357492cac31ff60 c5af5e6d3cc5a4e ee7420a7f3ca5741 9ffc56a12785b3b8 fb520e0691cb69d3 8595c114ac574c87 d3dd003fe9c62ead fb919881259217b6 d1e9643dcf2f0e45 38f53cf381275995 a6b9714b25c6647d f4f572c23486d574 b5ae2f09f8a2d589 1e693a06adeaafb5 e2718529dc67a055 d50a75de935eacc8 c1495c7e181fb433 f4875488f373afe4 86d25caca3bae1a7 bbda95dac991ca66 3d057a4ac81bb92a ebd69ad2b061ea62 f9f3b4c8c3d7d6f6 bf39021a7b130ac d8131b0fb6f92f12 fad10609f7ca2af3 9f7b5b9fd206cfd7 8fffeea06c4962a fe8ec11df78e76ae ] wstrb=[f3 86 bc 1d 70 6b 3a 63 f1 f6 80 61 61 ba c4 52 b0 44 b3 12 fe 77 64 ae bb 18 c0 b9 8f 25 68 4b 3d 28 4 cc 4d 6c 17 8a 95 1c 57 e2 88 6e 6d 1d 8a c4 0 13 32 6d 30 bd 31 30 d0 63 9d 0 20 ce 31 f0 32 ce f1 52 9d 22 43 cf f0 34 21 8d 56 64 5c 46 98 7e d4 ee e2 30 35 7b ae 9 69 91 39 9e c e8 a7 75 79 e1 14 85 c9 bb fa 42 9c e c7 65 ca c1 a7 66 d0 6e cc 9a 30 73 0 0 e2 cc 9a 12 40 9a 12 22 67 ac 34 a7 46 46 c9 ad f2 fd 54 38 43 1d e6 35 1a 3a 6d 5d 58 53 92 72 8e 0 d0 e6 53 62 58 ] bresp=0 bid=10110
[1715000] SCOREBOARD: Transaction 3 received. pass=364 fail=0
[1715000] ALL PASS. Total transactions: 3
[1725000] MASTER 1 W_VALID_RDY Handshake beat=1 wlast=0
[1725000] AXI S0_WVALID_RDY HANDSHAKE
[1725000] S0 MEMORY WRITE beat=0 addr=0c2cdaa8 data=04aeb51807ac0da4 id=1b
[1735000] AXI S0_WVALID_RDY HANDSHAKE
[1735000] S0 MEMORY WRITE beat=1 addr=0c2cdaa8 data=e56e77fb0a10a57b id=1b
[1735000] MASTER 1 W_VALID_RDY Handshake beat=2 wlast=0
[1745000] MASTER 1 W_VALID_RDY Handshake beat=3 wlast=0
[1745000] AXI S0_WVALID_RDY HANDSHAKE
[1745000] S0 MEMORY WRITE beat=2 addr=0c2cdaa8 data=e6d372efdbcae30b id=1b
[1755000] AXI S0_WVALID_RDY HANDSHAKE
[1755000] S0 MEMORY WRITE beat=3 addr=0c2cdaa8 data=e376f0afd1f98221 id=1b
[1755000] MASTER 1 W_VALID_RDY Handshake beat=4 wlast=0
[1765000] MASTER 1 W_VALID_RDY Handshake beat=5 wlast=0
[1765000] AXI S0_WVALID_RDY HANDSHAKE
[1765000] S0 MEMORY WRITE beat=4 addr=0c2cdaa8 data=dc0a279ceb822807 id=1b
[1775000] AXI S0_WVALID_RDY HANDSHAKE
[1775000] S0 MEMORY WRITE beat=5 addr=0c2cdaa8 data=c74d0b12c8e568aa id=1b
[1775000] MASTER 1 W_VALID_RDY Handshake beat=6 wlast=0
[1785000] MASTER 1 W_VALID_RDY Handshake beat=7 wlast=0
[1785000] AXI S0_WVALID_RDY HANDSHAKE
[1785000] S0 MEMORY WRITE beat=6 addr=0c2cdaa8 data=1adeeaccc2dd9a8c id=1b
[1795000] AXI S0_WVALID_RDY HANDSHAKE
[1795000] S0 MEMORY WRITE beat=7 addr=0c2cdaa8 data=ae5fc293aac3fbc1 id=1b
[1795000] MASTER 1 W_VALID_RDY Handshake beat=8 wlast=0
[1805000] MASTER 1 W_VALID_RDY Handshake beat=9 wlast=0
[1805000] AXI S0_WVALID_RDY HANDSHAKE
[1805000] S0 MEMORY WRITE beat=8 addr=0c2cdaa8 data=f3a9646cf6e91268 id=1b
[1815000] AXI S0_WVALID_RDY HANDSHAKE
[1815000] S0 MEMORY WRITE beat=9 addr=0c2cdaa8 data=b9c6acf4f5accda6 id=1b
[1815000] MASTER 1 W_VALID_RDY Handshake beat=10 wlast=0
[1825000] MASTER 1 W_VALID_RDY Handshake beat=11 wlast=0
[1825000] AXI S0_WVALID_RDY HANDSHAKE
[1825000] S0 MEMORY WRITE beat=10 addr=0c2cdaa8 data=a070c9670e884f38 id=1b
[1835000] AXI S0_WVALID_RDY HANDSHAKE
[1835000] S0 MEMORY WRITE beat=11 addr=0c2cdaa8 data=857161a0e8266f88 id=1b
[1835000] MASTER 1 W_VALID_RDY Handshake beat=12 wlast=0
[1845000] MASTER 1 W_VALID_RDY Handshake beat=13 wlast=0
[1845000] AXI S0_WVALID_RDY HANDSHAKE
[1845000] S0 MEMORY WRITE beat=12 addr=0c2cdaa8 data=ddd33d2e941a2dd3 id=1b
[1855000] AXI S0_WVALID_RDY HANDSHAKE
[1855000] S0 MEMORY WRITE beat=13 addr=0c2cdaa8 data=a2a27d0b3f380e95 id=1b
[1855000] MASTER 1 W_VALID_RDY Handshake beat=14 wlast=0
[1865000] MASTER_DRIVER1 received transaction, op=AXI_READ
[1865000] MASTER 1 W_VALID_RDY Handshake beat=15 wlast=1
[1865000] AXI S0_WVALID_RDY HANDSHAKE
[1865000] S0 MEMORY WRITE beat=14 addr=0c2cdaa8 data=275e7e1dfe440695 id=1b
[1875000] AXI S0_WVALID_RDY HANDSHAKE
[1875000] S0 MEMORY WRITE beat=15 addr=0c2cdaa8 data=125e34692813deac id=1b
[1885000] SLAVE0 sent B resp, id=11
[1895000] AXI S0_ARVALID_RDY HANDSHAKE
[1895000] MEMORY READ MISS beat=0 addr=ddbced0 -> default data id=18
[1895000] [SLAVE MONITOR] mst_id=1 s_id=0 awaddr=c2cdaa8 awid=1011 awlen=15 awsize=1 awburst=0 wdata=[4aeb51807ac0da4 e56e77fb0a10a57b e6d372efdbcae30b e376f0afd1f98221 dc0a279ceb822807 c74d0b12c8e568aa 1adeeaccc2dd9a8c ae5fc293aac3fbc1 f3a9646cf6e91268 b9c6acf4f5accda6 a070c9670e884f38 857161a0e8266f88 ddd33d2e941a2dd3 a2a27d0b3f380e95 275e7e1dfe440695 125e34692813deac ] wstrb=[4b 41 74 e0 5e 20 49 a9 61 be 89 bf de d3 68 40 ] bresp=0 bid=11011
[1895000] ARB MONITOR: slave=0 m0_req=0 m1_req=1 winner=1
[1905000] MASTER 1 RECEIVED BRESP. BRESP=0
[1905000] [MASTER DRIVER] mst_id=1 s_id=0 awaddr=c2cdaa8 awid=1011 awlen=15 awsize=1 awburst=0 wdata=[4aeb51807ac0da4 e56e77fb0a10a57b e6d372efdbcae30b e376f0afd1f98221 dc0a279ceb822807 c74d0b12c8e568aa 1adeeaccc2dd9a8c ae5fc293aac3fbc1 f3a9646cf6e91268 b9c6acf4f5accda6 a070c9670e884f38 857161a0e8266f88 ddd33d2e941a2dd3 a2a27d0b3f380e95 275e7e1dfe440695 125e34692813deac ] wstrb=[4b 41 74 e0 5e 20 49 a9 61 be 89 bf de d3 68 40 ] bresp=0 bid=1011
[1905000] MASTER 1 B_VALID_RDY Handshake
[1905000] [MASTER MONITOR] mst_id=1 s_id=0 awaddr=c2cdaa8 awid=1011 awlen=15 awsize=1 awburst=0 wdata=[4aeb51807ac0da4 e56e77fb0a10a57b e6d372efdbcae30b e376f0afd1f98221 dc0a279ceb822807 c74d0b12c8e568aa 1adeeaccc2dd9a8c ae5fc293aac3fbc1 f3a9646cf6e91268 b9c6acf4f5accda6 a070c9670e884f38 857161a0e8266f88 ddd33d2e941a2dd3 a2a27d0b3f380e95 275e7e1dfe440695 125e34692813deac ] wstrb=[4b 41 74 e0 5e 20 49 a9 61 be 89 bf de d3 68 40 ] bresp=0 bid=1011
[1905000] SLAVE 0 R_VALID_RDY Handshake beat=0 rlast=0
[1905000] MEMORY READ MISS beat=1 addr=ddbced8 -> default data id=18
[1905000] SCOREBOARD MATCH: decode_err expected = 0, actual =0
[1905000] SCOREBOARD MATCH: slave_id expected = 0, actual =0
[1905000] SCOREBOARD MATCH: awaddr passthrough expected = c2cdaa8, actual =c2cdaa8
[1905000] SCOREBOARD MATCH: awlen passthrough expected = 15, actual =15
[1905000] SCOREBOARD MATCH: awsize passthrough expected = 1, actual =1
[1905000] SCOREBOARD MATCH: awburst passthrough expected = 0, actual =0
[1905000] SCOREBOARD MATCH: wdata size check expected = 10, actual =10
[1905000] SCOREBOARD MATCH: wdata passthrough beat=0 expected = 4aeb51807ac0da4, actual =4aeb51807ac0da4
[1905000] SCOREBOARD MATCH: wdata passthrough beat=1 expected = e56e77fb0a10a57b, actual =e56e77fb0a10a57b
[1905000] SCOREBOARD MATCH: wdata passthrough beat=2 expected = e6d372efdbcae30b, actual =e6d372efdbcae30b
[1905000] SCOREBOARD MATCH: wdata passthrough beat=3 expected = e376f0afd1f98221, actual =e376f0afd1f98221
[1905000] SCOREBOARD MATCH: wdata passthrough beat=4 expected = dc0a279ceb822807, actual =dc0a279ceb822807
[1905000] SCOREBOARD MATCH: wdata passthrough beat=5 expected = c74d0b12c8e568aa, actual =c74d0b12c8e568aa
[1905000] SCOREBOARD MATCH: wdata passthrough beat=6 expected = 1adeeaccc2dd9a8c, actual =1adeeaccc2dd9a8c
[1905000] SCOREBOARD MATCH: wdata passthrough beat=7 expected = ae5fc293aac3fbc1, actual =ae5fc293aac3fbc1
[1905000] SCOREBOARD MATCH: wdata passthrough beat=8 expected = f3a9646cf6e91268, actual =f3a9646cf6e91268
[1905000] SCOREBOARD MATCH: wdata passthrough beat=9 expected = b9c6acf4f5accda6, actual =b9c6acf4f5accda6
[1905000] SCOREBOARD MATCH: wdata passthrough beat=10 expected = a070c9670e884f38, actual =a070c9670e884f38
[1905000] SCOREBOARD MATCH: wdata passthrough beat=11 expected = 857161a0e8266f88, actual =857161a0e8266f88
[1905000] SCOREBOARD MATCH: wdata passthrough beat=12 expected = ddd33d2e941a2dd3, actual =ddd33d2e941a2dd3
[1905000] SCOREBOARD MATCH: wdata passthrough beat=13 expected = a2a27d0b3f380e95, actual =a2a27d0b3f380e95
[1905000] SCOREBOARD MATCH: wdata passthrough beat=14 expected = 275e7e1dfe440695, actual =275e7e1dfe440695
[1905000] SCOREBOARD MATCH: wdata passthrough beat=15 expected = 125e34692813deac, actual =125e34692813deac
[1905000] SCOREBOARD MATCH: wstrb size check expected = 10, actual =10
[1905000] SCOREBOARD MATCH: wstrb passthrough beat=0 expected = 4b, actual =4b
[1905000] SCOREBOARD MATCH: wstrb passthrough beat=1 expected = 41, actual =41
[1905000] SCOREBOARD MATCH: wstrb passthrough beat=2 expected = 74, actual =74
[1905000] SCOREBOARD MATCH: wstrb passthrough beat=3 expected = e0, actual =e0
[1905000] SCOREBOARD MATCH: wstrb passthrough beat=4 expected = 5e, actual =5e
[1905000] SCOREBOARD MATCH: wstrb passthrough beat=5 expected = 20, actual =20
[1905000] SCOREBOARD MATCH: wstrb passthrough beat=6 expected = 49, actual =49
[1905000] SCOREBOARD MATCH: wstrb passthrough beat=7 expected = a9, actual =a9
[1905000] SCOREBOARD MATCH: wstrb passthrough beat=8 expected = 61, actual =61
[1905000] SCOREBOARD MATCH: wstrb passthrough beat=9 expected = be, actual =be
[1905000] SCOREBOARD MATCH: wstrb passthrough beat=10 expected = 89, actual =89
[1905000] SCOREBOARD MATCH: wstrb passthrough beat=11 expected = bf, actual =bf
[1905000] SCOREBOARD MATCH: wstrb passthrough beat=12 expected = de, actual =de
[1905000] SCOREBOARD MATCH: wstrb passthrough beat=13 expected = d3, actual =d3
[1905000] SCOREBOARD MATCH: wstrb passthrough beat=14 expected = 68, actual =68
[1905000] SCOREBOARD MATCH: wstrb passthrough beat=15 expected = 40, actual =40
[1905000] SCOREBOARD MATCH: bresp passthrough expected = 0, actual =0
[1905000] SCOREBOARD MATCH: response routed to correct master (write) expected = 1, actual =1
[1905000] [SCOREBOARD-M] mst_id=1 s_id=0 awaddr=c2cdaa8 awid=1011 awlen=15 awsize=1 awburst=0 wdata=[4aeb51807ac0da4 e56e77fb0a10a57b e6d372efdbcae30b e376f0afd1f98221 dc0a279ceb822807 c74d0b12c8e568aa 1adeeaccc2dd9a8c ae5fc293aac3fbc1 f3a9646cf6e91268 b9c6acf4f5accda6 a070c9670e884f38 857161a0e8266f88 ddd33d2e941a2dd3 a2a27d0b3f380e95 275e7e1dfe440695 125e34692813deac ] wstrb=[4b 41 74 e0 5e 20 49 a9 61 be 89 bf de d3 68 40 ] bresp=0 bid=1011
[1905000] [SCOREBOARD-S] mst_id=1 s_id=0 awaddr=c2cdaa8 awid=1011 awlen=15 awsize=1 awburst=0 wdata=[4aeb51807ac0da4 e56e77fb0a10a57b e6d372efdbcae30b e376f0afd1f98221 dc0a279ceb822807 c74d0b12c8e568aa 1adeeaccc2dd9a8c ae5fc293aac3fbc1 f3a9646cf6e91268 b9c6acf4f5accda6 a070c9670e884f38 857161a0e8266f88 ddd33d2e941a2dd3 a2a27d0b3f380e95 275e7e1dfe440695 125e34692813deac ] wstrb=[4b 41 74 e0 5e 20 49 a9 61 be 89 bf de d3 68 40 ] bresp=0 bid=11011
[1905000] SCOREBOARD: Transaction 4 received. pass=406 fail=0
[1905000] ALL PASS. Total transactions: 4
[1915000] SLAVE 0 R_VALID_RDY Handshake beat=1 rlast=1
[1915000] [SLAVE MONITOR] READ mst_id=1 s_id=0 araddr=ddbced0 arid=2 arlen=1 arsize=3 arburst=1 rid=[1212] rresp=[00] rdata=[baadf00d12345678baadf00d12345678]
[1925000] MASTER 1 R_VALID_RDY Handshake beat=0 rlast=0
[1935000] MASTER 1 R_VALID_RDY Handshake beat=1 rlast=1
[1935000] [MASTER MONITOR] READ mst_id=1 s_id=0 araddr=ddbced0 arid=2 arlen=1 arsize=3 arburst=1 rid=[22] rresp=[00] rdata=[baadf00d12345678baadf00d12345678]
[1935000] [MASTER DRIVER] READ mst_id=1 s_id=0 araddr=ddbced0 arid=2 arlen=1 arsize=3 arburst=1 rid=[22] rresp=[00] rdata=[baadf00d12345678baadf00d12345678]
[1935000] SCOREBOARD MATCH: decode_err expected = 0, actual =0
[1935000] SCOREBOARD MATCH: slave_id expected = 0, actual =0
[1935000] SCOREBOARD MATCH: araddr passthrough expected = ddbced0, actual =ddbced0
[1935000] SCOREBOARD MATCH: arlen passthrough expected = 1, actual =1
[1935000] SCOREBOARD MATCH: arsize passthrough expected = 3, actual =3
[1935000] SCOREBOARD MATCH: arburst passthrough expected = 1, actual =1
[1935000] SCOREBOARD MATCH: rdata size check expected = 2, actual =2
[1935000] SCOREBOARD MATCH: rdata passthrough beat=0 expected = baadf00d12345678, actual =baadf00d12345678
[1935000] SCOREBOARD MATCH: rdata passthrough beat=1 expected = baadf00d12345678, actual =baadf00d12345678
[1935000] SCOREBOARD MATCH: rresp size check expected = 2, actual =2
[1935000] SCOREBOARD MATCH: rresp passthrough beat=0 expected = 0, actual =0
[1935000] SCOREBOARD MATCH: rresp passthrough beat=1 expected = 0, actual =0
[1935000] SCOREBOARD MATCH: response routed to correct master (read beat 0) expected = 1, actual =1
[1935000] SCOREBOARD MATCH: response routed to correct master (read beat 1) expected = 1, actual =1
[1935000] [SCOREBOARD-M] READ mst_id=1 s_id=0 araddr=ddbced0 arid=2 arlen=1 arsize=3 arburst=1 rid=[22] rresp=[00] rdata=[baadf00d12345678baadf00d12345678]
[1935000] [SCOREBOARD-S] READ mst_id=1 s_id=0 araddr=ddbced0 arid=2 arlen=1 arsize=3 arburst=1 rid=[1212] rresp=[00] rdata=[baadf00d12345678baadf00d12345678]
[1935000] SCOREBOARD: Transaction 5 received. pass=420 fail=0
[1935000] SCOREBOARD: Expected 5 transactions completed, PASS=420 FAIL=0
[1935000] ALL PASS. Total transactions: 5
[1935000] ALL TRANSACTIONS MONITORED
$finish called at time : 1955 ns : File "/home/nashita/Desktop/practice/axi_xbar/tb/top/axi_tb_top.sv" Line 220
exit
INFO: xsimkernel Simulation Memory Usage: 289468 KB (Peak: 337868 KB), Simulation CPU Usage: 1190 ms
INFO: [Common 17-206] Exiting xsim at Fri Sep 11 11:50:44 2026...
