#-----------------------------------------------------------
# xsim v2025.2 (64-bit)
# SW Build 6299465 on Fri Nov 14 12:34:56 MST 2025
# IP Build 6300035 on Fri Nov 14 10:48:45 MST 2025
# SharedData Build 6298862 on Thu Nov 13 04:50:51 MST 2025
# Start of session at: Fri Sep 11 11:44:08 2026
# Process ID         : 704965
# Current directory  : /home/nashita/Desktop/practice/axi_xbar/sim
# Command line       : xsim -log regress_results/BT_run78.log -mode tcl -source {xsim.dir/tb_top_snap/xsim_script.tcl}
# Log file           : /home/nashita/Desktop/practice/axi_xbar/sim/regress_results/BT_run78.log
# Journal file       : /home/nashita/Desktop/practice/axi_xbar/sim/xsim.jou
# Running On         : vlsi-vivado
# Platform           : Ubuntu
# Operating System   : Ubuntu 24.04.4 LTS
# Processor Detail   : Intel(R) Core(TM) i5-10400 CPU @ 2.90GHz
# CPU Frequency      : 4000.010 MHz
# CPU Physical cores : 6
# CPU Logical cores  : 12
# Host memory        : 41875 MB
# Swap memory        : 27648 MB
# Total Virtual      : 69524 MB
# Available Virtual  : 62783 MB
#-----------------------------------------------------------
source xsim.dir/tb_top_snap/xsim_script.tcl
# xsim {tb_top_snap} -testplusarg BT -autoloadwcfg -runall -sv_seed 79
Time resolution is 1 ps
run -all
[0] RUNNING BASE TEST
[0] INSIDE THE BASE TEST CONSTRUCTOR
[0] ENV: before agent
[0] SLAVE CONSTRUCTED
[0] MASTER MONITOR CONSTRUCTED
[0] MASTER MONITOR CONSTRUCTED
[0] SLAVE MONITOR CONSTRUCTED
[0] SLAVE MONITOR CONSTRUCTED
[0] ARB MONITOR CONSTRUCTED
GENERATOR CONSTRUCTED
[0] ENV: after agent
[0] ENV: before scoreboard
[0] ENV: after scoreboard
[15000] [SEQUENCER] READ mst_id=1 s_id=0 araddr=2cb49f8 arid=0 arlen=1 arsize=3 arburst=1 rid=[] rresp=[] rdata=[]
[15000] [SEQUENCER] mst_id=0 s_id=0 awaddr=1f220d88 awid=100 awlen=23 awsize=1 awburst=1 wdata=[ff814d3afedf078a b2b6c9fce47a9a7d 82a42f940e6cd404 8d4bdb8ed7ef8f14 bc6a299182257cce 909250d2c002a58b 17f2349f3f0e5926 c133d5f41dde2c61 dde0d1ecd45c5e30 936ab756d1c626c7 efa45328f5d3068b ca2f64bbd49e8d4b 2664b412cd852514 c3582b9fdd9a1c12 3238a95d1609073a e38e2c4e8d87905a eb21ac6cd89d5d6f eea664a926e657ed b46de8479d5a55c9 f5f7b338d23490f7 f91ae8e41f8f94b4 bce9ea7de49e17e1 b6d2a8d8ad88d12b cd1865df32e19db6 ] wstrb=[bc 97 5d e8 70 13 c7 2c aa 24 14 1a 37 dc 47 e2 0 5b fc 38 37 43 1a 38 ] bresp=0 bid=0
[15000] [SEQUENCER] READ mst_id=1 s_id=0 araddr=199cbf68 arid=1 arlen=1 arsize=3 arburst=1 rid=[] rresp=[] rdata=[]
[15000] [SEQUENCER] READ mst_id=0 s_id=0 araddr=14e68708 arid=1 arlen=1 arsize=3 arburst=1 rid=[] rresp=[] rdata=[]
[15000] [SEQUENCER] mst_id=0 s_id=0 awaddr=1f09b570 awid=101 awlen=236 awsize=3 awburst=1 wdata=[aca74e3c31cc05ef 123352caea5eddce ca40147c22c66c67 d49272569208ef91 fc67cd5ff6e762b8 99adcf1fe6c5c520 f8ceb4b1c6a7e1db 3d8f4494ee404175 d5060695f5368211 bbde63ecd73d13b3 c57d5529cdd4bb47 c30b3d58f96da880 d0aabc349a835bbe e8581705fee9a144 f85749c51628115d b0ab6d1bab63545d 2a4cf5a2c90205f9 df2a175619038421 c466d87e22a43f67 eba645608fd58471 a8d90892eeb3ce20 91580d87cad05cb6 daa5e127ed3fe111 dbf3af31fcfe52e7 c7ceaf9d037ee9ba f0becacbed4bbcb9 ea4a0fa0227490c5 25f37a7fccb279fc b9fe36b53218bf3e d48d500316b2454a e364bf4624484656 d6610594fa80ca82 11330fcc1d62f5fc c1ab3c522aee5597 256f2019f497cf12 91fac50e180c41e6 c2fa977d36a22fe5 ab39fef7d3a60160 ebb24346e869b796 1f0be77b3d34c406 90dac566aeacdac3 97169259ca45e672 877aaa78fc8d08ad ab39e370b62279d4 68604718556fdf 14e2788cc25075ca f872ef9e87e30abf a0387a9ec01c5bfc 826cd1c6f8db4fe5 be5aa5b51af32a f5374f27fadfc165 f3bb114aa0f6d543 d611c86ef7a420ed f283e252f4796bef 15704133cb491795 c2ed3882e63ef39d dab85f8ceb8209a1 36cb213635711ad5 1bb00e72f028a0bf dbaaaa60f9b859b8 af29748df6686dfe e6910ebe9275cb96 c2e254fcad982ff c141f0fec23bb91e d4b184b5bb5799dc 6311cdc27d2ffbc ea0eb8dae0dfaa04 9c3743e0c7730dda ef460d96bec03d8f 9f9fe793a26860bc e9db6e96d954c670 181504003bd72b74 de3f8c30d9217c2c 3276429db7b4eb93 f38c1707c81afac7 a13c76f3ca8b469d 82403230d1cba338 19e69dffd3b2b990 9e3e002df5cc4938 c797ec70bb2314f2 ed5ce83207e325e 164a7b96e17e8a6f 9ca19f61ad13ceb0 cd92010edde26806 3f60f275ab776de4 d88b3c95e3dc7ca4 c1bee4aadc0291d6 779ffbba61d3da3 9f9ba48811fd71f dd2268f6e0053c50 862279f3cbb89ef2 ccd87612e49c68b1 c4a1a501901c343b dbd4d32e29fadf08 e9747b9cac41ef4 dae0533028ad4940 d2a82848d338ecba 9dfd0bae36b5265e df626f9ee13f7001 34785cbbf8dd5ede af92853c320a97e6 134a07e7d2756869 cb52c7488ef4f4da c0ff8cc0c7c264a2 9a37cd0bfae54c84 9da415fd44994a7 9c0bf949e58a9453 e06fe0d8cad9ce1f 1f2362c73643c655 9bce5aa8ea4a2237 b523f056bb2f5c10 f1732265fc3e3b80 e6885db7d447531d f76af2e0d417d0e 897fb88e1bac4e0e eff3a12b80e9d193 8e2b4ea1f0081646 bb46454ff6a5059 5421ed17ab0730 7b31d76fba8057f fb1255d98e7f708e a62a77be136781ca 8f0f8749fb6677c6 89e5e854addd9534 c14516fe8a21dd22 858854e830106013 ddedf547d0549e48 da767b6a0f6e3d3d 3f7e9d501f330c46 ef87aa8edffed053 ef6d0d909d6c9297 bc9f9eddc9fe25f8 a9fcf64b2eebaae0 cc583d77ac27496b f6256f64996a03db c855aebb08f7dc55 b51f25c0a02265af 398c698b14adec33 1da5c888ab449524 cb66fad481e21846 96900479d2c4ee48 fe09836d04f3645f 86d57ca5b435cd01 6fabb4ac9707e41 ce63e2a01d65811f d19b4e2005043eb7 ce74bcf8d5395f45 f29ee064d896096a dd9a48211cd89f98 f211feddc43a2e85 9cd037efac0f0519 c8e7a4b1e4b0df42 28eb0dc7fa6a8011 a679852a3af9a38f 1faa82d1c5bb45b6 c025c5c7ef6129dc 2a5acd6bc8959098 8e50d64ee69f4af2 d60074ceca05503c 129ae0d4ce769c16 3515e708005b4239 ca609275a0ebb722 ef6253380b165bd6 b719e0fdcfb7349 fde72a6ba4783a40 af8e9616d5d23084 32cda3cded497da4 91c1b7e4bb003425 90d264a9b0b4ce38 9dfe4bdcc1504dfb fc508220c3a00876 f454d6af2fc003c1 f11051bc0d22e6ca d0c2ef409253228b c213264ced60d3dc fa83baa6c517c5ef d76ae87bb3237808 20844be5cb46a9e7 905e6fd6997e0ec7 cca186d09b08068b e64eb072e7c95851 1476719ed25d2b5 882dd940f6ad2049 de76789acde8ede9 3b0ec09eee7c89b3 e529a9fcdfbddfb3 ada6cd9cc33c99de b1b92391c3a02296 235e024ae8b58e3a 2bf2281996e2cd8d da82f024d104cfe6 39ba5e21ddab4baa f48e1938fde0f26e cee5c254e5ac863a c357d1e4cf11095c ccf1fbca88a02075 ee4ca6afb7e5eb1c 86f6f4789bd7be1e 2477de9431a47894 e98a63b0d3e8f042 efc0ae6192c48543 c468fdd7f0815829 c46a486b14388cf5 a6fd12382df36188 1e74b9b1b42af6cc c86383c1eb661010 19597198e2df021c 1709f8e9ef6095fa dac6a60a37ce2b49 9aad2d65df6d7caa cece12a4f42017a2 2bee42ebb1b7264e 1124a2f9a994b8ae 9db4d050c69b7050 f852969fdff2b59d 9876e4cc9a3133b 103e838c09773998 e969ef35a73c3e9c f0df51d808911a2b 120853c3f2f15d81 1a2d9c1e011dd564 9aeef8ffb7242f8 ee63a07a0b0cedf6 c2ac35a1bb74352 9729864a08913c98 139e2a8e15d9b2e9 3190f63b858d26c4 8e1e635c1fc8ede8 35a2a0d1c8ba7c85 ce47a34aa1bc8dea c1857bd2e733970c afee1391dc6606a6 fe229491f7281ca3 de5bb3affe35b6db da9bbd82bfa81063 36d02d070e49c741 8c7f7e1cd8be5213 ] wstrb=[b6 76 9e f7 7d b1 14 34 28 b2 2b a5 64 3f d9 8c f2 5 31 56 44 b e2 36 10 13 8c 54 1e 6e 8b 2e 82 17 83 a0 86 e cf 8 25 52 a8 ab 60 77 b3 85 c9 5c 31 29 d3 e4 af 9d 40 e0 c6 14 c4 75 b1 5 55 77 19 1a ed ca 1f 42 41 38 5c 2e 2 7b 71 43 b3 cd 72 b5 49 e3 f9 fc b0 6b b2 f9 4e ab f6 fe 16 a8 f8 64 53 ee 62 69 96 5a cd e9 48 2f 52 de 8a 1f c7 d2 4e 19 b1 d8 38 78 ab 87 92 5c 5f ca d4 a 51 66 66 b1 31 3b bb 82 a1 22 33 d2 5d ef 55 fe 11 88 d1 6e 77 26 6c 88 ae 3d f6 26 63 63 ae 12 a0 a5 38 4 8 e6 16 a8 8b 4e ac 93 34 c2 3c c0 10 e8 53 45 ab 8f 5 bb 78 58 0 23 e8 5 de 60 5e df 83 46 e4 61 a6 42 40 29 88 25 8a 2e 67 cb 57 f0 f0 e2 1e 57 ad 76 47 9d 58 66 f4 5 dc 3c a2 34 a2 96 39 7e d2 db b2 74 71 ] bresp=0 bid=0
[15000] MASTER_DRIVER1 received transaction, op=AXI_READ
[15000] MASTER_DRIVER0 received transaction, op=AXI_WRITE
[35000] MASTER 0 AW_VALID_RDY Handshake
[35000] MASTER_DRIVER1 received transaction, op=AXI_READ
[45000] ARB MONITOR: slave=0 m0_req=0 m1_req=1 winner=1
[45000] ARB MONITOR: slave=1 m0_req=1 m1_req=0 winner=0
[45000] AXI S0_ARVALID_RDY HANDSHAKE
[45000] MEMORY READ MISS beat=0 addr=2cb49f8 -> default data id=16
[45000] AXI S1_AWVALID_RDY HANDSHAKE
[55000] MEMORY READ MISS beat=1 addr=2cb4a00 -> default data id=16
[55000] SLAVE 0 R_VALID_RDY Handshake beat=0 rlast=0
[55000] MASTER 0 W_VALID_RDY Handshake beat=0 wlast=0
[65000] MASTER 0 W_VALID_RDY Handshake beat=1 wlast=0
[65000] ARB MONITOR: slave=1 m0_req=0 m1_req=1 winner=1
[65000] SLAVE 0 R_VALID_RDY Handshake beat=1 rlast=1
[65000] [SLAVE MONITOR] READ mst_id=1 s_id=0 araddr=2cb49f8 arid=0 arlen=1 arsize=3 arburst=1 rid=[1010] rresp=[00] rdata=[baadf00d12345678baadf00d12345678]
[65000] AXI S0_ARVALID_RDY HANDSHAKE
[65000] MEMORY READ MISS beat=0 addr=199cbf68 -> default data id=17
[65000] S1 MEMORY WRITE beat=0 addr=1f220d88 data=ff814d3afedf078a id=04
[75000] S1 MEMORY WRITE beat=1 addr=1f220d8a data=b2b6c9fce47a9a7d id=04
[75000] MEMORY READ MISS beat=1 addr=199cbf70 -> default data id=17
[75000] SLAVE 1 R_VALID_RDY Handshake beat=0 rlast=0
[75000] MASTER 1 R_VALID_RDY Handshake beat=0 rlast=0
[75000] MASTER 0 W_VALID_RDY Handshake beat=2 wlast=0
[85000] [MASTER DRIVER] READ mst_id=1 s_id=0 araddr=2cb49f8 arid=0 arlen=1 arsize=3 arburst=1 rid=[00] rresp=[00] rdata=[baadf00d12345678baadf00d12345678]
[85000] MASTER 0 W_VALID_RDY Handshake beat=3 wlast=0
[85000] MASTER 1 R_VALID_RDY Handshake beat=1 rlast=1
[85000] [MASTER MONITOR] READ mst_id=1 s_id=0 araddr=2cb49f8 arid=0 arlen=1 arsize=3 arburst=1 rid=[00] rresp=[00] rdata=[baadf00d12345678baadf00d12345678]
[85000] SLAVE 1 R_VALID_RDY Handshake beat=1 rlast=1
[85000] [SLAVE MONITOR] READ mst_id=1 s_id=1 araddr=199cbf68 arid=1 arlen=1 arsize=3 arburst=1 rid=[1111] rresp=[00] rdata=[baadf00d12345678baadf00d12345678]
[85000] S1 MEMORY WRITE beat=2 addr=1f220d8c data=82a42f940e6cd404 id=04
[85000] SCOREBOARD MATCH: decode_err expected = 0, actual =0
[85000] SCOREBOARD MATCH: slave_id expected = 0, actual =0
[85000] SCOREBOARD MATCH: araddr passthrough expected = 2cb49f8, actual =2cb49f8
[85000] SCOREBOARD MATCH: arlen passthrough expected = 1, actual =1
[85000] SCOREBOARD MATCH: arsize passthrough expected = 3, actual =3
[85000] SCOREBOARD MATCH: arburst passthrough expected = 1, actual =1
[85000] SCOREBOARD MATCH: rdata size check expected = 2, actual =2
[85000] SCOREBOARD MATCH: rdata passthrough beat=0 expected = baadf00d12345678, actual =baadf00d12345678
[85000] SCOREBOARD MATCH: rdata passthrough beat=1 expected = baadf00d12345678, actual =baadf00d12345678
[85000] SCOREBOARD MATCH: rresp size check expected = 2, actual =2
[85000] SCOREBOARD MATCH: rresp passthrough beat=0 expected = 0, actual =0
[85000] SCOREBOARD MATCH: rresp passthrough beat=1 expected = 0, actual =0
[85000] SCOREBOARD MATCH: response routed to correct master (read beat 0) expected = 1, actual =1
[85000] SCOREBOARD MATCH: response routed to correct master (read beat 1) expected = 1, actual =1
[85000] [SCOREBOARD-M] READ mst_id=1 s_id=0 araddr=2cb49f8 arid=0 arlen=1 arsize=3 arburst=1 rid=[00] rresp=[00] rdata=[baadf00d12345678baadf00d12345678]
[85000] [SCOREBOARD-S] READ mst_id=1 s_id=0 araddr=2cb49f8 arid=0 arlen=1 arsize=3 arburst=1 rid=[1010] rresp=[00] rdata=[baadf00d12345678baadf00d12345678]
[85000] SCOREBOARD: Transaction 1 received. pass=14 fail=0
[85000] ALL PASS. Total transactions: 1
[95000] S1 MEMORY WRITE beat=3 addr=1f220d8e data=8d4bdb8ed7ef8f14 id=04
[95000] MASTER 0 W_VALID_RDY Handshake beat=4 wlast=0
[105000] MASTER 0 W_VALID_RDY Handshake beat=5 wlast=0
[105000] MASTER 1 R_VALID_RDY Handshake beat=0 rlast=0
[105000] S1 MEMORY WRITE beat=4 addr=1f220d90 data=bc6a299182257cce id=04
[115000] S1 MEMORY WRITE beat=5 addr=1f220d92 data=909250d2c002a58b id=04
[115000] MASTER 1 R_VALID_RDY Handshake beat=1 rlast=1
[115000] [MASTER MONITOR] READ mst_id=1 s_id=1 araddr=199cbf68 arid=1 arlen=1 arsize=3 arburst=1 rid=[11] rresp=[00] rdata=[baadf00d12345678baadf00d12345678]
[115000] MASTER 0 W_VALID_RDY Handshake beat=6 wlast=0
[115000] [MASTER DRIVER] READ mst_id=1 s_id=0 araddr=199cbf68 arid=1 arlen=1 arsize=3 arburst=1 rid=[11] rresp=[00] rdata=[baadf00d12345678baadf00d12345678]
[115000] SCOREBOARD MATCH: decode_err expected = 0, actual =0
[115000] SCOREBOARD MATCH: slave_id expected = 1, actual =1
[115000] SCOREBOARD MATCH: araddr passthrough expected = 199cbf68, actual =199cbf68
[115000] SCOREBOARD MATCH: arlen passthrough expected = 1, actual =1
[115000] SCOREBOARD MATCH: arsize passthrough expected = 3, actual =3
[115000] SCOREBOARD MATCH: arburst passthrough expected = 1, actual =1
[115000] SCOREBOARD MATCH: rdata size check expected = 2, actual =2
[115000] SCOREBOARD MATCH: rdata passthrough beat=0 expected = baadf00d12345678, actual =baadf00d12345678
[115000] SCOREBOARD MATCH: rdata passthrough beat=1 expected = baadf00d12345678, actual =baadf00d12345678
[115000] SCOREBOARD MATCH: rresp size check expected = 2, actual =2
[115000] SCOREBOARD MATCH: rresp passthrough beat=0 expected = 0, actual =0
[115000] SCOREBOARD MATCH: rresp passthrough beat=1 expected = 0, actual =0
[115000] SCOREBOARD MATCH: response routed to correct master (read beat 0) expected = 1, actual =1
[115000] SCOREBOARD MATCH: response routed to correct master (read beat 1) expected = 1, actual =1
[115000] [SCOREBOARD-M] READ mst_id=1 s_id=1 araddr=199cbf68 arid=1 arlen=1 arsize=3 arburst=1 rid=[11] rresp=[00] rdata=[baadf00d12345678baadf00d12345678]
[115000] [SCOREBOARD-S] READ mst_id=1 s_id=1 araddr=199cbf68 arid=1 arlen=1 arsize=3 arburst=1 rid=[1111] rresp=[00] rdata=[baadf00d12345678baadf00d12345678]
[115000] SCOREBOARD: Transaction 2 received. pass=28 fail=0
[115000] ALL PASS. Total transactions: 2
[125000] MASTER 0 W_VALID_RDY Handshake beat=7 wlast=0
[125000] S1 MEMORY WRITE beat=6 addr=1f220d94 data=17f2349f3f0e5926 id=04
[135000] S1 MEMORY WRITE beat=7 addr=1f220d96 data=c133d5f41dde2c61 id=04
[135000] MASTER 0 W_VALID_RDY Handshake beat=8 wlast=0
[145000] MASTER 0 W_VALID_RDY Handshake beat=9 wlast=0
[145000] S1 MEMORY WRITE beat=8 addr=1f220d98 data=dde0d1ecd45c5e30 id=04
[155000] S1 MEMORY WRITE beat=9 addr=1f220d9a data=936ab756d1c626c7 id=04
[155000] MASTER 0 W_VALID_RDY Handshake beat=10 wlast=0
[165000] MASTER 0 W_VALID_RDY Handshake beat=11 wlast=0
[165000] S1 MEMORY WRITE beat=10 addr=1f220d9c data=efa45328f5d3068b id=04
[175000] S1 MEMORY WRITE beat=11 addr=1f220d9e data=ca2f64bbd49e8d4b id=04
[175000] MASTER 0 W_VALID_RDY Handshake beat=12 wlast=0
[185000] MASTER 0 W_VALID_RDY Handshake beat=13 wlast=0
[185000] S1 MEMORY WRITE beat=12 addr=1f220da0 data=2664b412cd852514 id=04
[195000] S1 MEMORY WRITE beat=13 addr=1f220da2 data=c3582b9fdd9a1c12 id=04
[195000] MASTER 0 W_VALID_RDY Handshake beat=14 wlast=0
[205000] MASTER 0 W_VALID_RDY Handshake beat=15 wlast=0
[205000] S1 MEMORY WRITE beat=14 addr=1f220da4 data=3238a95d1609073a id=04
[215000] S1 MEMORY WRITE beat=15 addr=1f220da6 data=e38e2c4e8d87905a id=04
[215000] MASTER 0 W_VALID_RDY Handshake beat=16 wlast=0
[225000] MASTER 0 W_VALID_RDY Handshake beat=17 wlast=0
[225000] S1 MEMORY WRITE beat=16 addr=1f220da8 data=eb21ac6cd89d5d6f id=04
[235000] S1 MEMORY WRITE beat=17 addr=1f220daa data=eea664a926e657ed id=04
[235000] MASTER 0 W_VALID_RDY Handshake beat=18 wlast=0
[245000] MASTER 0 W_VALID_RDY Handshake beat=19 wlast=0
[245000] S1 MEMORY WRITE beat=18 addr=1f220dac data=b46de8479d5a55c9 id=04
[255000] S1 MEMORY WRITE beat=19 addr=1f220dae data=f5f7b338d23490f7 id=04
[255000] MASTER 0 W_VALID_RDY Handshake beat=20 wlast=0
[265000] MASTER 0 W_VALID_RDY Handshake beat=21 wlast=0
[265000] S1 MEMORY WRITE beat=20 addr=1f220db0 data=f91ae8e41f8f94b4 id=04
[275000] S1 MEMORY WRITE beat=21 addr=1f220db2 data=bce9ea7de49e17e1 id=04
[275000] MASTER 0 W_VALID_RDY Handshake beat=22 wlast=0
[285000] MASTER_DRIVER0 received transaction, op=AXI_READ
[285000] MASTER 0 W_VALID_RDY Handshake beat=23 wlast=1
[285000] S1 MEMORY WRITE beat=22 addr=1f220db4 data=b6d2a8d8ad88d12b id=04
[295000] S1 MEMORY WRITE beat=23 addr=1f220db6 data=cd1865df32e19db6 id=04
[305000] MASTER_DRIVER0 received transaction, op=AXI_WRITE
[305000] SLAVE1 sent B resp, id=4
[315000] AXI S0_ARVALID_RDY HANDSHAKE
[315000] MEMORY READ MISS beat=0 addr=14e68708 -> default data id=1
[315000] [SLAVE MONITOR] mst_id=0 s_id=1 awaddr=1f220d88 awid=100 awlen=23 awsize=1 awburst=1 wdata=[ff814d3afedf078a b2b6c9fce47a9a7d 82a42f940e6cd404 8d4bdb8ed7ef8f14 bc6a299182257cce 909250d2c002a58b 17f2349f3f0e5926 c133d5f41dde2c61 dde0d1ecd45c5e30 936ab756d1c626c7 efa45328f5d3068b ca2f64bbd49e8d4b 2664b412cd852514 c3582b9fdd9a1c12 3238a95d1609073a e38e2c4e8d87905a eb21ac6cd89d5d6f eea664a926e657ed b46de8479d5a55c9 f5f7b338d23490f7 f91ae8e41f8f94b4 bce9ea7de49e17e1 b6d2a8d8ad88d12b cd1865df32e19db6 ] wstrb=[bc 97 5d e8 70 13 c7 2c aa 24 14 1a 37 dc 47 e2 0 5b fc 38 37 43 1a 38 ] bresp=0 bid=100
[315000] ARB MONITOR: slave=1 m0_req=1 m1_req=0 winner=0
[325000] MASTER 0 RECEIVED BRESP. BRESP=0
[325000] [MASTER DRIVER] mst_id=0 s_id=0 awaddr=1f220d88 awid=100 awlen=23 awsize=1 awburst=1 wdata=[ff814d3afedf078a b2b6c9fce47a9a7d 82a42f940e6cd404 8d4bdb8ed7ef8f14 bc6a299182257cce 909250d2c002a58b 17f2349f3f0e5926 c133d5f41dde2c61 dde0d1ecd45c5e30 936ab756d1c626c7 efa45328f5d3068b ca2f64bbd49e8d4b 2664b412cd852514 c3582b9fdd9a1c12 3238a95d1609073a e38e2c4e8d87905a eb21ac6cd89d5d6f eea664a926e657ed b46de8479d5a55c9 f5f7b338d23490f7 f91ae8e41f8f94b4 bce9ea7de49e17e1 b6d2a8d8ad88d12b cd1865df32e19db6 ] wstrb=[bc 97 5d e8 70 13 c7 2c aa 24 14 1a 37 dc 47 e2 0 5b fc 38 37 43 1a 38 ] bresp=0 bid=100
[325000] MASTER 0 AW_VALID_RDY Handshake
[325000] MASTER 0 B_VALID_RDY Handshake
[325000] [MASTER MONITOR] mst_id=0 s_id=1 awaddr=1f220d88 awid=100 awlen=23 awsize=1 awburst=1 wdata=[ff814d3afedf078a b2b6c9fce47a9a7d 82a42f940e6cd404 8d4bdb8ed7ef8f14 bc6a299182257cce 909250d2c002a58b 17f2349f3f0e5926 c133d5f41dde2c61 dde0d1ecd45c5e30 936ab756d1c626c7 efa45328f5d3068b ca2f64bbd49e8d4b 2664b412cd852514 c3582b9fdd9a1c12 3238a95d1609073a e38e2c4e8d87905a eb21ac6cd89d5d6f eea664a926e657ed b46de8479d5a55c9 f5f7b338d23490f7 f91ae8e41f8f94b4 bce9ea7de49e17e1 b6d2a8d8ad88d12b cd1865df32e19db6 ] wstrb=[bc 97 5d e8 70 13 c7 2c aa 24 14 1a 37 dc 47 e2 0 5b fc 38 37 43 1a 38 ] bresp=0 bid=100
[325000] SLAVE 1 R_VALID_RDY Handshake beat=0 rlast=0
[325000] MEMORY READ MISS beat=1 addr=14e68710 -> default data id=1
[325000] SCOREBOARD MATCH: decode_err expected = 0, actual =0
[325000] SCOREBOARD MATCH: slave_id expected = 1, actual =1
[325000] SCOREBOARD MATCH: awaddr passthrough expected = 1f220d88, actual =1f220d88
[325000] SCOREBOARD MATCH: awlen passthrough expected = 23, actual =23
[325000] SCOREBOARD MATCH: awsize passthrough expected = 1, actual =1
[325000] SCOREBOARD MATCH: awburst passthrough expected = 1, actual =1
[325000] SCOREBOARD MATCH: wdata size check expected = 18, actual =18
[325000] SCOREBOARD MATCH: wdata passthrough beat=0 expected = ff814d3afedf078a, actual =ff814d3afedf078a
[325000] SCOREBOARD MATCH: wdata passthrough beat=1 expected = b2b6c9fce47a9a7d, actual =b2b6c9fce47a9a7d
[325000] SCOREBOARD MATCH: wdata passthrough beat=2 expected = 82a42f940e6cd404, actual =82a42f940e6cd404
[325000] SCOREBOARD MATCH: wdata passthrough beat=3 expected = 8d4bdb8ed7ef8f14, actual =8d4bdb8ed7ef8f14
[325000] SCOREBOARD MATCH: wdata passthrough beat=4 expected = bc6a299182257cce, actual =bc6a299182257cce
[325000] SCOREBOARD MATCH: wdata passthrough beat=5 expected = 909250d2c002a58b, actual =909250d2c002a58b
[325000] SCOREBOARD MATCH: wdata passthrough beat=6 expected = 17f2349f3f0e5926, actual =17f2349f3f0e5926
[325000] SCOREBOARD MATCH: wdata passthrough beat=7 expected = c133d5f41dde2c61, actual =c133d5f41dde2c61
[325000] SCOREBOARD MATCH: wdata passthrough beat=8 expected = dde0d1ecd45c5e30, actual =dde0d1ecd45c5e30
[325000] SCOREBOARD MATCH: wdata passthrough beat=9 expected = 936ab756d1c626c7, actual =936ab756d1c626c7
[325000] SCOREBOARD MATCH: wdata passthrough beat=10 expected = efa45328f5d3068b, actual =efa45328f5d3068b
[325000] SCOREBOARD MATCH: wdata passthrough beat=11 expected = ca2f64bbd49e8d4b, actual =ca2f64bbd49e8d4b
[325000] SCOREBOARD MATCH: wdata passthrough beat=12 expected = 2664b412cd852514, actual =2664b412cd852514
[325000] SCOREBOARD MATCH: wdata passthrough beat=13 expected = c3582b9fdd9a1c12, actual =c3582b9fdd9a1c12
[325000] SCOREBOARD MATCH: wdata passthrough beat=14 expected = 3238a95d1609073a, actual =3238a95d1609073a
[325000] SCOREBOARD MATCH: wdata passthrough beat=15 expected = e38e2c4e8d87905a, actual =e38e2c4e8d87905a
[325000] SCOREBOARD MATCH: wdata passthrough beat=16 expected = eb21ac6cd89d5d6f, actual =eb21ac6cd89d5d6f
[325000] SCOREBOARD MATCH: wdata passthrough beat=17 expected = eea664a926e657ed, actual =eea664a926e657ed
[325000] SCOREBOARD MATCH: wdata passthrough beat=18 expected = b46de8479d5a55c9, actual =b46de8479d5a55c9
[325000] SCOREBOARD MATCH: wdata passthrough beat=19 expected = f5f7b338d23490f7, actual =f5f7b338d23490f7
[325000] SCOREBOARD MATCH: wdata passthrough beat=20 expected = f91ae8e41f8f94b4, actual =f91ae8e41f8f94b4
[325000] SCOREBOARD MATCH: wdata passthrough beat=21 expected = bce9ea7de49e17e1, actual =bce9ea7de49e17e1
[325000] SCOREBOARD MATCH: wdata passthrough beat=22 expected = b6d2a8d8ad88d12b, actual =b6d2a8d8ad88d12b
[325000] SCOREBOARD MATCH: wdata passthrough beat=23 expected = cd1865df32e19db6, actual =cd1865df32e19db6
[325000] SCOREBOARD MATCH: wstrb size check expected = 18, actual =18
[325000] SCOREBOARD MATCH: wstrb passthrough beat=0 expected = bc, actual =bc
[325000] SCOREBOARD MATCH: wstrb passthrough beat=1 expected = 97, actual =97
[325000] SCOREBOARD MATCH: wstrb passthrough beat=2 expected = 5d, actual =5d
[325000] SCOREBOARD MATCH: wstrb passthrough beat=3 expected = e8, actual =e8
[325000] SCOREBOARD MATCH: wstrb passthrough beat=4 expected = 70, actual =70
[325000] SCOREBOARD MATCH: wstrb passthrough beat=5 expected = 13, actual =13
[325000] SCOREBOARD MATCH: wstrb passthrough beat=6 expected = c7, actual =c7
[325000] SCOREBOARD MATCH: wstrb passthrough beat=7 expected = 2c, actual =2c
[325000] SCOREBOARD MATCH: wstrb passthrough beat=8 expected = aa, actual =aa
[325000] SCOREBOARD MATCH: wstrb passthrough beat=9 expected = 24, actual =24
[325000] SCOREBOARD MATCH: wstrb passthrough beat=10 expected = 14, actual =14
[325000] SCOREBOARD MATCH: wstrb passthrough beat=11 expected = 1a, actual =1a
[325000] SCOREBOARD MATCH: wstrb passthrough beat=12 expected = 37, actual =37
[325000] SCOREBOARD MATCH: wstrb passthrough beat=13 expected = dc, actual =dc
[325000] SCOREBOARD MATCH: wstrb passthrough beat=14 expected = 47, actual =47
[325000] SCOREBOARD MATCH: wstrb passthrough beat=15 expected = e2, actual =e2
[325000] SCOREBOARD MATCH: wstrb passthrough beat=16 expected = 0, actual =0
[325000] SCOREBOARD MATCH: wstrb passthrough beat=17 expected = 5b, actual =5b
[325000] SCOREBOARD MATCH: wstrb passthrough beat=18 expected = fc, actual =fc
[325000] SCOREBOARD MATCH: wstrb passthrough beat=19 expected = 38, actual =38
[325000] SCOREBOARD MATCH: wstrb passthrough beat=20 expected = 37, actual =37
[325000] SCOREBOARD MATCH: wstrb passthrough beat=21 expected = 43, actual =43
[325000] SCOREBOARD MATCH: wstrb passthrough beat=22 expected = 1a, actual =1a
[325000] SCOREBOARD MATCH: wstrb passthrough beat=23 expected = 38, actual =38
[325000] SCOREBOARD MATCH: bresp passthrough expected = 0, actual =0
[325000] SCOREBOARD MATCH: response routed to correct master (write) expected = 0, actual =0
[325000] [SCOREBOARD-M] mst_id=0 s_id=1 awaddr=1f220d88 awid=100 awlen=23 awsize=1 awburst=1 wdata=[ff814d3afedf078a b2b6c9fce47a9a7d 82a42f940e6cd404 8d4bdb8ed7ef8f14 bc6a299182257cce 909250d2c002a58b 17f2349f3f0e5926 c133d5f41dde2c61 dde0d1ecd45c5e30 936ab756d1c626c7 efa45328f5d3068b ca2f64bbd49e8d4b 2664b412cd852514 c3582b9fdd9a1c12 3238a95d1609073a e38e2c4e8d87905a eb21ac6cd89d5d6f eea664a926e657ed b46de8479d5a55c9 f5f7b338d23490f7 f91ae8e41f8f94b4 bce9ea7de49e17e1 b6d2a8d8ad88d12b cd1865df32e19db6 ] wstrb=[bc 97 5d e8 70 13 c7 2c aa 24 14 1a 37 dc 47 e2 0 5b fc 38 37 43 1a 38 ] bresp=0 bid=100
[325000] [SCOREBOARD-S] mst_id=0 s_id=1 awaddr=1f220d88 awid=100 awlen=23 awsize=1 awburst=1 wdata=[ff814d3afedf078a b2b6c9fce47a9a7d 82a42f940e6cd404 8d4bdb8ed7ef8f14 bc6a299182257cce 909250d2c002a58b 17f2349f3f0e5926 c133d5f41dde2c61 dde0d1ecd45c5e30 936ab756d1c626c7 efa45328f5d3068b ca2f64bbd49e8d4b 2664b412cd852514 c3582b9fdd9a1c12 3238a95d1609073a e38e2c4e8d87905a eb21ac6cd89d5d6f eea664a926e657ed b46de8479d5a55c9 f5f7b338d23490f7 f91ae8e41f8f94b4 bce9ea7de49e17e1 b6d2a8d8ad88d12b cd1865df32e19db6 ] wstrb=[bc 97 5d e8 70 13 c7 2c aa 24 14 1a 37 dc 47 e2 0 5b fc 38 37 43 1a 38 ] bresp=0 bid=100
[325000] SCOREBOARD: Transaction 3 received. pass=86 fail=0
[325000] ALL PASS. Total transactions: 3
[335000] AXI S1_AWVALID_RDY HANDSHAKE
[335000] SLAVE 1 R_VALID_RDY Handshake beat=1 rlast=1
[335000] [SLAVE MONITOR] READ mst_id=0 s_id=1 araddr=14e68708 arid=1 arlen=1 arsize=3 arburst=1 rid=[11] rresp=[00] rdata=[baadf00d12345678baadf00d12345678]
[335000] ARB MONITOR: slave=1 m0_req=1 m1_req=0 winner=0
[345000] MASTER 0 W_VALID_RDY Handshake beat=0 wlast=0
[345000] MASTER 0 R_VALID_RDY Handshake beat=0 rlast=0
[355000] S1 MEMORY WRITE beat=0 addr=1f09b570 data=aca74e3c31cc05ef id=05
[355000] MASTER 0 R_VALID_RDY Handshake beat=1 rlast=1
[355000] [MASTER MONITOR] READ mst_id=0 s_id=1 araddr=14e68708 arid=1 arlen=1 arsize=3 arburst=1 rid=[11] rresp=[00] rdata=[baadf00d12345678baadf00d12345678]
[355000] MASTER 0 W_VALID_RDY Handshake beat=1 wlast=0
[355000] [MASTER DRIVER] READ mst_id=0 s_id=0 araddr=14e68708 arid=1 arlen=1 arsize=3 arburst=1 rid=[11] rresp=[00] rdata=[baadf00d12345678baadf00d12345678]
[355000] SCOREBOARD MATCH: decode_err expected = 0, actual =0
[355000] SCOREBOARD MATCH: slave_id expected = 1, actual =1
[355000] SCOREBOARD MATCH: araddr passthrough expected = 14e68708, actual =14e68708
[355000] SCOREBOARD MATCH: arlen passthrough expected = 1, actual =1
[355000] SCOREBOARD MATCH: arsize passthrough expected = 3, actual =3
[355000] SCOREBOARD MATCH: arburst passthrough expected = 1, actual =1
[355000] SCOREBOARD MATCH: rdata size check expected = 2, actual =2
[355000] SCOREBOARD MATCH: rdata passthrough beat=0 expected = baadf00d12345678, actual =baadf00d12345678
[355000] SCOREBOARD MATCH: rdata passthrough beat=1 expected = baadf00d12345678, actual =baadf00d12345678
[355000] SCOREBOARD MATCH: rresp size check expected = 2, actual =2
[355000] SCOREBOARD MATCH: rresp passthrough beat=0 expected = 0, actual =0
[355000] SCOREBOARD MATCH: rresp passthrough beat=1 expected = 0, actual =0
[355000] SCOREBOARD MATCH: response routed to correct master (read beat 0) expected = 0, actual =0
[355000] SCOREBOARD MATCH: response routed to correct master (read beat 1) expected = 0, actual =0
[355000] [SCOREBOARD-M] READ mst_id=0 s_id=1 araddr=14e68708 arid=1 arlen=1 arsize=3 arburst=1 rid=[11] rresp=[00] rdata=[baadf00d12345678baadf00d12345678]
[355000] [SCOREBOARD-S] READ mst_id=0 s_id=1 araddr=14e68708 arid=1 arlen=1 arsize=3 arburst=1 rid=[11] rresp=[00] rdata=[baadf00d12345678baadf00d12345678]
[355000] SCOREBOARD: Transaction 4 received. pass=100 fail=0
[355000] ALL PASS. Total transactions: 4
[365000] MASTER 0 W_VALID_RDY Handshake beat=2 wlast=0
[365000] S1 MEMORY WRITE beat=1 addr=1f09b578 data=123352caea5eddce id=05
[375000] S1 MEMORY WRITE beat=2 addr=1f09b580 data=ca40147c22c66c67 id=05
[375000] MASTER 0 W_VALID_RDY Handshake beat=3 wlast=0
[385000] MASTER 0 W_VALID_RDY Handshake beat=4 wlast=0
[385000] S1 MEMORY WRITE beat=3 addr=1f09b588 data=d49272569208ef91 id=05
[395000] S1 MEMORY WRITE beat=4 addr=1f09b590 data=fc67cd5ff6e762b8 id=05
[395000] MASTER 0 W_VALID_RDY Handshake beat=5 wlast=0
[405000] MASTER 0 W_VALID_RDY Handshake beat=6 wlast=0
[405000] S1 MEMORY WRITE beat=5 addr=1f09b598 data=99adcf1fe6c5c520 id=05
[415000] S1 MEMORY WRITE beat=6 addr=1f09b5a0 data=f8ceb4b1c6a7e1db id=05
[415000] MASTER 0 W_VALID_RDY Handshake beat=7 wlast=0
[425000] MASTER 0 W_VALID_RDY Handshake beat=8 wlast=0
[425000] S1 MEMORY WRITE beat=7 addr=1f09b5a8 data=3d8f4494ee404175 id=05
[435000] S1 MEMORY WRITE beat=8 addr=1f09b5b0 data=d5060695f5368211 id=05
[435000] MASTER 0 W_VALID_RDY Handshake beat=9 wlast=0
[445000] MASTER 0 W_VALID_RDY Handshake beat=10 wlast=0
[445000] S1 MEMORY WRITE beat=9 addr=1f09b5b8 data=bbde63ecd73d13b3 id=05
[455000] S1 MEMORY WRITE beat=10 addr=1f09b5c0 data=c57d5529cdd4bb47 id=05
[455000] MASTER 0 W_VALID_RDY Handshake beat=11 wlast=0
[465000] MASTER 0 W_VALID_RDY Handshake beat=12 wlast=0
[465000] S1 MEMORY WRITE beat=11 addr=1f09b5c8 data=c30b3d58f96da880 id=05
[475000] S1 MEMORY WRITE beat=12 addr=1f09b5d0 data=d0aabc349a835bbe id=05
[475000] MASTER 0 W_VALID_RDY Handshake beat=13 wlast=0
[485000] MASTER 0 W_VALID_RDY Handshake beat=14 wlast=0
[485000] S1 MEMORY WRITE beat=13 addr=1f09b5d8 data=e8581705fee9a144 id=05
[495000] S1 MEMORY WRITE beat=14 addr=1f09b5e0 data=f85749c51628115d id=05
[495000] MASTER 0 W_VALID_RDY Handshake beat=15 wlast=0
[505000] MASTER 0 W_VALID_RDY Handshake beat=16 wlast=0
[505000] S1 MEMORY WRITE beat=15 addr=1f09b5e8 data=b0ab6d1bab63545d id=05
[515000] S1 MEMORY WRITE beat=16 addr=1f09b5f0 data=2a4cf5a2c90205f9 id=05
[515000] MASTER 0 W_VALID_RDY Handshake beat=17 wlast=0
[525000] MASTER 0 W_VALID_RDY Handshake beat=18 wlast=0
[525000] S1 MEMORY WRITE beat=17 addr=1f09b5f8 data=df2a175619038421 id=05
[535000] S1 MEMORY WRITE beat=18 addr=1f09b600 data=c466d87e22a43f67 id=05
[535000] MASTER 0 W_VALID_RDY Handshake beat=19 wlast=0
[545000] MASTER 0 W_VALID_RDY Handshake beat=20 wlast=0
[545000] S1 MEMORY WRITE beat=19 addr=1f09b608 data=eba645608fd58471 id=05
[555000] S1 MEMORY WRITE beat=20 addr=1f09b610 data=a8d90892eeb3ce20 id=05
[555000] MASTER 0 W_VALID_RDY Handshake beat=21 wlast=0
[565000] MASTER 0 W_VALID_RDY Handshake beat=22 wlast=0
[565000] S1 MEMORY WRITE beat=21 addr=1f09b618 data=91580d87cad05cb6 id=05
[575000] S1 MEMORY WRITE beat=22 addr=1f09b620 data=daa5e127ed3fe111 id=05
[575000] MASTER 0 W_VALID_RDY Handshake beat=23 wlast=0
[585000] MASTER 0 W_VALID_RDY Handshake beat=24 wlast=0
[585000] S1 MEMORY WRITE beat=23 addr=1f09b628 data=dbf3af31fcfe52e7 id=05
[595000] S1 MEMORY WRITE beat=24 addr=1f09b630 data=c7ceaf9d037ee9ba id=05
[595000] MASTER 0 W_VALID_RDY Handshake beat=25 wlast=0
[605000] MASTER 0 W_VALID_RDY Handshake beat=26 wlast=0
[605000] S1 MEMORY WRITE beat=25 addr=1f09b638 data=f0becacbed4bbcb9 id=05
[615000] S1 MEMORY WRITE beat=26 addr=1f09b640 data=ea4a0fa0227490c5 id=05
[615000] MASTER 0 W_VALID_RDY Handshake beat=27 wlast=0
[625000] MASTER 0 W_VALID_RDY Handshake beat=28 wlast=0
[625000] S1 MEMORY WRITE beat=27 addr=1f09b648 data=25f37a7fccb279fc id=05
[635000] S1 MEMORY WRITE beat=28 addr=1f09b650 data=b9fe36b53218bf3e id=05
[635000] MASTER 0 W_VALID_RDY Handshake beat=29 wlast=0
[645000] MASTER 0 W_VALID_RDY Handshake beat=30 wlast=0
[645000] S1 MEMORY WRITE beat=29 addr=1f09b658 data=d48d500316b2454a id=05
[655000] S1 MEMORY WRITE beat=30 addr=1f09b660 data=e364bf4624484656 id=05
[655000] MASTER 0 W_VALID_RDY Handshake beat=31 wlast=0
[665000] MASTER 0 W_VALID_RDY Handshake beat=32 wlast=0
[665000] S1 MEMORY WRITE beat=31 addr=1f09b668 data=d6610594fa80ca82 id=05
[675000] S1 MEMORY WRITE beat=32 addr=1f09b670 data=11330fcc1d62f5fc id=05
[675000] MASTER 0 W_VALID_RDY Handshake beat=33 wlast=0
[685000] MASTER 0 W_VALID_RDY Handshake beat=34 wlast=0
[685000] S1 MEMORY WRITE beat=33 addr=1f09b678 data=c1ab3c522aee5597 id=05
[695000] S1 MEMORY WRITE beat=34 addr=1f09b680 data=256f2019f497cf12 id=05
[695000] MASTER 0 W_VALID_RDY Handshake beat=35 wlast=0
[705000] MASTER 0 W_VALID_RDY Handshake beat=36 wlast=0
[705000] S1 MEMORY WRITE beat=35 addr=1f09b688 data=91fac50e180c41e6 id=05
[715000] S1 MEMORY WRITE beat=36 addr=1f09b690 data=c2fa977d36a22fe5 id=05
[715000] MASTER 0 W_VALID_RDY Handshake beat=37 wlast=0
[725000] MASTER 0 W_VALID_RDY Handshake beat=38 wlast=0
[725000] S1 MEMORY WRITE beat=37 addr=1f09b698 data=ab39fef7d3a60160 id=05
[735000] S1 MEMORY WRITE beat=38 addr=1f09b6a0 data=ebb24346e869b796 id=05
[735000] MASTER 0 W_VALID_RDY Handshake beat=39 wlast=0
[745000] MASTER 0 W_VALID_RDY Handshake beat=40 wlast=0
[745000] S1 MEMORY WRITE beat=39 addr=1f09b6a8 data=1f0be77b3d34c406 id=05
[755000] S1 MEMORY WRITE beat=40 addr=1f09b6b0 data=90dac566aeacdac3 id=05
[755000] MASTER 0 W_VALID_RDY Handshake beat=41 wlast=0
[765000] MASTER 0 W_VALID_RDY Handshake beat=42 wlast=0
[765000] S1 MEMORY WRITE beat=41 addr=1f09b6b8 data=97169259ca45e672 id=05
[775000] S1 MEMORY WRITE beat=42 addr=1f09b6c0 data=877aaa78fc8d08ad id=05
[775000] MASTER 0 W_VALID_RDY Handshake beat=43 wlast=0
[785000] MASTER 0 W_VALID_RDY Handshake beat=44 wlast=0
[785000] S1 MEMORY WRITE beat=43 addr=1f09b6c8 data=ab39e370b62279d4 id=05
[795000] S1 MEMORY WRITE beat=44 addr=1f09b6d0 data=0068604718556fdf id=05
[795000] MASTER 0 W_VALID_RDY Handshake beat=45 wlast=0
[805000] MASTER 0 W_VALID_RDY Handshake beat=46 wlast=0
[805000] S1 MEMORY WRITE beat=45 addr=1f09b6d8 data=14e2788cc25075ca id=05
[815000] S1 MEMORY WRITE beat=46 addr=1f09b6e0 data=f872ef9e87e30abf id=05
[815000] MASTER 0 W_VALID_RDY Handshake beat=47 wlast=0
[825000] MASTER 0 W_VALID_RDY Handshake beat=48 wlast=0
[825000] S1 MEMORY WRITE beat=47 addr=1f09b6e8 data=a0387a9ec01c5bfc id=05
[835000] S1 MEMORY WRITE beat=48 addr=1f09b6f0 data=826cd1c6f8db4fe5 id=05
[835000] MASTER 0 W_VALID_RDY Handshake beat=49 wlast=0
[845000] MASTER 0 W_VALID_RDY Handshake beat=50 wlast=0
[845000] S1 MEMORY WRITE beat=49 addr=1f09b6f8 data=00be5aa5b51af32a id=05
[855000] S1 MEMORY WRITE beat=50 addr=1f09b700 data=f5374f27fadfc165 id=05
[855000] MASTER 0 W_VALID_RDY Handshake beat=51 wlast=0
[865000] MASTER 0 W_VALID_RDY Handshake beat=52 wlast=0
[865000] S1 MEMORY WRITE beat=51 addr=1f09b708 data=f3bb114aa0f6d543 id=05
[875000] S1 MEMORY WRITE beat=52 addr=1f09b710 data=d611c86ef7a420ed id=05
[875000] MASTER 0 W_VALID_RDY Handshake beat=53 wlast=0
[885000] MASTER 0 W_VALID_RDY Handshake beat=54 wlast=0
[885000] S1 MEMORY WRITE beat=53 addr=1f09b718 data=f283e252f4796bef id=05
[895000] S1 MEMORY WRITE beat=54 addr=1f09b720 data=15704133cb491795 id=05
[895000] MASTER 0 W_VALID_RDY Handshake beat=55 wlast=0
[905000] MASTER 0 W_VALID_RDY Handshake beat=56 wlast=0
[905000] S1 MEMORY WRITE beat=55 addr=1f09b728 data=c2ed3882e63ef39d id=05
[915000] S1 MEMORY WRITE beat=56 addr=1f09b730 data=dab85f8ceb8209a1 id=05
[915000] MASTER 0 W_VALID_RDY Handshake beat=57 wlast=0
[925000] MASTER 0 W_VALID_RDY Handshake beat=58 wlast=0
[925000] S1 MEMORY WRITE beat=57 addr=1f09b738 data=36cb213635711ad5 id=05
[935000] S1 MEMORY WRITE beat=58 addr=1f09b740 data=1bb00e72f028a0bf id=05
[935000] MASTER 0 W_VALID_RDY Handshake beat=59 wlast=0
[945000] MASTER 0 W_VALID_RDY Handshake beat=60 wlast=0
[945000] S1 MEMORY WRITE beat=59 addr=1f09b748 data=dbaaaa60f9b859b8 id=05
[955000] S1 MEMORY WRITE beat=60 addr=1f09b750 data=af29748df6686dfe id=05
[955000] MASTER 0 W_VALID_RDY Handshake beat=61 wlast=0
[965000] MASTER 0 W_VALID_RDY Handshake beat=62 wlast=0
[965000] S1 MEMORY WRITE beat=61 addr=1f09b758 data=e6910ebe9275cb96 id=05
[975000] S1 MEMORY WRITE beat=62 addr=1f09b760 data=0c2e254fcad982ff id=05
[975000] MASTER 0 W_VALID_RDY Handshake beat=63 wlast=0
[985000] MASTER 0 W_VALID_RDY Handshake beat=64 wlast=0
[985000] S1 MEMORY WRITE beat=63 addr=1f09b768 data=c141f0fec23bb91e id=05
[995000] S1 MEMORY WRITE beat=64 addr=1f09b770 data=d4b184b5bb5799dc id=05
[995000] MASTER 0 W_VALID_RDY Handshake beat=65 wlast=0
[1005000] MASTER 0 W_VALID_RDY Handshake beat=66 wlast=0
[1005000] S1 MEMORY WRITE beat=65 addr=1f09b778 data=06311cdc27d2ffbc id=05
[1015000] S1 MEMORY WRITE beat=66 addr=1f09b780 data=ea0eb8dae0dfaa04 id=05
[1015000] MASTER 0 W_VALID_RDY Handshake beat=67 wlast=0
[1025000] MASTER 0 W_VALID_RDY Handshake beat=68 wlast=0
[1025000] S1 MEMORY WRITE beat=67 addr=1f09b788 data=9c3743e0c7730dda id=05
[1035000] S1 MEMORY WRITE beat=68 addr=1f09b790 data=ef460d96bec03d8f id=05
[1035000] MASTER 0 W_VALID_RDY Handshake beat=69 wlast=0
[1045000] MASTER 0 W_VALID_RDY Handshake beat=70 wlast=0
[1045000] S1 MEMORY WRITE beat=69 addr=1f09b798 data=9f9fe793a26860bc id=05
[1055000] S1 MEMORY WRITE beat=70 addr=1f09b7a0 data=e9db6e96d954c670 id=05
[1055000] MASTER 0 W_VALID_RDY Handshake beat=71 wlast=0
[1065000] MASTER 0 W_VALID_RDY Handshake beat=72 wlast=0
[1065000] S1 MEMORY WRITE beat=71 addr=1f09b7a8 data=181504003bd72b74 id=05
[1075000] S1 MEMORY WRITE beat=72 addr=1f09b7b0 data=de3f8c30d9217c2c id=05
[1075000] MASTER 0 W_VALID_RDY Handshake beat=73 wlast=0
[1085000] MASTER 0 W_VALID_RDY Handshake beat=74 wlast=0
[1085000] S1 MEMORY WRITE beat=73 addr=1f09b7b8 data=3276429db7b4eb93 id=05
[1095000] S1 MEMORY WRITE beat=74 addr=1f09b7c0 data=f38c1707c81afac7 id=05
[1095000] MASTER 0 W_VALID_RDY Handshake beat=75 wlast=0
[1105000] MASTER 0 W_VALID_RDY Handshake beat=76 wlast=0
[1105000] S1 MEMORY WRITE beat=75 addr=1f09b7c8 data=a13c76f3ca8b469d id=05
[1115000] S1 MEMORY WRITE beat=76 addr=1f09b7d0 data=82403230d1cba338 id=05
[1115000] MASTER 0 W_VALID_RDY Handshake beat=77 wlast=0
[1125000] MASTER 0 W_VALID_RDY Handshake beat=78 wlast=0
[1125000] S1 MEMORY WRITE beat=77 addr=1f09b7d8 data=19e69dffd3b2b990 id=05
[1135000] S1 MEMORY WRITE beat=78 addr=1f09b7e0 data=9e3e002df5cc4938 id=05
[1135000] MASTER 0 W_VALID_RDY Handshake beat=79 wlast=0
[1145000] MASTER 0 W_VALID_RDY Handshake beat=80 wlast=0
[1145000] S1 MEMORY WRITE beat=79 addr=1f09b7e8 data=c797ec70bb2314f2 id=05
[1155000] S1 MEMORY WRITE beat=80 addr=1f09b7f0 data=0ed5ce83207e325e id=05
[1155000] MASTER 0 W_VALID_RDY Handshake beat=81 wlast=0
[1165000] MASTER 0 W_VALID_RDY Handshake beat=82 wlast=0
[1165000] S1 MEMORY WRITE beat=81 addr=1f09b7f8 data=164a7b96e17e8a6f id=05
[1175000] S1 MEMORY WRITE beat=82 addr=1f09b800 data=9ca19f61ad13ceb0 id=05
[1175000] MASTER 0 W_VALID_RDY Handshake beat=83 wlast=0
[1185000] MASTER 0 W_VALID_RDY Handshake beat=84 wlast=0
[1185000] S1 MEMORY WRITE beat=83 addr=1f09b808 data=cd92010edde26806 id=05
[1195000] S1 MEMORY WRITE beat=84 addr=1f09b810 data=3f60f275ab776de4 id=05
[1195000] MASTER 0 W_VALID_RDY Handshake beat=85 wlast=0
[1205000] MASTER 0 W_VALID_RDY Handshake beat=86 wlast=0
[1205000] S1 MEMORY WRITE beat=85 addr=1f09b818 data=d88b3c95e3dc7ca4 id=05
[1215000] S1 MEMORY WRITE beat=86 addr=1f09b820 data=c1bee4aadc0291d6 id=05
[1215000] MASTER 0 W_VALID_RDY Handshake beat=87 wlast=0
[1225000] MASTER 0 W_VALID_RDY Handshake beat=88 wlast=0
[1225000] S1 MEMORY WRITE beat=87 addr=1f09b828 data=0779ffbba61d3da3 id=05
[1235000] S1 MEMORY WRITE beat=88 addr=1f09b830 data=09f9ba48811fd71f id=05
[1235000] MASTER 0 W_VALID_RDY Handshake beat=89 wlast=0
[1245000] MASTER 0 W_VALID_RDY Handshake beat=90 wlast=0
[1245000] S1 MEMORY WRITE beat=89 addr=1f09b838 data=dd2268f6e0053c50 id=05
[1255000] S1 MEMORY WRITE beat=90 addr=1f09b840 data=862279f3cbb89ef2 id=05
[1255000] MASTER 0 W_VALID_RDY Handshake beat=91 wlast=0
[1265000] MASTER 0 W_VALID_RDY Handshake beat=92 wlast=0
[1265000] S1 MEMORY WRITE beat=91 addr=1f09b848 data=ccd87612e49c68b1 id=05
[1275000] S1 MEMORY WRITE beat=92 addr=1f09b850 data=c4a1a501901c343b id=05
[1275000] MASTER 0 W_VALID_RDY Handshake beat=93 wlast=0
[1285000] MASTER 0 W_VALID_RDY Handshake beat=94 wlast=0
[1285000] S1 MEMORY WRITE beat=93 addr=1f09b858 data=dbd4d32e29fadf08 id=05
[1295000] S1 MEMORY WRITE beat=94 addr=1f09b860 data=0e9747b9cac41ef4 id=05
[1295000] MASTER 0 W_VALID_RDY Handshake beat=95 wlast=0
[1305000] MASTER 0 W_VALID_RDY Handshake beat=96 wlast=0
[1305000] S1 MEMORY WRITE beat=95 addr=1f09b868 data=dae0533028ad4940 id=05
[1315000] S1 MEMORY WRITE beat=96 addr=1f09b870 data=d2a82848d338ecba id=05
[1315000] MASTER 0 W_VALID_RDY Handshake beat=97 wlast=0
[1325000] MASTER 0 W_VALID_RDY Handshake beat=98 wlast=0
[1325000] S1 MEMORY WRITE beat=97 addr=1f09b878 data=9dfd0bae36b5265e id=05
[1335000] S1 MEMORY WRITE beat=98 addr=1f09b880 data=df626f9ee13f7001 id=05
[1335000] MASTER 0 W_VALID_RDY Handshake beat=99 wlast=0
[1345000] MASTER 0 W_VALID_RDY Handshake beat=100 wlast=0
[1345000] S1 MEMORY WRITE beat=99 addr=1f09b888 data=34785cbbf8dd5ede id=05
[1355000] S1 MEMORY WRITE beat=100 addr=1f09b890 data=af92853c320a97e6 id=05
[1355000] MASTER 0 W_VALID_RDY Handshake beat=101 wlast=0
[1365000] MASTER 0 W_VALID_RDY Handshake beat=102 wlast=0
[1365000] S1 MEMORY WRITE beat=101 addr=1f09b898 data=134a07e7d2756869 id=05
[1375000] S1 MEMORY WRITE beat=102 addr=1f09b8a0 data=cb52c7488ef4f4da id=05
[1375000] MASTER 0 W_VALID_RDY Handshake beat=103 wlast=0
[1385000] MASTER 0 W_VALID_RDY Handshake beat=104 wlast=0
[1385000] S1 MEMORY WRITE beat=103 addr=1f09b8a8 data=c0ff8cc0c7c264a2 id=05
[1395000] S1 MEMORY WRITE beat=104 addr=1f09b8b0 data=9a37cd0bfae54c84 id=05
[1395000] MASTER 0 W_VALID_RDY Handshake beat=105 wlast=0
[1405000] MASTER 0 W_VALID_RDY Handshake beat=106 wlast=0
[1405000] S1 MEMORY WRITE beat=105 addr=1f09b8b8 data=09da415fd44994a7 id=05
[1415000] S1 MEMORY WRITE beat=106 addr=1f09b8c0 data=9c0bf949e58a9453 id=05
[1415000] MASTER 0 W_VALID_RDY Handshake beat=107 wlast=0
[1425000] MASTER 0 W_VALID_RDY Handshake beat=108 wlast=0
[1425000] S1 MEMORY WRITE beat=107 addr=1f09b8c8 data=e06fe0d8cad9ce1f id=05
[1435000] S1 MEMORY WRITE beat=108 addr=1f09b8d0 data=1f2362c73643c655 id=05
[1435000] MASTER 0 W_VALID_RDY Handshake beat=109 wlast=0
[1445000] MASTER 0 W_VALID_RDY Handshake beat=110 wlast=0
[1445000] S1 MEMORY WRITE beat=109 addr=1f09b8d8 data=9bce5aa8ea4a2237 id=05
[1455000] S1 MEMORY WRITE beat=110 addr=1f09b8e0 data=b523f056bb2f5c10 id=05
[1455000] MASTER 0 W_VALID_RDY Handshake beat=111 wlast=0
[1465000] MASTER 0 W_VALID_RDY Handshake beat=112 wlast=0
[1465000] S1 MEMORY WRITE beat=111 addr=1f09b8e8 data=f1732265fc3e3b80 id=05
[1475000] S1 MEMORY WRITE beat=112 addr=1f09b8f0 data=e6885db7d447531d id=05
[1475000] MASTER 0 W_VALID_RDY Handshake beat=113 wlast=0
[1485000] MASTER 0 W_VALID_RDY Handshake beat=114 wlast=0
[1485000] S1 MEMORY WRITE beat=113 addr=1f09b8f8 data=0f76af2e0d417d0e id=05
[1495000] S1 MEMORY WRITE beat=114 addr=1f09b900 data=897fb88e1bac4e0e id=05
[1495000] MASTER 0 W_VALID_RDY Handshake beat=115 wlast=0
[1505000] MASTER 0 W_VALID_RDY Handshake beat=116 wlast=0
[1505000] S1 MEMORY WRITE beat=115 addr=1f09b908 data=eff3a12b80e9d193 id=05
[1515000] S1 MEMORY WRITE beat=116 addr=1f09b910 data=8e2b4ea1f0081646 id=05
[1515000] MASTER 0 W_VALID_RDY Handshake beat=117 wlast=0
[1525000] MASTER 0 W_VALID_RDY Handshake beat=118 wlast=0
[1525000] S1 MEMORY WRITE beat=117 addr=1f09b918 data=0bb46454ff6a5059 id=05
[1535000] S1 MEMORY WRITE beat=118 addr=1f09b920 data=005421ed17ab0730 id=05
[1535000] MASTER 0 W_VALID_RDY Handshake beat=119 wlast=0
[1545000] MASTER 0 W_VALID_RDY Handshake beat=120 wlast=0
[1545000] S1 MEMORY WRITE beat=119 addr=1f09b928 data=07b31d76fba8057f id=05
[1555000] S1 MEMORY WRITE beat=120 addr=1f09b930 data=fb1255d98e7f708e id=05
[1555000] MASTER 0 W_VALID_RDY Handshake beat=121 wlast=0
[1565000] MASTER 0 W_VALID_RDY Handshake beat=122 wlast=0
[1565000] S1 MEMORY WRITE beat=121 addr=1f09b938 data=a62a77be136781ca id=05
[1575000] S1 MEMORY WRITE beat=122 addr=1f09b940 data=8f0f8749fb6677c6 id=05
[1575000] MASTER 0 W_VALID_RDY Handshake beat=123 wlast=0
[1585000] MASTER 0 W_VALID_RDY Handshake beat=124 wlast=0
[1585000] S1 MEMORY WRITE beat=123 addr=1f09b948 data=89e5e854addd9534 id=05
[1595000] S1 MEMORY WRITE beat=124 addr=1f09b950 data=c14516fe8a21dd22 id=05
[1595000] MASTER 0 W_VALID_RDY Handshake beat=125 wlast=0
[1605000] MASTER 0 W_VALID_RDY Handshake beat=126 wlast=0
[1605000] S1 MEMORY WRITE beat=125 addr=1f09b958 data=858854e830106013 id=05
[1615000] S1 MEMORY WRITE beat=126 addr=1f09b960 data=ddedf547d0549e48 id=05
[1615000] MASTER 0 W_VALID_RDY Handshake beat=127 wlast=0
[1625000] MASTER 0 W_VALID_RDY Handshake beat=128 wlast=0
[1625000] S1 MEMORY WRITE beat=127 addr=1f09b968 data=da767b6a0f6e3d3d id=05
[1635000] S1 MEMORY WRITE beat=128 addr=1f09b970 data=3f7e9d501f330c46 id=05
[1635000] MASTER 0 W_VALID_RDY Handshake beat=129 wlast=0
[1645000] MASTER 0 W_VALID_RDY Handshake beat=130 wlast=0
[1645000] S1 MEMORY WRITE beat=129 addr=1f09b978 data=ef87aa8edffed053 id=05
[1655000] S1 MEMORY WRITE beat=130 addr=1f09b980 data=ef6d0d909d6c9297 id=05
[1655000] MASTER 0 W_VALID_RDY Handshake beat=131 wlast=0
[1665000] MASTER 0 W_VALID_RDY Handshake beat=132 wlast=0
[1665000] S1 MEMORY WRITE beat=131 addr=1f09b988 data=bc9f9eddc9fe25f8 id=05
[1675000] S1 MEMORY WRITE beat=132 addr=1f09b990 data=a9fcf64b2eebaae0 id=05
[1675000] MASTER 0 W_VALID_RDY Handshake beat=133 wlast=0
[1685000] MASTER 0 W_VALID_RDY Handshake beat=134 wlast=0
[1685000] S1 MEMORY WRITE beat=133 addr=1f09b998 data=cc583d77ac27496b id=05
[1695000] S1 MEMORY WRITE beat=134 addr=1f09b9a0 data=f6256f64996a03db id=05
[1695000] MASTER 0 W_VALID_RDY Handshake beat=135 wlast=0
[1705000] MASTER 0 W_VALID_RDY Handshake beat=136 wlast=0
[1705000] S1 MEMORY WRITE beat=135 addr=1f09b9a8 data=c855aebb08f7dc55 id=05
[1715000] S1 MEMORY WRITE beat=136 addr=1f09b9b0 data=b51f25c0a02265af id=05
[1715000] MASTER 0 W_VALID_RDY Handshake beat=137 wlast=0
[1725000] MASTER 0 W_VALID_RDY Handshake beat=138 wlast=0
[1725000] S1 MEMORY WRITE beat=137 addr=1f09b9b8 data=398c698b14adec33 id=05
[1735000] S1 MEMORY WRITE beat=138 addr=1f09b9c0 data=1da5c888ab449524 id=05
[1735000] MASTER 0 W_VALID_RDY Handshake beat=139 wlast=0
[1745000] MASTER 0 W_VALID_RDY Handshake beat=140 wlast=0
[1745000] S1 MEMORY WRITE beat=139 addr=1f09b9c8 data=cb66fad481e21846 id=05
[1755000] S1 MEMORY WRITE beat=140 addr=1f09b9d0 data=96900479d2c4ee48 id=05
[1755000] MASTER 0 W_VALID_RDY Handshake beat=141 wlast=0
[1765000] MASTER 0 W_VALID_RDY Handshake beat=142 wlast=0
[1765000] S1 MEMORY WRITE beat=141 addr=1f09b9d8 data=fe09836d04f3645f id=05
[1775000] S1 MEMORY WRITE beat=142 addr=1f09b9e0 data=86d57ca5b435cd01 id=05
[1775000] MASTER 0 W_VALID_RDY Handshake beat=143 wlast=0
[1785000] MASTER 0 W_VALID_RDY Handshake beat=144 wlast=0
[1785000] S1 MEMORY WRITE beat=143 addr=1f09b9e8 data=06fabb4ac9707e41 id=05
[1795000] S1 MEMORY WRITE beat=144 addr=1f09b9f0 data=ce63e2a01d65811f id=05
[1795000] MASTER 0 W_VALID_RDY Handshake beat=145 wlast=0
[1805000] MASTER 0 W_VALID_RDY Handshake beat=146 wlast=0
[1805000] S1 MEMORY WRITE beat=145 addr=1f09b9f8 data=d19b4e2005043eb7 id=05
[1815000] S1 MEMORY WRITE beat=146 addr=1f09ba00 data=ce74bcf8d5395f45 id=05
[1815000] MASTER 0 W_VALID_RDY Handshake beat=147 wlast=0
[1825000] MASTER 0 W_VALID_RDY Handshake beat=148 wlast=0
[1825000] S1 MEMORY WRITE beat=147 addr=1f09ba08 data=f29ee064d896096a id=05
[1835000] S1 MEMORY WRITE beat=148 addr=1f09ba10 data=dd9a48211cd89f98 id=05
[1835000] MASTER 0 W_VALID_RDY Handshake beat=149 wlast=0
[1845000] MASTER 0 W_VALID_RDY Handshake beat=150 wlast=0
[1845000] S1 MEMORY WRITE beat=149 addr=1f09ba18 data=f211feddc43a2e85 id=05
[1855000] S1 MEMORY WRITE beat=150 addr=1f09ba20 data=9cd037efac0f0519 id=05
[1855000] MASTER 0 W_VALID_RDY Handshake beat=151 wlast=0
[1865000] MASTER 0 W_VALID_RDY Handshake beat=152 wlast=0
[1865000] S1 MEMORY WRITE beat=151 addr=1f09ba28 data=c8e7a4b1e4b0df42 id=05
[1875000] S1 MEMORY WRITE beat=152 addr=1f09ba30 data=28eb0dc7fa6a8011 id=05
[1875000] MASTER 0 W_VALID_RDY Handshake beat=153 wlast=0
[1885000] MASTER 0 W_VALID_RDY Handshake beat=154 wlast=0
[1885000] S1 MEMORY WRITE beat=153 addr=1f09ba38 data=a679852a3af9a38f id=05
[1895000] S1 MEMORY WRITE beat=154 addr=1f09ba40 data=1faa82d1c5bb45b6 id=05
[1895000] MASTER 0 W_VALID_RDY Handshake beat=155 wlast=0
[1905000] MASTER 0 W_VALID_RDY Handshake beat=156 wlast=0
[1905000] S1 MEMORY WRITE beat=155 addr=1f09ba48 data=c025c5c7ef6129dc id=05
[1915000] S1 MEMORY WRITE beat=156 addr=1f09ba50 data=2a5acd6bc8959098 id=05
[1915000] MASTER 0 W_VALID_RDY Handshake beat=157 wlast=0
[1925000] MASTER 0 W_VALID_RDY Handshake beat=158 wlast=0
[1925000] S1 MEMORY WRITE beat=157 addr=1f09ba58 data=8e50d64ee69f4af2 id=05
[1935000] S1 MEMORY WRITE beat=158 addr=1f09ba60 data=d60074ceca05503c id=05
[1935000] MASTER 0 W_VALID_RDY Handshake beat=159 wlast=0
[1945000] MASTER 0 W_VALID_RDY Handshake beat=160 wlast=0
[1945000] S1 MEMORY WRITE beat=159 addr=1f09ba68 data=129ae0d4ce769c16 id=05
[1955000] S1 MEMORY WRITE beat=160 addr=1f09ba70 data=3515e708005b4239 id=05
[1955000] MASTER 0 W_VALID_RDY Handshake beat=161 wlast=0
[1965000] MASTER 0 W_VALID_RDY Handshake beat=162 wlast=0
[1965000] S1 MEMORY WRITE beat=161 addr=1f09ba78 data=ca609275a0ebb722 id=05
[1975000] S1 MEMORY WRITE beat=162 addr=1f09ba80 data=ef6253380b165bd6 id=05
[1975000] MASTER 0 W_VALID_RDY Handshake beat=163 wlast=0
[1985000] MASTER 0 W_VALID_RDY Handshake beat=164 wlast=0
[1985000] S1 MEMORY WRITE beat=163 addr=1f09ba88 data=0b719e0fdcfb7349 id=05
[1995000] S1 MEMORY WRITE beat=164 addr=1f09ba90 data=fde72a6ba4783a40 id=05
[1995000] MASTER 0 W_VALID_RDY Handshake beat=165 wlast=0
[2005000] MASTER 0 W_VALID_RDY Handshake beat=166 wlast=0
[2005000] S1 MEMORY WRITE beat=165 addr=1f09ba98 data=af8e9616d5d23084 id=05
[2015000] S1 MEMORY WRITE beat=166 addr=1f09baa0 data=32cda3cded497da4 id=05
[2015000] MASTER 0 W_VALID_RDY Handshake beat=167 wlast=0
[2025000] MASTER 0 W_VALID_RDY Handshake beat=168 wlast=0
[2025000] S1 MEMORY WRITE beat=167 addr=1f09baa8 data=91c1b7e4bb003425 id=05
[2035000] S1 MEMORY WRITE beat=168 addr=1f09bab0 data=90d264a9b0b4ce38 id=05
[2035000] MASTER 0 W_VALID_RDY Handshake beat=169 wlast=0
[2045000] MASTER 0 W_VALID_RDY Handshake beat=170 wlast=0
[2045000] S1 MEMORY WRITE beat=169 addr=1f09bab8 data=9dfe4bdcc1504dfb id=05
[2055000] S1 MEMORY WRITE beat=170 addr=1f09bac0 data=fc508220c3a00876 id=05
[2055000] MASTER 0 W_VALID_RDY Handshake beat=171 wlast=0
[2065000] MASTER 0 W_VALID_RDY Handshake beat=172 wlast=0
[2065000] S1 MEMORY WRITE beat=171 addr=1f09bac8 data=f454d6af2fc003c1 id=05
[2075000] S1 MEMORY WRITE beat=172 addr=1f09bad0 data=f11051bc0d22e6ca id=05
[2075000] MASTER 0 W_VALID_RDY Handshake beat=173 wlast=0
[2085000] MASTER 0 W_VALID_RDY Handshake beat=174 wlast=0
[2085000] S1 MEMORY WRITE beat=173 addr=1f09bad8 data=d0c2ef409253228b id=05
[2095000] S1 MEMORY WRITE beat=174 addr=1f09bae0 data=c213264ced60d3dc id=05
[2095000] MASTER 0 W_VALID_RDY Handshake beat=175 wlast=0
[2105000] MASTER 0 W_VALID_RDY Handshake beat=176 wlast=0
[2105000] S1 MEMORY WRITE beat=175 addr=1f09bae8 data=fa83baa6c517c5ef id=05
[2115000] S1 MEMORY WRITE beat=176 addr=1f09baf0 data=d76ae87bb3237808 id=05
[2115000] MASTER 0 W_VALID_RDY Handshake beat=177 wlast=0
[2125000] MASTER 0 W_VALID_RDY Handshake beat=178 wlast=0
[2125000] S1 MEMORY WRITE beat=177 addr=1f09baf8 data=20844be5cb46a9e7 id=05
[2135000] S1 MEMORY WRITE beat=178 addr=1f09bb00 data=905e6fd6997e0ec7 id=05
[2135000] MASTER 0 W_VALID_RDY Handshake beat=179 wlast=0
[2145000] MASTER 0 W_VALID_RDY Handshake beat=180 wlast=0
[2145000] S1 MEMORY WRITE beat=179 addr=1f09bb08 data=cca186d09b08068b id=05
[2155000] S1 MEMORY WRITE beat=180 addr=1f09bb10 data=e64eb072e7c95851 id=05
[2155000] MASTER 0 W_VALID_RDY Handshake beat=181 wlast=0
[2165000] MASTER 0 W_VALID_RDY Handshake beat=182 wlast=0
[2165000] S1 MEMORY WRITE beat=181 addr=1f09bb18 data=01476719ed25d2b5 id=05
[2175000] S1 MEMORY WRITE beat=182 addr=1f09bb20 data=882dd940f6ad2049 id=05
[2175000] MASTER 0 W_VALID_RDY Handshake beat=183 wlast=0
[2185000] MASTER 0 W_VALID_RDY Handshake beat=184 wlast=0
[2185000] S1 MEMORY WRITE beat=183 addr=1f09bb28 data=de76789acde8ede9 id=05
[2195000] S1 MEMORY WRITE beat=184 addr=1f09bb30 data=3b0ec09eee7c89b3 id=05
[2195000] MASTER 0 W_VALID_RDY Handshake beat=185 wlast=0
[2205000] MASTER 0 W_VALID_RDY Handshake beat=186 wlast=0
[2205000] S1 MEMORY WRITE beat=185 addr=1f09bb38 data=e529a9fcdfbddfb3 id=05
[2215000] S1 MEMORY WRITE beat=186 addr=1f09bb40 data=ada6cd9cc33c99de id=05
[2215000] MASTER 0 W_VALID_RDY Handshake beat=187 wlast=0
[2225000] MASTER 0 W_VALID_RDY Handshake beat=188 wlast=0
[2225000] S1 MEMORY WRITE beat=187 addr=1f09bb48 data=b1b92391c3a02296 id=05
[2235000] S1 MEMORY WRITE beat=188 addr=1f09bb50 data=235e024ae8b58e3a id=05
[2235000] MASTER 0 W_VALID_RDY Handshake beat=189 wlast=0
[2245000] MASTER 0 W_VALID_RDY Handshake beat=190 wlast=0
[2245000] S1 MEMORY WRITE beat=189 addr=1f09bb58 data=2bf2281996e2cd8d id=05
[2255000] S1 MEMORY WRITE beat=190 addr=1f09bb60 data=da82f024d104cfe6 id=05
[2255000] MASTER 0 W_VALID_RDY Handshake beat=191 wlast=0
[2265000] MASTER 0 W_VALID_RDY Handshake beat=192 wlast=0
[2265000] S1 MEMORY WRITE beat=191 addr=1f09bb68 data=39ba5e21ddab4baa id=05
[2275000] S1 MEMORY WRITE beat=192 addr=1f09bb70 data=f48e1938fde0f26e id=05
[2275000] MASTER 0 W_VALID_RDY Handshake beat=193 wlast=0
[2285000] MASTER 0 W_VALID_RDY Handshake beat=194 wlast=0
[2285000] S1 MEMORY WRITE beat=193 addr=1f09bb78 data=cee5c254e5ac863a id=05
[2295000] S1 MEMORY WRITE beat=194 addr=1f09bb80 data=c357d1e4cf11095c id=05
[2295000] MASTER 0 W_VALID_RDY Handshake beat=195 wlast=0
[2305000] MASTER 0 W_VALID_RDY Handshake beat=196 wlast=0
[2305000] S1 MEMORY WRITE beat=195 addr=1f09bb88 data=ccf1fbca88a02075 id=05
[2315000] S1 MEMORY WRITE beat=196 addr=1f09bb90 data=ee4ca6afb7e5eb1c id=05
[2315000] MASTER 0 W_VALID_RDY Handshake beat=197 wlast=0
[2325000] MASTER 0 W_VALID_RDY Handshake beat=198 wlast=0
[2325000] S1 MEMORY WRITE beat=197 addr=1f09bb98 data=86f6f4789bd7be1e id=05
[2335000] S1 MEMORY WRITE beat=198 addr=1f09bba0 data=2477de9431a47894 id=05
[2335000] MASTER 0 W_VALID_RDY Handshake beat=199 wlast=0
[2345000] MASTER 0 W_VALID_RDY Handshake beat=200 wlast=0
[2345000] S1 MEMORY WRITE beat=199 addr=1f09bba8 data=e98a63b0d3e8f042 id=05
[2355000] S1 MEMORY WRITE beat=200 addr=1f09bbb0 data=efc0ae6192c48543 id=05
[2355000] MASTER 0 W_VALID_RDY Handshake beat=201 wlast=0
[2365000] MASTER 0 W_VALID_RDY Handshake beat=202 wlast=0
[2365000] S1 MEMORY WRITE beat=201 addr=1f09bbb8 data=c468fdd7f0815829 id=05
[2375000] S1 MEMORY WRITE beat=202 addr=1f09bbc0 data=c46a486b14388cf5 id=05
[2375000] MASTER 0 W_VALID_RDY Handshake beat=203 wlast=0
[2385000] MASTER 0 W_VALID_RDY Handshake beat=204 wlast=0
[2385000] S1 MEMORY WRITE beat=203 addr=1f09bbc8 data=a6fd12382df36188 id=05
[2395000] S1 MEMORY WRITE beat=204 addr=1f09bbd0 data=1e74b9b1b42af6cc id=05
[2395000] MASTER 0 W_VALID_RDY Handshake beat=205 wlast=0
[2405000] MASTER 0 W_VALID_RDY Handshake beat=206 wlast=0
[2405000] S1 MEMORY WRITE beat=205 addr=1f09bbd8 data=c86383c1eb661010 id=05
[2415000] S1 MEMORY WRITE beat=206 addr=1f09bbe0 data=19597198e2df021c id=05
[2415000] MASTER 0 W_VALID_RDY Handshake beat=207 wlast=0
[2425000] MASTER 0 W_VALID_RDY Handshake beat=208 wlast=0
[2425000] S1 MEMORY WRITE beat=207 addr=1f09bbe8 data=1709f8e9ef6095fa id=05
[2435000] S1 MEMORY WRITE beat=208 addr=1f09bbf0 data=dac6a60a37ce2b49 id=05
[2435000] MASTER 0 W_VALID_RDY Handshake beat=209 wlast=0
[2445000] MASTER 0 W_VALID_RDY Handshake beat=210 wlast=0
[2445000] S1 MEMORY WRITE beat=209 addr=1f09bbf8 data=9aad2d65df6d7caa id=05
[2455000] S1 MEMORY WRITE beat=210 addr=1f09bc00 data=cece12a4f42017a2 id=05
[2455000] MASTER 0 W_VALID_RDY Handshake beat=211 wlast=0
[2465000] MASTER 0 W_VALID_RDY Handshake beat=212 wlast=0
[2465000] S1 MEMORY WRITE beat=211 addr=1f09bc08 data=2bee42ebb1b7264e id=05
[2475000] S1 MEMORY WRITE beat=212 addr=1f09bc10 data=1124a2f9a994b8ae id=05
[2475000] MASTER 0 W_VALID_RDY Handshake beat=213 wlast=0
[2485000] MASTER 0 W_VALID_RDY Handshake beat=214 wlast=0
[2485000] S1 MEMORY WRITE beat=213 addr=1f09bc18 data=9db4d050c69b7050 id=05
[2495000] S1 MEMORY WRITE beat=214 addr=1f09bc20 data=f852969fdff2b59d id=05
[2495000] MASTER 0 W_VALID_RDY Handshake beat=215 wlast=0
[2505000] MASTER 0 W_VALID_RDY Handshake beat=216 wlast=0
[2505000] S1 MEMORY WRITE beat=215 addr=1f09bc28 data=09876e4cc9a3133b id=05
[2515000] S1 MEMORY WRITE beat=216 addr=1f09bc30 data=103e838c09773998 id=05
[2515000] MASTER 0 W_VALID_RDY Handshake beat=217 wlast=0
[2525000] MASTER 0 W_VALID_RDY Handshake beat=218 wlast=0
[2525000] S1 MEMORY WRITE beat=217 addr=1f09bc38 data=e969ef35a73c3e9c id=05
[2535000] S1 MEMORY WRITE beat=218 addr=1f09bc40 data=f0df51d808911a2b id=05
[2535000] MASTER 0 W_VALID_RDY Handshake beat=219 wlast=0
[2545000] MASTER 0 W_VALID_RDY Handshake beat=220 wlast=0
[2545000] S1 MEMORY WRITE beat=219 addr=1f09bc48 data=120853c3f2f15d81 id=05
[2555000] S1 MEMORY WRITE beat=220 addr=1f09bc50 data=1a2d9c1e011dd564 id=05
[2555000] MASTER 0 W_VALID_RDY Handshake beat=221 wlast=0
[2565000] MASTER 0 W_VALID_RDY Handshake beat=222 wlast=0
[2565000] S1 MEMORY WRITE beat=221 addr=1f09bc58 data=09aeef8ffb7242f8 id=05
[2575000] S1 MEMORY WRITE beat=222 addr=1f09bc60 data=ee63a07a0b0cedf6 id=05
[2575000] MASTER 0 W_VALID_RDY Handshake beat=223 wlast=0
[2585000] MASTER 0 W_VALID_RDY Handshake beat=224 wlast=0
[2585000] S1 MEMORY WRITE beat=223 addr=1f09bc68 data=0c2ac35a1bb74352 id=05
[2595000] S1 MEMORY WRITE beat=224 addr=1f09bc70 data=9729864a08913c98 id=05
[2595000] MASTER 0 W_VALID_RDY Handshake beat=225 wlast=0
[2605000] MASTER 0 W_VALID_RDY Handshake beat=226 wlast=0
[2605000] S1 MEMORY WRITE beat=225 addr=1f09bc78 data=139e2a8e15d9b2e9 id=05
[2615000] S1 MEMORY WRITE beat=226 addr=1f09bc80 data=3190f63b858d26c4 id=05
[2615000] MASTER 0 W_VALID_RDY Handshake beat=227 wlast=0
[2625000] MASTER 0 W_VALID_RDY Handshake beat=228 wlast=0
[2625000] S1 MEMORY WRITE beat=227 addr=1f09bc88 data=8e1e635c1fc8ede8 id=05
[2635000] S1 MEMORY WRITE beat=228 addr=1f09bc90 data=35a2a0d1c8ba7c85 id=05
[2635000] MASTER 0 W_VALID_RDY Handshake beat=229 wlast=0
[2645000] MASTER 0 W_VALID_RDY Handshake beat=230 wlast=0
[2645000] S1 MEMORY WRITE beat=229 addr=1f09bc98 data=ce47a34aa1bc8dea id=05
[2655000] S1 MEMORY WRITE beat=230 addr=1f09bca0 data=c1857bd2e733970c id=05
[2655000] MASTER 0 W_VALID_RDY Handshake beat=231 wlast=0
[2665000] MASTER 0 W_VALID_RDY Handshake beat=232 wlast=0
[2665000] S1 MEMORY WRITE beat=231 addr=1f09bca8 data=afee1391dc6606a6 id=05
[2675000] S1 MEMORY WRITE beat=232 addr=1f09bcb0 data=fe229491f7281ca3 id=05
[2675000] MASTER 0 W_VALID_RDY Handshake beat=233 wlast=0
[2685000] MASTER 0 W_VALID_RDY Handshake beat=234 wlast=0
[2685000] S1 MEMORY WRITE beat=233 addr=1f09bcb8 data=de5bb3affe35b6db id=05
[2695000] S1 MEMORY WRITE beat=234 addr=1f09bcc0 data=da9bbd82bfa81063 id=05
[2695000] MASTER 0 W_VALID_RDY Handshake beat=235 wlast=0
[2705000] MASTER 0 W_VALID_RDY Handshake beat=236 wlast=1
[2705000] S1 MEMORY WRITE beat=235 addr=1f09bcc8 data=36d02d070e49c741 id=05
[2715000] S1 MEMORY WRITE beat=236 addr=1f09bcd0 data=8c7f7e1cd8be5213 id=05
[2725000] SLAVE1 sent B resp, id=5
[2735000] [SLAVE MONITOR] mst_id=0 s_id=1 awaddr=1f09b570 awid=101 awlen=236 awsize=3 awburst=1 wdata=[aca74e3c31cc05ef 123352caea5eddce ca40147c22c66c67 d49272569208ef91 fc67cd5ff6e762b8 99adcf1fe6c5c520 f8ceb4b1c6a7e1db 3d8f4494ee404175 d5060695f5368211 bbde63ecd73d13b3 c57d5529cdd4bb47 c30b3d58f96da880 d0aabc349a835bbe e8581705fee9a144 f85749c51628115d b0ab6d1bab63545d 2a4cf5a2c90205f9 df2a175619038421 c466d87e22a43f67 eba645608fd58471 a8d90892eeb3ce20 91580d87cad05cb6 daa5e127ed3fe111 dbf3af31fcfe52e7 c7ceaf9d037ee9ba f0becacbed4bbcb9 ea4a0fa0227490c5 25f37a7fccb279fc b9fe36b53218bf3e d48d500316b2454a e364bf4624484656 d6610594fa80ca82 11330fcc1d62f5fc c1ab3c522aee5597 256f2019f497cf12 91fac50e180c41e6 c2fa977d36a22fe5 ab39fef7d3a60160 ebb24346e869b796 1f0be77b3d34c406 90dac566aeacdac3 97169259ca45e672 877aaa78fc8d08ad ab39e370b62279d4 68604718556fdf 14e2788cc25075ca f872ef9e87e30abf a0387a9ec01c5bfc 826cd1c6f8db4fe5 be5aa5b51af32a f5374f27fadfc165 f3bb114aa0f6d543 d611c86ef7a420ed f283e252f4796bef 15704133cb491795 c2ed3882e63ef39d dab85f8ceb8209a1 36cb213635711ad5 1bb00e72f028a0bf dbaaaa60f9b859b8 af29748df6686dfe e6910ebe9275cb96 c2e254fcad982ff c141f0fec23bb91e d4b184b5bb5799dc 6311cdc27d2ffbc ea0eb8dae0dfaa04 9c3743e0c7730dda ef460d96bec03d8f 9f9fe793a26860bc e9db6e96d954c670 181504003bd72b74 de3f8c30d9217c2c 3276429db7b4eb93 f38c1707c81afac7 a13c76f3ca8b469d 82403230d1cba338 19e69dffd3b2b990 9e3e002df5cc4938 c797ec70bb2314f2 ed5ce83207e325e 164a7b96e17e8a6f 9ca19f61ad13ceb0 cd92010edde26806 3f60f275ab776de4 d88b3c95e3dc7ca4 c1bee4aadc0291d6 779ffbba61d3da3 9f9ba48811fd71f dd2268f6e0053c50 862279f3cbb89ef2 ccd87612e49c68b1 c4a1a501901c343b dbd4d32e29fadf08 e9747b9cac41ef4 dae0533028ad4940 d2a82848d338ecba 9dfd0bae36b5265e df626f9ee13f7001 34785cbbf8dd5ede af92853c320a97e6 134a07e7d2756869 cb52c7488ef4f4da c0ff8cc0c7c264a2 9a37cd0bfae54c84 9da415fd44994a7 9c0bf949e58a9453 e06fe0d8cad9ce1f 1f2362c73643c655 9bce5aa8ea4a2237 b523f056bb2f5c10 f1732265fc3e3b80 e6885db7d447531d f76af2e0d417d0e 897fb88e1bac4e0e eff3a12b80e9d193 8e2b4ea1f0081646 bb46454ff6a5059 5421ed17ab0730 7b31d76fba8057f fb1255d98e7f708e a62a77be136781ca 8f0f8749fb6677c6 89e5e854addd9534 c14516fe8a21dd22 858854e830106013 ddedf547d0549e48 da767b6a0f6e3d3d 3f7e9d501f330c46 ef87aa8edffed053 ef6d0d909d6c9297 bc9f9eddc9fe25f8 a9fcf64b2eebaae0 cc583d77ac27496b f6256f64996a03db c855aebb08f7dc55 b51f25c0a02265af 398c698b14adec33 1da5c888ab449524 cb66fad481e21846 96900479d2c4ee48 fe09836d04f3645f 86d57ca5b435cd01 6fabb4ac9707e41 ce63e2a01d65811f d19b4e2005043eb7 ce74bcf8d5395f45 f29ee064d896096a dd9a48211cd89f98 f211feddc43a2e85 9cd037efac0f0519 c8e7a4b1e4b0df42 28eb0dc7fa6a8011 a679852a3af9a38f 1faa82d1c5bb45b6 c025c5c7ef6129dc 2a5acd6bc8959098 8e50d64ee69f4af2 d60074ceca05503c 129ae0d4ce769c16 3515e708005b4239 ca609275a0ebb722 ef6253380b165bd6 b719e0fdcfb7349 fde72a6ba4783a40 af8e9616d5d23084 32cda3cded497da4 91c1b7e4bb003425 90d264a9b0b4ce38 9dfe4bdcc1504dfb fc508220c3a00876 f454d6af2fc003c1 f11051bc0d22e6ca d0c2ef409253228b c213264ced60d3dc fa83baa6c517c5ef d76ae87bb3237808 20844be5cb46a9e7 905e6fd6997e0ec7 cca186d09b08068b e64eb072e7c95851 1476719ed25d2b5 882dd940f6ad2049 de76789acde8ede9 3b0ec09eee7c89b3 e529a9fcdfbddfb3 ada6cd9cc33c99de b1b92391c3a02296 235e024ae8b58e3a 2bf2281996e2cd8d da82f024d104cfe6 39ba5e21ddab4baa f48e1938fde0f26e cee5c254e5ac863a c357d1e4cf11095c ccf1fbca88a02075 ee4ca6afb7e5eb1c 86f6f4789bd7be1e 2477de9431a47894 e98a63b0d3e8f042 efc0ae6192c48543 c468fdd7f0815829 c46a486b14388cf5 a6fd12382df36188 1e74b9b1b42af6cc c86383c1eb661010 19597198e2df021c 1709f8e9ef6095fa dac6a60a37ce2b49 9aad2d65df6d7caa cece12a4f42017a2 2bee42ebb1b7264e 1124a2f9a994b8ae 9db4d050c69b7050 f852969fdff2b59d 9876e4cc9a3133b 103e838c09773998 e969ef35a73c3e9c f0df51d808911a2b 120853c3f2f15d81 1a2d9c1e011dd564 9aeef8ffb7242f8 ee63a07a0b0cedf6 c2ac35a1bb74352 9729864a08913c98 139e2a8e15d9b2e9 3190f63b858d26c4 8e1e635c1fc8ede8 35a2a0d1c8ba7c85 ce47a34aa1bc8dea c1857bd2e733970c afee1391dc6606a6 fe229491f7281ca3 de5bb3affe35b6db da9bbd82bfa81063 36d02d070e49c741 8c7f7e1cd8be5213 ] wstrb=[b6 76 9e f7 7d b1 14 34 28 b2 2b a5 64 3f d9 8c f2 5 31 56 44 b e2 36 10 13 8c 54 1e 6e 8b 2e 82 17 83 a0 86 e cf 8 25 52 a8 ab 60 77 b3 85 c9 5c 31 29 d3 e4 af 9d 40 e0 c6 14 c4 75 b1 5 55 77 19 1a ed ca 1f 42 41 38 5c 2e 2 7b 71 43 b3 cd 72 b5 49 e3 f9 fc b0 6b b2 f9 4e ab f6 fe 16 a8 f8 64 53 ee 62 69 96 5a cd e9 48 2f 52 de 8a 1f c7 d2 4e 19 b1 d8 38 78 ab 87 92 5c 5f ca d4 a 51 66 66 b1 31 3b bb 82 a1 22 33 d2 5d ef 55 fe 11 88 d1 6e 77 26 6c 88 ae 3d f6 26 63 63 ae 12 a0 a5 38 4 8 e6 16 a8 8b 4e ac 93 34 c2 3c c0 10 e8 53 45 ab 8f 5 bb 78 58 0 23 e8 5 de 60 5e df 83 46 e4 61 a6 42 40 29 88 25 8a 2e 67 cb 57 f0 f0 e2 1e 57 ad 76 47 9d 58 66 f4 5 dc 3c a2 34 a2 96 39 7e d2 db b2 74 71 ] bresp=0 bid=101
[2745000] MASTER 0 RECEIVED BRESP. BRESP=0
[2745000] [MASTER DRIVER] mst_id=0 s_id=0 awaddr=1f09b570 awid=101 awlen=236 awsize=3 awburst=1 wdata=[aca74e3c31cc05ef 123352caea5eddce ca40147c22c66c67 d49272569208ef91 fc67cd5ff6e762b8 99adcf1fe6c5c520 f8ceb4b1c6a7e1db 3d8f4494ee404175 d5060695f5368211 bbde63ecd73d13b3 c57d5529cdd4bb47 c30b3d58f96da880 d0aabc349a835bbe e8581705fee9a144 f85749c51628115d b0ab6d1bab63545d 2a4cf5a2c90205f9 df2a175619038421 c466d87e22a43f67 eba645608fd58471 a8d90892eeb3ce20 91580d87cad05cb6 daa5e127ed3fe111 dbf3af31fcfe52e7 c7ceaf9d037ee9ba f0becacbed4bbcb9 ea4a0fa0227490c5 25f37a7fccb279fc b9fe36b53218bf3e d48d500316b2454a e364bf4624484656 d6610594fa80ca82 11330fcc1d62f5fc c1ab3c522aee5597 256f2019f497cf12 91fac50e180c41e6 c2fa977d36a22fe5 ab39fef7d3a60160 ebb24346e869b796 1f0be77b3d34c406 90dac566aeacdac3 97169259ca45e672 877aaa78fc8d08ad ab39e370b62279d4 68604718556fdf 14e2788cc25075ca f872ef9e87e30abf a0387a9ec01c5bfc 826cd1c6f8db4fe5 be5aa5b51af32a f5374f27fadfc165 f3bb114aa0f6d543 d611c86ef7a420ed f283e252f4796bef 15704133cb491795 c2ed3882e63ef39d dab85f8ceb8209a1 36cb213635711ad5 1bb00e72f028a0bf dbaaaa60f9b859b8 af29748df6686dfe e6910ebe9275cb96 c2e254fcad982ff c141f0fec23bb91e d4b184b5bb5799dc 6311cdc27d2ffbc ea0eb8dae0dfaa04 9c3743e0c7730dda ef460d96bec03d8f 9f9fe793a26860bc e9db6e96d954c670 181504003bd72b74 de3f8c30d9217c2c 3276429db7b4eb93 f38c1707c81afac7 a13c76f3ca8b469d 82403230d1cba338 19e69dffd3b2b990 9e3e002df5cc4938 c797ec70bb2314f2 ed5ce83207e325e 164a7b96e17e8a6f 9ca19f61ad13ceb0 cd92010edde26806 3f60f275ab776de4 d88b3c95e3dc7ca4 c1bee4aadc0291d6 779ffbba61d3da3 9f9ba48811fd71f dd2268f6e0053c50 862279f3cbb89ef2 ccd87612e49c68b1 c4a1a501901c343b dbd4d32e29fadf08 e9747b9cac41ef4 dae0533028ad4940 d2a82848d338ecba 9dfd0bae36b5265e df626f9ee13f7001 34785cbbf8dd5ede af92853c320a97e6 134a07e7d2756869 cb52c7488ef4f4da c0ff8cc0c7c264a2 9a37cd0bfae54c84 9da415fd44994a7 9c0bf949e58a9453 e06fe0d8cad9ce1f 1f2362c73643c655 9bce5aa8ea4a2237 b523f056bb2f5c10 f1732265fc3e3b80 e6885db7d447531d f76af2e0d417d0e 897fb88e1bac4e0e eff3a12b80e9d193 8e2b4ea1f0081646 bb46454ff6a5059 5421ed17ab0730 7b31d76fba8057f fb1255d98e7f708e a62a77be136781ca 8f0f8749fb6677c6 89e5e854addd9534 c14516fe8a21dd22 858854e830106013 ddedf547d0549e48 da767b6a0f6e3d3d 3f7e9d501f330c46 ef87aa8edffed053 ef6d0d909d6c9297 bc9f9eddc9fe25f8 a9fcf64b2eebaae0 cc583d77ac27496b f6256f64996a03db c855aebb08f7dc55 b51f25c0a02265af 398c698b14adec33 1da5c888ab449524 cb66fad481e21846 96900479d2c4ee48 fe09836d04f3645f 86d57ca5b435cd01 6fabb4ac9707e41 ce63e2a01d65811f d19b4e2005043eb7 ce74bcf8d5395f45 f29ee064d896096a dd9a48211cd89f98 f211feddc43a2e85 9cd037efac0f0519 c8e7a4b1e4b0df42 28eb0dc7fa6a8011 a679852a3af9a38f 1faa82d1c5bb45b6 c025c5c7ef6129dc 2a5acd6bc8959098 8e50d64ee69f4af2 d60074ceca05503c 129ae0d4ce769c16 3515e708005b4239 ca609275a0ebb722 ef6253380b165bd6 b719e0fdcfb7349 fde72a6ba4783a40 af8e9616d5d23084 32cda3cded497da4 91c1b7e4bb003425 90d264a9b0b4ce38 9dfe4bdcc1504dfb fc508220c3a00876 f454d6af2fc003c1 f11051bc0d22e6ca d0c2ef409253228b c213264ced60d3dc fa83baa6c517c5ef d76ae87bb3237808 20844be5cb46a9e7 905e6fd6997e0ec7 cca186d09b08068b e64eb072e7c95851 1476719ed25d2b5 882dd940f6ad2049 de76789acde8ede9 3b0ec09eee7c89b3 e529a9fcdfbddfb3 ada6cd9cc33c99de b1b92391c3a02296 235e024ae8b58e3a 2bf2281996e2cd8d da82f024d104cfe6 39ba5e21ddab4baa f48e1938fde0f26e cee5c254e5ac863a c357d1e4cf11095c ccf1fbca88a02075 ee4ca6afb7e5eb1c 86f6f4789bd7be1e 2477de9431a47894 e98a63b0d3e8f042 efc0ae6192c48543 c468fdd7f0815829 c46a486b14388cf5 a6fd12382df36188 1e74b9b1b42af6cc c86383c1eb661010 19597198e2df021c 1709f8e9ef6095fa dac6a60a37ce2b49 9aad2d65df6d7caa cece12a4f42017a2 2bee42ebb1b7264e 1124a2f9a994b8ae 9db4d050c69b7050 f852969fdff2b59d 9876e4cc9a3133b 103e838c09773998 e969ef35a73c3e9c f0df51d808911a2b 120853c3f2f15d81 1a2d9c1e011dd564 9aeef8ffb7242f8 ee63a07a0b0cedf6 c2ac35a1bb74352 9729864a08913c98 139e2a8e15d9b2e9 3190f63b858d26c4 8e1e635c1fc8ede8 35a2a0d1c8ba7c85 ce47a34aa1bc8dea c1857bd2e733970c afee1391dc6606a6 fe229491f7281ca3 de5bb3affe35b6db da9bbd82bfa81063 36d02d070e49c741 8c7f7e1cd8be5213 ] wstrb=[b6 76 9e f7 7d b1 14 34 28 b2 2b a5 64 3f d9 8c f2 5 31 56 44 b e2 36 10 13 8c 54 1e 6e 8b 2e 82 17 83 a0 86 e cf 8 25 52 a8 ab 60 77 b3 85 c9 5c 31 29 d3 e4 af 9d 40 e0 c6 14 c4 75 b1 5 55 77 19 1a ed ca 1f 42 41 38 5c 2e 2 7b 71 43 b3 cd 72 b5 49 e3 f9 fc b0 6b b2 f9 4e ab f6 fe 16 a8 f8 64 53 ee 62 69 96 5a cd e9 48 2f 52 de 8a 1f c7 d2 4e 19 b1 d8 38 78 ab 87 92 5c 5f ca d4 a 51 66 66 b1 31 3b bb 82 a1 22 33 d2 5d ef 55 fe 11 88 d1 6e 77 26 6c 88 ae 3d f6 26 63 63 ae 12 a0 a5 38 4 8 e6 16 a8 8b 4e ac 93 34 c2 3c c0 10 e8 53 45 ab 8f 5 bb 78 58 0 23 e8 5 de 60 5e df 83 46 e4 61 a6 42 40 29 88 25 8a 2e 67 cb 57 f0 f0 e2 1e 57 ad 76 47 9d 58 66 f4 5 dc 3c a2 34 a2 96 39 7e d2 db b2 74 71 ] bresp=0 bid=101
[2745000] MASTER 0 B_VALID_RDY Handshake
[2745000] [MASTER MONITOR] mst_id=0 s_id=1 awaddr=1f09b570 awid=101 awlen=236 awsize=3 awburst=1 wdata=[aca74e3c31cc05ef 123352caea5eddce ca40147c22c66c67 d49272569208ef91 fc67cd5ff6e762b8 99adcf1fe6c5c520 f8ceb4b1c6a7e1db 3d8f4494ee404175 d5060695f5368211 bbde63ecd73d13b3 c57d5529cdd4bb47 c30b3d58f96da880 d0aabc349a835bbe e8581705fee9a144 f85749c51628115d b0ab6d1bab63545d 2a4cf5a2c90205f9 df2a175619038421 c466d87e22a43f67 eba645608fd58471 a8d90892eeb3ce20 91580d87cad05cb6 daa5e127ed3fe111 dbf3af31fcfe52e7 c7ceaf9d037ee9ba f0becacbed4bbcb9 ea4a0fa0227490c5 25f37a7fccb279fc b9fe36b53218bf3e d48d500316b2454a e364bf4624484656 d6610594fa80ca82 11330fcc1d62f5fc c1ab3c522aee5597 256f2019f497cf12 91fac50e180c41e6 c2fa977d36a22fe5 ab39fef7d3a60160 ebb24346e869b796 1f0be77b3d34c406 90dac566aeacdac3 97169259ca45e672 877aaa78fc8d08ad ab39e370b62279d4 68604718556fdf 14e2788cc25075ca f872ef9e87e30abf a0387a9ec01c5bfc 826cd1c6f8db4fe5 be5aa5b51af32a f5374f27fadfc165 f3bb114aa0f6d543 d611c86ef7a420ed f283e252f4796bef 15704133cb491795 c2ed3882e63ef39d dab85f8ceb8209a1 36cb213635711ad5 1bb00e72f028a0bf dbaaaa60f9b859b8 af29748df6686dfe e6910ebe9275cb96 c2e254fcad982ff c141f0fec23bb91e d4b184b5bb5799dc 6311cdc27d2ffbc ea0eb8dae0dfaa04 9c3743e0c7730dda ef460d96bec03d8f 9f9fe793a26860bc e9db6e96d954c670 181504003bd72b74 de3f8c30d9217c2c 3276429db7b4eb93 f38c1707c81afac7 a13c76f3ca8b469d 82403230d1cba338 19e69dffd3b2b990 9e3e002df5cc4938 c797ec70bb2314f2 ed5ce83207e325e 164a7b96e17e8a6f 9ca19f61ad13ceb0 cd92010edde26806 3f60f275ab776de4 d88b3c95e3dc7ca4 c1bee4aadc0291d6 779ffbba61d3da3 9f9ba48811fd71f dd2268f6e0053c50 862279f3cbb89ef2 ccd87612e49c68b1 c4a1a501901c343b dbd4d32e29fadf08 e9747b9cac41ef4 dae0533028ad4940 d2a82848d338ecba 9dfd0bae36b5265e df626f9ee13f7001 34785cbbf8dd5ede af92853c320a97e6 134a07e7d2756869 cb52c7488ef4f4da c0ff8cc0c7c264a2 9a37cd0bfae54c84 9da415fd44994a7 9c0bf949e58a9453 e06fe0d8cad9ce1f 1f2362c73643c655 9bce5aa8ea4a2237 b523f056bb2f5c10 f1732265fc3e3b80 e6885db7d447531d f76af2e0d417d0e 897fb88e1bac4e0e eff3a12b80e9d193 8e2b4ea1f0081646 bb46454ff6a5059 5421ed17ab0730 7b31d76fba8057f fb1255d98e7f708e a62a77be136781ca 8f0f8749fb6677c6 89e5e854addd9534 c14516fe8a21dd22 858854e830106013 ddedf547d0549e48 da767b6a0f6e3d3d 3f7e9d501f330c46 ef87aa8edffed053 ef6d0d909d6c9297 bc9f9eddc9fe25f8 a9fcf64b2eebaae0 cc583d77ac27496b f6256f64996a03db c855aebb08f7dc55 b51f25c0a02265af 398c698b14adec33 1da5c888ab449524 cb66fad481e21846 96900479d2c4ee48 fe09836d04f3645f 86d57ca5b435cd01 6fabb4ac9707e41 ce63e2a01d65811f d19b4e2005043eb7 ce74bcf8d5395f45 f29ee064d896096a dd9a48211cd89f98 f211feddc43a2e85 9cd037efac0f0519 c8e7a4b1e4b0df42 28eb0dc7fa6a8011 a679852a3af9a38f 1faa82d1c5bb45b6 c025c5c7ef6129dc 2a5acd6bc8959098 8e50d64ee69f4af2 d60074ceca05503c 129ae0d4ce769c16 3515e708005b4239 ca609275a0ebb722 ef6253380b165bd6 b719e0fdcfb7349 fde72a6ba4783a40 af8e9616d5d23084 32cda3cded497da4 91c1b7e4bb003425 90d264a9b0b4ce38 9dfe4bdcc1504dfb fc508220c3a00876 f454d6af2fc003c1 f11051bc0d22e6ca d0c2ef409253228b c213264ced60d3dc fa83baa6c517c5ef d76ae87bb3237808 20844be5cb46a9e7 905e6fd6997e0ec7 cca186d09b08068b e64eb072e7c95851 1476719ed25d2b5 882dd940f6ad2049 de76789acde8ede9 3b0ec09eee7c89b3 e529a9fcdfbddfb3 ada6cd9cc33c99de b1b92391c3a02296 235e024ae8b58e3a 2bf2281996e2cd8d da82f024d104cfe6 39ba5e21ddab4baa f48e1938fde0f26e cee5c254e5ac863a c357d1e4cf11095c ccf1fbca88a02075 ee4ca6afb7e5eb1c 86f6f4789bd7be1e 2477de9431a47894 e98a63b0d3e8f042 efc0ae6192c48543 c468fdd7f0815829 c46a486b14388cf5 a6fd12382df36188 1e74b9b1b42af6cc c86383c1eb661010 19597198e2df021c 1709f8e9ef6095fa dac6a60a37ce2b49 9aad2d65df6d7caa cece12a4f42017a2 2bee42ebb1b7264e 1124a2f9a994b8ae 9db4d050c69b7050 f852969fdff2b59d 9876e4cc9a3133b 103e838c09773998 e969ef35a73c3e9c f0df51d808911a2b 120853c3f2f15d81 1a2d9c1e011dd564 9aeef8ffb7242f8 ee63a07a0b0cedf6 c2ac35a1bb74352 9729864a08913c98 139e2a8e15d9b2e9 3190f63b858d26c4 8e1e635c1fc8ede8 35a2a0d1c8ba7c85 ce47a34aa1bc8dea c1857bd2e733970c afee1391dc6606a6 fe229491f7281ca3 de5bb3affe35b6db da9bbd82bfa81063 36d02d070e49c741 8c7f7e1cd8be5213 ] wstrb=[b6 76 9e f7 7d b1 14 34 28 b2 2b a5 64 3f d9 8c f2 5 31 56 44 b e2 36 10 13 8c 54 1e 6e 8b 2e 82 17 83 a0 86 e cf 8 25 52 a8 ab 60 77 b3 85 c9 5c 31 29 d3 e4 af 9d 40 e0 c6 14 c4 75 b1 5 55 77 19 1a ed ca 1f 42 41 38 5c 2e 2 7b 71 43 b3 cd 72 b5 49 e3 f9 fc b0 6b b2 f9 4e ab f6 fe 16 a8 f8 64 53 ee 62 69 96 5a cd e9 48 2f 52 de 8a 1f c7 d2 4e 19 b1 d8 38 78 ab 87 92 5c 5f ca d4 a 51 66 66 b1 31 3b bb 82 a1 22 33 d2 5d ef 55 fe 11 88 d1 6e 77 26 6c 88 ae 3d f6 26 63 63 ae 12 a0 a5 38 4 8 e6 16 a8 8b 4e ac 93 34 c2 3c c0 10 e8 53 45 ab 8f 5 bb 78 58 0 23 e8 5 de 60 5e df 83 46 e4 61 a6 42 40 29 88 25 8a 2e 67 cb 57 f0 f0 e2 1e 57 ad 76 47 9d 58 66 f4 5 dc 3c a2 34 a2 96 39 7e d2 db b2 74 71 ] bresp=0 bid=101
[2745000] SCOREBOARD MATCH: decode_err expected = 0, actual =0
[2745000] SCOREBOARD MATCH: slave_id expected = 1, actual =1
[2745000] SCOREBOARD MATCH: awaddr passthrough expected = 1f09b570, actual =1f09b570
[2745000] SCOREBOARD MATCH: awlen passthrough expected = 236, actual =236
[2745000] SCOREBOARD MATCH: awsize passthrough expected = 3, actual =3
[2745000] SCOREBOARD MATCH: awburst passthrough expected = 1, actual =1
[2745000] SCOREBOARD MATCH: wdata size check expected = ed, actual =ed
[2745000] SCOREBOARD MATCH: wdata passthrough beat=0 expected = aca74e3c31cc05ef, actual =aca74e3c31cc05ef
[2745000] SCOREBOARD MATCH: wdata passthrough beat=1 expected = 123352caea5eddce, actual =123352caea5eddce
[2745000] SCOREBOARD MATCH: wdata passthrough beat=2 expected = ca40147c22c66c67, actual =ca40147c22c66c67
[2745000] SCOREBOARD MATCH: wdata passthrough beat=3 expected = d49272569208ef91, actual =d49272569208ef91
[2745000] SCOREBOARD MATCH: wdata passthrough beat=4 expected = fc67cd5ff6e762b8, actual =fc67cd5ff6e762b8
[2745000] SCOREBOARD MATCH: wdata passthrough beat=5 expected = 99adcf1fe6c5c520, actual =99adcf1fe6c5c520
[2745000] SCOREBOARD MATCH: wdata passthrough beat=6 expected = f8ceb4b1c6a7e1db, actual =f8ceb4b1c6a7e1db
[2745000] SCOREBOARD MATCH: wdata passthrough beat=7 expected = 3d8f4494ee404175, actual =3d8f4494ee404175
[2745000] SCOREBOARD MATCH: wdata passthrough beat=8 expected = d5060695f5368211, actual =d5060695f5368211
[2745000] SCOREBOARD MATCH: wdata passthrough beat=9 expected = bbde63ecd73d13b3, actual =bbde63ecd73d13b3
[2745000] SCOREBOARD MATCH: wdata passthrough beat=10 expected = c57d5529cdd4bb47, actual =c57d5529cdd4bb47
[2745000] SCOREBOARD MATCH: wdata passthrough beat=11 expected = c30b3d58f96da880, actual =c30b3d58f96da880
[2745000] SCOREBOARD MATCH: wdata passthrough beat=12 expected = d0aabc349a835bbe, actual =d0aabc349a835bbe
[2745000] SCOREBOARD MATCH: wdata passthrough beat=13 expected = e8581705fee9a144, actual =e8581705fee9a144
[2745000] SCOREBOARD MATCH: wdata passthrough beat=14 expected = f85749c51628115d, actual =f85749c51628115d
[2745000] SCOREBOARD MATCH: wdata passthrough beat=15 expected = b0ab6d1bab63545d, actual =b0ab6d1bab63545d
[2745000] SCOREBOARD MATCH: wdata passthrough beat=16 expected = 2a4cf5a2c90205f9, actual =2a4cf5a2c90205f9
[2745000] SCOREBOARD MATCH: wdata passthrough beat=17 expected = df2a175619038421, actual =df2a175619038421
[2745000] SCOREBOARD MATCH: wdata passthrough beat=18 expected = c466d87e22a43f67, actual =c466d87e22a43f67
[2745000] SCOREBOARD MATCH: wdata passthrough beat=19 expected = eba645608fd58471, actual =eba645608fd58471
[2745000] SCOREBOARD MATCH: wdata passthrough beat=20 expected = a8d90892eeb3ce20, actual =a8d90892eeb3ce20
[2745000] SCOREBOARD MATCH: wdata passthrough beat=21 expected = 91580d87cad05cb6, actual =91580d87cad05cb6
[2745000] SCOREBOARD MATCH: wdata passthrough beat=22 expected = daa5e127ed3fe111, actual =daa5e127ed3fe111
[2745000] SCOREBOARD MATCH: wdata passthrough beat=23 expected = dbf3af31fcfe52e7, actual =dbf3af31fcfe52e7
[2745000] SCOREBOARD MATCH: wdata passthrough beat=24 expected = c7ceaf9d037ee9ba, actual =c7ceaf9d037ee9ba
[2745000] SCOREBOARD MATCH: wdata passthrough beat=25 expected = f0becacbed4bbcb9, actual =f0becacbed4bbcb9
[2745000] SCOREBOARD MATCH: wdata passthrough beat=26 expected = ea4a0fa0227490c5, actual =ea4a0fa0227490c5
[2745000] SCOREBOARD MATCH: wdata passthrough beat=27 expected = 25f37a7fccb279fc, actual =25f37a7fccb279fc
[2745000] SCOREBOARD MATCH: wdata passthrough beat=28 expected = b9fe36b53218bf3e, actual =b9fe36b53218bf3e
[2745000] SCOREBOARD MATCH: wdata passthrough beat=29 expected = d48d500316b2454a, actual =d48d500316b2454a
[2745000] SCOREBOARD MATCH: wdata passthrough beat=30 expected = e364bf4624484656, actual =e364bf4624484656
[2745000] SCOREBOARD MATCH: wdata passthrough beat=31 expected = d6610594fa80ca82, actual =d6610594fa80ca82
[2745000] SCOREBOARD MATCH: wdata passthrough beat=32 expected = 11330fcc1d62f5fc, actual =11330fcc1d62f5fc
[2745000] SCOREBOARD MATCH: wdata passthrough beat=33 expected = c1ab3c522aee5597, actual =c1ab3c522aee5597
[2745000] SCOREBOARD MATCH: wdata passthrough beat=34 expected = 256f2019f497cf12, actual =256f2019f497cf12
[2745000] SCOREBOARD MATCH: wdata passthrough beat=35 expected = 91fac50e180c41e6, actual =91fac50e180c41e6
[2745000] SCOREBOARD MATCH: wdata passthrough beat=36 expected = c2fa977d36a22fe5, actual =c2fa977d36a22fe5
[2745000] SCOREBOARD MATCH: wdata passthrough beat=37 expected = ab39fef7d3a60160, actual =ab39fef7d3a60160
[2745000] SCOREBOARD MATCH: wdata passthrough beat=38 expected = ebb24346e869b796, actual =ebb24346e869b796
[2745000] SCOREBOARD MATCH: wdata passthrough beat=39 expected = 1f0be77b3d34c406, actual =1f0be77b3d34c406
[2745000] SCOREBOARD MATCH: wdata passthrough beat=40 expected = 90dac566aeacdac3, actual =90dac566aeacdac3
[2745000] SCOREBOARD MATCH: wdata passthrough beat=41 expected = 97169259ca45e672, actual =97169259ca45e672
[2745000] SCOREBOARD MATCH: wdata passthrough beat=42 expected = 877aaa78fc8d08ad, actual =877aaa78fc8d08ad
[2745000] SCOREBOARD MATCH: wdata passthrough beat=43 expected = ab39e370b62279d4, actual =ab39e370b62279d4
[2745000] SCOREBOARD MATCH: wdata passthrough beat=44 expected = 68604718556fdf, actual =68604718556fdf
[2745000] SCOREBOARD MATCH: wdata passthrough beat=45 expected = 14e2788cc25075ca, actual =14e2788cc25075ca
[2745000] SCOREBOARD MATCH: wdata passthrough beat=46 expected = f872ef9e87e30abf, actual =f872ef9e87e30abf
[2745000] SCOREBOARD MATCH: wdata passthrough beat=47 expected = a0387a9ec01c5bfc, actual =a0387a9ec01c5bfc
[2745000] SCOREBOARD MATCH: wdata passthrough beat=48 expected = 826cd1c6f8db4fe5, actual =826cd1c6f8db4fe5
[2745000] SCOREBOARD MATCH: wdata passthrough beat=49 expected = be5aa5b51af32a, actual =be5aa5b51af32a
[2745000] SCOREBOARD MATCH: wdata passthrough beat=50 expected = f5374f27fadfc165, actual =f5374f27fadfc165
[2745000] SCOREBOARD MATCH: wdata passthrough beat=51 expected = f3bb114aa0f6d543, actual =f3bb114aa0f6d543
[2745000] SCOREBOARD MATCH: wdata passthrough beat=52 expected = d611c86ef7a420ed, actual =d611c86ef7a420ed
[2745000] SCOREBOARD MATCH: wdata passthrough beat=53 expected = f283e252f4796bef, actual =f283e252f4796bef
[2745000] SCOREBOARD MATCH: wdata passthrough beat=54 expected = 15704133cb491795, actual =15704133cb491795
[2745000] SCOREBOARD MATCH: wdata passthrough beat=55 expected = c2ed3882e63ef39d, actual =c2ed3882e63ef39d
[2745000] SCOREBOARD MATCH: wdata passthrough beat=56 expected = dab85f8ceb8209a1, actual =dab85f8ceb8209a1
[2745000] SCOREBOARD MATCH: wdata passthrough beat=57 expected = 36cb213635711ad5, actual =36cb213635711ad5
[2745000] SCOREBOARD MATCH: wdata passthrough beat=58 expected = 1bb00e72f028a0bf, actual =1bb00e72f028a0bf
[2745000] SCOREBOARD MATCH: wdata passthrough beat=59 expected = dbaaaa60f9b859b8, actual =dbaaaa60f9b859b8
[2745000] SCOREBOARD MATCH: wdata passthrough beat=60 expected = af29748df6686dfe, actual =af29748df6686dfe
[2745000] SCOREBOARD MATCH: wdata passthrough beat=61 expected = e6910ebe9275cb96, actual =e6910ebe9275cb96
[2745000] SCOREBOARD MATCH: wdata passthrough beat=62 expected = c2e254fcad982ff, actual =c2e254fcad982ff
[2745000] SCOREBOARD MATCH: wdata passthrough beat=63 expected = c141f0fec23bb91e, actual =c141f0fec23bb91e
[2745000] SCOREBOARD MATCH: wdata passthrough beat=64 expected = d4b184b5bb5799dc, actual =d4b184b5bb5799dc
[2745000] SCOREBOARD MATCH: wdata passthrough beat=65 expected = 6311cdc27d2ffbc, actual =6311cdc27d2ffbc
[2745000] SCOREBOARD MATCH: wdata passthrough beat=66 expected = ea0eb8dae0dfaa04, actual =ea0eb8dae0dfaa04
[2745000] SCOREBOARD MATCH: wdata passthrough beat=67 expected = 9c3743e0c7730dda, actual =9c3743e0c7730dda
[2745000] SCOREBOARD MATCH: wdata passthrough beat=68 expected = ef460d96bec03d8f, actual =ef460d96bec03d8f
[2745000] SCOREBOARD MATCH: wdata passthrough beat=69 expected = 9f9fe793a26860bc, actual =9f9fe793a26860bc
[2745000] SCOREBOARD MATCH: wdata passthrough beat=70 expected = e9db6e96d954c670, actual =e9db6e96d954c670
[2745000] SCOREBOARD MATCH: wdata passthrough beat=71 expected = 181504003bd72b74, actual =181504003bd72b74
[2745000] SCOREBOARD MATCH: wdata passthrough beat=72 expected = de3f8c30d9217c2c, actual =de3f8c30d9217c2c
[2745000] SCOREBOARD MATCH: wdata passthrough beat=73 expected = 3276429db7b4eb93, actual =3276429db7b4eb93
[2745000] SCOREBOARD MATCH: wdata passthrough beat=74 expected = f38c1707c81afac7, actual =f38c1707c81afac7
[2745000] SCOREBOARD MATCH: wdata passthrough beat=75 expected = a13c76f3ca8b469d, actual =a13c76f3ca8b469d
[2745000] SCOREBOARD MATCH: wdata passthrough beat=76 expected = 82403230d1cba338, actual =82403230d1cba338
[2745000] SCOREBOARD MATCH: wdata passthrough beat=77 expected = 19e69dffd3b2b990, actual =19e69dffd3b2b990
[2745000] SCOREBOARD MATCH: wdata passthrough beat=78 expected = 9e3e002df5cc4938, actual =9e3e002df5cc4938
[2745000] SCOREBOARD MATCH: wdata passthrough beat=79 expected = c797ec70bb2314f2, actual =c797ec70bb2314f2
[2745000] SCOREBOARD MATCH: wdata passthrough beat=80 expected = ed5ce83207e325e, actual =ed5ce83207e325e
[2745000] SCOREBOARD MATCH: wdata passthrough beat=81 expected = 164a7b96e17e8a6f, actual =164a7b96e17e8a6f
[2745000] SCOREBOARD MATCH: wdata passthrough beat=82 expected = 9ca19f61ad13ceb0, actual =9ca19f61ad13ceb0
[2745000] SCOREBOARD MATCH: wdata passthrough beat=83 expected = cd92010edde26806, actual =cd92010edde26806
[2745000] SCOREBOARD MATCH: wdata passthrough beat=84 expected = 3f60f275ab776de4, actual =3f60f275ab776de4
[2745000] SCOREBOARD MATCH: wdata passthrough beat=85 expected = d88b3c95e3dc7ca4, actual =d88b3c95e3dc7ca4
[2745000] SCOREBOARD MATCH: wdata passthrough beat=86 expected = c1bee4aadc0291d6, actual =c1bee4aadc0291d6
[2745000] SCOREBOARD MATCH: wdata passthrough beat=87 expected = 779ffbba61d3da3, actual =779ffbba61d3da3
[2745000] SCOREBOARD MATCH: wdata passthrough beat=88 expected = 9f9ba48811fd71f, actual =9f9ba48811fd71f
[2745000] SCOREBOARD MATCH: wdata passthrough beat=89 expected = dd2268f6e0053c50, actual =dd2268f6e0053c50
[2745000] SCOREBOARD MATCH: wdata passthrough beat=90 expected = 862279f3cbb89ef2, actual =862279f3cbb89ef2
[2745000] SCOREBOARD MATCH: wdata passthrough beat=91 expected = ccd87612e49c68b1, actual =ccd87612e49c68b1
[2745000] SCOREBOARD MATCH: wdata passthrough beat=92 expected = c4a1a501901c343b, actual =c4a1a501901c343b
[2745000] SCOREBOARD MATCH: wdata passthrough beat=93 expected = dbd4d32e29fadf08, actual =dbd4d32e29fadf08
[2745000] SCOREBOARD MATCH: wdata passthrough beat=94 expected = e9747b9cac41ef4, actual =e9747b9cac41ef4
[2745000] SCOREBOARD MATCH: wdata passthrough beat=95 expected = dae0533028ad4940, actual =dae0533028ad4940
[2745000] SCOREBOARD MATCH: wdata passthrough beat=96 expected = d2a82848d338ecba, actual =d2a82848d338ecba
[2745000] SCOREBOARD MATCH: wdata passthrough beat=97 expected = 9dfd0bae36b5265e, actual =9dfd0bae36b5265e
[2745000] SCOREBOARD MATCH: wdata passthrough beat=98 expected = df626f9ee13f7001, actual =df626f9ee13f7001
[2745000] SCOREBOARD MATCH: wdata passthrough beat=99 expected = 34785cbbf8dd5ede, actual =34785cbbf8dd5ede
[2745000] SCOREBOARD MATCH: wdata passthrough beat=100 expected = af92853c320a97e6, actual =af92853c320a97e6
[2745000] SCOREBOARD MATCH: wdata passthrough beat=101 expected = 134a07e7d2756869, actual =134a07e7d2756869
[2745000] SCOREBOARD MATCH: wdata passthrough beat=102 expected = cb52c7488ef4f4da, actual =cb52c7488ef4f4da
[2745000] SCOREBOARD MATCH: wdata passthrough beat=103 expected = c0ff8cc0c7c264a2, actual =c0ff8cc0c7c264a2
[2745000] SCOREBOARD MATCH: wdata passthrough beat=104 expected = 9a37cd0bfae54c84, actual =9a37cd0bfae54c84
[2745000] SCOREBOARD MATCH: wdata passthrough beat=105 expected = 9da415fd44994a7, actual =9da415fd44994a7
[2745000] SCOREBOARD MATCH: wdata passthrough beat=106 expected = 9c0bf949e58a9453, actual =9c0bf949e58a9453
[2745000] SCOREBOARD MATCH: wdata passthrough beat=107 expected = e06fe0d8cad9ce1f, actual =e06fe0d8cad9ce1f
[2745000] SCOREBOARD MATCH: wdata passthrough beat=108 expected = 1f2362c73643c655, actual =1f2362c73643c655
[2745000] SCOREBOARD MATCH: wdata passthrough beat=109 expected = 9bce5aa8ea4a2237, actual =9bce5aa8ea4a2237
[2745000] SCOREBOARD MATCH: wdata passthrough beat=110 expected = b523f056bb2f5c10, actual =b523f056bb2f5c10
[2745000] SCOREBOARD MATCH: wdata passthrough beat=111 expected = f1732265fc3e3b80, actual =f1732265fc3e3b80
[2745000] SCOREBOARD MATCH: wdata passthrough beat=112 expected = e6885db7d447531d, actual =e6885db7d447531d
[2745000] SCOREBOARD MATCH: wdata passthrough beat=113 expected = f76af2e0d417d0e, actual =f76af2e0d417d0e
[2745000] SCOREBOARD MATCH: wdata passthrough beat=114 expected = 897fb88e1bac4e0e, actual =897fb88e1bac4e0e
[2745000] SCOREBOARD MATCH: wdata passthrough beat=115 expected = eff3a12b80e9d193, actual =eff3a12b80e9d193
[2745000] SCOREBOARD MATCH: wdata passthrough beat=116 expected = 8e2b4ea1f0081646, actual =8e2b4ea1f0081646
[2745000] SCOREBOARD MATCH: wdata passthrough beat=117 expected = bb46454ff6a5059, actual =bb46454ff6a5059
[2745000] SCOREBOARD MATCH: wdata passthrough beat=118 expected = 5421ed17ab0730, actual =5421ed17ab0730
[2745000] SCOREBOARD MATCH: wdata passthrough beat=119 expected = 7b31d76fba8057f, actual =7b31d76fba8057f
[2745000] SCOREBOARD MATCH: wdata passthrough beat=120 expected = fb1255d98e7f708e, actual =fb1255d98e7f708e
[2745000] SCOREBOARD MATCH: wdata passthrough beat=121 expected = a62a77be136781ca, actual =a62a77be136781ca
[2745000] SCOREBOARD MATCH: wdata passthrough beat=122 expected = 8f0f8749fb6677c6, actual =8f0f8749fb6677c6
[2745000] SCOREBOARD MATCH: wdata passthrough beat=123 expected = 89e5e854addd9534, actual =89e5e854addd9534
[2745000] SCOREBOARD MATCH: wdata passthrough beat=124 expected = c14516fe8a21dd22, actual =c14516fe8a21dd22
[2745000] SCOREBOARD MATCH: wdata passthrough beat=125 expected = 858854e830106013, actual =858854e830106013
[2745000] SCOREBOARD MATCH: wdata passthrough beat=126 expected = ddedf547d0549e48, actual =ddedf547d0549e48
[2745000] SCOREBOARD MATCH: wdata passthrough beat=127 expected = da767b6a0f6e3d3d, actual =da767b6a0f6e3d3d
[2745000] SCOREBOARD MATCH: wdata passthrough beat=128 expected = 3f7e9d501f330c46, actual =3f7e9d501f330c46
[2745000] SCOREBOARD MATCH: wdata passthrough beat=129 expected = ef87aa8edffed053, actual =ef87aa8edffed053
[2745000] SCOREBOARD MATCH: wdata passthrough beat=130 expected = ef6d0d909d6c9297, actual =ef6d0d909d6c9297
[2745000] SCOREBOARD MATCH: wdata passthrough beat=131 expected = bc9f9eddc9fe25f8, actual =bc9f9eddc9fe25f8
[2745000] SCOREBOARD MATCH: wdata passthrough beat=132 expected = a9fcf64b2eebaae0, actual =a9fcf64b2eebaae0
[2745000] SCOREBOARD MATCH: wdata passthrough beat=133 expected = cc583d77ac27496b, actual =cc583d77ac27496b
[2745000] SCOREBOARD MATCH: wdata passthrough beat=134 expected = f6256f64996a03db, actual =f6256f64996a03db
[2745000] SCOREBOARD MATCH: wdata passthrough beat=135 expected = c855aebb08f7dc55, actual =c855aebb08f7dc55
[2745000] SCOREBOARD MATCH: wdata passthrough beat=136 expected = b51f25c0a02265af, actual =b51f25c0a02265af
[2745000] SCOREBOARD MATCH: wdata passthrough beat=137 expected = 398c698b14adec33, actual =398c698b14adec33
[2745000] SCOREBOARD MATCH: wdata passthrough beat=138 expected = 1da5c888ab449524, actual =1da5c888ab449524
[2745000] SCOREBOARD MATCH: wdata passthrough beat=139 expected = cb66fad481e21846, actual =cb66fad481e21846
[2745000] SCOREBOARD MATCH: wdata passthrough beat=140 expected = 96900479d2c4ee48, actual =96900479d2c4ee48
[2745000] SCOREBOARD MATCH: wdata passthrough beat=141 expected = fe09836d04f3645f, actual =fe09836d04f3645f
[2745000] SCOREBOARD MATCH: wdata passthrough beat=142 expected = 86d57ca5b435cd01, actual =86d57ca5b435cd01
[2745000] SCOREBOARD MATCH: wdata passthrough beat=143 expected = 6fabb4ac9707e41, actual =6fabb4ac9707e41
[2745000] SCOREBOARD MATCH: wdata passthrough beat=144 expected = ce63e2a01d65811f, actual =ce63e2a01d65811f
[2745000] SCOREBOARD MATCH: wdata passthrough beat=145 expected = d19b4e2005043eb7, actual =d19b4e2005043eb7
[2745000] SCOREBOARD MATCH: wdata passthrough beat=146 expected = ce74bcf8d5395f45, actual =ce74bcf8d5395f45
[2745000] SCOREBOARD MATCH: wdata passthrough beat=147 expected = f29ee064d896096a, actual =f29ee064d896096a
[2745000] SCOREBOARD MATCH: wdata passthrough beat=148 expected = dd9a48211cd89f98, actual =dd9a48211cd89f98
[2745000] SCOREBOARD MATCH: wdata passthrough beat=149 expected = f211feddc43a2e85, actual =f211feddc43a2e85
[2745000] SCOREBOARD MATCH: wdata passthrough beat=150 expected = 9cd037efac0f0519, actual =9cd037efac0f0519
[2745000] SCOREBOARD MATCH: wdata passthrough beat=151 expected = c8e7a4b1e4b0df42, actual =c8e7a4b1e4b0df42
[2745000] SCOREBOARD MATCH: wdata passthrough beat=152 expected = 28eb0dc7fa6a8011, actual =28eb0dc7fa6a8011
[2745000] SCOREBOARD MATCH: wdata passthrough beat=153 expected = a679852a3af9a38f, actual =a679852a3af9a38f
[2745000] SCOREBOARD MATCH: wdata passthrough beat=154 expected = 1faa82d1c5bb45b6, actual =1faa82d1c5bb45b6
[2745000] SCOREBOARD MATCH: wdata passthrough beat=155 expected = c025c5c7ef6129dc, actual =c025c5c7ef6129dc
[2745000] SCOREBOARD MATCH: wdata passthrough beat=156 expected = 2a5acd6bc8959098, actual =2a5acd6bc8959098
[2745000] SCOREBOARD MATCH: wdata passthrough beat=157 expected = 8e50d64ee69f4af2, actual =8e50d64ee69f4af2
[2745000] SCOREBOARD MATCH: wdata passthrough beat=158 expected = d60074ceca05503c, actual =d60074ceca05503c
[2745000] SCOREBOARD MATCH: wdata passthrough beat=159 expected = 129ae0d4ce769c16, actual =129ae0d4ce769c16
[2745000] SCOREBOARD MATCH: wdata passthrough beat=160 expected = 3515e708005b4239, actual =3515e708005b4239
[2745000] SCOREBOARD MATCH: wdata passthrough beat=161 expected = ca609275a0ebb722, actual =ca609275a0ebb722
[2745000] SCOREBOARD MATCH: wdata passthrough beat=162 expected = ef6253380b165bd6, actual =ef6253380b165bd6
[2745000] SCOREBOARD MATCH: wdata passthrough beat=163 expected = b719e0fdcfb7349, actual =b719e0fdcfb7349
[2745000] SCOREBOARD MATCH: wdata passthrough beat=164 expected = fde72a6ba4783a40, actual =fde72a6ba4783a40
[2745000] SCOREBOARD MATCH: wdata passthrough beat=165 expected = af8e9616d5d23084, actual =af8e9616d5d23084
[2745000] SCOREBOARD MATCH: wdata passthrough beat=166 expected = 32cda3cded497da4, actual =32cda3cded497da4
[2745000] SCOREBOARD MATCH: wdata passthrough beat=167 expected = 91c1b7e4bb003425, actual =91c1b7e4bb003425
[2745000] SCOREBOARD MATCH: wdata passthrough beat=168 expected = 90d264a9b0b4ce38, actual =90d264a9b0b4ce38
[2745000] SCOREBOARD MATCH: wdata passthrough beat=169 expected = 9dfe4bdcc1504dfb, actual =9dfe4bdcc1504dfb
[2745000] SCOREBOARD MATCH: wdata passthrough beat=170 expected = fc508220c3a00876, actual =fc508220c3a00876
[2745000] SCOREBOARD MATCH: wdata passthrough beat=171 expected = f454d6af2fc003c1, actual =f454d6af2fc003c1
[2745000] SCOREBOARD MATCH: wdata passthrough beat=172 expected = f11051bc0d22e6ca, actual =f11051bc0d22e6ca
[2745000] SCOREBOARD MATCH: wdata passthrough beat=173 expected = d0c2ef409253228b, actual =d0c2ef409253228b
[2745000] SCOREBOARD MATCH: wdata passthrough beat=174 expected = c213264ced60d3dc, actual =c213264ced60d3dc
[2745000] SCOREBOARD MATCH: wdata passthrough beat=175 expected = fa83baa6c517c5ef, actual =fa83baa6c517c5ef
[2745000] SCOREBOARD MATCH: wdata passthrough beat=176 expected = d76ae87bb3237808, actual =d76ae87bb3237808
[2745000] SCOREBOARD MATCH: wdata passthrough beat=177 expected = 20844be5cb46a9e7, actual =20844be5cb46a9e7
[2745000] SCOREBOARD MATCH: wdata passthrough beat=178 expected = 905e6fd6997e0ec7, actual =905e6fd6997e0ec7
[2745000] SCOREBOARD MATCH: wdata passthrough beat=179 expected = cca186d09b08068b, actual =cca186d09b08068b
[2745000] SCOREBOARD MATCH: wdata passthrough beat=180 expected = e64eb072e7c95851, actual =e64eb072e7c95851
[2745000] SCOREBOARD MATCH: wdata passthrough beat=181 expected = 1476719ed25d2b5, actual =1476719ed25d2b5
[2745000] SCOREBOARD MATCH: wdata passthrough beat=182 expected = 882dd940f6ad2049, actual =882dd940f6ad2049
[2745000] SCOREBOARD MATCH: wdata passthrough beat=183 expected = de76789acde8ede9, actual =de76789acde8ede9
[2745000] SCOREBOARD MATCH: wdata passthrough beat=184 expected = 3b0ec09eee7c89b3, actual =3b0ec09eee7c89b3
[2745000] SCOREBOARD MATCH: wdata passthrough beat=185 expected = e529a9fcdfbddfb3, actual =e529a9fcdfbddfb3
[2745000] SCOREBOARD MATCH: wdata passthrough beat=186 expected = ada6cd9cc33c99de, actual =ada6cd9cc33c99de
[2745000] SCOREBOARD MATCH: wdata passthrough beat=187 expected = b1b92391c3a02296, actual =b1b92391c3a02296
[2745000] SCOREBOARD MATCH: wdata passthrough beat=188 expected = 235e024ae8b58e3a, actual =235e024ae8b58e3a
[2745000] SCOREBOARD MATCH: wdata passthrough beat=189 expected = 2bf2281996e2cd8d, actual =2bf2281996e2cd8d
[2745000] SCOREBOARD MATCH: wdata passthrough beat=190 expected = da82f024d104cfe6, actual =da82f024d104cfe6
[2745000] SCOREBOARD MATCH: wdata passthrough beat=191 expected = 39ba5e21ddab4baa, actual =39ba5e21ddab4baa
[2745000] SCOREBOARD MATCH: wdata passthrough beat=192 expected = f48e1938fde0f26e, actual =f48e1938fde0f26e
[2745000] SCOREBOARD MATCH: wdata passthrough beat=193 expected = cee5c254e5ac863a, actual =cee5c254e5ac863a
[2745000] SCOREBOARD MATCH: wdata passthrough beat=194 expected = c357d1e4cf11095c, actual =c357d1e4cf11095c
[2745000] SCOREBOARD MATCH: wdata passthrough beat=195 expected = ccf1fbca88a02075, actual =ccf1fbca88a02075
[2745000] SCOREBOARD MATCH: wdata passthrough beat=196 expected = ee4ca6afb7e5eb1c, actual =ee4ca6afb7e5eb1c
[2745000] SCOREBOARD MATCH: wdata passthrough beat=197 expected = 86f6f4789bd7be1e, actual =86f6f4789bd7be1e
[2745000] SCOREBOARD MATCH: wdata passthrough beat=198 expected = 2477de9431a47894, actual =2477de9431a47894
[2745000] SCOREBOARD MATCH: wdata passthrough beat=199 expected = e98a63b0d3e8f042, actual =e98a63b0d3e8f042
[2745000] SCOREBOARD MATCH: wdata passthrough beat=200 expected = efc0ae6192c48543, actual =efc0ae6192c48543
[2745000] SCOREBOARD MATCH: wdata passthrough beat=201 expected = c468fdd7f0815829, actual =c468fdd7f0815829
[2745000] SCOREBOARD MATCH: wdata passthrough beat=202 expected = c46a486b14388cf5, actual =c46a486b14388cf5
[2745000] SCOREBOARD MATCH: wdata passthrough beat=203 expected = a6fd12382df36188, actual =a6fd12382df36188
[2745000] SCOREBOARD MATCH: wdata passthrough beat=204 expected = 1e74b9b1b42af6cc, actual =1e74b9b1b42af6cc
[2745000] SCOREBOARD MATCH: wdata passthrough beat=205 expected = c86383c1eb661010, actual =c86383c1eb661010
[2745000] SCOREBOARD MATCH: wdata passthrough beat=206 expected = 19597198e2df021c, actual =19597198e2df021c
[2745000] SCOREBOARD MATCH: wdata passthrough beat=207 expected = 1709f8e9ef6095fa, actual =1709f8e9ef6095fa
[2745000] SCOREBOARD MATCH: wdata passthrough beat=208 expected = dac6a60a37ce2b49, actual =dac6a60a37ce2b49
[2745000] SCOREBOARD MATCH: wdata passthrough beat=209 expected = 9aad2d65df6d7caa, actual =9aad2d65df6d7caa
[2745000] SCOREBOARD MATCH: wdata passthrough beat=210 expected = cece12a4f42017a2, actual =cece12a4f42017a2
[2745000] SCOREBOARD MATCH: wdata passthrough beat=211 expected = 2bee42ebb1b7264e, actual =2bee42ebb1b7264e
[2745000] SCOREBOARD MATCH: wdata passthrough beat=212 expected = 1124a2f9a994b8ae, actual =1124a2f9a994b8ae
[2745000] SCOREBOARD MATCH: wdata passthrough beat=213 expected = 9db4d050c69b7050, actual =9db4d050c69b7050
[2745000] SCOREBOARD MATCH: wdata passthrough beat=214 expected = f852969fdff2b59d, actual =f852969fdff2b59d
[2745000] SCOREBOARD MATCH: wdata passthrough beat=215 expected = 9876e4cc9a3133b, actual =9876e4cc9a3133b
[2745000] SCOREBOARD MATCH: wdata passthrough beat=216 expected = 103e838c09773998, actual =103e838c09773998
[2745000] SCOREBOARD MATCH: wdata passthrough beat=217 expected = e969ef35a73c3e9c, actual =e969ef35a73c3e9c
[2745000] SCOREBOARD MATCH: wdata passthrough beat=218 expected = f0df51d808911a2b, actual =f0df51d808911a2b
[2745000] SCOREBOARD MATCH: wdata passthrough beat=219 expected = 120853c3f2f15d81, actual =120853c3f2f15d81
[2745000] SCOREBOARD MATCH: wdata passthrough beat=220 expected = 1a2d9c1e011dd564, actual =1a2d9c1e011dd564
[2745000] SCOREBOARD MATCH: wdata passthrough beat=221 expected = 9aeef8ffb7242f8, actual =9aeef8ffb7242f8
[2745000] SCOREBOARD MATCH: wdata passthrough beat=222 expected = ee63a07a0b0cedf6, actual =ee63a07a0b0cedf6
[2745000] SCOREBOARD MATCH: wdata passthrough beat=223 expected = c2ac35a1bb74352, actual =c2ac35a1bb74352
[2745000] SCOREBOARD MATCH: wdata passthrough beat=224 expected = 9729864a08913c98, actual =9729864a08913c98
[2745000] SCOREBOARD MATCH: wdata passthrough beat=225 expected = 139e2a8e15d9b2e9, actual =139e2a8e15d9b2e9
[2745000] SCOREBOARD MATCH: wdata passthrough beat=226 expected = 3190f63b858d26c4, actual =3190f63b858d26c4
[2745000] SCOREBOARD MATCH: wdata passthrough beat=227 expected = 8e1e635c1fc8ede8, actual =8e1e635c1fc8ede8
[2745000] SCOREBOARD MATCH: wdata passthrough beat=228 expected = 35a2a0d1c8ba7c85, actual =35a2a0d1c8ba7c85
[2745000] SCOREBOARD MATCH: wdata passthrough beat=229 expected = ce47a34aa1bc8dea, actual =ce47a34aa1bc8dea
[2745000] SCOREBOARD MATCH: wdata passthrough beat=230 expected = c1857bd2e733970c, actual =c1857bd2e733970c
[2745000] SCOREBOARD MATCH: wdata passthrough beat=231 expected = afee1391dc6606a6, actual =afee1391dc6606a6
[2745000] SCOREBOARD MATCH: wdata passthrough beat=232 expected = fe229491f7281ca3, actual =fe229491f7281ca3
[2745000] SCOREBOARD MATCH: wdata passthrough beat=233 expected = de5bb3affe35b6db, actual =de5bb3affe35b6db
[2745000] SCOREBOARD MATCH: wdata passthrough beat=234 expected = da9bbd82bfa81063, actual =da9bbd82bfa81063
[2745000] SCOREBOARD MATCH: wdata passthrough beat=235 expected = 36d02d070e49c741, actual =36d02d070e49c741
[2745000] SCOREBOARD MATCH: wdata passthrough beat=236 expected = 8c7f7e1cd8be5213, actual =8c7f7e1cd8be5213
[2745000] SCOREBOARD MATCH: wstrb size check expected = ed, actual =ed
[2745000] SCOREBOARD MATCH: wstrb passthrough beat=0 expected = b6, actual =b6
[2745000] SCOREBOARD MATCH: wstrb passthrough beat=1 expected = 76, actual =76
[2745000] SCOREBOARD MATCH: wstrb passthrough beat=2 expected = 9e, actual =9e
[2745000] SCOREBOARD MATCH: wstrb passthrough beat=3 expected = f7, actual =f7
[2745000] SCOREBOARD MATCH: wstrb passthrough beat=4 expected = 7d, actual =7d
[2745000] SCOREBOARD MATCH: wstrb passthrough beat=5 expected = b1, actual =b1
[2745000] SCOREBOARD MATCH: wstrb passthrough beat=6 expected = 14, actual =14
[2745000] SCOREBOARD MATCH: wstrb passthrough beat=7 expected = 34, actual =34
