#-----------------------------------------------------------
# xsim v2025.2 (64-bit)
# SW Build 6299465 on Fri Nov 14 12:34:56 MST 2025
# IP Build 6300035 on Fri Nov 14 10:48:45 MST 2025
# SharedData Build 6298862 on Thu Nov 13 04:50:51 MST 2025
# Start of session at: Thu Sep 10 18:16:19 2026
# Process ID         : 3595568
# Current directory  : /home/nashita/Desktop/practice/axi_xbar/sim
# Command line       : xsim -log regress_results/BT_run77.log -mode tcl -source {xsim.dir/tb_top_snap/xsim_script.tcl}
# Log file           : /home/nashita/Desktop/practice/axi_xbar/sim/regress_results/BT_run77.log
# Journal file       : /home/nashita/Desktop/practice/axi_xbar/sim/xsim.jou
# Running On         : vlsi-vivado
# Platform           : Ubuntu
# Operating System   : Ubuntu 24.04.4 LTS
# Processor Detail   : Intel(R) Core(TM) i5-10400 CPU @ 2.90GHz
# CPU Frequency      : 4000.130 MHz
# CPU Physical cores : 6
# CPU Logical cores  : 12
# Host memory        : 41875 MB
# Swap memory        : 27648 MB
# Total Virtual      : 69524 MB
# Available Virtual  : 62575 MB
#-----------------------------------------------------------
source xsim.dir/tb_top_snap/xsim_script.tcl
# xsim {tb_top_snap} -testplusarg BT -autoloadwcfg -runall -sv_seed 78
Time resolution is 1 ps
run -all
[0] RUNNING BASE TEST
[0] INSIDE THE BASE TEST CONSTRUCTOR
[0] ENV: before agent
[0] SLAVE CONSTRUCTED
[0] MASTER MONITOR CONSTRUCTED
[0] MASTER MONITOR CONSTRUCTED
[0] SLAVE MONITOR CONSTRUCTED
[0] SLAVE MONITOR CONSTRUCTED
[0] ARB MONITOR CONSTRUCTED
GENERATOR CONSTRUCTED
[0] ENV: after agent
[0] ENV: before scoreboard
[0] ENV: after scoreboard
[15000] [SEQUENCER] READ mst_id=1 s_id=0 araddr=1e187b18 arid=0 arlen=1 arsize=3 arburst=1 rid=[] rresp=[] rdata=[]
[15000] [SEQUENCER] mst_id=0 s_id=0 awaddr=82f2800 awid=11 awlen=11 awsize=7 awburst=2 wdata=[cc566e7ac2652614 da5dc8088295800e cc2136d1def21a6a 2157407f9379d501 160f55101877a54c f769bfb6fbb50887 8f2edd88e2308be1 faa8312d98c10035 947608bca53e3298 76ebe7af211f0e4 8ad2f11923a4e645 c8e318dd8216efa7 ] wstrb=[d6 8b 57 1b a5 ff f8 7b 8a 50 96 2f ] bresp=0 bid=0
[15000] [SEQUENCER] READ mst_id=0 s_id=0 araddr=3c4ce90 arid=1 arlen=1 arsize=3 arburst=1 rid=[] rresp=[] rdata=[]
[15000] [SEQUENCER] READ mst_id=0 s_id=0 araddr=1745f080 arid=2 arlen=1 arsize=3 arburst=1 rid=[] rresp=[] rdata=[]
[15000] [SEQUENCER] mst_id=1 s_id=0 awaddr=e95ce08 awid=101 awlen=195 awsize=3 awburst=1 wdata=[2ee88de3b419f890 fbe39d87c7c8d830 c81b9812fd364304 b1503b94bd1eb040 84e78870f70425f5 f43a68f9ad33d91b ea52895ccd032082 c4074677a58aa48d d2be7da9ef3a11cc 3c3d324fb841af70 ddcc53fe3d110705 ac4b18d1804478c6 38862837308ad1a7 ed9bd8ace8884b20 e8ccc3e716527c35 c6dd4ddc99e6f17d 26f3c9e2152ec1e 37a5685334792688 ce601805eb3c0085 c8eeca3fe82b62f 32fbdcb7d0cf54a3 bc0b5528c43454f6 c2b70b25815bf4bc d22b4960c89a41cb 8cce96c1f5b2e7dc f70edc988e369e88 d6d0e054cf85a1e6 c53889c2c93a25f8 d770c481e39f7715 332518fc3c47665b 85818c532e41a4d5 91e11beaf85da2be b4a50919dcf250d4 8b33f5a9c50634e6 3d63d7a53a26956d 9718e6411d151194 e21b467af208e0be ac2f762b224cdbeb 3f61ed7f9f7f1e1f 1187fedec3485c6d e5953858a17d33f9 c0fc5219bdb77509 80ffd17624f725d7 c67459d0d28450f7 903bc600e69509ce 8b8c2fa58770abe9 d9f4fce0113b9777 f7d0a145d2008976 d971355fea30c2e1 fb6c5a58035cd0eb d55d5a6133663240 1d96f521f33cfb9d f699cc88aece8fc0 e234c20019034f79 8c404b16cbf726e9 fac5b6aaffcbb721 98cf069a02da179f ced13e88dcfa78aa dcc62fcc250f51b1 27e96950c996f532 26916dddf5953666 9aa48817f6baa7d8 c0519d0b03579da9 f8ecd40fc28df167 39489940e6e30ae8 ea3aa89113915c27 d61f4d8ef99a364b e07d4133e3277ca0 f6b8d8c78f67e6ce 89021d19cab7e9c4 addf6664ccd82656 dc400d24e97f5e4c b437481024983f2c f1706582e5422a3e cec1888ae216ae75 6aeeda1cdb072a6 b2f29ce402f8d09b e50f7f10f81f5323 c5cfc5c901b4256f 4acf60aebbe6cb1 e3ddbfd4f8c262ae fa76881de9bc751a d57ae1cba9ad859d a26fe84bff237e27 e8dff3413958a19f e306273c9ce67068 9c09ee8f3e5ad50c f7b376ab05760f88 a25c7ff084e9e1d0 c344b6dcdab99de7 e02fad6f3e666e80 c3505050baf82d87 15b1cb6f028c2d60 c0f29be00695072d c18d34b4f5e178de f86da63e8442ec30 8ad7f35dd73f0023 cd207902b960421e 3da32e4fcc652812 a3a42835c58e1f40 feee615fc87b21ac 94e049bef0c4a137 3652c0783c918fae 850cb15a388471f4 a949132b354121d7 f1d2b18519ecfb19 d2716d0ddf9bd3a3 94dcf57af6df62df 90cc5df8fbba8038 db5653dc86afa6ff fd8f09dfe33dcb05 def84b3ef0334956 f6e2f0568e5b67d7 f19932dd3a4e9f1a aa81e870f471fa35 82cd620cd0917e1b ae01d35a164d8c6 95d6d2fbf46694e9 c4f81304b56205a5 d6c6de6c18a43508 8d0ac9f1cfd83039 53a35dfec9db167 8541e66fd202dcf6 a1db0d2fdc01144b c89ec5b2124cb061 e44f8d57a715430e 83165759cde0ac22 e02d5c83862a9a86 2d3fdd95cbb51d0c 1995c92ec47ce9da caa78460b05634ee fc0b51faf9c325b1 3e400f8bf7e761f5 283d96e495a11b28 8f6440d988e793eb cef5e1a448e8de 39ea0407cda45064 d68be450290c8cc5 cd5575a3c94e44e0 16f29545d75ada31 6766f6873f79aa d08dbe8bed7e7995 c4d953c6cdbcdc99 d4fc5644e78053d0 d4fecd65c540babc 92fd9755258a14cf d0a689f19d8212b df18dbe7e7f9ed99 8d840268e2093604 fbe1572ff216733c da1060d69a8e6b07 fc97a10bdafa3316 cd10a652e794633e 222ce46f878f83a d3732b50a7210728 eb56a67feba6f51 f733678c2083d1a3 c7a4d8cb10d838ad 8f92a7fecaa692dc eb2a647fd65a4332 e7327bdf86c60f8a d16ca26732cf3d4b 8929807df6c523de fd8b3368bc9706e6 ef664431f05bfc5d e721203bcef7d5cf b8edcb6f88fc4af e8ebc10ce4ac53a3 33a42973faf520e7 f384e596d00ce147 b4b934ea3f330629 ba282710dc70a6a2 ac7d87e9e85d5e5d a79064862dad0ca7 8a1db349e136bcd4 c9941b31e1b88b97 f65983e369b3b33 17d1f807f1247fb8 d2dd0b4f99834b87 d01e86bae1661338 d28a92f0e242a38d fbc5ef14e7f07ec1 c95691faa5679e3f 87aa41cccbe475cf b3d4f4909be124ea c148c32a037030e1 cf54a6b0fd2b868a 190cab75c8f304f6 cc6335d783299b40 5521cbda556e9f a34873959bb7dc87 1ee177c81961cd40 f3b73bdfefaba96d 8b6385f41f369993 389866d396ffaf74 86ab58e1aa44fdbc ] wstrb=[b2 4f d6 26 22 92 8 d4 e2 de fb 4 70 3 d9 52 e1 d4 57 51 d7 30 a4 b8 4 fb 9 db 2b ad 93 2f a8 9c a d3 4a 9d 2 f2 39 c c6 83 a9 c8 76 e3 d5 3c 66 7e 4 dc 61 d9 18 c8 58 1d a4 b9 f6 bd 81 4e da 26 8 d0 e3 89 1f bd af 27 8d 92 b0 ac 4f 60 d3 dd f2 84 89 42 e4 5d 1f d6 e1 a8 18 c5 5 37 9b e6 e0 b4 ab e5 eb 47 cc cb fb 77 b1 e6 be 7d b2 b9 f4 63 a0 b3 e0 52 6c d4 b5 c 87 95 5e f4 69 13 0 f1 a8 5f e5 12 72 e5 3 1b 44 e8 2d b7 cd 30 d2 12 18 ff c9 e5 2f 9b f7 47 9a c0 2c c9 5b 24 10 f5 e4 3c be 40 60 ce 35 45 b f4 85 6b c2 ba b0 cd ae 35 39 71 f0 e9 3e 9e 1f 77 f f 61 4e ] bresp=0 bid=0
[15000] MASTER_DRIVER1 received transaction, op=AXI_READ
[15000] MASTER_DRIVER0 received transaction, op=AXI_WRITE
[35000] MASTER 0 AW_VALID_RDY Handshake
[35000] MASTER_DRIVER1 received transaction, op=AXI_WRITE
[45000] ARB MONITOR: slave=0 m0_req=1 m1_req=0 winner=0
[45000] ARB MONITOR: slave=1 m0_req=0 m1_req=1 winner=1
[45000] AXI S0_ARVALID_RDY HANDSHAKE
[45000] MEMORY READ MISS beat=0 addr=1e187b18 -> default data id=16
[45000] AXI S0_AWVALID_RDY HANDSHAKE
[55000] MEMORY READ MISS beat=1 addr=1e187b20 -> default data id=16
[55000] SLAVE 1 R_VALID_RDY Handshake beat=0 rlast=0
[55000] MASTER 1 AW_VALID_RDY Handshake
[55000] MASTER 0 W_VALID_RDY Handshake beat=0 wlast=0
[65000] MASTER 0 W_VALID_RDY Handshake beat=1 wlast=0
[65000] SLAVE 1 R_VALID_RDY Handshake beat=1 rlast=1
[65000] [SLAVE MONITOR] READ mst_id=1 s_id=1 araddr=1e187b18 arid=0 arlen=1 arsize=3 arburst=1 rid=[1010] rresp=[00] rdata=[baadf00d12345678baadf00d12345678]
[65000] AXI S0_WVALID_RDY HANDSHAKE
[65000] S0 MEMORY WRITE beat=0 addr=082f2800 data=cc566e7ac2652614 id=03
[75000] AXI S0_WVALID_RDY HANDSHAKE
[75000] S0 MEMORY WRITE beat=1 addr=082f2880 data=da5dc8088295800e id=03
[75000] MASTER 1 R_VALID_RDY Handshake beat=0 rlast=0
[75000] MASTER 1 W_VALID_RDY Handshake beat=0 wlast=0
[75000] MASTER 0 W_VALID_RDY Handshake beat=2 wlast=0
[85000] [MASTER DRIVER] READ mst_id=1 s_id=0 araddr=1e187b18 arid=0 arlen=1 arsize=3 arburst=1 rid=[00] rresp=[00] rdata=[baadf00d12345678baadf00d12345678]
[85000] MASTER 0 W_VALID_RDY Handshake beat=3 wlast=0
[85000] MASTER 1 W_VALID_RDY Handshake beat=1 wlast=0
[85000] MASTER 1 R_VALID_RDY Handshake beat=1 rlast=1
[85000] [MASTER MONITOR] READ mst_id=1 s_id=1 araddr=1e187b18 arid=0 arlen=1 arsize=3 arburst=1 rid=[00] rresp=[00] rdata=[baadf00d12345678baadf00d12345678]
[85000] AXI S0_WVALID_RDY HANDSHAKE
[85000] S0 MEMORY WRITE beat=2 addr=082f2900 data=cc2136d1def21a6a id=03
[85000] SCOREBOARD MATCH: decode_err expected = 0, actual =0
[85000] SCOREBOARD MATCH: slave_id expected = 1, actual =1
[85000] SCOREBOARD MATCH: araddr passthrough expected = 1e187b18, actual =1e187b18
[85000] SCOREBOARD MATCH: arlen passthrough expected = 1, actual =1
[85000] SCOREBOARD MATCH: arsize passthrough expected = 3, actual =3
[85000] SCOREBOARD MATCH: arburst passthrough expected = 1, actual =1
[85000] SCOREBOARD MATCH: rdata size check expected = 2, actual =2
[85000] SCOREBOARD MATCH: rdata passthrough beat=0 expected = baadf00d12345678, actual =baadf00d12345678
[85000] SCOREBOARD MATCH: rdata passthrough beat=1 expected = baadf00d12345678, actual =baadf00d12345678
[85000] SCOREBOARD MATCH: rresp size check expected = 2, actual =2
[85000] SCOREBOARD MATCH: rresp passthrough beat=0 expected = 0, actual =0
[85000] SCOREBOARD MATCH: rresp passthrough beat=1 expected = 0, actual =0
[85000] SCOREBOARD MATCH: response routed to correct master (read beat 0) expected = 1, actual =1
[85000] SCOREBOARD MATCH: response routed to correct master (read beat 1) expected = 1, actual =1
[85000] [SCOREBOARD-M] READ mst_id=1 s_id=1 araddr=1e187b18 arid=0 arlen=1 arsize=3 arburst=1 rid=[00] rresp=[00] rdata=[baadf00d12345678baadf00d12345678]
[85000] [SCOREBOARD-S] READ mst_id=1 s_id=1 araddr=1e187b18 arid=0 arlen=1 arsize=3 arburst=1 rid=[1010] rresp=[00] rdata=[baadf00d12345678baadf00d12345678]
[85000] SCOREBOARD: Transaction 1 received. pass=14 fail=0
[85000] ALL PASS. Total transactions: 1
[95000] AXI S0_WVALID_RDY HANDSHAKE
[95000] S0 MEMORY WRITE beat=3 addr=082f2980 data=2157407f9379d501 id=03
[95000] MASTER 1 W_VALID_RDY Handshake beat=2 wlast=0
[95000] MASTER 0 W_VALID_RDY Handshake beat=4 wlast=0
[105000] MASTER 0 W_VALID_RDY Handshake beat=5 wlast=0
[105000] MASTER 1 W_VALID_RDY Handshake beat=3 wlast=0
[105000] AXI S0_WVALID_RDY HANDSHAKE
[105000] S0 MEMORY WRITE beat=4 addr=082f2a00 data=160f55101877a54c id=03
[115000] AXI S0_WVALID_RDY HANDSHAKE
[115000] S0 MEMORY WRITE beat=5 addr=082f2a80 data=f769bfb6fbb50887 id=03
[115000] MASTER 1 W_VALID_RDY Handshake beat=4 wlast=0
[115000] MASTER 0 W_VALID_RDY Handshake beat=6 wlast=0
[125000] MASTER 0 W_VALID_RDY Handshake beat=7 wlast=0
[125000] MASTER 1 W_VALID_RDY Handshake beat=5 wlast=0
[125000] AXI S0_WVALID_RDY HANDSHAKE
[125000] S0 MEMORY WRITE beat=6 addr=082f2b00 data=8f2edd88e2308be1 id=03
[135000] AXI S0_WVALID_RDY HANDSHAKE
[135000] S0 MEMORY WRITE beat=7 addr=082f2b80 data=faa8312d98c10035 id=03
[135000] MASTER 1 W_VALID_RDY Handshake beat=6 wlast=0
[135000] MASTER 0 W_VALID_RDY Handshake beat=8 wlast=0
[145000] MASTER 0 W_VALID_RDY Handshake beat=9 wlast=0
[145000] MASTER 1 W_VALID_RDY Handshake beat=7 wlast=0
[145000] AXI S0_WVALID_RDY HANDSHAKE
[145000] S0 MEMORY WRITE beat=8 addr=082f2600 data=947608bca53e3298 id=03
[155000] AXI S0_WVALID_RDY HANDSHAKE
[155000] S0 MEMORY WRITE beat=9 addr=082f2680 data=076ebe7af211f0e4 id=03
[155000] MASTER 0 W_VALID_RDY Handshake beat=10 wlast=0
[165000] MASTER_DRIVER0 received transaction, op=AXI_READ
[165000] MASTER 0 W_VALID_RDY Handshake beat=11 wlast=1
[165000] AXI S0_WVALID_RDY HANDSHAKE
[165000] S0 MEMORY WRITE beat=10 addr=082f2700 data=8ad2f11923a4e645 id=03
[175000] AXI S0_WVALID_RDY HANDSHAKE
[175000] S0 MEMORY WRITE beat=11 addr=082f2780 data=c8e318dd8216efa7 id=03
[185000] MASTER_DRIVER0 received transaction, op=AXI_READ
[185000] SLAVE0 sent B resp, id=3
[195000] AXI S0_AWVALID_RDY HANDSHAKE
[195000] AXI S0_ARVALID_RDY HANDSHAKE
[195000] MEMORY READ MISS beat=0 addr=3c4ce90 -> default data id=1
[195000] [SLAVE MONITOR] mst_id=0 s_id=0 awaddr=82f2800 awid=11 awlen=11 awsize=7 awburst=2 wdata=[cc566e7ac2652614 da5dc8088295800e cc2136d1def21a6a 2157407f9379d501 160f55101877a54c f769bfb6fbb50887 8f2edd88e2308be1 faa8312d98c10035 947608bca53e3298 76ebe7af211f0e4 8ad2f11923a4e645 c8e318dd8216efa7 ] wstrb=[d6 8b 57 1b a5 ff f8 7b 8a 50 96 2f ] bresp=0 bid=11
[195000] ARB MONITOR: slave=0 m0_req=0 m1_req=1 winner=1
[195000] ARB MONITOR: slave=0 m0_req=1 m1_req=0 winner=0
[205000] MASTER 0 RECEIVED BRESP. BRESP=0
[205000] [MASTER DRIVER] mst_id=0 s_id=0 awaddr=82f2800 awid=11 awlen=11 awsize=7 awburst=2 wdata=[cc566e7ac2652614 da5dc8088295800e cc2136d1def21a6a 2157407f9379d501 160f55101877a54c f769bfb6fbb50887 8f2edd88e2308be1 faa8312d98c10035 947608bca53e3298 76ebe7af211f0e4 8ad2f11923a4e645 c8e318dd8216efa7 ] wstrb=[d6 8b 57 1b a5 ff f8 7b 8a 50 96 2f ] bresp=0 bid=11
[205000] MASTER 0 B_VALID_RDY Handshake
[205000] [MASTER MONITOR] mst_id=0 s_id=0 awaddr=82f2800 awid=11 awlen=11 awsize=7 awburst=2 wdata=[cc566e7ac2652614 da5dc8088295800e cc2136d1def21a6a 2157407f9379d501 160f55101877a54c f769bfb6fbb50887 8f2edd88e2308be1 faa8312d98c10035 947608bca53e3298 76ebe7af211f0e4 8ad2f11923a4e645 c8e318dd8216efa7 ] wstrb=[d6 8b 57 1b a5 ff f8 7b 8a 50 96 2f ] bresp=0 bid=11
[205000] SLAVE 0 R_VALID_RDY Handshake beat=0 rlast=0
[205000] MEMORY READ MISS beat=1 addr=3c4ce98 -> default data id=1
[205000] AXI S0_WVALID_RDY HANDSHAKE
[205000] S0 MEMORY WRITE beat=0 addr=0e95ce08 data=2ee88de3b419f890 id=15
[205000] SCOREBOARD MATCH: decode_err expected = 0, actual =0
[205000] SCOREBOARD MATCH: slave_id expected = 0, actual =0
[205000] SCOREBOARD MATCH: awaddr passthrough expected = 82f2800, actual =82f2800
[205000] SCOREBOARD MATCH: awlen passthrough expected = 11, actual =11
[205000] SCOREBOARD MATCH: awsize passthrough expected = 7, actual =7
[205000] SCOREBOARD MATCH: awburst passthrough expected = 2, actual =2
[205000] SCOREBOARD MATCH: wdata size check expected = c, actual =c
[205000] SCOREBOARD MATCH: wdata passthrough beat=0 expected = cc566e7ac2652614, actual =cc566e7ac2652614
[205000] SCOREBOARD MATCH: wdata passthrough beat=1 expected = da5dc8088295800e, actual =da5dc8088295800e
[205000] SCOREBOARD MATCH: wdata passthrough beat=2 expected = cc2136d1def21a6a, actual =cc2136d1def21a6a
[205000] SCOREBOARD MATCH: wdata passthrough beat=3 expected = 2157407f9379d501, actual =2157407f9379d501
[205000] SCOREBOARD MATCH: wdata passthrough beat=4 expected = 160f55101877a54c, actual =160f55101877a54c
[205000] SCOREBOARD MATCH: wdata passthrough beat=5 expected = f769bfb6fbb50887, actual =f769bfb6fbb50887
[205000] SCOREBOARD MATCH: wdata passthrough beat=6 expected = 8f2edd88e2308be1, actual =8f2edd88e2308be1
[205000] SCOREBOARD MATCH: wdata passthrough beat=7 expected = faa8312d98c10035, actual =faa8312d98c10035
[205000] SCOREBOARD MATCH: wdata passthrough beat=8 expected = 947608bca53e3298, actual =947608bca53e3298
[205000] SCOREBOARD MATCH: wdata passthrough beat=9 expected = 76ebe7af211f0e4, actual =76ebe7af211f0e4
[205000] SCOREBOARD MATCH: wdata passthrough beat=10 expected = 8ad2f11923a4e645, actual =8ad2f11923a4e645
[205000] SCOREBOARD MATCH: wdata passthrough beat=11 expected = c8e318dd8216efa7, actual =c8e318dd8216efa7
[205000] SCOREBOARD MATCH: wstrb size check expected = c, actual =c
[205000] SCOREBOARD MATCH: wstrb passthrough beat=0 expected = d6, actual =d6
[205000] SCOREBOARD MATCH: wstrb passthrough beat=1 expected = 8b, actual =8b
[205000] SCOREBOARD MATCH: wstrb passthrough beat=2 expected = 57, actual =57
[205000] SCOREBOARD MATCH: wstrb passthrough beat=3 expected = 1b, actual =1b
[205000] SCOREBOARD MATCH: wstrb passthrough beat=4 expected = a5, actual =a5
[205000] SCOREBOARD MATCH: wstrb passthrough beat=5 expected = ff, actual =ff
[205000] SCOREBOARD MATCH: wstrb passthrough beat=6 expected = f8, actual =f8
[205000] SCOREBOARD MATCH: wstrb passthrough beat=7 expected = 7b, actual =7b
[205000] SCOREBOARD MATCH: wstrb passthrough beat=8 expected = 8a, actual =8a
[205000] SCOREBOARD MATCH: wstrb passthrough beat=9 expected = 50, actual =50
[205000] SCOREBOARD MATCH: wstrb passthrough beat=10 expected = 96, actual =96
[205000] SCOREBOARD MATCH: wstrb passthrough beat=11 expected = 2f, actual =2f
[205000] SCOREBOARD MATCH: bresp passthrough expected = 0, actual =0
[205000] SCOREBOARD MATCH: response routed to correct master (write) expected = 0, actual =0
[205000] [SCOREBOARD-M] mst_id=0 s_id=0 awaddr=82f2800 awid=11 awlen=11 awsize=7 awburst=2 wdata=[cc566e7ac2652614 da5dc8088295800e cc2136d1def21a6a 2157407f9379d501 160f55101877a54c f769bfb6fbb50887 8f2edd88e2308be1 faa8312d98c10035 947608bca53e3298 76ebe7af211f0e4 8ad2f11923a4e645 c8e318dd8216efa7 ] wstrb=[d6 8b 57 1b a5 ff f8 7b 8a 50 96 2f ] bresp=0 bid=11
[205000] [SCOREBOARD-S] mst_id=0 s_id=0 awaddr=82f2800 awid=11 awlen=11 awsize=7 awburst=2 wdata=[cc566e7ac2652614 da5dc8088295800e cc2136d1def21a6a 2157407f9379d501 160f55101877a54c f769bfb6fbb50887 8f2edd88e2308be1 faa8312d98c10035 947608bca53e3298 76ebe7af211f0e4 8ad2f11923a4e645 c8e318dd8216efa7 ] wstrb=[d6 8b 57 1b a5 ff f8 7b 8a 50 96 2f ] bresp=0 bid=11
[205000] SCOREBOARD: Transaction 2 received. pass=48 fail=0
[205000] ALL PASS. Total transactions: 2
[215000] AXI S0_WVALID_RDY HANDSHAKE
[215000] S0 MEMORY WRITE beat=1 addr=0e95ce10 data=fbe39d87c7c8d830 id=15
[215000] AXI S0_ARVALID_RDY HANDSHAKE
[215000] MEMORY READ MISS beat=0 addr=1745f080 -> default data id=2
[215000] SLAVE 0 R_VALID_RDY Handshake beat=1 rlast=1
[215000] [SLAVE MONITOR] READ mst_id=0 s_id=0 araddr=3c4ce90 arid=1 arlen=1 arsize=3 arburst=1 rid=[11] rresp=[00] rdata=[baadf00d12345678baadf00d12345678]
[215000] ARB MONITOR: slave=1 m0_req=1 m1_req=0 winner=0
[215000] MASTER 1 W_VALID_RDY Handshake beat=8 wlast=0
[225000] MASTER 0 R_VALID_RDY Handshake beat=0 rlast=0
[225000] MASTER 1 W_VALID_RDY Handshake beat=9 wlast=0
[225000] SLAVE 1 R_VALID_RDY Handshake beat=0 rlast=0
[225000] MEMORY READ MISS beat=1 addr=1745f088 -> default data id=2
[225000] AXI S0_WVALID_RDY HANDSHAKE
[225000] S0 MEMORY WRITE beat=2 addr=0e95ce18 data=c81b9812fd364304 id=15
[235000] AXI S0_WVALID_RDY HANDSHAKE
[235000] S0 MEMORY WRITE beat=3 addr=0e95ce20 data=b1503b94bd1eb040 id=15
[235000] SLAVE 1 R_VALID_RDY Handshake beat=1 rlast=1
[235000] [SLAVE MONITOR] READ mst_id=0 s_id=1 araddr=1745f080 arid=2 arlen=1 arsize=3 arburst=1 rid=[22] rresp=[00] rdata=[baadf00d12345678baadf00d12345678]
[235000] MASTER 1 W_VALID_RDY Handshake beat=10 wlast=0
[235000] MASTER 0 R_VALID_RDY Handshake beat=1 rlast=1
[235000] [MASTER MONITOR] READ mst_id=0 s_id=0 araddr=3c4ce90 arid=1 arlen=1 arsize=3 arburst=1 rid=[11] rresp=[00] rdata=[baadf00d12345678baadf00d12345678]
[235000] [MASTER DRIVER] READ mst_id=0 s_id=0 araddr=3c4ce90 arid=1 arlen=1 arsize=3 arburst=1 rid=[11] rresp=[00] rdata=[baadf00d12345678baadf00d12345678]
[235000] SCOREBOARD MATCH: decode_err expected = 0, actual =0
[235000] SCOREBOARD MATCH: slave_id expected = 0, actual =0
[235000] SCOREBOARD MATCH: araddr passthrough expected = 3c4ce90, actual =3c4ce90
[235000] SCOREBOARD MATCH: arlen passthrough expected = 1, actual =1
[235000] SCOREBOARD MATCH: arsize passthrough expected = 3, actual =3
[235000] SCOREBOARD MATCH: arburst passthrough expected = 1, actual =1
[235000] SCOREBOARD MATCH: rdata size check expected = 2, actual =2
[235000] SCOREBOARD MATCH: rdata passthrough beat=0 expected = baadf00d12345678, actual =baadf00d12345678
[235000] SCOREBOARD MATCH: rdata passthrough beat=1 expected = baadf00d12345678, actual =baadf00d12345678
[235000] SCOREBOARD MATCH: rresp size check expected = 2, actual =2
[235000] SCOREBOARD MATCH: rresp passthrough beat=0 expected = 0, actual =0
[235000] SCOREBOARD MATCH: rresp passthrough beat=1 expected = 0, actual =0
[235000] SCOREBOARD MATCH: response routed to correct master (read beat 0) expected = 0, actual =0
[235000] SCOREBOARD MATCH: response routed to correct master (read beat 1) expected = 0, actual =0
[235000] [SCOREBOARD-M] READ mst_id=0 s_id=0 araddr=3c4ce90 arid=1 arlen=1 arsize=3 arburst=1 rid=[11] rresp=[00] rdata=[baadf00d12345678baadf00d12345678]
[235000] [SCOREBOARD-S] READ mst_id=0 s_id=0 araddr=3c4ce90 arid=1 arlen=1 arsize=3 arburst=1 rid=[11] rresp=[00] rdata=[baadf00d12345678baadf00d12345678]
[235000] SCOREBOARD: Transaction 3 received. pass=62 fail=0
[235000] ALL PASS. Total transactions: 3
[245000] MASTER 1 W_VALID_RDY Handshake beat=11 wlast=0
[245000] AXI S0_WVALID_RDY HANDSHAKE
[245000] S0 MEMORY WRITE beat=4 addr=0e95ce28 data=84e78870f70425f5 id=15
[255000] AXI S0_WVALID_RDY HANDSHAKE
[255000] S0 MEMORY WRITE beat=5 addr=0e95ce30 data=f43a68f9ad33d91b id=15
[255000] MASTER 1 W_VALID_RDY Handshake beat=12 wlast=0
[255000] MASTER 0 R_VALID_RDY Handshake beat=0 rlast=0
[265000] [MASTER DRIVER] READ mst_id=0 s_id=0 araddr=1745f080 arid=2 arlen=1 arsize=3 arburst=1 rid=[22] rresp=[00] rdata=[baadf00d12345678baadf00d12345678]
[265000] MASTER 0 R_VALID_RDY Handshake beat=1 rlast=1
[265000] [MASTER MONITOR] READ mst_id=0 s_id=1 araddr=1745f080 arid=2 arlen=1 arsize=3 arburst=1 rid=[22] rresp=[00] rdata=[baadf00d12345678baadf00d12345678]
[265000] MASTER 1 W_VALID_RDY Handshake beat=13 wlast=0
[265000] AXI S0_WVALID_RDY HANDSHAKE
[265000] S0 MEMORY WRITE beat=6 addr=0e95ce38 data=ea52895ccd032082 id=15
[265000] SCOREBOARD MATCH: decode_err expected = 0, actual =0
[265000] SCOREBOARD MATCH: slave_id expected = 1, actual =1
[265000] SCOREBOARD MATCH: araddr passthrough expected = 1745f080, actual =1745f080
[265000] SCOREBOARD MATCH: arlen passthrough expected = 1, actual =1
[265000] SCOREBOARD MATCH: arsize passthrough expected = 3, actual =3
[265000] SCOREBOARD MATCH: arburst passthrough expected = 1, actual =1
[265000] SCOREBOARD MATCH: rdata size check expected = 2, actual =2
[265000] SCOREBOARD MATCH: rdata passthrough beat=0 expected = baadf00d12345678, actual =baadf00d12345678
[265000] SCOREBOARD MATCH: rdata passthrough beat=1 expected = baadf00d12345678, actual =baadf00d12345678
[265000] SCOREBOARD MATCH: rresp size check expected = 2, actual =2
[265000] SCOREBOARD MATCH: rresp passthrough beat=0 expected = 0, actual =0
[265000] SCOREBOARD MATCH: rresp passthrough beat=1 expected = 0, actual =0
[265000] SCOREBOARD MATCH: response routed to correct master (read beat 0) expected = 0, actual =0
[265000] SCOREBOARD MATCH: response routed to correct master (read beat 1) expected = 0, actual =0
[265000] [SCOREBOARD-M] READ mst_id=0 s_id=1 araddr=1745f080 arid=2 arlen=1 arsize=3 arburst=1 rid=[22] rresp=[00] rdata=[baadf00d12345678baadf00d12345678]
[265000] [SCOREBOARD-S] READ mst_id=0 s_id=1 araddr=1745f080 arid=2 arlen=1 arsize=3 arburst=1 rid=[22] rresp=[00] rdata=[baadf00d12345678baadf00d12345678]
[265000] SCOREBOARD: Transaction 4 received. pass=76 fail=0
[265000] ALL PASS. Total transactions: 4
[275000] AXI S0_WVALID_RDY HANDSHAKE
[275000] S0 MEMORY WRITE beat=7 addr=0e95ce40 data=c4074677a58aa48d id=15
[275000] MASTER 1 W_VALID_RDY Handshake beat=14 wlast=0
[285000] MASTER 1 W_VALID_RDY Handshake beat=15 wlast=0
[285000] AXI S0_WVALID_RDY HANDSHAKE
[285000] S0 MEMORY WRITE beat=8 addr=0e95ce48 data=d2be7da9ef3a11cc id=15
[295000] AXI S0_WVALID_RDY HANDSHAKE
[295000] S0 MEMORY WRITE beat=9 addr=0e95ce50 data=3c3d324fb841af70 id=15
[295000] MASTER 1 W_VALID_RDY Handshake beat=16 wlast=0
[305000] MASTER 1 W_VALID_RDY Handshake beat=17 wlast=0
[305000] AXI S0_WVALID_RDY HANDSHAKE
[305000] S0 MEMORY WRITE beat=10 addr=0e95ce58 data=ddcc53fe3d110705 id=15
[315000] AXI S0_WVALID_RDY HANDSHAKE
[315000] S0 MEMORY WRITE beat=11 addr=0e95ce60 data=ac4b18d1804478c6 id=15
[315000] MASTER 1 W_VALID_RDY Handshake beat=18 wlast=0
[325000] MASTER 1 W_VALID_RDY Handshake beat=19 wlast=0
[325000] AXI S0_WVALID_RDY HANDSHAKE
[325000] S0 MEMORY WRITE beat=12 addr=0e95ce68 data=38862837308ad1a7 id=15
[335000] AXI S0_WVALID_RDY HANDSHAKE
[335000] S0 MEMORY WRITE beat=13 addr=0e95ce70 data=ed9bd8ace8884b20 id=15
[335000] MASTER 1 W_VALID_RDY Handshake beat=20 wlast=0
[345000] MASTER 1 W_VALID_RDY Handshake beat=21 wlast=0
[345000] AXI S0_WVALID_RDY HANDSHAKE
[345000] S0 MEMORY WRITE beat=14 addr=0e95ce78 data=e8ccc3e716527c35 id=15
[355000] AXI S0_WVALID_RDY HANDSHAKE
[355000] S0 MEMORY WRITE beat=15 addr=0e95ce80 data=c6dd4ddc99e6f17d id=15
[355000] MASTER 1 W_VALID_RDY Handshake beat=22 wlast=0
[365000] MASTER 1 W_VALID_RDY Handshake beat=23 wlast=0
[365000] AXI S0_WVALID_RDY HANDSHAKE
[365000] S0 MEMORY WRITE beat=16 addr=0e95ce88 data=026f3c9e2152ec1e id=15
[375000] AXI S0_WVALID_RDY HANDSHAKE
[375000] S0 MEMORY WRITE beat=17 addr=0e95ce90 data=37a5685334792688 id=15
[375000] MASTER 1 W_VALID_RDY Handshake beat=24 wlast=0
[385000] MASTER 1 W_VALID_RDY Handshake beat=25 wlast=0
[385000] AXI S0_WVALID_RDY HANDSHAKE
[385000] S0 MEMORY WRITE beat=18 addr=0e95ce98 data=ce601805eb3c0085 id=15
[395000] AXI S0_WVALID_RDY HANDSHAKE
[395000] S0 MEMORY WRITE beat=19 addr=0e95cea0 data=0c8eeca3fe82b62f id=15
[395000] MASTER 1 W_VALID_RDY Handshake beat=26 wlast=0
[405000] MASTER 1 W_VALID_RDY Handshake beat=27 wlast=0
[405000] AXI S0_WVALID_RDY HANDSHAKE
[405000] S0 MEMORY WRITE beat=20 addr=0e95cea8 data=32fbdcb7d0cf54a3 id=15
[415000] AXI S0_WVALID_RDY HANDSHAKE
[415000] S0 MEMORY WRITE beat=21 addr=0e95ceb0 data=bc0b5528c43454f6 id=15
[415000] MASTER 1 W_VALID_RDY Handshake beat=28 wlast=0
[425000] MASTER 1 W_VALID_RDY Handshake beat=29 wlast=0
[425000] AXI S0_WVALID_RDY HANDSHAKE
[425000] S0 MEMORY WRITE beat=22 addr=0e95ceb8 data=c2b70b25815bf4bc id=15
[435000] AXI S0_WVALID_RDY HANDSHAKE
[435000] S0 MEMORY WRITE beat=23 addr=0e95cec0 data=d22b4960c89a41cb id=15
[435000] MASTER 1 W_VALID_RDY Handshake beat=30 wlast=0
[445000] MASTER 1 W_VALID_RDY Handshake beat=31 wlast=0
[445000] AXI S0_WVALID_RDY HANDSHAKE
[445000] S0 MEMORY WRITE beat=24 addr=0e95cec8 data=8cce96c1f5b2e7dc id=15
[455000] AXI S0_WVALID_RDY HANDSHAKE
[455000] S0 MEMORY WRITE beat=25 addr=0e95ced0 data=f70edc988e369e88 id=15
[455000] MASTER 1 W_VALID_RDY Handshake beat=32 wlast=0
[465000] MASTER 1 W_VALID_RDY Handshake beat=33 wlast=0
[465000] AXI S0_WVALID_RDY HANDSHAKE
[465000] S0 MEMORY WRITE beat=26 addr=0e95ced8 data=d6d0e054cf85a1e6 id=15
[475000] AXI S0_WVALID_RDY HANDSHAKE
[475000] S0 MEMORY WRITE beat=27 addr=0e95cee0 data=c53889c2c93a25f8 id=15
[475000] MASTER 1 W_VALID_RDY Handshake beat=34 wlast=0
[485000] MASTER 1 W_VALID_RDY Handshake beat=35 wlast=0
[485000] AXI S0_WVALID_RDY HANDSHAKE
[485000] S0 MEMORY WRITE beat=28 addr=0e95cee8 data=d770c481e39f7715 id=15
[495000] AXI S0_WVALID_RDY HANDSHAKE
[495000] S0 MEMORY WRITE beat=29 addr=0e95cef0 data=332518fc3c47665b id=15
[495000] MASTER 1 W_VALID_RDY Handshake beat=36 wlast=0
[505000] MASTER 1 W_VALID_RDY Handshake beat=37 wlast=0
[505000] AXI S0_WVALID_RDY HANDSHAKE
[505000] S0 MEMORY WRITE beat=30 addr=0e95cef8 data=85818c532e41a4d5 id=15
[515000] AXI S0_WVALID_RDY HANDSHAKE
[515000] S0 MEMORY WRITE beat=31 addr=0e95cf00 data=91e11beaf85da2be id=15
[515000] MASTER 1 W_VALID_RDY Handshake beat=38 wlast=0
[525000] MASTER 1 W_VALID_RDY Handshake beat=39 wlast=0
[525000] AXI S0_WVALID_RDY HANDSHAKE
[525000] S0 MEMORY WRITE beat=32 addr=0e95cf08 data=b4a50919dcf250d4 id=15
[535000] AXI S0_WVALID_RDY HANDSHAKE
[535000] S0 MEMORY WRITE beat=33 addr=0e95cf10 data=8b33f5a9c50634e6 id=15
[535000] MASTER 1 W_VALID_RDY Handshake beat=40 wlast=0
[545000] MASTER 1 W_VALID_RDY Handshake beat=41 wlast=0
[545000] AXI S0_WVALID_RDY HANDSHAKE
[545000] S0 MEMORY WRITE beat=34 addr=0e95cf18 data=3d63d7a53a26956d id=15
[555000] AXI S0_WVALID_RDY HANDSHAKE
[555000] S0 MEMORY WRITE beat=35 addr=0e95cf20 data=9718e6411d151194 id=15
[555000] MASTER 1 W_VALID_RDY Handshake beat=42 wlast=0
[565000] MASTER 1 W_VALID_RDY Handshake beat=43 wlast=0
[565000] AXI S0_WVALID_RDY HANDSHAKE
[565000] S0 MEMORY WRITE beat=36 addr=0e95cf28 data=e21b467af208e0be id=15
[575000] AXI S0_WVALID_RDY HANDSHAKE
[575000] S0 MEMORY WRITE beat=37 addr=0e95cf30 data=ac2f762b224cdbeb id=15
[575000] MASTER 1 W_VALID_RDY Handshake beat=44 wlast=0
[585000] MASTER 1 W_VALID_RDY Handshake beat=45 wlast=0
[585000] AXI S0_WVALID_RDY HANDSHAKE
[585000] S0 MEMORY WRITE beat=38 addr=0e95cf38 data=3f61ed7f9f7f1e1f id=15
[595000] AXI S0_WVALID_RDY HANDSHAKE
[595000] S0 MEMORY WRITE beat=39 addr=0e95cf40 data=1187fedec3485c6d id=15
[595000] MASTER 1 W_VALID_RDY Handshake beat=46 wlast=0
[605000] MASTER 1 W_VALID_RDY Handshake beat=47 wlast=0
[605000] AXI S0_WVALID_RDY HANDSHAKE
[605000] S0 MEMORY WRITE beat=40 addr=0e95cf48 data=e5953858a17d33f9 id=15
[615000] AXI S0_WVALID_RDY HANDSHAKE
[615000] S0 MEMORY WRITE beat=41 addr=0e95cf50 data=c0fc5219bdb77509 id=15
[615000] MASTER 1 W_VALID_RDY Handshake beat=48 wlast=0
[625000] MASTER 1 W_VALID_RDY Handshake beat=49 wlast=0
[625000] AXI S0_WVALID_RDY HANDSHAKE
[625000] S0 MEMORY WRITE beat=42 addr=0e95cf58 data=80ffd17624f725d7 id=15
[635000] AXI S0_WVALID_RDY HANDSHAKE
[635000] S0 MEMORY WRITE beat=43 addr=0e95cf60 data=c67459d0d28450f7 id=15
[635000] MASTER 1 W_VALID_RDY Handshake beat=50 wlast=0
[645000] MASTER 1 W_VALID_RDY Handshake beat=51 wlast=0
[645000] AXI S0_WVALID_RDY HANDSHAKE
[645000] S0 MEMORY WRITE beat=44 addr=0e95cf68 data=903bc600e69509ce id=15
[655000] AXI S0_WVALID_RDY HANDSHAKE
[655000] S0 MEMORY WRITE beat=45 addr=0e95cf70 data=8b8c2fa58770abe9 id=15
[655000] MASTER 1 W_VALID_RDY Handshake beat=52 wlast=0
[665000] MASTER 1 W_VALID_RDY Handshake beat=53 wlast=0
[665000] AXI S0_WVALID_RDY HANDSHAKE
[665000] S0 MEMORY WRITE beat=46 addr=0e95cf78 data=d9f4fce0113b9777 id=15
[675000] AXI S0_WVALID_RDY HANDSHAKE
[675000] S0 MEMORY WRITE beat=47 addr=0e95cf80 data=f7d0a145d2008976 id=15
[675000] MASTER 1 W_VALID_RDY Handshake beat=54 wlast=0
[685000] MASTER 1 W_VALID_RDY Handshake beat=55 wlast=0
[685000] AXI S0_WVALID_RDY HANDSHAKE
[685000] S0 MEMORY WRITE beat=48 addr=0e95cf88 data=d971355fea30c2e1 id=15
[695000] AXI S0_WVALID_RDY HANDSHAKE
[695000] S0 MEMORY WRITE beat=49 addr=0e95cf90 data=fb6c5a58035cd0eb id=15
[695000] MASTER 1 W_VALID_RDY Handshake beat=56 wlast=0
[705000] MASTER 1 W_VALID_RDY Handshake beat=57 wlast=0
[705000] AXI S0_WVALID_RDY HANDSHAKE
[705000] S0 MEMORY WRITE beat=50 addr=0e95cf98 data=d55d5a6133663240 id=15
[715000] AXI S0_WVALID_RDY HANDSHAKE
[715000] S0 MEMORY WRITE beat=51 addr=0e95cfa0 data=1d96f521f33cfb9d id=15
[715000] MASTER 1 W_VALID_RDY Handshake beat=58 wlast=0
[725000] MASTER 1 W_VALID_RDY Handshake beat=59 wlast=0
[725000] AXI S0_WVALID_RDY HANDSHAKE
[725000] S0 MEMORY WRITE beat=52 addr=0e95cfa8 data=f699cc88aece8fc0 id=15
[735000] AXI S0_WVALID_RDY HANDSHAKE
[735000] S0 MEMORY WRITE beat=53 addr=0e95cfb0 data=e234c20019034f79 id=15
[735000] MASTER 1 W_VALID_RDY Handshake beat=60 wlast=0
[745000] MASTER 1 W_VALID_RDY Handshake beat=61 wlast=0
[745000] AXI S0_WVALID_RDY HANDSHAKE
[745000] S0 MEMORY WRITE beat=54 addr=0e95cfb8 data=8c404b16cbf726e9 id=15
[755000] AXI S0_WVALID_RDY HANDSHAKE
[755000] S0 MEMORY WRITE beat=55 addr=0e95cfc0 data=fac5b6aaffcbb721 id=15
[755000] MASTER 1 W_VALID_RDY Handshake beat=62 wlast=0
[765000] MASTER 1 W_VALID_RDY Handshake beat=63 wlast=0
[765000] AXI S0_WVALID_RDY HANDSHAKE
[765000] S0 MEMORY WRITE beat=56 addr=0e95cfc8 data=98cf069a02da179f id=15
[775000] AXI S0_WVALID_RDY HANDSHAKE
[775000] S0 MEMORY WRITE beat=57 addr=0e95cfd0 data=ced13e88dcfa78aa id=15
[775000] MASTER 1 W_VALID_RDY Handshake beat=64 wlast=0
[785000] MASTER 1 W_VALID_RDY Handshake beat=65 wlast=0
[785000] AXI S0_WVALID_RDY HANDSHAKE
[785000] S0 MEMORY WRITE beat=58 addr=0e95cfd8 data=dcc62fcc250f51b1 id=15
[795000] AXI S0_WVALID_RDY HANDSHAKE
[795000] S0 MEMORY WRITE beat=59 addr=0e95cfe0 data=27e96950c996f532 id=15
[795000] MASTER 1 W_VALID_RDY Handshake beat=66 wlast=0
[805000] MASTER 1 W_VALID_RDY Handshake beat=67 wlast=0
[805000] AXI S0_WVALID_RDY HANDSHAKE
[805000] S0 MEMORY WRITE beat=60 addr=0e95cfe8 data=26916dddf5953666 id=15
[815000] AXI S0_WVALID_RDY HANDSHAKE
[815000] S0 MEMORY WRITE beat=61 addr=0e95cff0 data=9aa48817f6baa7d8 id=15
[815000] MASTER 1 W_VALID_RDY Handshake beat=68 wlast=0
[825000] MASTER 1 W_VALID_RDY Handshake beat=69 wlast=0
[825000] AXI S0_WVALID_RDY HANDSHAKE
[825000] S0 MEMORY WRITE beat=62 addr=0e95cff8 data=c0519d0b03579da9 id=15
[835000] AXI S0_WVALID_RDY HANDSHAKE
[835000] S0 MEMORY WRITE beat=63 addr=0e95d000 data=f8ecd40fc28df167 id=15
[835000] MASTER 1 W_VALID_RDY Handshake beat=70 wlast=0
[845000] MASTER 1 W_VALID_RDY Handshake beat=71 wlast=0
[845000] AXI S0_WVALID_RDY HANDSHAKE
[845000] S0 MEMORY WRITE beat=64 addr=0e95d008 data=39489940e6e30ae8 id=15
[855000] AXI S0_WVALID_RDY HANDSHAKE
[855000] S0 MEMORY WRITE beat=65 addr=0e95d010 data=ea3aa89113915c27 id=15
[855000] MASTER 1 W_VALID_RDY Handshake beat=72 wlast=0
[865000] MASTER 1 W_VALID_RDY Handshake beat=73 wlast=0
[865000] AXI S0_WVALID_RDY HANDSHAKE
[865000] S0 MEMORY WRITE beat=66 addr=0e95d018 data=d61f4d8ef99a364b id=15
[875000] AXI S0_WVALID_RDY HANDSHAKE
[875000] S0 MEMORY WRITE beat=67 addr=0e95d020 data=e07d4133e3277ca0 id=15
[875000] MASTER 1 W_VALID_RDY Handshake beat=74 wlast=0
[885000] MASTER 1 W_VALID_RDY Handshake beat=75 wlast=0
[885000] AXI S0_WVALID_RDY HANDSHAKE
[885000] S0 MEMORY WRITE beat=68 addr=0e95d028 data=f6b8d8c78f67e6ce id=15
[895000] AXI S0_WVALID_RDY HANDSHAKE
[895000] S0 MEMORY WRITE beat=69 addr=0e95d030 data=89021d19cab7e9c4 id=15
[895000] MASTER 1 W_VALID_RDY Handshake beat=76 wlast=0
[905000] MASTER 1 W_VALID_RDY Handshake beat=77 wlast=0
[905000] AXI S0_WVALID_RDY HANDSHAKE
[905000] S0 MEMORY WRITE beat=70 addr=0e95d038 data=addf6664ccd82656 id=15
[915000] AXI S0_WVALID_RDY HANDSHAKE
[915000] S0 MEMORY WRITE beat=71 addr=0e95d040 data=dc400d24e97f5e4c id=15
[915000] MASTER 1 W_VALID_RDY Handshake beat=78 wlast=0
[925000] MASTER 1 W_VALID_RDY Handshake beat=79 wlast=0
[925000] AXI S0_WVALID_RDY HANDSHAKE
[925000] S0 MEMORY WRITE beat=72 addr=0e95d048 data=b437481024983f2c id=15
[935000] AXI S0_WVALID_RDY HANDSHAKE
[935000] S0 MEMORY WRITE beat=73 addr=0e95d050 data=f1706582e5422a3e id=15
[935000] MASTER 1 W_VALID_RDY Handshake beat=80 wlast=0
[945000] MASTER 1 W_VALID_RDY Handshake beat=81 wlast=0
[945000] AXI S0_WVALID_RDY HANDSHAKE
[945000] S0 MEMORY WRITE beat=74 addr=0e95d058 data=cec1888ae216ae75 id=15
[955000] AXI S0_WVALID_RDY HANDSHAKE
[955000] S0 MEMORY WRITE beat=75 addr=0e95d060 data=06aeeda1cdb072a6 id=15
[955000] MASTER 1 W_VALID_RDY Handshake beat=82 wlast=0
[965000] MASTER 1 W_VALID_RDY Handshake beat=83 wlast=0
[965000] AXI S0_WVALID_RDY HANDSHAKE
[965000] S0 MEMORY WRITE beat=76 addr=0e95d068 data=b2f29ce402f8d09b id=15
[975000] AXI S0_WVALID_RDY HANDSHAKE
[975000] S0 MEMORY WRITE beat=77 addr=0e95d070 data=e50f7f10f81f5323 id=15
[975000] MASTER 1 W_VALID_RDY Handshake beat=84 wlast=0
[985000] MASTER 1 W_VALID_RDY Handshake beat=85 wlast=0
[985000] AXI S0_WVALID_RDY HANDSHAKE
[985000] S0 MEMORY WRITE beat=78 addr=0e95d078 data=c5cfc5c901b4256f id=15
[995000] AXI S0_WVALID_RDY HANDSHAKE
[995000] S0 MEMORY WRITE beat=79 addr=0e95d080 data=04acf60aebbe6cb1 id=15
[995000] MASTER 1 W_VALID_RDY Handshake beat=86 wlast=0
[1005000] MASTER 1 W_VALID_RDY Handshake beat=87 wlast=0
[1005000] AXI S0_WVALID_RDY HANDSHAKE
[1005000] S0 MEMORY WRITE beat=80 addr=0e95d088 data=e3ddbfd4f8c262ae id=15
[1015000] AXI S0_WVALID_RDY HANDSHAKE
[1015000] S0 MEMORY WRITE beat=81 addr=0e95d090 data=fa76881de9bc751a id=15
[1015000] MASTER 1 W_VALID_RDY Handshake beat=88 wlast=0
[1025000] MASTER 1 W_VALID_RDY Handshake beat=89 wlast=0
[1025000] AXI S0_WVALID_RDY HANDSHAKE
[1025000] S0 MEMORY WRITE beat=82 addr=0e95d098 data=d57ae1cba9ad859d id=15
[1035000] AXI S0_WVALID_RDY HANDSHAKE
[1035000] S0 MEMORY WRITE beat=83 addr=0e95d0a0 data=a26fe84bff237e27 id=15
[1035000] MASTER 1 W_VALID_RDY Handshake beat=90 wlast=0
[1045000] MASTER 1 W_VALID_RDY Handshake beat=91 wlast=0
[1045000] AXI S0_WVALID_RDY HANDSHAKE
[1045000] S0 MEMORY WRITE beat=84 addr=0e95d0a8 data=e8dff3413958a19f id=15
[1055000] AXI S0_WVALID_RDY HANDSHAKE
[1055000] S0 MEMORY WRITE beat=85 addr=0e95d0b0 data=e306273c9ce67068 id=15
[1055000] MASTER 1 W_VALID_RDY Handshake beat=92 wlast=0
[1065000] MASTER 1 W_VALID_RDY Handshake beat=93 wlast=0
[1065000] AXI S0_WVALID_RDY HANDSHAKE
[1065000] S0 MEMORY WRITE beat=86 addr=0e95d0b8 data=9c09ee8f3e5ad50c id=15
[1075000] AXI S0_WVALID_RDY HANDSHAKE
[1075000] S0 MEMORY WRITE beat=87 addr=0e95d0c0 data=f7b376ab05760f88 id=15
[1075000] MASTER 1 W_VALID_RDY Handshake beat=94 wlast=0
[1085000] MASTER 1 W_VALID_RDY Handshake beat=95 wlast=0
[1085000] AXI S0_WVALID_RDY HANDSHAKE
[1085000] S0 MEMORY WRITE beat=88 addr=0e95d0c8 data=a25c7ff084e9e1d0 id=15
[1095000] AXI S0_WVALID_RDY HANDSHAKE
[1095000] S0 MEMORY WRITE beat=89 addr=0e95d0d0 data=c344b6dcdab99de7 id=15
[1095000] MASTER 1 W_VALID_RDY Handshake beat=96 wlast=0
[1105000] MASTER 1 W_VALID_RDY Handshake beat=97 wlast=0
[1105000] AXI S0_WVALID_RDY HANDSHAKE
[1105000] S0 MEMORY WRITE beat=90 addr=0e95d0d8 data=e02fad6f3e666e80 id=15
[1115000] AXI S0_WVALID_RDY HANDSHAKE
[1115000] S0 MEMORY WRITE beat=91 addr=0e95d0e0 data=c3505050baf82d87 id=15
[1115000] MASTER 1 W_VALID_RDY Handshake beat=98 wlast=0
[1125000] MASTER 1 W_VALID_RDY Handshake beat=99 wlast=0
[1125000] AXI S0_WVALID_RDY HANDSHAKE
[1125000] S0 MEMORY WRITE beat=92 addr=0e95d0e8 data=15b1cb6f028c2d60 id=15
[1135000] AXI S0_WVALID_RDY HANDSHAKE
[1135000] S0 MEMORY WRITE beat=93 addr=0e95d0f0 data=c0f29be00695072d id=15
[1135000] MASTER 1 W_VALID_RDY Handshake beat=100 wlast=0
[1145000] MASTER 1 W_VALID_RDY Handshake beat=101 wlast=0
[1145000] AXI S0_WVALID_RDY HANDSHAKE
[1145000] S0 MEMORY WRITE beat=94 addr=0e95d0f8 data=c18d34b4f5e178de id=15
[1155000] AXI S0_WVALID_RDY HANDSHAKE
[1155000] S0 MEMORY WRITE beat=95 addr=0e95d100 data=f86da63e8442ec30 id=15
[1155000] MASTER 1 W_VALID_RDY Handshake beat=102 wlast=0
[1165000] MASTER 1 W_VALID_RDY Handshake beat=103 wlast=0
[1165000] AXI S0_WVALID_RDY HANDSHAKE
[1165000] S0 MEMORY WRITE beat=96 addr=0e95d108 data=8ad7f35dd73f0023 id=15
[1175000] AXI S0_WVALID_RDY HANDSHAKE
[1175000] S0 MEMORY WRITE beat=97 addr=0e95d110 data=cd207902b960421e id=15
[1175000] MASTER 1 W_VALID_RDY Handshake beat=104 wlast=0
[1185000] MASTER 1 W_VALID_RDY Handshake beat=105 wlast=0
[1185000] AXI S0_WVALID_RDY HANDSHAKE
[1185000] S0 MEMORY WRITE beat=98 addr=0e95d118 data=3da32e4fcc652812 id=15
[1195000] AXI S0_WVALID_RDY HANDSHAKE
[1195000] S0 MEMORY WRITE beat=99 addr=0e95d120 data=a3a42835c58e1f40 id=15
[1195000] MASTER 1 W_VALID_RDY Handshake beat=106 wlast=0
[1205000] MASTER 1 W_VALID_RDY Handshake beat=107 wlast=0
[1205000] AXI S0_WVALID_RDY HANDSHAKE
[1205000] S0 MEMORY WRITE beat=100 addr=0e95d128 data=feee615fc87b21ac id=15
[1215000] AXI S0_WVALID_RDY HANDSHAKE
[1215000] S0 MEMORY WRITE beat=101 addr=0e95d130 data=94e049bef0c4a137 id=15
[1215000] MASTER 1 W_VALID_RDY Handshake beat=108 wlast=0
[1225000] MASTER 1 W_VALID_RDY Handshake beat=109 wlast=0
[1225000] AXI S0_WVALID_RDY HANDSHAKE
[1225000] S0 MEMORY WRITE beat=102 addr=0e95d138 data=3652c0783c918fae id=15
[1235000] AXI S0_WVALID_RDY HANDSHAKE
[1235000] S0 MEMORY WRITE beat=103 addr=0e95d140 data=850cb15a388471f4 id=15
[1235000] MASTER 1 W_VALID_RDY Handshake beat=110 wlast=0
[1245000] MASTER 1 W_VALID_RDY Handshake beat=111 wlast=0
[1245000] AXI S0_WVALID_RDY HANDSHAKE
[1245000] S0 MEMORY WRITE beat=104 addr=0e95d148 data=a949132b354121d7 id=15
[1255000] AXI S0_WVALID_RDY HANDSHAKE
[1255000] S0 MEMORY WRITE beat=105 addr=0e95d150 data=f1d2b18519ecfb19 id=15
[1255000] MASTER 1 W_VALID_RDY Handshake beat=112 wlast=0
[1265000] MASTER 1 W_VALID_RDY Handshake beat=113 wlast=0
[1265000] AXI S0_WVALID_RDY HANDSHAKE
[1265000] S0 MEMORY WRITE beat=106 addr=0e95d158 data=d2716d0ddf9bd3a3 id=15
[1275000] AXI S0_WVALID_RDY HANDSHAKE
[1275000] S0 MEMORY WRITE beat=107 addr=0e95d160 data=94dcf57af6df62df id=15
[1275000] MASTER 1 W_VALID_RDY Handshake beat=114 wlast=0
[1285000] MASTER 1 W_VALID_RDY Handshake beat=115 wlast=0
[1285000] AXI S0_WVALID_RDY HANDSHAKE
[1285000] S0 MEMORY WRITE beat=108 addr=0e95d168 data=90cc5df8fbba8038 id=15
[1295000] AXI S0_WVALID_RDY HANDSHAKE
[1295000] S0 MEMORY WRITE beat=109 addr=0e95d170 data=db5653dc86afa6ff id=15
[1295000] MASTER 1 W_VALID_RDY Handshake beat=116 wlast=0
[1305000] MASTER 1 W_VALID_RDY Handshake beat=117 wlast=0
[1305000] AXI S0_WVALID_RDY HANDSHAKE
[1305000] S0 MEMORY WRITE beat=110 addr=0e95d178 data=fd8f09dfe33dcb05 id=15
[1315000] AXI S0_WVALID_RDY HANDSHAKE
[1315000] S0 MEMORY WRITE beat=111 addr=0e95d180 data=def84b3ef0334956 id=15
[1315000] MASTER 1 W_VALID_RDY Handshake beat=118 wlast=0
[1325000] MASTER 1 W_VALID_RDY Handshake beat=119 wlast=0
[1325000] AXI S0_WVALID_RDY HANDSHAKE
[1325000] S0 MEMORY WRITE beat=112 addr=0e95d188 data=f6e2f0568e5b67d7 id=15
[1335000] AXI S0_WVALID_RDY HANDSHAKE
[1335000] S0 MEMORY WRITE beat=113 addr=0e95d190 data=f19932dd3a4e9f1a id=15
[1335000] MASTER 1 W_VALID_RDY Handshake beat=120 wlast=0
[1345000] MASTER 1 W_VALID_RDY Handshake beat=121 wlast=0
[1345000] AXI S0_WVALID_RDY HANDSHAKE
[1345000] S0 MEMORY WRITE beat=114 addr=0e95d198 data=aa81e870f471fa35 id=15
[1355000] AXI S0_WVALID_RDY HANDSHAKE
[1355000] S0 MEMORY WRITE beat=115 addr=0e95d1a0 data=82cd620cd0917e1b id=15
[1355000] MASTER 1 W_VALID_RDY Handshake beat=122 wlast=0
[1365000] MASTER 1 W_VALID_RDY Handshake beat=123 wlast=0
[1365000] AXI S0_WVALID_RDY HANDSHAKE
[1365000] S0 MEMORY WRITE beat=116 addr=0e95d1a8 data=0ae01d35a164d8c6 id=15
[1375000] AXI S0_WVALID_RDY HANDSHAKE
[1375000] S0 MEMORY WRITE beat=117 addr=0e95d1b0 data=95d6d2fbf46694e9 id=15
[1375000] MASTER 1 W_VALID_RDY Handshake beat=124 wlast=0
[1385000] MASTER 1 W_VALID_RDY Handshake beat=125 wlast=0
[1385000] AXI S0_WVALID_RDY HANDSHAKE
[1385000] S0 MEMORY WRITE beat=118 addr=0e95d1b8 data=c4f81304b56205a5 id=15
[1395000] AXI S0_WVALID_RDY HANDSHAKE
[1395000] S0 MEMORY WRITE beat=119 addr=0e95d1c0 data=d6c6de6c18a43508 id=15
[1395000] MASTER 1 W_VALID_RDY Handshake beat=126 wlast=0
[1405000] MASTER 1 W_VALID_RDY Handshake beat=127 wlast=0
[1405000] AXI S0_WVALID_RDY HANDSHAKE
[1405000] S0 MEMORY WRITE beat=120 addr=0e95d1c8 data=8d0ac9f1cfd83039 id=15
[1415000] AXI S0_WVALID_RDY HANDSHAKE
[1415000] S0 MEMORY WRITE beat=121 addr=0e95d1d0 data=053a35dfec9db167 id=15
[1415000] MASTER 1 W_VALID_RDY Handshake beat=128 wlast=0
[1425000] MASTER 1 W_VALID_RDY Handshake beat=129 wlast=0
[1425000] AXI S0_WVALID_RDY HANDSHAKE
[1425000] S0 MEMORY WRITE beat=122 addr=0e95d1d8 data=8541e66fd202dcf6 id=15
[1435000] AXI S0_WVALID_RDY HANDSHAKE
[1435000] S0 MEMORY WRITE beat=123 addr=0e95d1e0 data=a1db0d2fdc01144b id=15
[1435000] MASTER 1 W_VALID_RDY Handshake beat=130 wlast=0
[1445000] MASTER 1 W_VALID_RDY Handshake beat=131 wlast=0
[1445000] AXI S0_WVALID_RDY HANDSHAKE
[1445000] S0 MEMORY WRITE beat=124 addr=0e95d1e8 data=c89ec5b2124cb061 id=15
[1455000] AXI S0_WVALID_RDY HANDSHAKE
[1455000] S0 MEMORY WRITE beat=125 addr=0e95d1f0 data=e44f8d57a715430e id=15
[1455000] MASTER 1 W_VALID_RDY Handshake beat=132 wlast=0
[1465000] MASTER 1 W_VALID_RDY Handshake beat=133 wlast=0
[1465000] AXI S0_WVALID_RDY HANDSHAKE
[1465000] S0 MEMORY WRITE beat=126 addr=0e95d1f8 data=83165759cde0ac22 id=15
[1475000] AXI S0_WVALID_RDY HANDSHAKE
[1475000] S0 MEMORY WRITE beat=127 addr=0e95d200 data=e02d5c83862a9a86 id=15
[1475000] MASTER 1 W_VALID_RDY Handshake beat=134 wlast=0
[1485000] MASTER 1 W_VALID_RDY Handshake beat=135 wlast=0
[1485000] AXI S0_WVALID_RDY HANDSHAKE
[1485000] S0 MEMORY WRITE beat=128 addr=0e95d208 data=2d3fdd95cbb51d0c id=15
[1495000] AXI S0_WVALID_RDY HANDSHAKE
[1495000] S0 MEMORY WRITE beat=129 addr=0e95d210 data=1995c92ec47ce9da id=15
[1495000] MASTER 1 W_VALID_RDY Handshake beat=136 wlast=0
[1505000] MASTER 1 W_VALID_RDY Handshake beat=137 wlast=0
[1505000] AXI S0_WVALID_RDY HANDSHAKE
[1505000] S0 MEMORY WRITE beat=130 addr=0e95d218 data=caa78460b05634ee id=15
[1515000] AXI S0_WVALID_RDY HANDSHAKE
[1515000] S0 MEMORY WRITE beat=131 addr=0e95d220 data=fc0b51faf9c325b1 id=15
[1515000] MASTER 1 W_VALID_RDY Handshake beat=138 wlast=0
[1525000] MASTER 1 W_VALID_RDY Handshake beat=139 wlast=0
[1525000] AXI S0_WVALID_RDY HANDSHAKE
[1525000] S0 MEMORY WRITE beat=132 addr=0e95d228 data=3e400f8bf7e761f5 id=15
[1535000] AXI S0_WVALID_RDY HANDSHAKE
[1535000] S0 MEMORY WRITE beat=133 addr=0e95d230 data=283d96e495a11b28 id=15
[1535000] MASTER 1 W_VALID_RDY Handshake beat=140 wlast=0
[1545000] MASTER 1 W_VALID_RDY Handshake beat=141 wlast=0
[1545000] AXI S0_WVALID_RDY HANDSHAKE
[1545000] S0 MEMORY WRITE beat=134 addr=0e95d238 data=8f6440d988e793eb id=15
[1555000] AXI S0_WVALID_RDY HANDSHAKE
[1555000] S0 MEMORY WRITE beat=135 addr=0e95d240 data=00cef5e1a448e8de id=15
[1555000] MASTER 1 W_VALID_RDY Handshake beat=142 wlast=0
[1565000] MASTER 1 W_VALID_RDY Handshake beat=143 wlast=0
[1565000] AXI S0_WVALID_RDY HANDSHAKE
[1565000] S0 MEMORY WRITE beat=136 addr=0e95d248 data=39ea0407cda45064 id=15
[1575000] AXI S0_WVALID_RDY HANDSHAKE
[1575000] S0 MEMORY WRITE beat=137 addr=0e95d250 data=d68be450290c8cc5 id=15
[1575000] MASTER 1 W_VALID_RDY Handshake beat=144 wlast=0
[1585000] MASTER 1 W_VALID_RDY Handshake beat=145 wlast=0
[1585000] AXI S0_WVALID_RDY HANDSHAKE
[1585000] S0 MEMORY WRITE beat=138 addr=0e95d258 data=cd5575a3c94e44e0 id=15
[1595000] AXI S0_WVALID_RDY HANDSHAKE
[1595000] S0 MEMORY WRITE beat=139 addr=0e95d260 data=16f29545d75ada31 id=15
[1595000] MASTER 1 W_VALID_RDY Handshake beat=146 wlast=0
[1605000] MASTER 1 W_VALID_RDY Handshake beat=147 wlast=0
[1605000] AXI S0_WVALID_RDY HANDSHAKE
[1605000] S0 MEMORY WRITE beat=140 addr=0e95d268 data=006766f6873f79aa id=15
[1615000] AXI S0_WVALID_RDY HANDSHAKE
[1615000] S0 MEMORY WRITE beat=141 addr=0e95d270 data=d08dbe8bed7e7995 id=15
[1615000] MASTER 1 W_VALID_RDY Handshake beat=148 wlast=0
[1625000] MASTER 1 W_VALID_RDY Handshake beat=149 wlast=0
[1625000] AXI S0_WVALID_RDY HANDSHAKE
[1625000] S0 MEMORY WRITE beat=142 addr=0e95d278 data=c4d953c6cdbcdc99 id=15
[1635000] AXI S0_WVALID_RDY HANDSHAKE
[1635000] S0 MEMORY WRITE beat=143 addr=0e95d280 data=d4fc5644e78053d0 id=15
[1635000] MASTER 1 W_VALID_RDY Handshake beat=150 wlast=0
[1645000] MASTER 1 W_VALID_RDY Handshake beat=151 wlast=0
[1645000] AXI S0_WVALID_RDY HANDSHAKE
[1645000] S0 MEMORY WRITE beat=144 addr=0e95d288 data=d4fecd65c540babc id=15
[1655000] AXI S0_WVALID_RDY HANDSHAKE
[1655000] S0 MEMORY WRITE beat=145 addr=0e95d290 data=92fd9755258a14cf id=15
[1655000] MASTER 1 W_VALID_RDY Handshake beat=152 wlast=0
[1665000] MASTER 1 W_VALID_RDY Handshake beat=153 wlast=0
[1665000] AXI S0_WVALID_RDY HANDSHAKE
[1665000] S0 MEMORY WRITE beat=146 addr=0e95d298 data=0d0a689f19d8212b id=15
[1675000] AXI S0_WVALID_RDY HANDSHAKE
[1675000] S0 MEMORY WRITE beat=147 addr=0e95d2a0 data=df18dbe7e7f9ed99 id=15
[1675000] MASTER 1 W_VALID_RDY Handshake beat=154 wlast=0
[1685000] MASTER 1 W_VALID_RDY Handshake beat=155 wlast=0
[1685000] AXI S0_WVALID_RDY HANDSHAKE
[1685000] S0 MEMORY WRITE beat=148 addr=0e95d2a8 data=8d840268e2093604 id=15
[1695000] AXI S0_WVALID_RDY HANDSHAKE
[1695000] S0 MEMORY WRITE beat=149 addr=0e95d2b0 data=fbe1572ff216733c id=15
[1695000] MASTER 1 W_VALID_RDY Handshake beat=156 wlast=0
[1705000] MASTER 1 W_VALID_RDY Handshake beat=157 wlast=0
[1705000] AXI S0_WVALID_RDY HANDSHAKE
[1705000] S0 MEMORY WRITE beat=150 addr=0e95d2b8 data=da1060d69a8e6b07 id=15
[1715000] AXI S0_WVALID_RDY HANDSHAKE
[1715000] S0 MEMORY WRITE beat=151 addr=0e95d2c0 data=fc97a10bdafa3316 id=15
[1715000] MASTER 1 W_VALID_RDY Handshake beat=158 wlast=0
[1725000] MASTER 1 W_VALID_RDY Handshake beat=159 wlast=0
[1725000] AXI S0_WVALID_RDY HANDSHAKE
[1725000] S0 MEMORY WRITE beat=152 addr=0e95d2c8 data=cd10a652e794633e id=15
[1735000] AXI S0_WVALID_RDY HANDSHAKE
[1735000] S0 MEMORY WRITE beat=153 addr=0e95d2d0 data=0222ce46f878f83a id=15
[1735000] MASTER 1 W_VALID_RDY Handshake beat=160 wlast=0
[1745000] MASTER 1 W_VALID_RDY Handshake beat=161 wlast=0
[1745000] AXI S0_WVALID_RDY HANDSHAKE
[1745000] S0 MEMORY WRITE beat=154 addr=0e95d2d8 data=d3732b50a7210728 id=15
[1755000] AXI S0_WVALID_RDY HANDSHAKE
[1755000] S0 MEMORY WRITE beat=155 addr=0e95d2e0 data=0eb56a67feba6f51 id=15
[1755000] MASTER 1 W_VALID_RDY Handshake beat=162 wlast=0
[1765000] MASTER 1 W_VALID_RDY Handshake beat=163 wlast=0
[1765000] AXI S0_WVALID_RDY HANDSHAKE
[1765000] S0 MEMORY WRITE beat=156 addr=0e95d2e8 data=f733678c2083d1a3 id=15
[1775000] AXI S0_WVALID_RDY HANDSHAKE
[1775000] S0 MEMORY WRITE beat=157 addr=0e95d2f0 data=c7a4d8cb10d838ad id=15
[1775000] MASTER 1 W_VALID_RDY Handshake beat=164 wlast=0
[1785000] MASTER 1 W_VALID_RDY Handshake beat=165 wlast=0
[1785000] AXI S0_WVALID_RDY HANDSHAKE
[1785000] S0 MEMORY WRITE beat=158 addr=0e95d2f8 data=8f92a7fecaa692dc id=15
[1795000] AXI S0_WVALID_RDY HANDSHAKE
[1795000] S0 MEMORY WRITE beat=159 addr=0e95d300 data=eb2a647fd65a4332 id=15
[1795000] MASTER 1 W_VALID_RDY Handshake beat=166 wlast=0
[1805000] MASTER 1 W_VALID_RDY Handshake beat=167 wlast=0
[1805000] AXI S0_WVALID_RDY HANDSHAKE
[1805000] S0 MEMORY WRITE beat=160 addr=0e95d308 data=e7327bdf86c60f8a id=15
[1815000] AXI S0_WVALID_RDY HANDSHAKE
[1815000] S0 MEMORY WRITE beat=161 addr=0e95d310 data=d16ca26732cf3d4b id=15
[1815000] MASTER 1 W_VALID_RDY Handshake beat=168 wlast=0
[1825000] MASTER 1 W_VALID_RDY Handshake beat=169 wlast=0
[1825000] AXI S0_WVALID_RDY HANDSHAKE
[1825000] S0 MEMORY WRITE beat=162 addr=0e95d318 data=8929807df6c523de id=15
[1835000] AXI S0_WVALID_RDY HANDSHAKE
[1835000] S0 MEMORY WRITE beat=163 addr=0e95d320 data=fd8b3368bc9706e6 id=15
[1835000] MASTER 1 W_VALID_RDY Handshake beat=170 wlast=0
[1845000] MASTER 1 W_VALID_RDY Handshake beat=171 wlast=0
[1845000] AXI S0_WVALID_RDY HANDSHAKE
[1845000] S0 MEMORY WRITE beat=164 addr=0e95d328 data=ef664431f05bfc5d id=15
[1855000] AXI S0_WVALID_RDY HANDSHAKE
[1855000] S0 MEMORY WRITE beat=165 addr=0e95d330 data=e721203bcef7d5cf id=15
[1855000] MASTER 1 W_VALID_RDY Handshake beat=172 wlast=0
[1865000] MASTER 1 W_VALID_RDY Handshake beat=173 wlast=0
[1865000] AXI S0_WVALID_RDY HANDSHAKE
[1865000] S0 MEMORY WRITE beat=166 addr=0e95d338 data=0b8edcb6f88fc4af id=15
[1875000] AXI S0_WVALID_RDY HANDSHAKE
[1875000] S0 MEMORY WRITE beat=167 addr=0e95d340 data=e8ebc10ce4ac53a3 id=15
[1875000] MASTER 1 W_VALID_RDY Handshake beat=174 wlast=0
[1885000] MASTER 1 W_VALID_RDY Handshake beat=175 wlast=0
[1885000] AXI S0_WVALID_RDY HANDSHAKE
[1885000] S0 MEMORY WRITE beat=168 addr=0e95d348 data=33a42973faf520e7 id=15
[1895000] AXI S0_WVALID_RDY HANDSHAKE
[1895000] S0 MEMORY WRITE beat=169 addr=0e95d350 data=f384e596d00ce147 id=15
[1895000] MASTER 1 W_VALID_RDY Handshake beat=176 wlast=0
[1905000] MASTER 1 W_VALID_RDY Handshake beat=177 wlast=0
[1905000] AXI S0_WVALID_RDY HANDSHAKE
[1905000] S0 MEMORY WRITE beat=170 addr=0e95d358 data=b4b934ea3f330629 id=15
[1915000] AXI S0_WVALID_RDY HANDSHAKE
[1915000] S0 MEMORY WRITE beat=171 addr=0e95d360 data=ba282710dc70a6a2 id=15
[1915000] MASTER 1 W_VALID_RDY Handshake beat=178 wlast=0
[1925000] MASTER 1 W_VALID_RDY Handshake beat=179 wlast=0
[1925000] AXI S0_WVALID_RDY HANDSHAKE
[1925000] S0 MEMORY WRITE beat=172 addr=0e95d368 data=ac7d87e9e85d5e5d id=15
[1935000] AXI S0_WVALID_RDY HANDSHAKE
[1935000] S0 MEMORY WRITE beat=173 addr=0e95d370 data=a79064862dad0ca7 id=15
[1935000] MASTER 1 W_VALID_RDY Handshake beat=180 wlast=0
[1945000] MASTER 1 W_VALID_RDY Handshake beat=181 wlast=0
[1945000] AXI S0_WVALID_RDY HANDSHAKE
[1945000] S0 MEMORY WRITE beat=174 addr=0e95d378 data=8a1db349e136bcd4 id=15
[1955000] AXI S0_WVALID_RDY HANDSHAKE
[1955000] S0 MEMORY WRITE beat=175 addr=0e95d380 data=c9941b31e1b88b97 id=15
[1955000] MASTER 1 W_VALID_RDY Handshake beat=182 wlast=0
[1965000] MASTER 1 W_VALID_RDY Handshake beat=183 wlast=0
[1965000] AXI S0_WVALID_RDY HANDSHAKE
[1965000] S0 MEMORY WRITE beat=176 addr=0e95d388 data=0f65983e369b3b33 id=15
[1975000] AXI S0_WVALID_RDY HANDSHAKE
[1975000] S0 MEMORY WRITE beat=177 addr=0e95d390 data=17d1f807f1247fb8 id=15
[1975000] MASTER 1 W_VALID_RDY Handshake beat=184 wlast=0
[1985000] MASTER 1 W_VALID_RDY Handshake beat=185 wlast=0
[1985000] AXI S0_WVALID_RDY HANDSHAKE
[1985000] S0 MEMORY WRITE beat=178 addr=0e95d398 data=d2dd0b4f99834b87 id=15
[1995000] AXI S0_WVALID_RDY HANDSHAKE
[1995000] S0 MEMORY WRITE beat=179 addr=0e95d3a0 data=d01e86bae1661338 id=15
[1995000] MASTER 1 W_VALID_RDY Handshake beat=186 wlast=0
[2005000] MASTER 1 W_VALID_RDY Handshake beat=187 wlast=0
[2005000] AXI S0_WVALID_RDY HANDSHAKE
[2005000] S0 MEMORY WRITE beat=180 addr=0e95d3a8 data=d28a92f0e242a38d id=15
[2015000] AXI S0_WVALID_RDY HANDSHAKE
[2015000] S0 MEMORY WRITE beat=181 addr=0e95d3b0 data=fbc5ef14e7f07ec1 id=15
[2015000] MASTER 1 W_VALID_RDY Handshake beat=188 wlast=0
[2025000] MASTER 1 W_VALID_RDY Handshake beat=189 wlast=0
[2025000] AXI S0_WVALID_RDY HANDSHAKE
[2025000] S0 MEMORY WRITE beat=182 addr=0e95d3b8 data=c95691faa5679e3f id=15
[2035000] AXI S0_WVALID_RDY HANDSHAKE
[2035000] S0 MEMORY WRITE beat=183 addr=0e95d3c0 data=87aa41cccbe475cf id=15
[2035000] MASTER 1 W_VALID_RDY Handshake beat=190 wlast=0
[2045000] MASTER 1 W_VALID_RDY Handshake beat=191 wlast=0
[2045000] AXI S0_WVALID_RDY HANDSHAKE
[2045000] S0 MEMORY WRITE beat=184 addr=0e95d3c8 data=b3d4f4909be124ea id=15
[2055000] AXI S0_WVALID_RDY HANDSHAKE
[2055000] S0 MEMORY WRITE beat=185 addr=0e95d3d0 data=c148c32a037030e1 id=15
[2055000] MASTER 1 W_VALID_RDY Handshake beat=192 wlast=0
[2065000] MASTER 1 W_VALID_RDY Handshake beat=193 wlast=0
[2065000] AXI S0_WVALID_RDY HANDSHAKE
[2065000] S0 MEMORY WRITE beat=186 addr=0e95d3d8 data=cf54a6b0fd2b868a id=15
[2075000] AXI S0_WVALID_RDY HANDSHAKE
[2075000] S0 MEMORY WRITE beat=187 addr=0e95d3e0 data=190cab75c8f304f6 id=15
[2075000] MASTER 1 W_VALID_RDY Handshake beat=194 wlast=0
[2085000] MASTER 1 W_VALID_RDY Handshake beat=195 wlast=1
[2085000] AXI S0_WVALID_RDY HANDSHAKE
[2085000] S0 MEMORY WRITE beat=188 addr=0e95d3e8 data=cc6335d783299b40 id=15
[2095000] AXI S0_WVALID_RDY HANDSHAKE
[2095000] S0 MEMORY WRITE beat=189 addr=0e95d3f0 data=005521cbda556e9f id=15
[2105000] AXI S0_WVALID_RDY HANDSHAKE
[2105000] S0 MEMORY WRITE beat=190 addr=0e95d3f8 data=a34873959bb7dc87 id=15
[2115000] AXI S0_WVALID_RDY HANDSHAKE
[2115000] S0 MEMORY WRITE beat=191 addr=0e95d400 data=1ee177c81961cd40 id=15
[2125000] AXI S0_WVALID_RDY HANDSHAKE
[2125000] S0 MEMORY WRITE beat=192 addr=0e95d408 data=f3b73bdfefaba96d id=15
[2135000] AXI S0_WVALID_RDY HANDSHAKE
[2135000] S0 MEMORY WRITE beat=193 addr=0e95d410 data=8b6385f41f369993 id=15
[2145000] AXI S0_WVALID_RDY HANDSHAKE
[2145000] S0 MEMORY WRITE beat=194 addr=0e95d418 data=389866d396ffaf74 id=15
[2155000] AXI S0_WVALID_RDY HANDSHAKE
[2155000] S0 MEMORY WRITE beat=195 addr=0e95d420 data=86ab58e1aa44fdbc id=15
[2165000] SLAVE0 sent B resp, id=5
[2175000] [SLAVE MONITOR] mst_id=1 s_id=0 awaddr=e95ce08 awid=101 awlen=195 awsize=3 awburst=1 wdata=[2ee88de3b419f890 fbe39d87c7c8d830 c81b9812fd364304 b1503b94bd1eb040 84e78870f70425f5 f43a68f9ad33d91b ea52895ccd032082 c4074677a58aa48d d2be7da9ef3a11cc 3c3d324fb841af70 ddcc53fe3d110705 ac4b18d1804478c6 38862837308ad1a7 ed9bd8ace8884b20 e8ccc3e716527c35 c6dd4ddc99e6f17d 26f3c9e2152ec1e 37a5685334792688 ce601805eb3c0085 c8eeca3fe82b62f 32fbdcb7d0cf54a3 bc0b5528c43454f6 c2b70b25815bf4bc d22b4960c89a41cb 8cce96c1f5b2e7dc f70edc988e369e88 d6d0e054cf85a1e6 c53889c2c93a25f8 d770c481e39f7715 332518fc3c47665b 85818c532e41a4d5 91e11beaf85da2be b4a50919dcf250d4 8b33f5a9c50634e6 3d63d7a53a26956d 9718e6411d151194 e21b467af208e0be ac2f762b224cdbeb 3f61ed7f9f7f1e1f 1187fedec3485c6d e5953858a17d33f9 c0fc5219bdb77509 80ffd17624f725d7 c67459d0d28450f7 903bc600e69509ce 8b8c2fa58770abe9 d9f4fce0113b9777 f7d0a145d2008976 d971355fea30c2e1 fb6c5a58035cd0eb d55d5a6133663240 1d96f521f33cfb9d f699cc88aece8fc0 e234c20019034f79 8c404b16cbf726e9 fac5b6aaffcbb721 98cf069a02da179f ced13e88dcfa78aa dcc62fcc250f51b1 27e96950c996f532 26916dddf5953666 9aa48817f6baa7d8 c0519d0b03579da9 f8ecd40fc28df167 39489940e6e30ae8 ea3aa89113915c27 d61f4d8ef99a364b e07d4133e3277ca0 f6b8d8c78f67e6ce 89021d19cab7e9c4 addf6664ccd82656 dc400d24e97f5e4c b437481024983f2c f1706582e5422a3e cec1888ae216ae75 6aeeda1cdb072a6 b2f29ce402f8d09b e50f7f10f81f5323 c5cfc5c901b4256f 4acf60aebbe6cb1 e3ddbfd4f8c262ae fa76881de9bc751a d57ae1cba9ad859d a26fe84bff237e27 e8dff3413958a19f e306273c9ce67068 9c09ee8f3e5ad50c f7b376ab05760f88 a25c7ff084e9e1d0 c344b6dcdab99de7 e02fad6f3e666e80 c3505050baf82d87 15b1cb6f028c2d60 c0f29be00695072d c18d34b4f5e178de f86da63e8442ec30 8ad7f35dd73f0023 cd207902b960421e 3da32e4fcc652812 a3a42835c58e1f40 feee615fc87b21ac 94e049bef0c4a137 3652c0783c918fae 850cb15a388471f4 a949132b354121d7 f1d2b18519ecfb19 d2716d0ddf9bd3a3 94dcf57af6df62df 90cc5df8fbba8038 db5653dc86afa6ff fd8f09dfe33dcb05 def84b3ef0334956 f6e2f0568e5b67d7 f19932dd3a4e9f1a aa81e870f471fa35 82cd620cd0917e1b ae01d35a164d8c6 95d6d2fbf46694e9 c4f81304b56205a5 d6c6de6c18a43508 8d0ac9f1cfd83039 53a35dfec9db167 8541e66fd202dcf6 a1db0d2fdc01144b c89ec5b2124cb061 e44f8d57a715430e 83165759cde0ac22 e02d5c83862a9a86 2d3fdd95cbb51d0c 1995c92ec47ce9da caa78460b05634ee fc0b51faf9c325b1 3e400f8bf7e761f5 283d96e495a11b28 8f6440d988e793eb cef5e1a448e8de 39ea0407cda45064 d68be450290c8cc5 cd5575a3c94e44e0 16f29545d75ada31 6766f6873f79aa d08dbe8bed7e7995 c4d953c6cdbcdc99 d4fc5644e78053d0 d4fecd65c540babc 92fd9755258a14cf d0a689f19d8212b df18dbe7e7f9ed99 8d840268e2093604 fbe1572ff216733c da1060d69a8e6b07 fc97a10bdafa3316 cd10a652e794633e 222ce46f878f83a d3732b50a7210728 eb56a67feba6f51 f733678c2083d1a3 c7a4d8cb10d838ad 8f92a7fecaa692dc eb2a647fd65a4332 e7327bdf86c60f8a d16ca26732cf3d4b 8929807df6c523de fd8b3368bc9706e6 ef664431f05bfc5d e721203bcef7d5cf b8edcb6f88fc4af e8ebc10ce4ac53a3 33a42973faf520e7 f384e596d00ce147 b4b934ea3f330629 ba282710dc70a6a2 ac7d87e9e85d5e5d a79064862dad0ca7 8a1db349e136bcd4 c9941b31e1b88b97 f65983e369b3b33 17d1f807f1247fb8 d2dd0b4f99834b87 d01e86bae1661338 d28a92f0e242a38d fbc5ef14e7f07ec1 c95691faa5679e3f 87aa41cccbe475cf b3d4f4909be124ea c148c32a037030e1 cf54a6b0fd2b868a 190cab75c8f304f6 cc6335d783299b40 5521cbda556e9f a34873959bb7dc87 1ee177c81961cd40 f3b73bdfefaba96d 8b6385f41f369993 389866d396ffaf74 86ab58e1aa44fdbc ] wstrb=[b2 4f d6 26 22 92 8 d4 e2 de fb 4 70 3 d9 52 e1 d4 57 51 d7 30 a4 b8 4 fb 9 db 2b ad 93 2f a8 9c a d3 4a 9d 2 f2 39 c c6 83 a9 c8 76 e3 d5 3c 66 7e 4 dc 61 d9 18 c8 58 1d a4 b9 f6 bd 81 4e da 26 8 d0 e3 89 1f bd af 27 8d 92 b0 ac 4f 60 d3 dd f2 84 89 42 e4 5d 1f d6 e1 a8 18 c5 5 37 9b e6 e0 b4 ab e5 eb 47 cc cb fb 77 b1 e6 be 7d b2 b9 f4 63 a0 b3 e0 52 6c d4 b5 c 87 95 5e f4 69 13 0 f1 a8 5f e5 12 72 e5 3 1b 44 e8 2d b7 cd 30 d2 12 18 ff c9 e5 2f 9b f7 47 9a c0 2c c9 5b 24 10 f5 e4 3c be 40 60 ce 35 45 b f4 85 6b c2 ba b0 cd ae 35 39 71 f0 e9 3e 9e 1f 77 f f 61 4e ] bresp=0 bid=10101
[2185000] MASTER 1 RECEIVED BRESP. BRESP=0
[2185000] [MASTER DRIVER] mst_id=1 s_id=0 awaddr=e95ce08 awid=101 awlen=195 awsize=3 awburst=1 wdata=[2ee88de3b419f890 fbe39d87c7c8d830 c81b9812fd364304 b1503b94bd1eb040 84e78870f70425f5 f43a68f9ad33d91b ea52895ccd032082 c4074677a58aa48d d2be7da9ef3a11cc 3c3d324fb841af70 ddcc53fe3d110705 ac4b18d1804478c6 38862837308ad1a7 ed9bd8ace8884b20 e8ccc3e716527c35 c6dd4ddc99e6f17d 26f3c9e2152ec1e 37a5685334792688 ce601805eb3c0085 c8eeca3fe82b62f 32fbdcb7d0cf54a3 bc0b5528c43454f6 c2b70b25815bf4bc d22b4960c89a41cb 8cce96c1f5b2e7dc f70edc988e369e88 d6d0e054cf85a1e6 c53889c2c93a25f8 d770c481e39f7715 332518fc3c47665b 85818c532e41a4d5 91e11beaf85da2be b4a50919dcf250d4 8b33f5a9c50634e6 3d63d7a53a26956d 9718e6411d151194 e21b467af208e0be ac2f762b224cdbeb 3f61ed7f9f7f1e1f 1187fedec3485c6d e5953858a17d33f9 c0fc5219bdb77509 80ffd17624f725d7 c67459d0d28450f7 903bc600e69509ce 8b8c2fa58770abe9 d9f4fce0113b9777 f7d0a145d2008976 d971355fea30c2e1 fb6c5a58035cd0eb d55d5a6133663240 1d96f521f33cfb9d f699cc88aece8fc0 e234c20019034f79 8c404b16cbf726e9 fac5b6aaffcbb721 98cf069a02da179f ced13e88dcfa78aa dcc62fcc250f51b1 27e96950c996f532 26916dddf5953666 9aa48817f6baa7d8 c0519d0b03579da9 f8ecd40fc28df167 39489940e6e30ae8 ea3aa89113915c27 d61f4d8ef99a364b e07d4133e3277ca0 f6b8d8c78f67e6ce 89021d19cab7e9c4 addf6664ccd82656 dc400d24e97f5e4c b437481024983f2c f1706582e5422a3e cec1888ae216ae75 6aeeda1cdb072a6 b2f29ce402f8d09b e50f7f10f81f5323 c5cfc5c901b4256f 4acf60aebbe6cb1 e3ddbfd4f8c262ae fa76881de9bc751a d57ae1cba9ad859d a26fe84bff237e27 e8dff3413958a19f e306273c9ce67068 9c09ee8f3e5ad50c f7b376ab05760f88 a25c7ff084e9e1d0 c344b6dcdab99de7 e02fad6f3e666e80 c3505050baf82d87 15b1cb6f028c2d60 c0f29be00695072d c18d34b4f5e178de f86da63e8442ec30 8ad7f35dd73f0023 cd207902b960421e 3da32e4fcc652812 a3a42835c58e1f40 feee615fc87b21ac 94e049bef0c4a137 3652c0783c918fae 850cb15a388471f4 a949132b354121d7 f1d2b18519ecfb19 d2716d0ddf9bd3a3 94dcf57af6df62df 90cc5df8fbba8038 db5653dc86afa6ff fd8f09dfe33dcb05 def84b3ef0334956 f6e2f0568e5b67d7 f19932dd3a4e9f1a aa81e870f471fa35 82cd620cd0917e1b ae01d35a164d8c6 95d6d2fbf46694e9 c4f81304b56205a5 d6c6de6c18a43508 8d0ac9f1cfd83039 53a35dfec9db167 8541e66fd202dcf6 a1db0d2fdc01144b c89ec5b2124cb061 e44f8d57a715430e 83165759cde0ac22 e02d5c83862a9a86 2d3fdd95cbb51d0c 1995c92ec47ce9da caa78460b05634ee fc0b51faf9c325b1 3e400f8bf7e761f5 283d96e495a11b28 8f6440d988e793eb cef5e1a448e8de 39ea0407cda45064 d68be450290c8cc5 cd5575a3c94e44e0 16f29545d75ada31 6766f6873f79aa d08dbe8bed7e7995 c4d953c6cdbcdc99 d4fc5644e78053d0 d4fecd65c540babc 92fd9755258a14cf d0a689f19d8212b df18dbe7e7f9ed99 8d840268e2093604 fbe1572ff216733c da1060d69a8e6b07 fc97a10bdafa3316 cd10a652e794633e 222ce46f878f83a d3732b50a7210728 eb56a67feba6f51 f733678c2083d1a3 c7a4d8cb10d838ad 8f92a7fecaa692dc eb2a647fd65a4332 e7327bdf86c60f8a d16ca26732cf3d4b 8929807df6c523de fd8b3368bc9706e6 ef664431f05bfc5d e721203bcef7d5cf b8edcb6f88fc4af e8ebc10ce4ac53a3 33a42973faf520e7 f384e596d00ce147 b4b934ea3f330629 ba282710dc70a6a2 ac7d87e9e85d5e5d a79064862dad0ca7 8a1db349e136bcd4 c9941b31e1b88b97 f65983e369b3b33 17d1f807f1247fb8 d2dd0b4f99834b87 d01e86bae1661338 d28a92f0e242a38d fbc5ef14e7f07ec1 c95691faa5679e3f 87aa41cccbe475cf b3d4f4909be124ea c148c32a037030e1 cf54a6b0fd2b868a 190cab75c8f304f6 cc6335d783299b40 5521cbda556e9f a34873959bb7dc87 1ee177c81961cd40 f3b73bdfefaba96d 8b6385f41f369993 389866d396ffaf74 86ab58e1aa44fdbc ] wstrb=[b2 4f d6 26 22 92 8 d4 e2 de fb 4 70 3 d9 52 e1 d4 57 51 d7 30 a4 b8 4 fb 9 db 2b ad 93 2f a8 9c a d3 4a 9d 2 f2 39 c c6 83 a9 c8 76 e3 d5 3c 66 7e 4 dc 61 d9 18 c8 58 1d a4 b9 f6 bd 81 4e da 26 8 d0 e3 89 1f bd af 27 8d 92 b0 ac 4f 60 d3 dd f2 84 89 42 e4 5d 1f d6 e1 a8 18 c5 5 37 9b e6 e0 b4 ab e5 eb 47 cc cb fb 77 b1 e6 be 7d b2 b9 f4 63 a0 b3 e0 52 6c d4 b5 c 87 95 5e f4 69 13 0 f1 a8 5f e5 12 72 e5 3 1b 44 e8 2d b7 cd 30 d2 12 18 ff c9 e5 2f 9b f7 47 9a c0 2c c9 5b 24 10 f5 e4 3c be 40 60 ce 35 45 b f4 85 6b c2 ba b0 cd ae 35 39 71 f0 e9 3e 9e 1f 77 f f 61 4e ] bresp=0 bid=101
[2185000] MASTER 1 B_VALID_RDY Handshake
[2185000] [MASTER MONITOR] mst_id=1 s_id=0 awaddr=e95ce08 awid=101 awlen=195 awsize=3 awburst=1 wdata=[2ee88de3b419f890 fbe39d87c7c8d830 c81b9812fd364304 b1503b94bd1eb040 84e78870f70425f5 f43a68f9ad33d91b ea52895ccd032082 c4074677a58aa48d d2be7da9ef3a11cc 3c3d324fb841af70 ddcc53fe3d110705 ac4b18d1804478c6 38862837308ad1a7 ed9bd8ace8884b20 e8ccc3e716527c35 c6dd4ddc99e6f17d 26f3c9e2152ec1e 37a5685334792688 ce601805eb3c0085 c8eeca3fe82b62f 32fbdcb7d0cf54a3 bc0b5528c43454f6 c2b70b25815bf4bc d22b4960c89a41cb 8cce96c1f5b2e7dc f70edc988e369e88 d6d0e054cf85a1e6 c53889c2c93a25f8 d770c481e39f7715 332518fc3c47665b 85818c532e41a4d5 91e11beaf85da2be b4a50919dcf250d4 8b33f5a9c50634e6 3d63d7a53a26956d 9718e6411d151194 e21b467af208e0be ac2f762b224cdbeb 3f61ed7f9f7f1e1f 1187fedec3485c6d e5953858a17d33f9 c0fc5219bdb77509 80ffd17624f725d7 c67459d0d28450f7 903bc600e69509ce 8b8c2fa58770abe9 d9f4fce0113b9777 f7d0a145d2008976 d971355fea30c2e1 fb6c5a58035cd0eb d55d5a6133663240 1d96f521f33cfb9d f699cc88aece8fc0 e234c20019034f79 8c404b16cbf726e9 fac5b6aaffcbb721 98cf069a02da179f ced13e88dcfa78aa dcc62fcc250f51b1 27e96950c996f532 26916dddf5953666 9aa48817f6baa7d8 c0519d0b03579da9 f8ecd40fc28df167 39489940e6e30ae8 ea3aa89113915c27 d61f4d8ef99a364b e07d4133e3277ca0 f6b8d8c78f67e6ce 89021d19cab7e9c4 addf6664ccd82656 dc400d24e97f5e4c b437481024983f2c f1706582e5422a3e cec1888ae216ae75 6aeeda1cdb072a6 b2f29ce402f8d09b e50f7f10f81f5323 c5cfc5c901b4256f 4acf60aebbe6cb1 e3ddbfd4f8c262ae fa76881de9bc751a d57ae1cba9ad859d a26fe84bff237e27 e8dff3413958a19f e306273c9ce67068 9c09ee8f3e5ad50c f7b376ab05760f88 a25c7ff084e9e1d0 c344b6dcdab99de7 e02fad6f3e666e80 c3505050baf82d87 15b1cb6f028c2d60 c0f29be00695072d c18d34b4f5e178de f86da63e8442ec30 8ad7f35dd73f0023 cd207902b960421e 3da32e4fcc652812 a3a42835c58e1f40 feee615fc87b21ac 94e049bef0c4a137 3652c0783c918fae 850cb15a388471f4 a949132b354121d7 f1d2b18519ecfb19 d2716d0ddf9bd3a3 94dcf57af6df62df 90cc5df8fbba8038 db5653dc86afa6ff fd8f09dfe33dcb05 def84b3ef0334956 f6e2f0568e5b67d7 f19932dd3a4e9f1a aa81e870f471fa35 82cd620cd0917e1b ae01d35a164d8c6 95d6d2fbf46694e9 c4f81304b56205a5 d6c6de6c18a43508 8d0ac9f1cfd83039 53a35dfec9db167 8541e66fd202dcf6 a1db0d2fdc01144b c89ec5b2124cb061 e44f8d57a715430e 83165759cde0ac22 e02d5c83862a9a86 2d3fdd95cbb51d0c 1995c92ec47ce9da caa78460b05634ee fc0b51faf9c325b1 3e400f8bf7e761f5 283d96e495a11b28 8f6440d988e793eb cef5e1a448e8de 39ea0407cda45064 d68be450290c8cc5 cd5575a3c94e44e0 16f29545d75ada31 6766f6873f79aa d08dbe8bed7e7995 c4d953c6cdbcdc99 d4fc5644e78053d0 d4fecd65c540babc 92fd9755258a14cf d0a689f19d8212b df18dbe7e7f9ed99 8d840268e2093604 fbe1572ff216733c da1060d69a8e6b07 fc97a10bdafa3316 cd10a652e794633e 222ce46f878f83a d3732b50a7210728 eb56a67feba6f51 f733678c2083d1a3 c7a4d8cb10d838ad 8f92a7fecaa692dc eb2a647fd65a4332 e7327bdf86c60f8a d16ca26732cf3d4b 8929807df6c523de fd8b3368bc9706e6 ef664431f05bfc5d e721203bcef7d5cf b8edcb6f88fc4af e8ebc10ce4ac53a3 33a42973faf520e7 f384e596d00ce147 b4b934ea3f330629 ba282710dc70a6a2 ac7d87e9e85d5e5d a79064862dad0ca7 8a1db349e136bcd4 c9941b31e1b88b97 f65983e369b3b33 17d1f807f1247fb8 d2dd0b4f99834b87 d01e86bae1661338 d28a92f0e242a38d fbc5ef14e7f07ec1 c95691faa5679e3f 87aa41cccbe475cf b3d4f4909be124ea c148c32a037030e1 cf54a6b0fd2b868a 190cab75c8f304f6 cc6335d783299b40 5521cbda556e9f a34873959bb7dc87 1ee177c81961cd40 f3b73bdfefaba96d 8b6385f41f369993 389866d396ffaf74 86ab58e1aa44fdbc ] wstrb=[b2 4f d6 26 22 92 8 d4 e2 de fb 4 70 3 d9 52 e1 d4 57 51 d7 30 a4 b8 4 fb 9 db 2b ad 93 2f a8 9c a d3 4a 9d 2 f2 39 c c6 83 a9 c8 76 e3 d5 3c 66 7e 4 dc 61 d9 18 c8 58 1d a4 b9 f6 bd 81 4e da 26 8 d0 e3 89 1f bd af 27 8d 92 b0 ac 4f 60 d3 dd f2 84 89 42 e4 5d 1f d6 e1 a8 18 c5 5 37 9b e6 e0 b4 ab e5 eb 47 cc cb fb 77 b1 e6 be 7d b2 b9 f4 63 a0 b3 e0 52 6c d4 b5 c 87 95 5e f4 69 13 0 f1 a8 5f e5 12 72 e5 3 1b 44 e8 2d b7 cd 30 d2 12 18 ff c9 e5 2f 9b f7 47 9a c0 2c c9 5b 24 10 f5 e4 3c be 40 60 ce 35 45 b f4 85 6b c2 ba b0 cd ae 35 39 71 f0 e9 3e 9e 1f 77 f f 61 4e ] bresp=0 bid=101
[2185000] SCOREBOARD MATCH: decode_err expected = 0, actual =0
[2185000] SCOREBOARD MATCH: slave_id expected = 0, actual =0
[2185000] SCOREBOARD MATCH: awaddr passthrough expected = e95ce08, actual =e95ce08
[2185000] SCOREBOARD MATCH: awlen passthrough expected = 195, actual =195
[2185000] SCOREBOARD MATCH: awsize passthrough expected = 3, actual =3
[2185000] SCOREBOARD MATCH: awburst passthrough expected = 1, actual =1
[2185000] SCOREBOARD MATCH: wdata size check expected = c4, actual =c4
[2185000] SCOREBOARD MATCH: wdata passthrough beat=0 expected = 2ee88de3b419f890, actual =2ee88de3b419f890
[2185000] SCOREBOARD MATCH: wdata passthrough beat=1 expected = fbe39d87c7c8d830, actual =fbe39d87c7c8d830
[2185000] SCOREBOARD MATCH: wdata passthrough beat=2 expected = c81b9812fd364304, actual =c81b9812fd364304
[2185000] SCOREBOARD MATCH: wdata passthrough beat=3 expected = b1503b94bd1eb040, actual =b1503b94bd1eb040
[2185000] SCOREBOARD MATCH: wdata passthrough beat=4 expected = 84e78870f70425f5, actual =84e78870f70425f5
[2185000] SCOREBOARD MATCH: wdata passthrough beat=5 expected = f43a68f9ad33d91b, actual =f43a68f9ad33d91b
[2185000] SCOREBOARD MATCH: wdata passthrough beat=6 expected = ea52895ccd032082, actual =ea52895ccd032082
[2185000] SCOREBOARD MATCH: wdata passthrough beat=7 expected = c4074677a58aa48d, actual =c4074677a58aa48d
[2185000] SCOREBOARD MATCH: wdata passthrough beat=8 expected = d2be7da9ef3a11cc, actual =d2be7da9ef3a11cc
[2185000] SCOREBOARD MATCH: wdata passthrough beat=9 expected = 3c3d324fb841af70, actual =3c3d324fb841af70
[2185000] SCOREBOARD MATCH: wdata passthrough beat=10 expected = ddcc53fe3d110705, actual =ddcc53fe3d110705
[2185000] SCOREBOARD MATCH: wdata passthrough beat=11 expected = ac4b18d1804478c6, actual =ac4b18d1804478c6
[2185000] SCOREBOARD MATCH: wdata passthrough beat=12 expected = 38862837308ad1a7, actual =38862837308ad1a7
[2185000] SCOREBOARD MATCH: wdata passthrough beat=13 expected = ed9bd8ace8884b20, actual =ed9bd8ace8884b20
[2185000] SCOREBOARD MATCH: wdata passthrough beat=14 expected = e8ccc3e716527c35, actual =e8ccc3e716527c35
[2185000] SCOREBOARD MATCH: wdata passthrough beat=15 expected = c6dd4ddc99e6f17d, actual =c6dd4ddc99e6f17d
[2185000] SCOREBOARD MATCH: wdata passthrough beat=16 expected = 26f3c9e2152ec1e, actual =26f3c9e2152ec1e
[2185000] SCOREBOARD MATCH: wdata passthrough beat=17 expected = 37a5685334792688, actual =37a5685334792688
[2185000] SCOREBOARD MATCH: wdata passthrough beat=18 expected = ce601805eb3c0085, actual =ce601805eb3c0085
[2185000] SCOREBOARD MATCH: wdata passthrough beat=19 expected = c8eeca3fe82b62f, actual =c8eeca3fe82b62f
[2185000] SCOREBOARD MATCH: wdata passthrough beat=20 expected = 32fbdcb7d0cf54a3, actual =32fbdcb7d0cf54a3
[2185000] SCOREBOARD MATCH: wdata passthrough beat=21 expected = bc0b5528c43454f6, actual =bc0b5528c43454f6
[2185000] SCOREBOARD MATCH: wdata passthrough beat=22 expected = c2b70b25815bf4bc, actual =c2b70b25815bf4bc
[2185000] SCOREBOARD MATCH: wdata passthrough beat=23 expected = d22b4960c89a41cb, actual =d22b4960c89a41cb
[2185000] SCOREBOARD MATCH: wdata passthrough beat=24 expected = 8cce96c1f5b2e7dc, actual =8cce96c1f5b2e7dc
[2185000] SCOREBOARD MATCH: wdata passthrough beat=25 expected = f70edc988e369e88, actual =f70edc988e369e88
[2185000] SCOREBOARD MATCH: wdata passthrough beat=26 expected = d6d0e054cf85a1e6, actual =d6d0e054cf85a1e6
[2185000] SCOREBOARD MATCH: wdata passthrough beat=27 expected = c53889c2c93a25f8, actual =c53889c2c93a25f8
[2185000] SCOREBOARD MATCH: wdata passthrough beat=28 expected = d770c481e39f7715, actual =d770c481e39f7715
[2185000] SCOREBOARD MATCH: wdata passthrough beat=29 expected = 332518fc3c47665b, actual =332518fc3c47665b
[2185000] SCOREBOARD MATCH: wdata passthrough beat=30 expected = 85818c532e41a4d5, actual =85818c532e41a4d5
[2185000] SCOREBOARD MATCH: wdata passthrough beat=31 expected = 91e11beaf85da2be, actual =91e11beaf85da2be
[2185000] SCOREBOARD MATCH: wdata passthrough beat=32 expected = b4a50919dcf250d4, actual =b4a50919dcf250d4
[2185000] SCOREBOARD MATCH: wdata passthrough beat=33 expected = 8b33f5a9c50634e6, actual =8b33f5a9c50634e6
[2185000] SCOREBOARD MATCH: wdata passthrough beat=34 expected = 3d63d7a53a26956d, actual =3d63d7a53a26956d
[2185000] SCOREBOARD MATCH: wdata passthrough beat=35 expected = 9718e6411d151194, actual =9718e6411d151194
[2185000] SCOREBOARD MATCH: wdata passthrough beat=36 expected = e21b467af208e0be, actual =e21b467af208e0be
[2185000] SCOREBOARD MATCH: wdata passthrough beat=37 expected = ac2f762b224cdbeb, actual =ac2f762b224cdbeb
[2185000] SCOREBOARD MATCH: wdata passthrough beat=38 expected = 3f61ed7f9f7f1e1f, actual =3f61ed7f9f7f1e1f
[2185000] SCOREBOARD MATCH: wdata passthrough beat=39 expected = 1187fedec3485c6d, actual =1187fedec3485c6d
[2185000] SCOREBOARD MATCH: wdata passthrough beat=40 expected = e5953858a17d33f9, actual =e5953858a17d33f9
[2185000] SCOREBOARD MATCH: wdata passthrough beat=41 expected = c0fc5219bdb77509, actual =c0fc5219bdb77509
[2185000] SCOREBOARD MATCH: wdata passthrough beat=42 expected = 80ffd17624f725d7, actual =80ffd17624f725d7
[2185000] SCOREBOARD MATCH: wdata passthrough beat=43 expected = c67459d0d28450f7, actual =c67459d0d28450f7
[2185000] SCOREBOARD MATCH: wdata passthrough beat=44 expected = 903bc600e69509ce, actual =903bc600e69509ce
[2185000] SCOREBOARD MATCH: wdata passthrough beat=45 expected = 8b8c2fa58770abe9, actual =8b8c2fa58770abe9
[2185000] SCOREBOARD MATCH: wdata passthrough beat=46 expected = d9f4fce0113b9777, actual =d9f4fce0113b9777
[2185000] SCOREBOARD MATCH: wdata passthrough beat=47 expected = f7d0a145d2008976, actual =f7d0a145d2008976
[2185000] SCOREBOARD MATCH: wdata passthrough beat=48 expected = d971355fea30c2e1, actual =d971355fea30c2e1
[2185000] SCOREBOARD MATCH: wdata passthrough beat=49 expected = fb6c5a58035cd0eb, actual =fb6c5a58035cd0eb
[2185000] SCOREBOARD MATCH: wdata passthrough beat=50 expected = d55d5a6133663240, actual =d55d5a6133663240
[2185000] SCOREBOARD MATCH: wdata passthrough beat=51 expected = 1d96f521f33cfb9d, actual =1d96f521f33cfb9d
[2185000] SCOREBOARD MATCH: wdata passthrough beat=52 expected = f699cc88aece8fc0, actual =f699cc88aece8fc0
[2185000] SCOREBOARD MATCH: wdata passthrough beat=53 expected = e234c20019034f79, actual =e234c20019034f79
[2185000] SCOREBOARD MATCH: wdata passthrough beat=54 expected = 8c404b16cbf726e9, actual =8c404b16cbf726e9
[2185000] SCOREBOARD MATCH: wdata passthrough beat=55 expected = fac5b6aaffcbb721, actual =fac5b6aaffcbb721
[2185000] SCOREBOARD MATCH: wdata passthrough beat=56 expected = 98cf069a02da179f, actual =98cf069a02da179f
[2185000] SCOREBOARD MATCH: wdata passthrough beat=57 expected = ced13e88dcfa78aa, actual =ced13e88dcfa78aa
[2185000] SCOREBOARD MATCH: wdata passthrough beat=58 expected = dcc62fcc250f51b1, actual =dcc62fcc250f51b1
[2185000] SCOREBOARD MATCH: wdata passthrough beat=59 expected = 27e96950c996f532, actual =27e96950c996f532
[2185000] SCOREBOARD MATCH: wdata passthrough beat=60 expected = 26916dddf5953666, actual =26916dddf5953666
[2185000] SCOREBOARD MATCH: wdata passthrough beat=61 expected = 9aa48817f6baa7d8, actual =9aa48817f6baa7d8
[2185000] SCOREBOARD MATCH: wdata passthrough beat=62 expected = c0519d0b03579da9, actual =c0519d0b03579da9
[2185000] SCOREBOARD MATCH: wdata passthrough beat=63 expected = f8ecd40fc28df167, actual =f8ecd40fc28df167
[2185000] SCOREBOARD MATCH: wdata passthrough beat=64 expected = 39489940e6e30ae8, actual =39489940e6e30ae8
[2185000] SCOREBOARD MATCH: wdata passthrough beat=65 expected = ea3aa89113915c27, actual =ea3aa89113915c27
[2185000] SCOREBOARD MATCH: wdata passthrough beat=66 expected = d61f4d8ef99a364b, actual =d61f4d8ef99a364b
[2185000] SCOREBOARD MATCH: wdata passthrough beat=67 expected = e07d4133e3277ca0, actual =e07d4133e3277ca0
[2185000] SCOREBOARD MATCH: wdata passthrough beat=68 expected = f6b8d8c78f67e6ce, actual =f6b8d8c78f67e6ce
[2185000] SCOREBOARD MATCH: wdata passthrough beat=69 expected = 89021d19cab7e9c4, actual =89021d19cab7e9c4
[2185000] SCOREBOARD MATCH: wdata passthrough beat=70 expected = addf6664ccd82656, actual =addf6664ccd82656
[2185000] SCOREBOARD MATCH: wdata passthrough beat=71 expected = dc400d24e97f5e4c, actual =dc400d24e97f5e4c
[2185000] SCOREBOARD MATCH: wdata passthrough beat=72 expected = b437481024983f2c, actual =b437481024983f2c
[2185000] SCOREBOARD MATCH: wdata passthrough beat=73 expected = f1706582e5422a3e, actual =f1706582e5422a3e
[2185000] SCOREBOARD MATCH: wdata passthrough beat=74 expected = cec1888ae216ae75, actual =cec1888ae216ae75
[2185000] SCOREBOARD MATCH: wdata passthrough beat=75 expected = 6aeeda1cdb072a6, actual =6aeeda1cdb072a6
[2185000] SCOREBOARD MATCH: wdata passthrough beat=76 expected = b2f29ce402f8d09b, actual =b2f29ce402f8d09b
[2185000] SCOREBOARD MATCH: wdata passthrough beat=77 expected = e50f7f10f81f5323, actual =e50f7f10f81f5323
[2185000] SCOREBOARD MATCH: wdata passthrough beat=78 expected = c5cfc5c901b4256f, actual =c5cfc5c901b4256f
[2185000] SCOREBOARD MATCH: wdata passthrough beat=79 expected = 4acf60aebbe6cb1, actual =4acf60aebbe6cb1
[2185000] SCOREBOARD MATCH: wdata passthrough beat=80 expected = e3ddbfd4f8c262ae, actual =e3ddbfd4f8c262ae
[2185000] SCOREBOARD MATCH: wdata passthrough beat=81 expected = fa76881de9bc751a, actual =fa76881de9bc751a
[2185000] SCOREBOARD MATCH: wdata passthrough beat=82 expected = d57ae1cba9ad859d, actual =d57ae1cba9ad859d
[2185000] SCOREBOARD MATCH: wdata passthrough beat=83 expected = a26fe84bff237e27, actual =a26fe84bff237e27
[2185000] SCOREBOARD MATCH: wdata passthrough beat=84 expected = e8dff3413958a19f, actual =e8dff3413958a19f
[2185000] SCOREBOARD MATCH: wdata passthrough beat=85 expected = e306273c9ce67068, actual =e306273c9ce67068
[2185000] SCOREBOARD MATCH: wdata passthrough beat=86 expected = 9c09ee8f3e5ad50c, actual =9c09ee8f3e5ad50c
[2185000] SCOREBOARD MATCH: wdata passthrough beat=87 expected = f7b376ab05760f88, actual =f7b376ab05760f88
[2185000] SCOREBOARD MATCH: wdata passthrough beat=88 expected = a25c7ff084e9e1d0, actual =a25c7ff084e9e1d0
[2185000] SCOREBOARD MATCH: wdata passthrough beat=89 expected = c344b6dcdab99de7, actual =c344b6dcdab99de7
[2185000] SCOREBOARD MATCH: wdata passthrough beat=90 expected = e02fad6f3e666e80, actual =e02fad6f3e666e80
[2185000] SCOREBOARD MATCH: wdata passthrough beat=91 expected = c3505050baf82d87, actual =c3505050baf82d87
[2185000] SCOREBOARD MATCH: wdata passthrough beat=92 expected = 15b1cb6f028c2d60, actual =15b1cb6f028c2d60
[2185000] SCOREBOARD MATCH: wdata passthrough beat=93 expected = c0f29be00695072d, actual =c0f29be00695072d
[2185000] SCOREBOARD MATCH: wdata passthrough beat=94 expected = c18d34b4f5e178de, actual =c18d34b4f5e178de
[2185000] SCOREBOARD MATCH: wdata passthrough beat=95 expected = f86da63e8442ec30, actual =f86da63e8442ec30
[2185000] SCOREBOARD MATCH: wdata passthrough beat=96 expected = 8ad7f35dd73f0023, actual =8ad7f35dd73f0023
[2185000] SCOREBOARD MATCH: wdata passthrough beat=97 expected = cd207902b960421e, actual =cd207902b960421e
[2185000] SCOREBOARD MATCH: wdata passthrough beat=98 expected = 3da32e4fcc652812, actual =3da32e4fcc652812
[2185000] SCOREBOARD MATCH: wdata passthrough beat=99 expected = a3a42835c58e1f40, actual =a3a42835c58e1f40
[2185000] SCOREBOARD MATCH: wdata passthrough beat=100 expected = feee615fc87b21ac, actual =feee615fc87b21ac
[2185000] SCOREBOARD MATCH: wdata passthrough beat=101 expected = 94e049bef0c4a137, actual =94e049bef0c4a137
[2185000] SCOREBOARD MATCH: wdata passthrough beat=102 expected = 3652c0783c918fae, actual =3652c0783c918fae
[2185000] SCOREBOARD MATCH: wdata passthrough beat=103 expected = 850cb15a388471f4, actual =850cb15a388471f4
[2185000] SCOREBOARD MATCH: wdata passthrough beat=104 expected = a949132b354121d7, actual =a949132b354121d7
[2185000] SCOREBOARD MATCH: wdata passthrough beat=105 expected = f1d2b18519ecfb19, actual =f1d2b18519ecfb19
[2185000] SCOREBOARD MATCH: wdata passthrough beat=106 expected = d2716d0ddf9bd3a3, actual =d2716d0ddf9bd3a3
[2185000] SCOREBOARD MATCH: wdata passthrough beat=107 expected = 94dcf57af6df62df, actual =94dcf57af6df62df
[2185000] SCOREBOARD MATCH: wdata passthrough beat=108 expected = 90cc5df8fbba8038, actual =90cc5df8fbba8038
[2185000] SCOREBOARD MATCH: wdata passthrough beat=109 expected = db5653dc86afa6ff, actual =db5653dc86afa6ff
[2185000] SCOREBOARD MATCH: wdata passthrough beat=110 expected = fd8f09dfe33dcb05, actual =fd8f09dfe33dcb05
[2185000] SCOREBOARD MATCH: wdata passthrough beat=111 expected = def84b3ef0334956, actual =def84b3ef0334956
[2185000] SCOREBOARD MATCH: wdata passthrough beat=112 expected = f6e2f0568e5b67d7, actual =f6e2f0568e5b67d7
[2185000] SCOREBOARD MATCH: wdata passthrough beat=113 expected = f19932dd3a4e9f1a, actual =f19932dd3a4e9f1a
[2185000] SCOREBOARD MATCH: wdata passthrough beat=114 expected = aa81e870f471fa35, actual =aa81e870f471fa35
[2185000] SCOREBOARD MATCH: wdata passthrough beat=115 expected = 82cd620cd0917e1b, actual =82cd620cd0917e1b
[2185000] SCOREBOARD MATCH: wdata passthrough beat=116 expected = ae01d35a164d8c6, actual =ae01d35a164d8c6
[2185000] SCOREBOARD MATCH: wdata passthrough beat=117 expected = 95d6d2fbf46694e9, actual =95d6d2fbf46694e9
[2185000] SCOREBOARD MATCH: wdata passthrough beat=118 expected = c4f81304b56205a5, actual =c4f81304b56205a5
[2185000] SCOREBOARD MATCH: wdata passthrough beat=119 expected = d6c6de6c18a43508, actual =d6c6de6c18a43508
[2185000] SCOREBOARD MATCH: wdata passthrough beat=120 expected = 8d0ac9f1cfd83039, actual =8d0ac9f1cfd83039
[2185000] SCOREBOARD MATCH: wdata passthrough beat=121 expected = 53a35dfec9db167, actual =53a35dfec9db167
[2185000] SCOREBOARD MATCH: wdata passthrough beat=122 expected = 8541e66fd202dcf6, actual =8541e66fd202dcf6
[2185000] SCOREBOARD MATCH: wdata passthrough beat=123 expected = a1db0d2fdc01144b, actual =a1db0d2fdc01144b
[2185000] SCOREBOARD MATCH: wdata passthrough beat=124 expected = c89ec5b2124cb061, actual =c89ec5b2124cb061
[2185000] SCOREBOARD MATCH: wdata passthrough beat=125 expected = e44f8d57a715430e, actual =e44f8d57a715430e
[2185000] SCOREBOARD MATCH: wdata passthrough beat=126 expected = 83165759cde0ac22, actual =83165759cde0ac22
[2185000] SCOREBOARD MATCH: wdata passthrough beat=127 expected = e02d5c83862a9a86, actual =e02d5c83862a9a86
[2185000] SCOREBOARD MATCH: wdata passthrough beat=128 expected = 2d3fdd95cbb51d0c, actual =2d3fdd95cbb51d0c
[2185000] SCOREBOARD MATCH: wdata passthrough beat=129 expected = 1995c92ec47ce9da, actual =1995c92ec47ce9da
[2185000] SCOREBOARD MATCH: wdata passthrough beat=130 expected = caa78460b05634ee, actual =caa78460b05634ee
[2185000] SCOREBOARD MATCH: wdata passthrough beat=131 expected = fc0b51faf9c325b1, actual =fc0b51faf9c325b1
[2185000] SCOREBOARD MATCH: wdata passthrough beat=132 expected = 3e400f8bf7e761f5, actual =3e400f8bf7e761f5
[2185000] SCOREBOARD MATCH: wdata passthrough beat=133 expected = 283d96e495a11b28, actual =283d96e495a11b28
[2185000] SCOREBOARD MATCH: wdata passthrough beat=134 expected = 8f6440d988e793eb, actual =8f6440d988e793eb
[2185000] SCOREBOARD MATCH: wdata passthrough beat=135 expected = cef5e1a448e8de, actual =cef5e1a448e8de
[2185000] SCOREBOARD MATCH: wdata passthrough beat=136 expected = 39ea0407cda45064, actual =39ea0407cda45064
[2185000] SCOREBOARD MATCH: wdata passthrough beat=137 expected = d68be450290c8cc5, actual =d68be450290c8cc5
[2185000] SCOREBOARD MATCH: wdata passthrough beat=138 expected = cd5575a3c94e44e0, actual =cd5575a3c94e44e0
[2185000] SCOREBOARD MATCH: wdata passthrough beat=139 expected = 16f29545d75ada31, actual =16f29545d75ada31
[2185000] SCOREBOARD MATCH: wdata passthrough beat=140 expected = 6766f6873f79aa, actual =6766f6873f79aa
[2185000] SCOREBOARD MATCH: wdata passthrough beat=141 expected = d08dbe8bed7e7995, actual =d08dbe8bed7e7995
[2185000] SCOREBOARD MATCH: wdata passthrough beat=142 expected = c4d953c6cdbcdc99, actual =c4d953c6cdbcdc99
[2185000] SCOREBOARD MATCH: wdata passthrough beat=143 expected = d4fc5644e78053d0, actual =d4fc5644e78053d0
[2185000] SCOREBOARD MATCH: wdata passthrough beat=144 expected = d4fecd65c540babc, actual =d4fecd65c540babc
[2185000] SCOREBOARD MATCH: wdata passthrough beat=145 expected = 92fd9755258a14cf, actual =92fd9755258a14cf
[2185000] SCOREBOARD MATCH: wdata passthrough beat=146 expected = d0a689f19d8212b, actual =d0a689f19d8212b
[2185000] SCOREBOARD MATCH: wdata passthrough beat=147 expected = df18dbe7e7f9ed99, actual =df18dbe7e7f9ed99
[2185000] SCOREBOARD MATCH: wdata passthrough beat=148 expected = 8d840268e2093604, actual =8d840268e2093604
[2185000] SCOREBOARD MATCH: wdata passthrough beat=149 expected = fbe1572ff216733c, actual =fbe1572ff216733c
[2185000] SCOREBOARD MATCH: wdata passthrough beat=150 expected = da1060d69a8e6b07, actual =da1060d69a8e6b07
[2185000] SCOREBOARD MATCH: wdata passthrough beat=151 expected = fc97a10bdafa3316, actual =fc97a10bdafa3316
[2185000] SCOREBOARD MATCH: wdata passthrough beat=152 expected = cd10a652e794633e, actual =cd10a652e794633e
[2185000] SCOREBOARD MATCH: wdata passthrough beat=153 expected = 222ce46f878f83a, actual =222ce46f878f83a
[2185000] SCOREBOARD MATCH: wdata passthrough beat=154 expected = d3732b50a7210728, actual =d3732b50a7210728
[2185000] SCOREBOARD MATCH: wdata passthrough beat=155 expected = eb56a67feba6f51, actual =eb56a67feba6f51
[2185000] SCOREBOARD MATCH: wdata passthrough beat=156 expected = f733678c2083d1a3, actual =f733678c2083d1a3
[2185000] SCOREBOARD MATCH: wdata passthrough beat=157 expected = c7a4d8cb10d838ad, actual =c7a4d8cb10d838ad
[2185000] SCOREBOARD MATCH: wdata passthrough beat=158 expected = 8f92a7fecaa692dc, actual =8f92a7fecaa692dc
[2185000] SCOREBOARD MATCH: wdata passthrough beat=159 expected = eb2a647fd65a4332, actual =eb2a647fd65a4332
[2185000] SCOREBOARD MATCH: wdata passthrough beat=160 expected = e7327bdf86c60f8a, actual =e7327bdf86c60f8a
[2185000] SCOREBOARD MATCH: wdata passthrough beat=161 expected = d16ca26732cf3d4b, actual =d16ca26732cf3d4b
[2185000] SCOREBOARD MATCH: wdata passthrough beat=162 expected = 8929807df6c523de, actual =8929807df6c523de
[2185000] SCOREBOARD MATCH: wdata passthrough beat=163 expected = fd8b3368bc9706e6, actual =fd8b3368bc9706e6
[2185000] SCOREBOARD MATCH: wdata passthrough beat=164 expected = ef664431f05bfc5d, actual =ef664431f05bfc5d
[2185000] SCOREBOARD MATCH: wdata passthrough beat=165 expected = e721203bcef7d5cf, actual =e721203bcef7d5cf
[2185000] SCOREBOARD MATCH: wdata passthrough beat=166 expected = b8edcb6f88fc4af, actual =b8edcb6f88fc4af
[2185000] SCOREBOARD MATCH: wdata passthrough beat=167 expected = e8ebc10ce4ac53a3, actual =e8ebc10ce4ac53a3
[2185000] SCOREBOARD MATCH: wdata passthrough beat=168 expected = 33a42973faf520e7, actual =33a42973faf520e7
[2185000] SCOREBOARD MATCH: wdata passthrough beat=169 expected = f384e596d00ce147, actual =f384e596d00ce147
[2185000] SCOREBOARD MATCH: wdata passthrough beat=170 expected = b4b934ea3f330629, actual =b4b934ea3f330629
[2185000] SCOREBOARD MATCH: wdata passthrough beat=171 expected = ba282710dc70a6a2, actual =ba282710dc70a6a2
[2185000] SCOREBOARD MATCH: wdata passthrough beat=172 expected = ac7d87e9e85d5e5d, actual =ac7d87e9e85d5e5d
[2185000] SCOREBOARD MATCH: wdata passthrough beat=173 expected = a79064862dad0ca7, actual =a79064862dad0ca7
[2185000] SCOREBOARD MATCH: wdata passthrough beat=174 expected = 8a1db349e136bcd4, actual =8a1db349e136bcd4
[2185000] SCOREBOARD MATCH: wdata passthrough beat=175 expected = c9941b31e1b88b97, actual =c9941b31e1b88b97
[2185000] SCOREBOARD MATCH: wdata passthrough beat=176 expected = f65983e369b3b33, actual =f65983e369b3b33
[2185000] SCOREBOARD MATCH: wdata passthrough beat=177 expected = 17d1f807f1247fb8, actual =17d1f807f1247fb8
[2185000] SCOREBOARD MATCH: wdata passthrough beat=178 expected = d2dd0b4f99834b87, actual =d2dd0b4f99834b87
[2185000] SCOREBOARD MATCH: wdata passthrough beat=179 expected = d01e86bae1661338, actual =d01e86bae1661338
[2185000] SCOREBOARD MATCH: wdata passthrough beat=180 expected = d28a92f0e242a38d, actual =d28a92f0e242a38d
[2185000] SCOREBOARD MATCH: wdata passthrough beat=181 expected = fbc5ef14e7f07ec1, actual =fbc5ef14e7f07ec1
[2185000] SCOREBOARD MATCH: wdata passthrough beat=182 expected = c95691faa5679e3f, actual =c95691faa5679e3f
[2185000] SCOREBOARD MATCH: wdata passthrough beat=183 expected = 87aa41cccbe475cf, actual =87aa41cccbe475cf
[2185000] SCOREBOARD MATCH: wdata passthrough beat=184 expected = b3d4f4909be124ea, actual =b3d4f4909be124ea
[2185000] SCOREBOARD MATCH: wdata passthrough beat=185 expected = c148c32a037030e1, actual =c148c32a037030e1
[2185000] SCOREBOARD MATCH: wdata passthrough beat=186 expected = cf54a6b0fd2b868a, actual =cf54a6b0fd2b868a
[2185000] SCOREBOARD MATCH: wdata passthrough beat=187 expected = 190cab75c8f304f6, actual =190cab75c8f304f6
[2185000] SCOREBOARD MATCH: wdata passthrough beat=188 expected = cc6335d783299b40, actual =cc6335d783299b40
[2185000] SCOREBOARD MATCH: wdata passthrough beat=189 expected = 5521cbda556e9f, actual =5521cbda556e9f
[2185000] SCOREBOARD MATCH: wdata passthrough beat=190 expected = a34873959bb7dc87, actual =a34873959bb7dc87
[2185000] SCOREBOARD MATCH: wdata passthrough beat=191 expected = 1ee177c81961cd40, actual =1ee177c81961cd40
[2185000] SCOREBOARD MATCH: wdata passthrough beat=192 expected = f3b73bdfefaba96d, actual =f3b73bdfefaba96d
[2185000] SCOREBOARD MATCH: wdata passthrough beat=193 expected = 8b6385f41f369993, actual =8b6385f41f369993
[2185000] SCOREBOARD MATCH: wdata passthrough beat=194 expected = 389866d396ffaf74, actual =389866d396ffaf74
[2185000] SCOREBOARD MATCH: wdata passthrough beat=195 expected = 86ab58e1aa44fdbc, actual =86ab58e1aa44fdbc
[2185000] SCOREBOARD MATCH: wstrb size check expected = c4, actual =c4
[2185000] SCOREBOARD MATCH: wstrb passthrough beat=0 expected = b2, actual =b2
[2185000] SCOREBOARD MATCH: wstrb passthrough beat=1 expected = 4f, actual =4f
[2185000] SCOREBOARD MATCH: wstrb passthrough beat=2 expected = d6, actual =d6
[2185000] SCOREBOARD MATCH: wstrb passthrough beat=3 expected = 26, actual =26
[2185000] SCOREBOARD MATCH: wstrb passthrough beat=4 expected = 22, actual =22
[2185000] SCOREBOARD MATCH: wstrb passthrough beat=5 expected = 92, actual =92
[2185000] SCOREBOARD MATCH: wstrb passthrough beat=6 expected = 8, actual =8
[2185000] SCOREBOARD MATCH: wstrb passthrough beat=7 expected = d4, actual =d4
[2185000] SCOREBOARD MATCH: wstrb passthrough beat=8 expected = e2, actual =e2
[2185000] SCOREBOARD MATCH: wstrb passthrough beat=9 expected = de, actual =de
[2185000] SCOREBOARD MATCH: wstrb passthrough beat=10 expected = fb, actual =fb
[2185000] SCOREBOARD MATCH: wstrb passthrough beat=11 expected = 4, actual =4
[2185000] SCOREBOARD MATCH: wstrb passthrough beat=12 expected = 70, actual =70
[2185000] SCOREBOARD MATCH: wstrb passthrough beat=13 expected = 3, actual =3
[2185000] SCOREBOARD MATCH: wstrb passthrough beat=14 expected = d9, actual =d9
[2185000] SCOREBOARD MATCH: wstrb passthrough beat=15 expected = 52, actual =52
[2185000] SCOREBOARD MATCH: wstrb passthrough beat=16 expected = e1, actual =e1
[2185000] SCOREBOARD MATCH: wstrb passthrough beat=17 expected = d4, actual =d4
[2185000] SCOREBOARD MATCH: wstrb passthrough beat=18 expected = 57, actual =57
[2185000] SCOREBOARD MATCH: wstrb passthrough beat=19 expected = 51, actual =51
[2185000] SCOREBOARD MATCH: wstrb passthrough beat=20 expected = d7, actual =d7
[2185000] SCOREBOARD MATCH: wstrb passthrough beat=21 expected = 30, actual =30
[2185000] SCOREBOARD MATCH: wstrb passthrough beat=22 expected = a4, actual =a4
[2185000] SCOREBOARD MATCH: wstrb passthrough beat=23 expected = b8, actual =b8
[2185000] SCOREBOARD MATCH: wstrb passthrough beat=24 expected = 4, actual =4
[2185000] SCOREBOARD MATCH: wstrb passthrough beat=25 expected = fb, actual =fb
[2185000] SCOREBOARD MATCH: wstrb passthrough beat=26 expected = 9, actual =9
[2185000] SCOREBOARD MATCH: wstrb passthrough beat=27 expected = db, actual =db
[2185000] SCOREBOARD MATCH: wstrb passthrough beat=28 expected = 2b, actual =2b
[2185000] SCOREBOARD MATCH: wstrb passthrough beat=29 expected = ad, actual =ad
[2185000] SCOREBOARD MATCH: wstrb passthrough beat=30 expected = 93, actual =93
[2185000] SCOREBOARD MATCH: wstrb passthrough beat=31 expected = 2f, actual =2f
[2185000] SCOREBOARD MATCH: wstrb passthrough beat=32 expected = a8, actual =a8
[2185000] SCOREBOARD MATCH: wstrb passthrough beat=33 expected = 9c, actual =9c
[2185000] SCOREBOARD MATCH: wstrb passthrough beat=34 expected = a, actual =a
[2185000] SCOREBOARD MATCH: wstrb passthrough beat=35 expected = d3, actual =d3
[2185000] SCOREBOARD MATCH: wstrb passthrough beat=36 expected = 4a, actual =4a
[2185000] SCOREBOARD MATCH: wstrb passthrough beat=37 expected = 9d, actual =9d
[2185000] SCOREBOARD MATCH: wstrb passthrough beat=38 expected = 2, actual =2
[2185000] SCOREBOARD MATCH: wstrb passthrough beat=39 expected = f2, actual =f2
[2185000] SCOREBOARD MATCH: wstrb passthrough beat=40 expected = 39, actual =39
[2185000] SCOREBOARD MATCH: wstrb passthrough beat=41 expected = c, actual =c
[2185000] SCOREBOARD MATCH: wstrb passthrough beat=42 expected = c6, actual =c6
[2185000] SCOREBOARD MATCH: wstrb passthrough beat=43 expected = 83, actual =83
[2185000] SCOREBOARD MATCH: wstrb passthrough beat=44 expected = a9, actual =a9
[2185000] SCOREBOARD MATCH: wstrb passthrough beat=45 expected = c8, actual =c8
[2185000] SCOREBOARD MATCH: wstrb passthrough beat=46 expected = 76, actual =76
[2185000] SCOREBOARD MATCH: wstrb passthrough beat=47 expected = e3, actual =e3
[2185000] SCOREBOARD MATCH: wstrb passthrough beat=48 expected = d5, actual =d5
[2185000] SCOREBOARD MATCH: wstrb passthrough beat=49 expected = 3c, actual =3c
[2185000] SCOREBOARD MATCH: wstrb passthrough beat=50 expected = 66, actual =66
[2185000] SCOREBOARD MATCH: wstrb passthrough beat=51 expected = 7e, actual =7e
[2185000] SCOREBOARD MATCH: wstrb passthrough beat=52 expected = 4, actual =4
[2185000] SCOREBOARD MATCH: wstrb passthrough beat=53 expected = dc, actual =dc
[2185000] SCOREBOARD MATCH: wstrb passthrough beat=54 expected = 61, actual =61
[2185000] SCOREBOARD MATCH: wstrb passthrough beat=55 expected = d9, actual =d9
[2185000] SCOREBOARD MATCH: wstrb passthrough beat=56 expected = 18, actual =18
[2185000] SCOREBOARD MATCH: wstrb passthrough beat=57 expected = c8, actual =c8
[2185000] SCOREBOARD MATCH: wstrb passthrough beat=58 expected = 58, actual =58
[2185000] SCOREBOARD MATCH: wstrb passthrough beat=59 expected = 1d, actual =1d
[2185000] SCOREBOARD MATCH: wstrb passthrough beat=60 expected = a4, actual =a4
[2185000] SCOREBOARD MATCH: wstrb passthrough beat=61 expected = b9, actual =b9
[2185000] SCOREBOARD MATCH: wstrb passthrough beat=62 expected = f6, actual =f6
[2185000] SCOREBOARD MATCH: wstrb passthrough beat=63 expected = bd, actual =bd
[2185000] SCOREBOARD MATCH: wstrb passthrough beat=64 expected = 81, actual =81
[2185000] SCOREBOARD MATCH: wstrb passthrough beat=65 expected = 4e, actual =4e
[2185000] SCOREBOARD MATCH: wstrb passthrough beat=66 expected = da, actual =da
[2185000] SCOREBOARD MATCH: wstrb passthrough beat=67 expected = 26, actual =26
[2185000] SCOREBOARD MATCH: wstrb passthrough beat=68 expected = 8, actual =8
[2185000] SCOREBOARD MATCH: wstrb passthrough beat=69 expected = d0, actual =d0
[2185000] SCOREBOARD MATCH: wstrb passthrough beat=70 expected = e3, actual =e3
[2185000] SCOREBOARD MATCH: wstrb passthrough beat=71 expected = 89, actual =89
[2185000] SCOREBOARD MATCH: wstrb passthrough beat=72 expected = 1f, actual =1f
[2185000] SCOREBOARD MATCH: wstrb passthrough beat=73 expected = bd, actual =bd
[2185000] SCOREBOARD MATCH: wstrb passthrough beat=74 expected = af, actual =af
[2185000] SCOREBOARD MATCH: wstrb passthrough beat=75 expected = 27, actual =27
[2185000] SCOREBOARD MATCH: wstrb passthrough beat=76 expected = 8d, actual =8d
[2185000] SCOREBOARD MATCH: wstrb passthrough beat=77 expected = 92, actual =92
[2185000] SCOREBOARD MATCH: wstrb passthrough beat=78 expected = b0, actual =b0
[2185000] SCOREBOARD MATCH: wstrb passthrough beat=79 expected = ac, actual =ac
[2185000] SCOREBOARD MATCH: wstrb passthrough beat=80 expected = 4f, actual =4f
[2185000] SCOREBOARD MATCH: wstrb passthrough beat=81 expected = 60, actual =60
[2185000] SCOREBOARD MATCH: wstrb passthrough beat=82 expected = d3, actual =d3
[2185000] SCOREBOARD MATCH: wstrb passthrough beat=83 expected = dd, actual =dd
[2185000] SCOREBOARD MATCH: wstrb passthrough beat=84 expected = f2, actual =f2
[2185000] SCOREBOARD MATCH: wstrb passthrough beat=85 expected = 84, actual =84
[2185000] SCOREBOARD MATCH: wstrb passthrough beat=86 expected = 89, actual =89
[2185000] SCOREBOARD MATCH: wstrb passthrough beat=87 expected = 42, actual =42
[2185000] SCOREBOARD MATCH: wstrb passthrough beat=88 expected = e4, actual =e4
[2185000] SCOREBOARD MATCH: wstrb passthrough beat=89 expected = 5d, actual =5d
[2185000] SCOREBOARD MATCH: wstrb passthrough beat=90 expected = 1f, actual =1f
[2185000] SCOREBOARD MATCH: wstrb passthrough beat=91 expected = d6, actual =d6
[2185000] SCOREBOARD MATCH: wstrb passthrough beat=92 expected = e1, actual =e1
[2185000] SCOREBOARD MATCH: wstrb passthrough beat=93 expected = a8, actual =a8
[2185000] SCOREBOARD MATCH: wstrb passthrough beat=94 expected = 18, actual =18
[2185000] SCOREBOARD MATCH: wstrb passthrough beat=95 expected = c5, actual =c5
[2185000] SCOREBOARD MATCH: wstrb passthrough beat=96 expected = 5, actual =5
[2185000] SCOREBOARD MATCH: wstrb passthrough beat=97 expected = 37, actual =37
[2185000] SCOREBOARD MATCH: wstrb passthrough beat=98 expected = 9b, actual =9b
[2185000] SCOREBOARD MATCH: wstrb passthrough beat=99 expected = e6, actual =e6
[2185000] SCOREBOARD MATCH: wstrb passthrough beat=100 expected = e0, actual =e0
[2185000] SCOREBOARD MATCH: wstrb passthrough beat=101 expected = b4, actual =b4
[2185000] SCOREBOARD MATCH: wstrb passthrough beat=102 expected = ab, actual =ab
[2185000] SCOREBOARD MATCH: wstrb passthrough beat=103 expected = e5, actual =e5
[2185000] SCOREBOARD MATCH: wstrb passthrough beat=104 expected = eb, actual =eb
[2185000] SCOREBOARD MATCH: wstrb passthrough beat=105 expected = 47, actual =47
[2185000] SCOREBOARD MATCH: wstrb passthrough beat=106 expected = cc, actual =cc
[2185000] SCOREBOARD MATCH: wstrb passthrough beat=107 expected = cb, actual =cb
[2185000] SCOREBOARD MATCH: wstrb passthrough beat=108 expected = fb, actual =fb
[2185000] SCOREBOARD MATCH: wstrb passthrough beat=109 expected = 77, actual =77
[2185000] SCOREBOARD MATCH: wstrb passthrough beat=110 expected = b1, actual =b1
[2185000] SCOREBOARD MATCH: wstrb passthrough beat=111 expected = e6, actual =e6
[2185000] SCOREBOARD MATCH: wstrb passthrough beat=112 expected = be, actual =be
[2185000] SCOREBOARD MATCH: wstrb passthrough beat=113 expected = 7d, actual =7d
[2185000] SCOREBOARD MATCH: wstrb passthrough beat=114 expected = b2, actual =b2
[2185000] SCOREBOARD MATCH: wstrb passthrough beat=115 expected = b9, actual =b9
[2185000] SCOREBOARD MATCH: wstrb passthrough beat=116 expected = f4, actual =f4
[2185000] SCOREBOARD MATCH: wstrb passthrough beat=117 expected = 63, actual =63
[2185000] SCOREBOARD MATCH: wstrb passthrough beat=118 expected = a0, actual =a0
[2185000] SCOREBOARD MATCH: wstrb passthrough beat=119 expected = b3, actual =b3
[2185000] SCOREBOARD MATCH: wstrb passthrough beat=120 expected = e0, actual =e0
[2185000] SCOREBOARD MATCH: wstrb passthrough beat=121 expected = 52, actual =52
[2185000] SCOREBOARD MATCH: wstrb passthrough beat=122 expected = 6c, actual =6c
[2185000] SCOREBOARD MATCH: wstrb passthrough beat=123 expected = d4, actual =d4
[2185000] SCOREBOARD MATCH: wstrb passthrough beat=124 expected = b5, actual =b5
[2185000] SCOREBOARD MATCH: wstrb passthrough beat=125 expected = c, actual =c
[2185000] SCOREBOARD MATCH: wstrb passthrough beat=126 expected = 87, actual =87
[2185000] SCOREBOARD MATCH: wstrb passthrough beat=127 expected = 95, actual =95
[2185000] SCOREBOARD MATCH: wstrb passthrough beat=128 expected = 5e, actual =5e
[2185000] SCOREBOARD MATCH: wstrb passthrough beat=129 expected = f4, actual =f4
[2185000] SCOREBOARD MATCH: wstrb passthrough beat=130 expected = 69, actual =69
[2185000] SCOREBOARD MATCH: wstrb passthrough beat=131 expected = 13, actual =13
[2185000] SCOREBOARD MATCH: wstrb passthrough beat=132 expected = 0, actual =0
[2185000] SCOREBOARD MATCH: wstrb passthrough beat=133 expected = f1, actual =f1
[2185000] SCOREBOARD MATCH: wstrb passthrough beat=134 expected = a8, actual =a8
[2185000] SCOREBOARD MATCH: wstrb passthrough beat=135 expected = 5f, actual =5f
[2185000] SCOREBOARD MATCH: wstrb passthrough beat=136 expected = e5, actual =e5
[2185000] SCOREBOARD MATCH: wstrb passthrough beat=137 expected = 12, actual =12
[2185000] SCOREBOARD MATCH: wstrb passthrough beat=138 expected = 72, actual =72
[2185000] SCOREBOARD MATCH: wstrb passthrough beat=139 expected = e5, actual =e5
[2185000] SCOREBOARD MATCH: wstrb passthrough beat=140 expected = 3, actual =3
[2185000] SCOREBOARD MATCH: wstrb passthrough beat=141 expected = 1b, actual =1b
[2185000] SCOREBOARD MATCH: wstrb passthrough beat=142 expected = 44, actual =44
