#-----------------------------------------------------------
# xsim v2025.2 (64-bit)
# SW Build 6299465 on Fri Nov 14 12:34:56 MST 2025
# IP Build 6300035 on Fri Nov 14 10:48:45 MST 2025
# SharedData Build 6298862 on Thu Nov 13 04:50:51 MST 2025
# Start of session at: Tue Sep  8 15:50:58 2026
# Process ID         : 3953433
# Current directory  : /home/nashita/Desktop/practice/axi_xbar/sim
# Command line       : xsim -log regress_results/BT_run84.log -mode tcl -source {xsim.dir/tb_top_snap/xsim_script.tcl}
# Log file           : /home/nashita/Desktop/practice/axi_xbar/sim/regress_results/BT_run84.log
# Journal file       : /home/nashita/Desktop/practice/axi_xbar/sim/xsim.jou
# Running On         : vlsi-vivado
# Platform           : Ubuntu
# Operating System   : Ubuntu 24.04.4 LTS
# Processor Detail   : Intel(R) Core(TM) i5-10400 CPU @ 2.90GHz
# CPU Frequency      : 4083.754 MHz
# CPU Physical cores : 6
# CPU Logical cores  : 12
# Host memory        : 41875 MB
# Swap memory        : 27648 MB
# Total Virtual      : 69524 MB
# Available Virtual  : 60411 MB
#-----------------------------------------------------------
source xsim.dir/tb_top_snap/xsim_script.tcl
# xsim {tb_top_snap} -testplusarg BT -autoloadwcfg -runall -sv_seed 85
Time resolution is 1 ps
run -all
[0] RUNNING BASE TEST
[0] INSIDE THE BASE TEST CONSTRUCTOR
[0] ENV: before agent
[0] SLAVE CONSTRUCTED
[0] MASTER MONITOR CONSTRUCTED
[0] MASTER MONITOR CONSTRUCTED
[0] SLAVE MONITOR CONSTRUCTED
[0] SLAVE MONITOR CONSTRUCTED
[0] ARB MONITOR CONSTRUCTED
GENERATOR CONSTRUCTED
[0] ENV: after agent
[0] ENV: before scoreboard
[0] ENV: after scoreboard
[15000] [SEQUENCER] mst_id=1 s_id=0 awaddr=18cbb798 awid=1100 awlen=1 awsize=3 awburst=1 wdata=[] wstrb=[] bresp=0 bid=0
[15000] [SEQUENCER] mst_id=0 s_id=0 awaddr=45f0240 awid=1110 awlen=1 awsize=3 awburst=1 wdata=[] wstrb=[] bresp=0 bid=0
[15000] [SEQUENCER] mst_id=0 s_id=0 awaddr=7160278 awid=1101 awlen=1 awsize=3 awburst=1 wdata=[] wstrb=[] bresp=0 bid=0
[15000] [SEQUENCER] mst_id=0 s_id=0 awaddr=1be39120 awid=10 awlen=1 awsize=3 awburst=1 wdata=[] wstrb=[] bresp=0 bid=0
[15000] [SEQUENCER] mst_id=0 s_id=0 awaddr=1c5428 awid=10 awlen=1 awsize=3 awburst=1 wdata=[] wstrb=[] bresp=0 bid=0
[15000] [SEQUENCER] mst_id=0 s_id=0 awaddr=3f62690 awid=1000 awlen=1 awsize=3 awburst=1 wdata=[] wstrb=[] bresp=0 bid=0
[15000] [SEQUENCER] READ mst_id=1 s_id=0 araddr=e46ab0 arid=1 arlen=1 arsize=3 arburst=1 rid=[] rresp=[] rdata=[]
[15000] [SEQUENCER] mst_id=0 s_id=0 awaddr=1113f4f8 awid=1001 awlen=1 awsize=3 awburst=1 wdata=[] wstrb=[] bresp=0 bid=0
[15000] [SEQUENCER] READ mst_id=0 s_id=0 araddr=8409150 arid=6 arlen=1 arsize=3 arburst=1 rid=[] rresp=[] rdata=[]
[15000] [SEQUENCER] mst_id=1 s_id=0 awaddr=3c13ef0 awid=11 awlen=1 awsize=3 awburst=1 wdata=[] wstrb=[] bresp=0 bid=0
[15000] MASTER_DRIVER1 received transaction, op=AXI_WRITE
[15000] MASTER_DRIVER0 received transaction, op=AXI_WRITE
[35000] MASTER 1 AW_VALID_RDY Handshake
[35000] MASTER 0 AW_VALID_RDY Handshake
[45000] ARB MONITOR: slave=0 m0_req=1 m1_req=0 winner=0
[45000] ARB MONITOR: slave=1 m0_req=0 m1_req=1 winner=1
[45000] AXI S1_AWVALID_RDY HANDSHAKE
[45000] AXI S0_AWVALID_RDY HANDSHAKE
[55000] MASTER 1 W_VALID_RDY Handshake beat=0 wlast=0
[55000] MASTER 0 W_VALID_RDY Handshake beat=0 wlast=0
[65000] MASTER_DRIVER0 received transaction, op=AXI_WRITE
[65000] MASTER_DRIVER1 received transaction, op=AXI_READ
[65000] MASTER 0 W_VALID_RDY Handshake beat=1 wlast=1
[65000] MASTER 1 W_VALID_RDY Handshake beat=1 wlast=1
[65000] AXI S1_WVALID_RDY HANDSHAKE
[65000] AXI S0_WVALID_RDY HANDSHAKE
[65000] S1 MEMORY WRITE beat=0 addr=18cbb798 data=0000000000000000 id=1c
[65000] AXI S0_WVALID_RDY HANDSHAKE
[65000] S0 MEMORY WRITE beat=0 addr=045f0240 data=0000000000000000 id=0e
[75000] AXI S0_WVALID_RDY HANDSHAKE
[75000] S0 MEMORY WRITE beat=1 addr=045f0248 data=0000000000000000 id=0e
[75000] S1 MEMORY WRITE beat=1 addr=18cbb7a0 data=0000000000000000 id=1c
[75000] AXI S0_WVALID_RDY HANDSHAKE
[75000] AXI S1_WVALID_RDY HANDSHAKE
[85000] MASTER_DRIVER1 received transaction, op=AXI_WRITE
[85000] MASTER 0 AW_VALID_RDY Handshake
[85000] AXI S1_BVALID_RDY HANDSHAKE
[85000] [SLAVE MONITOR] mst_id=1 s_id=1 awaddr=18cbb798 awid=1100 awlen=1 awsize=3 awburst=1 wdata=[0 0 ] wstrb=[0 0 ] bresp=0 bid=11100
[85000] AXI S0_BVALID_RDY HANDSHAKE
[85000] [SLAVE MONITOR] mst_id=0 s_id=0 awaddr=45f0240 awid=1110 awlen=1 awsize=3 awburst=1 wdata=[0 0 ] wstrb=[0 0 ] bresp=0 bid=1110
[85000] SLAVE1 sent B resp, id=12
[85000] SLAVE0 sent B resp, id=14
[95000] AXI S0_AWVALID_RDY HANDSHAKE
[95000] AXI S0_ARVALID_RDY HANDSHAKE
[95000] MEMORY READ MISS beat=0 addr=e46ab0 -> default data id=17
[95000] ARB MONITOR: slave=0 m0_req=1 m1_req=0 winner=0
[95000] ARB MONITOR: slave=0 m0_req=0 m1_req=1 winner=1
[105000] MASTER 0 RECEIVED BRESP. BRESP=0
[105000] [MASTER DRIVER] mst_id=0 s_id=0 awaddr=45f0240 awid=1110 awlen=1 awsize=3 awburst=1 wdata=[] wstrb=[] bresp=0 bid=1110
[105000] MASTER 1 RECEIVED BRESP. BRESP=0
[105000] [MASTER DRIVER] mst_id=1 s_id=0 awaddr=18cbb798 awid=1100 awlen=1 awsize=3 awburst=1 wdata=[] wstrb=[] bresp=0 bid=1100
[105000] MASTER 0 W_VALID_RDY Handshake beat=0 wlast=0
[105000] MASTER 0 B_VALID_RDY Handshake
[105000] [MASTER MONITOR] mst_id=0 s_id=0 awaddr=45f0240 awid=1110 awlen=1 awsize=3 awburst=1 wdata=[0 0 ] wstrb=[0 0 ] bresp=0 bid=1110
[105000] MASTER 1 AW_VALID_RDY Handshake
[105000] MASTER 1 B_VALID_RDY Handshake
[105000] [MASTER MONITOR] mst_id=1 s_id=1 awaddr=18cbb798 awid=1100 awlen=1 awsize=3 awburst=1 wdata=[0 0 ] wstrb=[0 0 ] bresp=0 bid=1100
[105000] SLAVE 0 R_VALID_RDY Handshake beat=0 rlast=0
[105000] MEMORY READ MISS beat=1 addr=e46ab8 -> default data id=17
[105000] SCOREBOARD MATCH: decode_err expected = 0, actual =0
[105000] SCOREBOARD MATCH: slave_id expected = 0, actual =0
[105000] SCOREBOARD MATCH: awaddr passthrough expected = 45f0240, actual =45f0240
[105000] SCOREBOARD MATCH: awlen passthrough expected = 1, actual =1
[105000] SCOREBOARD MATCH: awsize passthrough expected = 3, actual =3
[105000] SCOREBOARD MATCH: awburst passthrough expected = 1, actual =1
[105000] SCOREBOARD MATCH: wdata size check expected = 2, actual =2
[105000] SCOREBOARD MATCH: wdata passthrough beat=0 expected = 0, actual =0
[105000] SCOREBOARD MATCH: wdata passthrough beat=1 expected = 0, actual =0
[105000] SCOREBOARD MATCH: wstrb size check expected = 2, actual =2
[105000] SCOREBOARD MATCH: wstrb passthrough beat=0 expected = 0, actual =0
[105000] SCOREBOARD MATCH: wstrb passthrough beat=1 expected = 0, actual =0
[105000] SCOREBOARD MATCH: bresp passthrough expected = 0, actual =0
[105000] SCOREBOARD MATCH: response routed to correct master (write) expected = 0, actual =0
[105000] [SCOREBOARD-M] mst_id=0 s_id=0 awaddr=45f0240 awid=1110 awlen=1 awsize=3 awburst=1 wdata=[0 0 ] wstrb=[0 0 ] bresp=0 bid=1110
[105000] [SCOREBOARD-S] mst_id=0 s_id=0 awaddr=45f0240 awid=1110 awlen=1 awsize=3 awburst=1 wdata=[0 0 ] wstrb=[0 0 ] bresp=0 bid=1110
[105000] SCOREBOARD: Transaction 1 received. pass=14 fail=0
[105000] ALL PASS. Total transactions: 1
[105000] SCOREBOARD MATCH: decode_err expected = 0, actual =0
[105000] SCOREBOARD MATCH: slave_id expected = 1, actual =1
[105000] SCOREBOARD MATCH: awaddr passthrough expected = 18cbb798, actual =18cbb798
[105000] SCOREBOARD MATCH: awlen passthrough expected = 1, actual =1
[105000] SCOREBOARD MATCH: awsize passthrough expected = 3, actual =3
[105000] SCOREBOARD MATCH: awburst passthrough expected = 1, actual =1
[105000] SCOREBOARD MATCH: wdata size check expected = 2, actual =2
[105000] SCOREBOARD MATCH: wdata passthrough beat=0 expected = 0, actual =0
[105000] SCOREBOARD MATCH: wdata passthrough beat=1 expected = 0, actual =0
[105000] SCOREBOARD MATCH: wstrb size check expected = 2, actual =2
[105000] SCOREBOARD MATCH: wstrb passthrough beat=0 expected = 0, actual =0
[105000] SCOREBOARD MATCH: wstrb passthrough beat=1 expected = 0, actual =0
[105000] SCOREBOARD MATCH: bresp passthrough expected = 0, actual =0
[105000] SCOREBOARD MATCH: response routed to correct master (write) expected = 1, actual =1
[105000] [SCOREBOARD-M] mst_id=1 s_id=1 awaddr=18cbb798 awid=1100 awlen=1 awsize=3 awburst=1 wdata=[0 0 ] wstrb=[0 0 ] bresp=0 bid=1100
[105000] [SCOREBOARD-S] mst_id=1 s_id=1 awaddr=18cbb798 awid=1100 awlen=1 awsize=3 awburst=1 wdata=[0 0 ] wstrb=[0 0 ] bresp=0 bid=11100
[105000] SCOREBOARD: Transaction 2 received. pass=28 fail=0
[105000] ALL PASS. Total transactions: 2
[115000] AXI S0_WVALID_RDY HANDSHAKE
[115000] S0 MEMORY WRITE beat=0 addr=07160278 data=0000000000000000 id=0d
[115000] AXI S0_WVALID_RDY HANDSHAKE
[115000] SLAVE 0 R_VALID_RDY Handshake beat=1 rlast=1
[115000] [SLAVE MONITOR AR] READ mst_id=1 s_id=0 araddr=e46ab0 arid=1 arlen=1 arsize=3 arburst=1 rid=[1111] rresp=[00] rdata=[baadf00d12345678baadf00d12345678]
[115000] MASTER 0 W_VALID_RDY Handshake beat=1 wlast=1
[115000] MASTER_DRIVER0 received transaction, op=AXI_WRITE
[125000] MASTER 1 W_VALID_RDY Handshake beat=0 wlast=0
[125000] MASTER 1 R_VALID_RDY Handshake beat=0 rlast=0
[125000] AXI S0_WVALID_RDY HANDSHAKE
[125000] AXI S0_WVALID_RDY HANDSHAKE
[125000] S0 MEMORY WRITE beat=1 addr=07160280 data=0000000000000000 id=0d
[135000] SLAVE0 sent B resp, id=13
[135000] AXI S0_BVALID_RDY HANDSHAKE
[135000] [SLAVE MONITOR] mst_id=0 s_id=0 awaddr=7160278 awid=1101 awlen=1 awsize=3 awburst=1 wdata=[0 0 ] wstrb=[0 0 ] bresp=0 bid=1101
[135000] MASTER 1 R_VALID_RDY Handshake beat=1 rlast=1
[135000] [MASTER MONITOR] READ mst_id=1 s_id=0 araddr=e46ab0 arid=1 arlen=1 arsize=3 arburst=1 rid=[11] rresp=[00] rdata=[baadf00d12345678baadf00d12345678]
[135000] MASTER 1 W_VALID_RDY Handshake beat=1 wlast=1
[135000] MASTER 0 AW_VALID_RDY Handshake
[135000] [MASTER DRIVER] READ mst_id=1 s_id=0 araddr=e46ab0 arid=1 arlen=1 arsize=3 arburst=1 rid=[11] rresp=[00] rdata=[baadf00d12345678baadf00d12345678]
[135000] SCOREBOARD MATCH: decode_err expected = 0, actual =0
[135000] SCOREBOARD MATCH: slave_id expected = 0, actual =0
[135000] SCOREBOARD MATCH: araddr passthrough expected = e46ab0, actual =e46ab0
[135000] SCOREBOARD MATCH: arlen passthrough expected = 1, actual =1
[135000] SCOREBOARD MATCH: arsize passthrough expected = 3, actual =3
[135000] SCOREBOARD MATCH: arburst passthrough expected = 1, actual =1
[135000] SCOREBOARD MATCH: rdata size check expected = 2, actual =2
[135000] SCOREBOARD MATCH: rdata passthrough beat=0 expected = baadf00d12345678, actual =baadf00d12345678
[135000] SCOREBOARD MATCH: rdata passthrough beat=1 expected = baadf00d12345678, actual =baadf00d12345678
[135000] SCOREBOARD MATCH: rresp size check expected = 2, actual =2
[135000] SCOREBOARD MATCH: rresp passthrough beat=0 expected = 0, actual =0
[135000] SCOREBOARD MATCH: rresp passthrough beat=1 expected = 0, actual =0
[135000] SCOREBOARD MATCH: response routed to correct master (read beat 0) expected = 1, actual =1
[135000] SCOREBOARD MATCH: response routed to correct master (read beat 1) expected = 1, actual =1
[135000] [SCOREBOARD-M] READ mst_id=1 s_id=0 araddr=e46ab0 arid=1 arlen=1 arsize=3 arburst=1 rid=[11] rresp=[00] rdata=[baadf00d12345678baadf00d12345678]
[135000] [SCOREBOARD-S] READ mst_id=1 s_id=0 araddr=e46ab0 arid=1 arlen=1 arsize=3 arburst=1 rid=[1111] rresp=[00] rdata=[baadf00d12345678baadf00d12345678]
[135000] SCOREBOARD: Transaction 3 received. pass=42 fail=0
[135000] ALL PASS. Total transactions: 3
[145000] ARB MONITOR: slave=0 m0_req=0 m1_req=1 winner=1
[145000] ARB MONITOR: slave=1 m0_req=1 m1_req=0 winner=0
[145000] AXI S1_AWVALID_RDY HANDSHAKE
[145000] AXI S0_AWVALID_RDY HANDSHAKE
[155000] AXI S0_WVALID_RDY HANDSHAKE
[155000] S0 MEMORY WRITE beat=0 addr=03c13ef0 data=0000000000000000 id=13
[155000] AXI S0_WVALID_RDY HANDSHAKE
[155000] MASTER 0 W_VALID_RDY Handshake beat=0 wlast=0
[155000] MASTER 0 B_VALID_RDY Handshake
[155000] [MASTER MONITOR] mst_id=0 s_id=0 awaddr=7160278 awid=1101 awlen=1 awsize=3 awburst=1 wdata=[0 0 ] wstrb=[0 0 ] bresp=0 bid=1101
[155000] MASTER 0 RECEIVED BRESP. BRESP=0
[155000] [MASTER DRIVER] mst_id=0 s_id=0 awaddr=7160278 awid=1101 awlen=1 awsize=3 awburst=1 wdata=[] wstrb=[] bresp=0 bid=1101
[155000] SCOREBOARD MATCH: decode_err expected = 0, actual =0
[155000] SCOREBOARD MATCH: slave_id expected = 0, actual =0
[155000] SCOREBOARD MATCH: awaddr passthrough expected = 7160278, actual =7160278
[155000] SCOREBOARD MATCH: awlen passthrough expected = 1, actual =1
[155000] SCOREBOARD MATCH: awsize passthrough expected = 3, actual =3
[155000] SCOREBOARD MATCH: awburst passthrough expected = 1, actual =1
[155000] SCOREBOARD MATCH: wdata size check expected = 2, actual =2
[155000] SCOREBOARD MATCH: wdata passthrough beat=0 expected = 0, actual =0
[155000] SCOREBOARD MATCH: wdata passthrough beat=1 expected = 0, actual =0
[155000] SCOREBOARD MATCH: wstrb size check expected = 2, actual =2
[155000] SCOREBOARD MATCH: wstrb passthrough beat=0 expected = 0, actual =0
[155000] SCOREBOARD MATCH: wstrb passthrough beat=1 expected = 0, actual =0
[155000] SCOREBOARD MATCH: bresp passthrough expected = 0, actual =0
[155000] SCOREBOARD MATCH: response routed to correct master (write) expected = 0, actual =0
[155000] [SCOREBOARD-M] mst_id=0 s_id=0 awaddr=7160278 awid=1101 awlen=1 awsize=3 awburst=1 wdata=[0 0 ] wstrb=[0 0 ] bresp=0 bid=1101
[155000] [SCOREBOARD-S] mst_id=0 s_id=0 awaddr=7160278 awid=1101 awlen=1 awsize=3 awburst=1 wdata=[0 0 ] wstrb=[0 0 ] bresp=0 bid=1101
[155000] SCOREBOARD: Transaction 4 received. pass=56 fail=0
[155000] ALL PASS. Total transactions: 4
[165000] MASTER_DRIVER0 received transaction, op=AXI_WRITE
[165000] MASTER 0 W_VALID_RDY Handshake beat=1 wlast=1
[165000] AXI S1_WVALID_RDY HANDSHAKE
[165000] AXI S0_WVALID_RDY HANDSHAKE
[165000] S1 MEMORY WRITE beat=0 addr=1be39120 data=0000000000000000 id=02
[165000] AXI S0_WVALID_RDY HANDSHAKE
[165000] S0 MEMORY WRITE beat=1 addr=03c13ef8 data=0000000000000000 id=13
[175000] SLAVE0 sent B resp, id=3
[175000] S1 MEMORY WRITE beat=1 addr=1be39128 data=0000000000000000 id=02
[175000] AXI S0_BVALID_RDY HANDSHAKE
[175000] [SLAVE MONITOR] mst_id=1 s_id=0 awaddr=3c13ef0 awid=11 awlen=1 awsize=3 awburst=1 wdata=[0 0 ] wstrb=[0 0 ] bresp=0 bid=10011
[175000] AXI S1_WVALID_RDY HANDSHAKE
[185000] MASTER 0 AW_VALID_RDY Handshake
[185000] AXI S1_BVALID_RDY HANDSHAKE
[185000] [SLAVE MONITOR] mst_id=0 s_id=1 awaddr=1be39120 awid=10 awlen=1 awsize=3 awburst=1 wdata=[0 0 ] wstrb=[0 0 ] bresp=0 bid=10
[185000] SLAVE1 sent B resp, id=2
[195000] AXI S0_AWVALID_RDY HANDSHAKE
[195000] ARB MONITOR: slave=0 m0_req=1 m1_req=0 winner=0
[195000] MASTER 1 B_VALID_RDY Handshake
[195000] [MASTER MONITOR] mst_id=1 s_id=0 awaddr=3c13ef0 awid=11 awlen=1 awsize=3 awburst=1 wdata=[0 0 ] wstrb=[0 0 ] bresp=0 bid=11
[195000] MASTER 1 RECEIVED BRESP. BRESP=0
[195000] [MASTER DRIVER] mst_id=1 s_id=0 awaddr=3c13ef0 awid=11 awlen=1 awsize=3 awburst=1 wdata=[] wstrb=[] bresp=0 bid=11
[195000] SCOREBOARD MATCH: decode_err expected = 0, actual =0
[195000] SCOREBOARD MATCH: slave_id expected = 0, actual =0
[195000] SCOREBOARD MATCH: awaddr passthrough expected = 3c13ef0, actual =3c13ef0
[195000] SCOREBOARD MATCH: awlen passthrough expected = 1, actual =1
[195000] SCOREBOARD MATCH: awsize passthrough expected = 3, actual =3
[195000] SCOREBOARD MATCH: awburst passthrough expected = 1, actual =1
[195000] SCOREBOARD MATCH: wdata size check expected = 2, actual =2
[195000] SCOREBOARD MATCH: wdata passthrough beat=0 expected = 0, actual =0
[195000] SCOREBOARD MATCH: wdata passthrough beat=1 expected = 0, actual =0
[195000] SCOREBOARD MATCH: wstrb size check expected = 2, actual =2
[195000] SCOREBOARD MATCH: wstrb passthrough beat=0 expected = 0, actual =0
[195000] SCOREBOARD MATCH: wstrb passthrough beat=1 expected = 0, actual =0
[195000] SCOREBOARD MATCH: bresp passthrough expected = 0, actual =0
[195000] SCOREBOARD MATCH: response routed to correct master (write) expected = 1, actual =1
[195000] [SCOREBOARD-M] mst_id=1 s_id=0 awaddr=3c13ef0 awid=11 awlen=1 awsize=3 awburst=1 wdata=[0 0 ] wstrb=[0 0 ] bresp=0 bid=11
[195000] [SCOREBOARD-S] mst_id=1 s_id=0 awaddr=3c13ef0 awid=11 awlen=1 awsize=3 awburst=1 wdata=[0 0 ] wstrb=[0 0 ] bresp=0 bid=10011
[195000] SCOREBOARD: Transaction 5 received. pass=70 fail=0
[195000] ALL PASS. Total transactions: 5
[205000] MASTER 0 RECEIVED BRESP. BRESP=0
[205000] [MASTER DRIVER] mst_id=0 s_id=0 awaddr=1be39120 awid=10 awlen=1 awsize=3 awburst=1 wdata=[] wstrb=[] bresp=0 bid=10
[205000] MASTER 0 W_VALID_RDY Handshake beat=0 wlast=0
[205000] MASTER 0 B_VALID_RDY Handshake
[205000] [MASTER MONITOR] mst_id=0 s_id=1 awaddr=1be39120 awid=10 awlen=1 awsize=3 awburst=1 wdata=[0 0 ] wstrb=[0 0 ] bresp=0 bid=10
[205000] SCOREBOARD MATCH: decode_err expected = 0, actual =0
[205000] SCOREBOARD MATCH: slave_id expected = 1, actual =1
[205000] SCOREBOARD MATCH: awaddr passthrough expected = 1be39120, actual =1be39120
[205000] SCOREBOARD MATCH: awlen passthrough expected = 1, actual =1
[205000] SCOREBOARD MATCH: awsize passthrough expected = 3, actual =3
[205000] SCOREBOARD MATCH: awburst passthrough expected = 1, actual =1
[205000] SCOREBOARD MATCH: wdata size check expected = 2, actual =2
[205000] SCOREBOARD MATCH: wdata passthrough beat=0 expected = 0, actual =0
[205000] SCOREBOARD MATCH: wdata passthrough beat=1 expected = 0, actual =0
[205000] SCOREBOARD MATCH: wstrb size check expected = 2, actual =2
[205000] SCOREBOARD MATCH: wstrb passthrough beat=0 expected = 0, actual =0
[205000] SCOREBOARD MATCH: wstrb passthrough beat=1 expected = 0, actual =0
[205000] SCOREBOARD MATCH: bresp passthrough expected = 0, actual =0
[205000] SCOREBOARD MATCH: response routed to correct master (write) expected = 0, actual =0
[205000] [SCOREBOARD-M] mst_id=0 s_id=1 awaddr=1be39120 awid=10 awlen=1 awsize=3 awburst=1 wdata=[0 0 ] wstrb=[0 0 ] bresp=0 bid=10
[205000] [SCOREBOARD-S] mst_id=0 s_id=1 awaddr=1be39120 awid=10 awlen=1 awsize=3 awburst=1 wdata=[0 0 ] wstrb=[0 0 ] bresp=0 bid=10
[205000] SCOREBOARD: Transaction 6 received. pass=84 fail=0
[205000] ALL PASS. Total transactions: 6
[215000] AXI S0_WVALID_RDY HANDSHAKE
[215000] S0 MEMORY WRITE beat=0 addr=001c5428 data=0000000000000000 id=02
[215000] AXI S0_WVALID_RDY HANDSHAKE
[215000] MASTER 0 W_VALID_RDY Handshake beat=1 wlast=1
[215000] MASTER_DRIVER0 received transaction, op=AXI_WRITE
[225000] AXI S0_WVALID_RDY HANDSHAKE
[225000] AXI S0_WVALID_RDY HANDSHAKE
[225000] S0 MEMORY WRITE beat=1 addr=001c5430 data=0000000000000000 id=02
[235000] SLAVE0 sent B resp, id=2
[235000] AXI S0_BVALID_RDY HANDSHAKE
[235000] [SLAVE MONITOR] mst_id=0 s_id=0 awaddr=1c5428 awid=10 awlen=1 awsize=3 awburst=1 wdata=[0 0 ] wstrb=[0 0 ] bresp=0 bid=10
[235000] MASTER 0 AW_VALID_RDY Handshake
[245000] ARB MONITOR: slave=0 m0_req=1 m1_req=0 winner=0
[245000] AXI S0_AWVALID_RDY HANDSHAKE
[255000] MASTER 0 W_VALID_RDY Handshake beat=0 wlast=0
[255000] MASTER 0 B_VALID_RDY Handshake
[255000] [MASTER MONITOR] mst_id=0 s_id=0 awaddr=1c5428 awid=10 awlen=1 awsize=3 awburst=1 wdata=[0 0 ] wstrb=[0 0 ] bresp=0 bid=10
[255000] MASTER 0 RECEIVED BRESP. BRESP=0
[255000] [MASTER DRIVER] mst_id=0 s_id=0 awaddr=1c5428 awid=10 awlen=1 awsize=3 awburst=1 wdata=[] wstrb=[] bresp=0 bid=10
[255000] SCOREBOARD MATCH: decode_err expected = 0, actual =0
[255000] SCOREBOARD MATCH: slave_id expected = 0, actual =0
[255000] SCOREBOARD MATCH: awaddr passthrough expected = 1c5428, actual =1c5428
[255000] SCOREBOARD MATCH: awlen passthrough expected = 1, actual =1
[255000] SCOREBOARD MATCH: awsize passthrough expected = 3, actual =3
[255000] SCOREBOARD MATCH: awburst passthrough expected = 1, actual =1
[255000] SCOREBOARD MATCH: wdata size check expected = 2, actual =2
[255000] SCOREBOARD MATCH: wdata passthrough beat=0 expected = 0, actual =0
[255000] SCOREBOARD MATCH: wdata passthrough beat=1 expected = 0, actual =0
[255000] SCOREBOARD MATCH: wstrb size check expected = 2, actual =2
[255000] SCOREBOARD MATCH: wstrb passthrough beat=0 expected = 0, actual =0
[255000] SCOREBOARD MATCH: wstrb passthrough beat=1 expected = 0, actual =0
[255000] SCOREBOARD MATCH: bresp passthrough expected = 0, actual =0
[255000] SCOREBOARD MATCH: response routed to correct master (write) expected = 0, actual =0
[255000] [SCOREBOARD-M] mst_id=0 s_id=0 awaddr=1c5428 awid=10 awlen=1 awsize=3 awburst=1 wdata=[0 0 ] wstrb=[0 0 ] bresp=0 bid=10
[255000] [SCOREBOARD-S] mst_id=0 s_id=0 awaddr=1c5428 awid=10 awlen=1 awsize=3 awburst=1 wdata=[0 0 ] wstrb=[0 0 ] bresp=0 bid=10
[255000] SCOREBOARD: Transaction 7 received. pass=98 fail=0
[255000] ALL PASS. Total transactions: 7
[265000] MASTER_DRIVER0 received transaction, op=AXI_WRITE
[265000] MASTER 0 W_VALID_RDY Handshake beat=1 wlast=1
[265000] AXI S0_WVALID_RDY HANDSHAKE
[265000] AXI S0_WVALID_RDY HANDSHAKE
[265000] S0 MEMORY WRITE beat=0 addr=03f62690 data=0000000000000000 id=08
[275000] AXI S0_WVALID_RDY HANDSHAKE
[275000] S0 MEMORY WRITE beat=1 addr=03f62698 data=0000000000000000 id=08
[275000] AXI S0_WVALID_RDY HANDSHAKE
[285000] MASTER 0 AW_VALID_RDY Handshake
[285000] AXI S0_BVALID_RDY HANDSHAKE
[285000] [SLAVE MONITOR] mst_id=0 s_id=0 awaddr=3f62690 awid=1000 awlen=1 awsize=3 awburst=1 wdata=[0 0 ] wstrb=[0 0 ] bresp=0 bid=1000
[285000] SLAVE0 sent B resp, id=8
[295000] AXI S1_AWVALID_RDY HANDSHAKE
[295000] ARB MONITOR: slave=1 m0_req=1 m1_req=0 winner=0
[305000] MASTER 0 RECEIVED BRESP. BRESP=0
[305000] [MASTER DRIVER] mst_id=0 s_id=0 awaddr=3f62690 awid=1000 awlen=1 awsize=3 awburst=1 wdata=[] wstrb=[] bresp=0 bid=1000
[305000] MASTER 0 W_VALID_RDY Handshake beat=0 wlast=0
[305000] MASTER 0 B_VALID_RDY Handshake
[305000] [MASTER MONITOR] mst_id=0 s_id=0 awaddr=3f62690 awid=1000 awlen=1 awsize=3 awburst=1 wdata=[0 0 ] wstrb=[0 0 ] bresp=0 bid=1000
[305000] SCOREBOARD MATCH: decode_err expected = 0, actual =0
[305000] SCOREBOARD MATCH: slave_id expected = 0, actual =0
[305000] SCOREBOARD MATCH: awaddr passthrough expected = 3f62690, actual =3f62690
[305000] SCOREBOARD MATCH: awlen passthrough expected = 1, actual =1
[305000] SCOREBOARD MATCH: awsize passthrough expected = 3, actual =3
[305000] SCOREBOARD MATCH: awburst passthrough expected = 1, actual =1
[305000] SCOREBOARD MATCH: wdata size check expected = 2, actual =2
[305000] SCOREBOARD MATCH: wdata passthrough beat=0 expected = 0, actual =0
[305000] SCOREBOARD MATCH: wdata passthrough beat=1 expected = 0, actual =0
[305000] SCOREBOARD MATCH: wstrb size check expected = 2, actual =2
[305000] SCOREBOARD MATCH: wstrb passthrough beat=0 expected = 0, actual =0
[305000] SCOREBOARD MATCH: wstrb passthrough beat=1 expected = 0, actual =0
[305000] SCOREBOARD MATCH: bresp passthrough expected = 0, actual =0
[305000] SCOREBOARD MATCH: response routed to correct master (write) expected = 0, actual =0
[305000] [SCOREBOARD-M] mst_id=0 s_id=0 awaddr=3f62690 awid=1000 awlen=1 awsize=3 awburst=1 wdata=[0 0 ] wstrb=[0 0 ] bresp=0 bid=1000
[305000] [SCOREBOARD-S] mst_id=0 s_id=0 awaddr=3f62690 awid=1000 awlen=1 awsize=3 awburst=1 wdata=[0 0 ] wstrb=[0 0 ] bresp=0 bid=1000
[305000] SCOREBOARD: Transaction 8 received. pass=112 fail=0
[305000] ALL PASS. Total transactions: 8
[315000] S1 MEMORY WRITE beat=0 addr=1113f4f8 data=0000000000000000 id=09
[315000] AXI S1_WVALID_RDY HANDSHAKE
[315000] MASTER 0 W_VALID_RDY Handshake beat=1 wlast=1
[315000] MASTER_DRIVER0 received transaction, op=AXI_READ
[325000] AXI S1_WVALID_RDY HANDSHAKE
[325000] S1 MEMORY WRITE beat=1 addr=1113f500 data=0000000000000000 id=09
[335000] SLAVE1 sent B resp, id=9
[335000] AXI S1_BVALID_RDY HANDSHAKE
[335000] [SLAVE MONITOR] mst_id=0 s_id=1 awaddr=1113f4f8 awid=1001 awlen=1 awsize=3 awburst=1 wdata=[0 0 ] wstrb=[0 0 ] bresp=0 bid=1001
[345000] ARB MONITOR: slave=0 m0_req=1 m1_req=0 winner=0
[345000] AXI S0_ARVALID_RDY HANDSHAKE
[345000] MEMORY READ MISS beat=0 addr=8409150 -> default data id=6
[355000] MEMORY READ MISS beat=1 addr=8409158 -> default data id=6
[355000] SLAVE 0 R_VALID_RDY Handshake beat=0 rlast=0
[355000] MASTER 0 B_VALID_RDY Handshake
[355000] [MASTER MONITOR] mst_id=0 s_id=1 awaddr=1113f4f8 awid=1001 awlen=1 awsize=3 awburst=1 wdata=[0 0 ] wstrb=[0 0 ] bresp=0 bid=1001
[355000] MASTER 0 RECEIVED BRESP. BRESP=0
[355000] [MASTER DRIVER] mst_id=0 s_id=0 awaddr=1113f4f8 awid=1001 awlen=1 awsize=3 awburst=1 wdata=[] wstrb=[] bresp=0 bid=1001
[355000] SCOREBOARD MATCH: decode_err expected = 0, actual =0
[355000] SCOREBOARD MATCH: slave_id expected = 1, actual =1
[355000] SCOREBOARD MATCH: awaddr passthrough expected = 1113f4f8, actual =1113f4f8
[355000] SCOREBOARD MATCH: awlen passthrough expected = 1, actual =1
[355000] SCOREBOARD MATCH: awsize passthrough expected = 3, actual =3
[355000] SCOREBOARD MATCH: awburst passthrough expected = 1, actual =1
[355000] SCOREBOARD MATCH: wdata size check expected = 2, actual =2
[355000] SCOREBOARD MATCH: wdata passthrough beat=0 expected = 0, actual =0
[355000] SCOREBOARD MATCH: wdata passthrough beat=1 expected = 0, actual =0
[355000] SCOREBOARD MATCH: wstrb size check expected = 2, actual =2
[355000] SCOREBOARD MATCH: wstrb passthrough beat=0 expected = 0, actual =0
[355000] SCOREBOARD MATCH: wstrb passthrough beat=1 expected = 0, actual =0
[355000] SCOREBOARD MATCH: bresp passthrough expected = 0, actual =0
[355000] SCOREBOARD MATCH: response routed to correct master (write) expected = 0, actual =0
[355000] [SCOREBOARD-M] mst_id=0 s_id=1 awaddr=1113f4f8 awid=1001 awlen=1 awsize=3 awburst=1 wdata=[0 0 ] wstrb=[0 0 ] bresp=0 bid=1001
[355000] [SCOREBOARD-S] mst_id=0 s_id=1 awaddr=1113f4f8 awid=1001 awlen=1 awsize=3 awburst=1 wdata=[0 0 ] wstrb=[0 0 ] bresp=0 bid=1001
[355000] SCOREBOARD: Transaction 9 received. pass=126 fail=0
[355000] ALL PASS. Total transactions: 9
[365000] SLAVE 0 R_VALID_RDY Handshake beat=1 rlast=1
[365000] [SLAVE MONITOR AR] READ mst_id=0 s_id=0 araddr=8409150 arid=6 arlen=1 arsize=3 arburst=1 rid=[66] rresp=[00] rdata=[baadf00d12345678baadf00d12345678]
[375000] MASTER 0 R_VALID_RDY Handshake beat=0 rlast=0
[385000] [MASTER DRIVER] READ mst_id=0 s_id=0 araddr=8409150 arid=6 arlen=1 arsize=3 arburst=1 rid=[66] rresp=[00] rdata=[baadf00d12345678baadf00d12345678]
[385000] MASTER 0 R_VALID_RDY Handshake beat=1 rlast=1
[385000] [MASTER MONITOR] READ mst_id=0 s_id=0 araddr=8409150 arid=6 arlen=1 arsize=3 arburst=1 rid=[66] rresp=[00] rdata=[baadf00d12345678baadf00d12345678]
[385000] SCOREBOARD MATCH: decode_err expected = 0, actual =0
[385000] SCOREBOARD MATCH: slave_id expected = 0, actual =0
[385000] SCOREBOARD MATCH: araddr passthrough expected = 8409150, actual =8409150
[385000] SCOREBOARD MATCH: arlen passthrough expected = 1, actual =1
[385000] SCOREBOARD MATCH: arsize passthrough expected = 3, actual =3
[385000] SCOREBOARD MATCH: arburst passthrough expected = 1, actual =1
[385000] SCOREBOARD MATCH: rdata size check expected = 2, actual =2
[385000] SCOREBOARD MATCH: rdata passthrough beat=0 expected = baadf00d12345678, actual =baadf00d12345678
[385000] SCOREBOARD MATCH: rdata passthrough beat=1 expected = baadf00d12345678, actual =baadf00d12345678
[385000] SCOREBOARD MATCH: rresp size check expected = 2, actual =2
[385000] SCOREBOARD MATCH: rresp passthrough beat=0 expected = 0, actual =0
[385000] SCOREBOARD MATCH: rresp passthrough beat=1 expected = 0, actual =0
[385000] SCOREBOARD MATCH: response routed to correct master (read beat 0) expected = 0, actual =0
[385000] SCOREBOARD MATCH: response routed to correct master (read beat 1) expected = 0, actual =0
[385000] [SCOREBOARD-M] READ mst_id=0 s_id=0 araddr=8409150 arid=6 arlen=1 arsize=3 arburst=1 rid=[66] rresp=[00] rdata=[baadf00d12345678baadf00d12345678]
[385000] [SCOREBOARD-S] READ mst_id=0 s_id=0 araddr=8409150 arid=6 arlen=1 arsize=3 arburst=1 rid=[66] rresp=[00] rdata=[baadf00d12345678baadf00d12345678]
[385000] SCOREBOARD: Transaction 10 received. pass=140 fail=0
[385000] SCOREBOARD: Expected 10 transactions completed, PASS=140 FAIL=0
[385000] ALL PASS. Total transactions: 10
[385000] ALL TRANSACTIONS MONITORED
$finish called at time : 405 ns : File "/home/nashita/Desktop/practice/axi_xbar/tb/top/axi_tb_top.sv" Line 206
exit
INFO: xsimkernel Simulation Memory Usage: 289416 KB (Peak: 337820 KB), Simulation CPU Usage: 1230 ms
INFO: [Common 17-206] Exiting xsim at Tue Sep  8 15:51:01 2026...
