#-----------------------------------------------------------
# xsim v2025.2 (64-bit)
# SW Build 6299465 on Fri Nov 14 12:34:56 MST 2025
# IP Build 6300035 on Fri Nov 14 10:48:45 MST 2025
# SharedData Build 6298862 on Thu Nov 13 04:50:51 MST 2025
# Start of session at: Tue Sep  8 16:04:36 2026
# Process ID         : 3981427
# Current directory  : /home/nashita/Desktop/practice/axi_xbar/sim
# Command line       : xsim -log regress_results/BT_run54.log -mode tcl -source {xsim.dir/tb_top_snap/xsim_script.tcl}
# Log file           : /home/nashita/Desktop/practice/axi_xbar/sim/regress_results/BT_run54.log
# Journal file       : /home/nashita/Desktop/practice/axi_xbar/sim/xsim.jou
# Running On         : vlsi-vivado
# Platform           : Ubuntu
# Operating System   : Ubuntu 24.04.4 LTS
# Processor Detail   : Intel(R) Core(TM) i5-10400 CPU @ 2.90GHz
# CPU Frequency      : 4000.099 MHz
# CPU Physical cores : 6
# CPU Logical cores  : 12
# Host memory        : 41875 MB
# Swap memory        : 27648 MB
# Total Virtual      : 69524 MB
# Available Virtual  : 60429 MB
#-----------------------------------------------------------
source xsim.dir/tb_top_snap/xsim_script.tcl
# xsim {tb_top_snap} -testplusarg BT -autoloadwcfg -runall -sv_seed 55
Time resolution is 1 ps
run -all
[0] RUNNING BASE TEST
[0] INSIDE THE BASE TEST CONSTRUCTOR
[0] ENV: before agent
[0] SLAVE CONSTRUCTED
[0] MASTER MONITOR CONSTRUCTED
[0] MASTER MONITOR CONSTRUCTED
[0] SLAVE MONITOR CONSTRUCTED
[0] SLAVE MONITOR CONSTRUCTED
[0] ARB MONITOR CONSTRUCTED
GENERATOR CONSTRUCTED
[0] ENV: after agent
[0] ENV: before scoreboard
[0] ENV: after scoreboard
[15000] [SEQUENCER] READ mst_id=1 s_id=0 araddr=b9ea9e0 arid=0 arlen=1 arsize=3 arburst=1 rid=[] rresp=[] rdata=[]
[15000] [SEQUENCER] mst_id=0 s_id=0 awaddr=fa393e8 awid=1100 awlen=1 awsize=3 awburst=1 wdata=[] wstrb=[] bresp=0 bid=0
[15000] [SEQUENCER] mst_id=0 s_id=0 awaddr=6ea66a0 awid=11 awlen=1 awsize=3 awburst=1 wdata=[] wstrb=[] bresp=0 bid=0
[15000] [SEQUENCER] READ mst_id=0 s_id=0 araddr=11700078 arid=2 arlen=1 arsize=3 arburst=1 rid=[] rresp=[] rdata=[]
[15000] [SEQUENCER] READ mst_id=1 s_id=0 araddr=8accd48 arid=1 arlen=1 arsize=3 arburst=1 rid=[] rresp=[] rdata=[]
[15000] [SEQUENCER] mst_id=0 s_id=0 awaddr=1d84c18 awid=10 awlen=1 awsize=3 awburst=1 wdata=[] wstrb=[] bresp=0 bid=0
[15000] [SEQUENCER] READ mst_id=1 s_id=0 araddr=e7d6de0 arid=2 arlen=1 arsize=3 arburst=1 rid=[] rresp=[] rdata=[]
[15000] [SEQUENCER] mst_id=1 s_id=0 awaddr=1b16ddd8 awid=1110 awlen=1 awsize=3 awburst=1 wdata=[] wstrb=[] bresp=0 bid=0
[15000] [SEQUENCER] mst_id=1 s_id=0 awaddr=11e21f08 awid=1000 awlen=1 awsize=3 awburst=1 wdata=[] wstrb=[] bresp=0 bid=0
[15000] [SEQUENCER] READ mst_id=0 s_id=0 araddr=b1706f8 arid=4 arlen=1 arsize=3 arburst=1 rid=[] rresp=[] rdata=[]
[15000] MASTER_DRIVER1 received transaction, op=AXI_READ
[15000] MASTER_DRIVER0 received transaction, op=AXI_WRITE
[35000] MASTER 0 AW_VALID_RDY Handshake
[35000] MASTER_DRIVER1 received transaction, op=AXI_READ
[45000] ARB MONITOR: slave=0 m0_req=1 m1_req=0 winner=0
[45000] ARB MONITOR: slave=0 m0_req=0 m1_req=1 winner=1
[45000] AXI S0_ARVALID_RDY HANDSHAKE
[45000] MEMORY READ MISS beat=0 addr=b9ea9e0 -> default data id=16
[45000] AXI S0_AWVALID_RDY HANDSHAKE
[55000] MEMORY READ MISS beat=1 addr=b9ea9e8 -> default data id=16
[55000] SLAVE 0 R_VALID_RDY Handshake beat=0 rlast=0
[55000] MASTER 0 W_VALID_RDY Handshake beat=0 wlast=0
[55000] MASTER_DRIVER1 received transaction, op=AXI_READ
[65000] MASTER_DRIVER0 received transaction, op=AXI_WRITE
[65000] MASTER 0 W_VALID_RDY Handshake beat=1 wlast=1
[65000] SLAVE 0 R_VALID_RDY Handshake beat=1 rlast=1
[65000] [SLAVE MONITOR AR] READ mst_id=1 s_id=0 araddr=b9ea9e0 arid=0 arlen=1 arsize=3 arburst=1 rid=[1010] rresp=[00] rdata=[baadf00d12345678baadf00d12345678]
[65000] AXI S0_WVALID_RDY HANDSHAKE
[65000] AXI S0_WVALID_RDY HANDSHAKE
[65000] S0 MEMORY WRITE beat=0 addr=0fa393e8 data=0000000000000000 id=0c
[75000] AXI S0_WVALID_RDY HANDSHAKE
[75000] S0 MEMORY WRITE beat=1 addr=0fa393f0 data=0000000000000000 id=0c
[75000] AXI S0_ARVALID_RDY HANDSHAKE
[75000] MEMORY READ MISS beat=0 addr=8accd48 -> default data id=17
[75000] AXI S0_WVALID_RDY HANDSHAKE
[75000] ARB MONITOR: slave=0 m0_req=0 m1_req=1 winner=1
[75000] MASTER 1 R_VALID_RDY Handshake beat=0 rlast=0
[75000] MASTER_DRIVER1 received transaction, op=AXI_WRITE
[85000] [MASTER DRIVER] READ mst_id=1 s_id=0 araddr=b9ea9e0 arid=0 arlen=1 arsize=3 arburst=1 rid=[00] rresp=[00] rdata=[baadf00d12345678baadf00d12345678]
[85000] MASTER 0 AW_VALID_RDY Handshake
[85000] MASTER 1 R_VALID_RDY Handshake beat=1 rlast=1
[85000] [MASTER MONITOR] READ mst_id=1 s_id=0 araddr=b9ea9e0 arid=0 arlen=1 arsize=3 arburst=1 rid=[00] rresp=[00] rdata=[baadf00d12345678baadf00d12345678]
[85000] SLAVE 0 R_VALID_RDY Handshake beat=0 rlast=0
[85000] AXI S0_BVALID_RDY HANDSHAKE
[85000] [SLAVE MONITOR] mst_id=0 s_id=0 awaddr=fa393e8 awid=1100 awlen=1 awsize=3 awburst=1 wdata=[0 0 ] wstrb=[0 0 ] bresp=0 bid=1100
[85000] MEMORY READ MISS beat=1 addr=8accd50 -> default data id=17
[85000] SLAVE0 sent B resp, id=12
[85000] SCOREBOARD MATCH: decode_err expected = 0, actual =0
[85000] SCOREBOARD MATCH: slave_id expected = 0, actual =0
[85000] SCOREBOARD MATCH: araddr passthrough expected = b9ea9e0, actual =b9ea9e0
[85000] SCOREBOARD MATCH: arlen passthrough expected = 1, actual =1
[85000] SCOREBOARD MATCH: arsize passthrough expected = 3, actual =3
[85000] SCOREBOARD MATCH: arburst passthrough expected = 1, actual =1
[85000] SCOREBOARD MATCH: rdata size check expected = 2, actual =2
[85000] SCOREBOARD MATCH: rdata passthrough beat=0 expected = baadf00d12345678, actual =baadf00d12345678
[85000] SCOREBOARD MATCH: rdata passthrough beat=1 expected = baadf00d12345678, actual =baadf00d12345678
[85000] SCOREBOARD MATCH: rresp size check expected = 2, actual =2
[85000] SCOREBOARD MATCH: rresp passthrough beat=0 expected = 0, actual =0
[85000] SCOREBOARD MATCH: rresp passthrough beat=1 expected = 0, actual =0
[85000] SCOREBOARD MATCH: response routed to correct master (read beat 0) expected = 1, actual =1
[85000] SCOREBOARD MATCH: response routed to correct master (read beat 1) expected = 1, actual =1
[85000] [SCOREBOARD-M] READ mst_id=1 s_id=0 araddr=b9ea9e0 arid=0 arlen=1 arsize=3 arburst=1 rid=[00] rresp=[00] rdata=[baadf00d12345678baadf00d12345678]
[85000] [SCOREBOARD-S] READ mst_id=1 s_id=0 araddr=b9ea9e0 arid=0 arlen=1 arsize=3 arburst=1 rid=[1010] rresp=[00] rdata=[baadf00d12345678baadf00d12345678]
[85000] SCOREBOARD: Transaction 1 received. pass=14 fail=0
[85000] ALL PASS. Total transactions: 1
[95000] AXI S0_AWVALID_RDY HANDSHAKE
[95000] SLAVE 0 R_VALID_RDY Handshake beat=1 rlast=1
[95000] [SLAVE MONITOR AR] READ mst_id=1 s_id=0 araddr=8accd48 arid=1 arlen=1 arsize=3 arburst=1 rid=[1111] rresp=[00] rdata=[baadf00d12345678baadf00d12345678]
[95000] ARB MONITOR: slave=0 m0_req=1 m1_req=0 winner=0
[95000] MASTER 1 AW_VALID_RDY Handshake
[105000] MASTER 0 RECEIVED BRESP. BRESP=0
[105000] [MASTER DRIVER] mst_id=0 s_id=0 awaddr=fa393e8 awid=1100 awlen=1 awsize=3 awburst=1 wdata=[] wstrb=[] bresp=0 bid=1100
[105000] MASTER 0 W_VALID_RDY Handshake beat=0 wlast=0
[105000] MASTER 0 B_VALID_RDY Handshake
[105000] [MASTER MONITOR] mst_id=0 s_id=0 awaddr=fa393e8 awid=1100 awlen=1 awsize=3 awburst=1 wdata=[0 0 ] wstrb=[0 0 ] bresp=0 bid=1100
[105000] MASTER 1 R_VALID_RDY Handshake beat=0 rlast=0
[105000] ARB MONITOR: slave=0 m0_req=0 m1_req=0 winner=1
[105000] ARB MONITOR: slave=1 m0_req=0 m1_req=1 winner=1
[105000] AXI S0_ARVALID_RDY HANDSHAKE
[105000] MEMORY READ MISS beat=0 addr=e7d6de0 -> default data id=18
[105000] AXI S1_AWVALID_RDY HANDSHAKE
[105000] SCOREBOARD MATCH: decode_err expected = 0, actual =0
[105000] SCOREBOARD MATCH: slave_id expected = 0, actual =0
[105000] SCOREBOARD MATCH: awaddr passthrough expected = fa393e8, actual =fa393e8
[105000] SCOREBOARD MATCH: awlen passthrough expected = 1, actual =1
[105000] SCOREBOARD MATCH: awsize passthrough expected = 3, actual =3
[105000] SCOREBOARD MATCH: awburst passthrough expected = 1, actual =1
[105000] SCOREBOARD MATCH: wdata size check expected = 2, actual =2
[105000] SCOREBOARD MATCH: wdata passthrough beat=0 expected = 0, actual =0
[105000] SCOREBOARD MATCH: wdata passthrough beat=1 expected = 0, actual =0
[105000] SCOREBOARD MATCH: wstrb size check expected = 2, actual =2
[105000] SCOREBOARD MATCH: wstrb passthrough beat=0 expected = 0, actual =0
[105000] SCOREBOARD MATCH: wstrb passthrough beat=1 expected = 0, actual =0
[105000] SCOREBOARD MATCH: bresp passthrough expected = 0, actual =0
[105000] SCOREBOARD MATCH: response routed to correct master (write) expected = 0, actual =0
[105000] [SCOREBOARD-M] mst_id=0 s_id=0 awaddr=fa393e8 awid=1100 awlen=1 awsize=3 awburst=1 wdata=[0 0 ] wstrb=[0 0 ] bresp=0 bid=1100
[105000] [SCOREBOARD-S] mst_id=0 s_id=0 awaddr=fa393e8 awid=1100 awlen=1 awsize=3 awburst=1 wdata=[0 0 ] wstrb=[0 0 ] bresp=0 bid=1100
[105000] SCOREBOARD: Transaction 2 received. pass=28 fail=0
[105000] ALL PASS. Total transactions: 2
[115000] AXI S0_WVALID_RDY HANDSHAKE
[115000] S0 MEMORY WRITE beat=0 addr=06ea66a0 data=0000000000000000 id=03
[115000] MEMORY READ MISS beat=1 addr=e7d6de8 -> default data id=18
[115000] AXI S0_WVALID_RDY HANDSHAKE
[115000] SLAVE 0 R_VALID_RDY Handshake beat=0 rlast=0
[115000] MASTER 1 R_VALID_RDY Handshake beat=1 rlast=1
[115000] [MASTER MONITOR] READ mst_id=1 s_id=0 araddr=8accd48 arid=1 arlen=1 arsize=3 arburst=1 rid=[11] rresp=[00] rdata=[baadf00d12345678baadf00d12345678]
[115000] MASTER 1 W_VALID_RDY Handshake beat=0 wlast=0
[115000] MASTER 0 W_VALID_RDY Handshake beat=1 wlast=1
[115000] [MASTER DRIVER] READ mst_id=1 s_id=0 araddr=8accd48 arid=1 arlen=1 arsize=3 arburst=1 rid=[11] rresp=[00] rdata=[baadf00d12345678baadf00d12345678]
[115000] MASTER_DRIVER0 received transaction, op=AXI_READ
[115000] SCOREBOARD MATCH: decode_err expected = 0, actual =0
[115000] SCOREBOARD MATCH: slave_id expected = 0, actual =0
[115000] SCOREBOARD MATCH: araddr passthrough expected = 8accd48, actual =8accd48
[115000] SCOREBOARD MATCH: arlen passthrough expected = 1, actual =1
[115000] SCOREBOARD MATCH: arsize passthrough expected = 3, actual =3
[115000] SCOREBOARD MATCH: arburst passthrough expected = 1, actual =1
[115000] SCOREBOARD MATCH: rdata size check expected = 2, actual =2
[115000] SCOREBOARD MATCH: rdata passthrough beat=0 expected = baadf00d12345678, actual =baadf00d12345678
[115000] SCOREBOARD MATCH: rdata passthrough beat=1 expected = baadf00d12345678, actual =baadf00d12345678
[115000] SCOREBOARD MATCH: rresp size check expected = 2, actual =2
[115000] SCOREBOARD MATCH: rresp passthrough beat=0 expected = 0, actual =0
[115000] SCOREBOARD MATCH: rresp passthrough beat=1 expected = 0, actual =0
[115000] SCOREBOARD MATCH: response routed to correct master (read beat 0) expected = 1, actual =1
[115000] SCOREBOARD MATCH: response routed to correct master (read beat 1) expected = 1, actual =1
[115000] [SCOREBOARD-M] READ mst_id=1 s_id=0 araddr=8accd48 arid=1 arlen=1 arsize=3 arburst=1 rid=[11] rresp=[00] rdata=[baadf00d12345678baadf00d12345678]
[115000] [SCOREBOARD-S] READ mst_id=1 s_id=0 araddr=8accd48 arid=1 arlen=1 arsize=3 arburst=1 rid=[1111] rresp=[00] rdata=[baadf00d12345678baadf00d12345678]
[115000] SCOREBOARD: Transaction 3 received. pass=42 fail=0
[115000] ALL PASS. Total transactions: 3
[125000] MASTER_DRIVER1 received transaction, op=AXI_WRITE
[125000] MASTER 1 W_VALID_RDY Handshake beat=1 wlast=1
[125000] AXI S1_WVALID_RDY HANDSHAKE
[125000] SLAVE 0 R_VALID_RDY Handshake beat=1 rlast=1
[125000] [SLAVE MONITOR AR] READ mst_id=1 s_id=0 araddr=e7d6de0 arid=2 arlen=1 arsize=3 arburst=1 rid=[1212] rresp=[00] rdata=[baadf00d12345678baadf00d12345678]
[125000] AXI S0_WVALID_RDY HANDSHAKE
[125000] S1 MEMORY WRITE beat=0 addr=1b16ddd8 data=0000000000000000 id=1e
[125000] AXI S0_WVALID_RDY HANDSHAKE
[125000] S0 MEMORY WRITE beat=1 addr=06ea66a8 data=0000000000000000 id=03
[135000] SLAVE0 sent B resp, id=3
[135000] S1 MEMORY WRITE beat=1 addr=1b16dde0 data=0000000000000000 id=1e
[135000] AXI S0_BVALID_RDY HANDSHAKE
[135000] [SLAVE MONITOR] mst_id=0 s_id=0 awaddr=6ea66a0 awid=11 awlen=1 awsize=3 awburst=1 wdata=[0 0 ] wstrb=[0 0 ] bresp=0 bid=11
[135000] AXI S1_WVALID_RDY HANDSHAKE
[135000] MASTER 1 R_VALID_RDY Handshake beat=0 rlast=0
[135000] MASTER_DRIVER0 received transaction, op=AXI_WRITE
[145000] [MASTER DRIVER] READ mst_id=1 s_id=0 araddr=e7d6de0 arid=2 arlen=1 arsize=3 arburst=1 rid=[22] rresp=[00] rdata=[baadf00d12345678baadf00d12345678]
[145000] MASTER 1 AW_VALID_RDY Handshake
[145000] MASTER 1 R_VALID_RDY Handshake beat=1 rlast=1
[145000] [MASTER MONITOR] READ mst_id=1 s_id=0 araddr=e7d6de0 arid=2 arlen=1 arsize=3 arburst=1 rid=[22] rresp=[00] rdata=[baadf00d12345678baadf00d12345678]
[145000] ARB MONITOR: slave=1 m0_req=1 m1_req=0 winner=0
[145000] AXI S1_BVALID_RDY HANDSHAKE
[145000] [SLAVE MONITOR] mst_id=1 s_id=1 awaddr=1b16ddd8 awid=1110 awlen=1 awsize=3 awburst=1 wdata=[0 0 ] wstrb=[0 0 ] bresp=0 bid=11110
[145000] AXI S0_ARVALID_RDY HANDSHAKE
[145000] MEMORY READ MISS beat=0 addr=11700078 -> default data id=2
[145000] SLAVE1 sent B resp, id=14
[145000] SCOREBOARD MATCH: decode_err expected = 0, actual =0
[145000] SCOREBOARD MATCH: slave_id expected = 0, actual =0
[145000] SCOREBOARD MATCH: araddr passthrough expected = e7d6de0, actual =e7d6de0
[145000] SCOREBOARD MATCH: arlen passthrough expected = 1, actual =1
[145000] SCOREBOARD MATCH: arsize passthrough expected = 3, actual =3
[145000] SCOREBOARD MATCH: arburst passthrough expected = 1, actual =1
[145000] SCOREBOARD MATCH: rdata size check expected = 2, actual =2
[145000] SCOREBOARD MATCH: rdata passthrough beat=0 expected = baadf00d12345678, actual =baadf00d12345678
[145000] SCOREBOARD MATCH: rdata passthrough beat=1 expected = baadf00d12345678, actual =baadf00d12345678
[145000] SCOREBOARD MATCH: rresp size check expected = 2, actual =2
[145000] SCOREBOARD MATCH: rresp passthrough beat=0 expected = 0, actual =0
[145000] SCOREBOARD MATCH: rresp passthrough beat=1 expected = 0, actual =0
[145000] SCOREBOARD MATCH: response routed to correct master (read beat 0) expected = 1, actual =1
[145000] SCOREBOARD MATCH: response routed to correct master (read beat 1) expected = 1, actual =1
[145000] [SCOREBOARD-M] READ mst_id=1 s_id=0 araddr=e7d6de0 arid=2 arlen=1 arsize=3 arburst=1 rid=[22] rresp=[00] rdata=[baadf00d12345678baadf00d12345678]
[145000] [SCOREBOARD-S] READ mst_id=1 s_id=0 araddr=e7d6de0 arid=2 arlen=1 arsize=3 arburst=1 rid=[1212] rresp=[00] rdata=[baadf00d12345678baadf00d12345678]
[145000] SCOREBOARD: Transaction 4 received. pass=56 fail=0
[145000] ALL PASS. Total transactions: 4
[155000] AXI S1_AWVALID_RDY HANDSHAKE
[155000] MEMORY READ MISS beat=1 addr=11700080 -> default data id=2
[155000] SLAVE 1 R_VALID_RDY Handshake beat=0 rlast=0
[155000] ARB MONITOR: slave=1 m0_req=0 m1_req=1 winner=1
[155000] MASTER 0 AW_VALID_RDY Handshake
[155000] MASTER 0 B_VALID_RDY Handshake
[155000] [MASTER MONITOR] mst_id=0 s_id=0 awaddr=6ea66a0 awid=11 awlen=1 awsize=3 awburst=1 wdata=[0 0 ] wstrb=[0 0 ] bresp=0 bid=11
[155000] MASTER 0 RECEIVED BRESP. BRESP=0
[155000] [MASTER DRIVER] mst_id=0 s_id=0 awaddr=6ea66a0 awid=11 awlen=1 awsize=3 awburst=1 wdata=[] wstrb=[] bresp=0 bid=11
[155000] SCOREBOARD MATCH: decode_err expected = 0, actual =0
[155000] SCOREBOARD MATCH: slave_id expected = 0, actual =0
[155000] SCOREBOARD MATCH: awaddr passthrough expected = 6ea66a0, actual =6ea66a0
[155000] SCOREBOARD MATCH: awlen passthrough expected = 1, actual =1
[155000] SCOREBOARD MATCH: awsize passthrough expected = 3, actual =3
[155000] SCOREBOARD MATCH: awburst passthrough expected = 1, actual =1
[155000] SCOREBOARD MATCH: wdata size check expected = 2, actual =2
[155000] SCOREBOARD MATCH: wdata passthrough beat=0 expected = 0, actual =0
[155000] SCOREBOARD MATCH: wdata passthrough beat=1 expected = 0, actual =0
[155000] SCOREBOARD MATCH: wstrb size check expected = 2, actual =2
[155000] SCOREBOARD MATCH: wstrb passthrough beat=0 expected = 0, actual =0
[155000] SCOREBOARD MATCH: wstrb passthrough beat=1 expected = 0, actual =0
[155000] SCOREBOARD MATCH: bresp passthrough expected = 0, actual =0
[155000] SCOREBOARD MATCH: response routed to correct master (write) expected = 0, actual =0
[155000] [SCOREBOARD-M] mst_id=0 s_id=0 awaddr=6ea66a0 awid=11 awlen=1 awsize=3 awburst=1 wdata=[0 0 ] wstrb=[0 0 ] bresp=0 bid=11
[155000] [SCOREBOARD-S] mst_id=0 s_id=0 awaddr=6ea66a0 awid=11 awlen=1 awsize=3 awburst=1 wdata=[0 0 ] wstrb=[0 0 ] bresp=0 bid=11
[155000] SCOREBOARD: Transaction 5 received. pass=70 fail=0
[155000] ALL PASS. Total transactions: 5
[165000] MASTER 1 RECEIVED BRESP. BRESP=0
[165000] [MASTER DRIVER] mst_id=1 s_id=0 awaddr=1b16ddd8 awid=1110 awlen=1 awsize=3 awburst=1 wdata=[] wstrb=[] bresp=0 bid=1110
[165000] MASTER 1 W_VALID_RDY Handshake beat=0 wlast=0
[165000] MASTER 1 B_VALID_RDY Handshake
[165000] [MASTER MONITOR] mst_id=1 s_id=1 awaddr=1b16ddd8 awid=1110 awlen=1 awsize=3 awburst=1 wdata=[0 0 ] wstrb=[0 0 ] bresp=0 bid=1110
[165000] ARB MONITOR: slave=0 m0_req=1 m1_req=0 winner=0
[165000] SLAVE 1 R_VALID_RDY Handshake beat=1 rlast=1
[165000] [SLAVE MONITOR AR] READ mst_id=0 s_id=1 araddr=11700078 arid=2 arlen=1 arsize=3 arburst=1 rid=[22] rresp=[00] rdata=[baadf00d12345678baadf00d12345678]
[165000] AXI S0_AWVALID_RDY HANDSHAKE
[165000] SCOREBOARD MATCH: decode_err expected = 0, actual =0
[165000] SCOREBOARD MATCH: slave_id expected = 1, actual =1
[165000] SCOREBOARD MATCH: awaddr passthrough expected = 1b16ddd8, actual =1b16ddd8
[165000] SCOREBOARD MATCH: awlen passthrough expected = 1, actual =1
[165000] SCOREBOARD MATCH: awsize passthrough expected = 3, actual =3
[165000] SCOREBOARD MATCH: awburst passthrough expected = 1, actual =1
[165000] SCOREBOARD MATCH: wdata size check expected = 2, actual =2
[165000] SCOREBOARD MATCH: wdata passthrough beat=0 expected = 0, actual =0
[165000] SCOREBOARD MATCH: wdata passthrough beat=1 expected = 0, actual =0
[165000] SCOREBOARD MATCH: wstrb size check expected = 2, actual =2
[165000] SCOREBOARD MATCH: wstrb passthrough beat=0 expected = 0, actual =0
[165000] SCOREBOARD MATCH: wstrb passthrough beat=1 expected = 0, actual =0
[165000] SCOREBOARD MATCH: bresp passthrough expected = 0, actual =0
[165000] SCOREBOARD MATCH: response routed to correct master (write) expected = 1, actual =1
[165000] [SCOREBOARD-M] mst_id=1 s_id=1 awaddr=1b16ddd8 awid=1110 awlen=1 awsize=3 awburst=1 wdata=[0 0 ] wstrb=[0 0 ] bresp=0 bid=1110
[165000] [SCOREBOARD-S] mst_id=1 s_id=1 awaddr=1b16ddd8 awid=1110 awlen=1 awsize=3 awburst=1 wdata=[0 0 ] wstrb=[0 0 ] bresp=0 bid=11110
[165000] SCOREBOARD: Transaction 6 received. pass=84 fail=0
[165000] ALL PASS. Total transactions: 6
[175000] S1 MEMORY WRITE beat=0 addr=11e21f08 data=0000000000000000 id=18
[175000] AXI S1_WVALID_RDY HANDSHAKE
[175000] MASTER 1 W_VALID_RDY Handshake beat=1 wlast=1
[175000] MASTER 0 R_VALID_RDY Handshake beat=0 rlast=0
[175000] MASTER 0 W_VALID_RDY Handshake beat=0 wlast=0
[185000] [MASTER DRIVER] READ mst_id=0 s_id=0 araddr=11700078 arid=2 arlen=1 arsize=3 arburst=1 rid=[22] rresp=[00] rdata=[baadf00d12345678baadf00d12345678]
[185000] MASTER_DRIVER0 received transaction, op=AXI_READ
[185000] MASTER 0 W_VALID_RDY Handshake beat=1 wlast=1
[185000] MASTER 0 R_VALID_RDY Handshake beat=1 rlast=1
[185000] [MASTER MONITOR] READ mst_id=0 s_id=1 araddr=11700078 arid=2 arlen=1 arsize=3 arburst=1 rid=[22] rresp=[00] rdata=[baadf00d12345678baadf00d12345678]
[185000] AXI S1_WVALID_RDY HANDSHAKE
[185000] AXI S0_WVALID_RDY HANDSHAKE
[185000] S1 MEMORY WRITE beat=1 addr=11e21f10 data=0000000000000000 id=18
[185000] AXI S0_WVALID_RDY HANDSHAKE
[185000] S0 MEMORY WRITE beat=0 addr=01d84c18 data=0000000000000000 id=02
[185000] SCOREBOARD MATCH: decode_err expected = 0, actual =0
[185000] SCOREBOARD MATCH: slave_id expected = 1, actual =1
[185000] SCOREBOARD MATCH: araddr passthrough expected = 11700078, actual =11700078
[185000] SCOREBOARD MATCH: arlen passthrough expected = 1, actual =1
[185000] SCOREBOARD MATCH: arsize passthrough expected = 3, actual =3
[185000] SCOREBOARD MATCH: arburst passthrough expected = 1, actual =1
[185000] SCOREBOARD MATCH: rdata size check expected = 2, actual =2
[185000] SCOREBOARD MATCH: rdata passthrough beat=0 expected = baadf00d12345678, actual =baadf00d12345678
[185000] SCOREBOARD MATCH: rdata passthrough beat=1 expected = baadf00d12345678, actual =baadf00d12345678
[185000] SCOREBOARD MATCH: rresp size check expected = 2, actual =2
[185000] SCOREBOARD MATCH: rresp passthrough beat=0 expected = 0, actual =0
[185000] SCOREBOARD MATCH: rresp passthrough beat=1 expected = 0, actual =0
[185000] SCOREBOARD MATCH: response routed to correct master (read beat 0) expected = 0, actual =0
[185000] SCOREBOARD MATCH: response routed to correct master (read beat 1) expected = 0, actual =0
[185000] [SCOREBOARD-M] READ mst_id=0 s_id=1 araddr=11700078 arid=2 arlen=1 arsize=3 arburst=1 rid=[22] rresp=[00] rdata=[baadf00d12345678baadf00d12345678]
[185000] [SCOREBOARD-S] READ mst_id=0 s_id=1 araddr=11700078 arid=2 arlen=1 arsize=3 arburst=1 rid=[22] rresp=[00] rdata=[baadf00d12345678baadf00d12345678]
[185000] SCOREBOARD: Transaction 7 received. pass=98 fail=0
[185000] ALL PASS. Total transactions: 7
[195000] AXI S0_WVALID_RDY HANDSHAKE
[195000] S0 MEMORY WRITE beat=1 addr=01d84c20 data=0000000000000000 id=02
[195000] SLAVE1 sent B resp, id=8
[195000] AXI S0_WVALID_RDY HANDSHAKE
[195000] AXI S1_BVALID_RDY HANDSHAKE
[195000] [SLAVE MONITOR] mst_id=1 s_id=1 awaddr=11e21f08 awid=1000 awlen=1 awsize=3 awburst=1 wdata=[0 0 ] wstrb=[0 0 ] bresp=0 bid=11000
[205000] AXI S0_BVALID_RDY HANDSHAKE
[205000] [SLAVE MONITOR] mst_id=0 s_id=0 awaddr=1d84c18 awid=10 awlen=1 awsize=3 awburst=1 wdata=[0 0 ] wstrb=[0 0 ] bresp=0 bid=10
[205000] SLAVE0 sent B resp, id=2
[215000] AXI S0_ARVALID_RDY HANDSHAKE
[215000] MEMORY READ MISS beat=0 addr=b1706f8 -> default data id=4
[215000] ARB MONITOR: slave=0 m0_req=1 m1_req=0 winner=0
[215000] MASTER 1 B_VALID_RDY Handshake
[215000] [MASTER MONITOR] mst_id=1 s_id=1 awaddr=11e21f08 awid=1000 awlen=1 awsize=3 awburst=1 wdata=[0 0 ] wstrb=[0 0 ] bresp=0 bid=1000
[215000] MASTER 1 RECEIVED BRESP. BRESP=0
[215000] [MASTER DRIVER] mst_id=1 s_id=0 awaddr=11e21f08 awid=1000 awlen=1 awsize=3 awburst=1 wdata=[] wstrb=[] bresp=0 bid=1000
[215000] SCOREBOARD MATCH: decode_err expected = 0, actual =0
[215000] SCOREBOARD MATCH: slave_id expected = 1, actual =1
[215000] SCOREBOARD MATCH: awaddr passthrough expected = 11e21f08, actual =11e21f08
[215000] SCOREBOARD MATCH: awlen passthrough expected = 1, actual =1
[215000] SCOREBOARD MATCH: awsize passthrough expected = 3, actual =3
[215000] SCOREBOARD MATCH: awburst passthrough expected = 1, actual =1
[215000] SCOREBOARD MATCH: wdata size check expected = 2, actual =2
[215000] SCOREBOARD MATCH: wdata passthrough beat=0 expected = 0, actual =0
[215000] SCOREBOARD MATCH: wdata passthrough beat=1 expected = 0, actual =0
[215000] SCOREBOARD MATCH: wstrb size check expected = 2, actual =2
[215000] SCOREBOARD MATCH: wstrb passthrough beat=0 expected = 0, actual =0
[215000] SCOREBOARD MATCH: wstrb passthrough beat=1 expected = 0, actual =0
[215000] SCOREBOARD MATCH: bresp passthrough expected = 0, actual =0
[215000] SCOREBOARD MATCH: response routed to correct master (write) expected = 1, actual =1
[215000] [SCOREBOARD-M] mst_id=1 s_id=1 awaddr=11e21f08 awid=1000 awlen=1 awsize=3 awburst=1 wdata=[0 0 ] wstrb=[0 0 ] bresp=0 bid=1000
[215000] [SCOREBOARD-S] mst_id=1 s_id=1 awaddr=11e21f08 awid=1000 awlen=1 awsize=3 awburst=1 wdata=[0 0 ] wstrb=[0 0 ] bresp=0 bid=11000
[215000] SCOREBOARD: Transaction 8 received. pass=112 fail=0
[215000] ALL PASS. Total transactions: 8
[225000] MASTER 0 RECEIVED BRESP. BRESP=0
[225000] [MASTER DRIVER] mst_id=0 s_id=0 awaddr=1d84c18 awid=10 awlen=1 awsize=3 awburst=1 wdata=[] wstrb=[] bresp=0 bid=10
[225000] MASTER 0 B_VALID_RDY Handshake
[225000] [MASTER MONITOR] mst_id=0 s_id=0 awaddr=1d84c18 awid=10 awlen=1 awsize=3 awburst=1 wdata=[0 0 ] wstrb=[0 0 ] bresp=0 bid=10
[225000] SLAVE 0 R_VALID_RDY Handshake beat=0 rlast=0
[225000] MEMORY READ MISS beat=1 addr=b170700 -> default data id=4
[225000] SCOREBOARD MATCH: decode_err expected = 0, actual =0
[225000] SCOREBOARD MATCH: slave_id expected = 0, actual =0
[225000] SCOREBOARD MATCH: awaddr passthrough expected = 1d84c18, actual =1d84c18
[225000] SCOREBOARD MATCH: awlen passthrough expected = 1, actual =1
[225000] SCOREBOARD MATCH: awsize passthrough expected = 3, actual =3
[225000] SCOREBOARD MATCH: awburst passthrough expected = 1, actual =1
[225000] SCOREBOARD MATCH: wdata size check expected = 2, actual =2
[225000] SCOREBOARD MATCH: wdata passthrough beat=0 expected = 0, actual =0
[225000] SCOREBOARD MATCH: wdata passthrough beat=1 expected = 0, actual =0
[225000] SCOREBOARD MATCH: wstrb size check expected = 2, actual =2
[225000] SCOREBOARD MATCH: wstrb passthrough beat=0 expected = 0, actual =0
[225000] SCOREBOARD MATCH: wstrb passthrough beat=1 expected = 0, actual =0
[225000] SCOREBOARD MATCH: bresp passthrough expected = 0, actual =0
[225000] SCOREBOARD MATCH: response routed to correct master (write) expected = 0, actual =0
[225000] [SCOREBOARD-M] mst_id=0 s_id=0 awaddr=1d84c18 awid=10 awlen=1 awsize=3 awburst=1 wdata=[0 0 ] wstrb=[0 0 ] bresp=0 bid=10
[225000] [SCOREBOARD-S] mst_id=0 s_id=0 awaddr=1d84c18 awid=10 awlen=1 awsize=3 awburst=1 wdata=[0 0 ] wstrb=[0 0 ] bresp=0 bid=10
[225000] SCOREBOARD: Transaction 9 received. pass=126 fail=0
[225000] ALL PASS. Total transactions: 9
[235000] SLAVE 0 R_VALID_RDY Handshake beat=1 rlast=1
[235000] [SLAVE MONITOR AR] READ mst_id=0 s_id=0 araddr=b1706f8 arid=4 arlen=1 arsize=3 arburst=1 rid=[44] rresp=[00] rdata=[baadf00d12345678baadf00d12345678]
[245000] MASTER 0 R_VALID_RDY Handshake beat=0 rlast=0
[255000] MASTER 0 R_VALID_RDY Handshake beat=1 rlast=1
[255000] [MASTER MONITOR] READ mst_id=0 s_id=0 araddr=b1706f8 arid=4 arlen=1 arsize=3 arburst=1 rid=[44] rresp=[00] rdata=[baadf00d12345678baadf00d12345678]
[255000] [MASTER DRIVER] READ mst_id=0 s_id=0 araddr=b1706f8 arid=4 arlen=1 arsize=3 arburst=1 rid=[44] rresp=[00] rdata=[baadf00d12345678baadf00d12345678]
[255000] SCOREBOARD MATCH: decode_err expected = 0, actual =0
[255000] SCOREBOARD MATCH: slave_id expected = 0, actual =0
[255000] SCOREBOARD MATCH: araddr passthrough expected = b1706f8, actual =b1706f8
[255000] SCOREBOARD MATCH: arlen passthrough expected = 1, actual =1
[255000] SCOREBOARD MATCH: arsize passthrough expected = 3, actual =3
[255000] SCOREBOARD MATCH: arburst passthrough expected = 1, actual =1
[255000] SCOREBOARD MATCH: rdata size check expected = 2, actual =2
[255000] SCOREBOARD MATCH: rdata passthrough beat=0 expected = baadf00d12345678, actual =baadf00d12345678
[255000] SCOREBOARD MATCH: rdata passthrough beat=1 expected = baadf00d12345678, actual =baadf00d12345678
[255000] SCOREBOARD MATCH: rresp size check expected = 2, actual =2
[255000] SCOREBOARD MATCH: rresp passthrough beat=0 expected = 0, actual =0
[255000] SCOREBOARD MATCH: rresp passthrough beat=1 expected = 0, actual =0
[255000] SCOREBOARD MATCH: response routed to correct master (read beat 0) expected = 0, actual =0
[255000] SCOREBOARD MATCH: response routed to correct master (read beat 1) expected = 0, actual =0
[255000] [SCOREBOARD-M] READ mst_id=0 s_id=0 araddr=b1706f8 arid=4 arlen=1 arsize=3 arburst=1 rid=[44] rresp=[00] rdata=[baadf00d12345678baadf00d12345678]
[255000] [SCOREBOARD-S] READ mst_id=0 s_id=0 araddr=b1706f8 arid=4 arlen=1 arsize=3 arburst=1 rid=[44] rresp=[00] rdata=[baadf00d12345678baadf00d12345678]
[255000] SCOREBOARD: Transaction 10 received. pass=140 fail=0
[255000] SCOREBOARD: Expected 10 transactions completed, PASS=140 FAIL=0
[255000] ALL PASS. Total transactions: 10
[255000] ALL TRANSACTIONS MONITORED
$finish called at time : 275 ns : File "/home/nashita/Desktop/practice/axi_xbar/tb/top/axi_tb_top.sv" Line 206
exit
INFO: xsimkernel Simulation Memory Usage: 289420 KB (Peak: 337824 KB), Simulation CPU Usage: 1220 ms
INFO: [Common 17-206] Exiting xsim at Tue Sep  8 16:04:39 2026...
