#-----------------------------------------------------------
# xsim v2025.2 (64-bit)
# SW Build 6299465 on Fri Nov 14 12:34:56 MST 2025
# IP Build 6300035 on Fri Nov 14 10:48:45 MST 2025
# SharedData Build 6298862 on Thu Nov 13 04:50:51 MST 2025
# Start of session at: Fri Sep 11 11:13:39 2026
# Process ID         : 633313
# Current directory  : /home/nashita/Desktop/practice/axi_xbar/sim
# Command line       : xsim -log regress_results/BT_run43.log -mode tcl -source {xsim.dir/tb_top_snap/xsim_script.tcl}
# Log file           : /home/nashita/Desktop/practice/axi_xbar/sim/regress_results/BT_run43.log
# Journal file       : /home/nashita/Desktop/practice/axi_xbar/sim/xsim.jou
# Running On         : vlsi-vivado
# Platform           : Ubuntu
# Operating System   : Ubuntu 24.04.4 LTS
# Processor Detail   : Intel(R) Core(TM) i5-10400 CPU @ 2.90GHz
# CPU Frequency      : 3999.810 MHz
# CPU Physical cores : 6
# CPU Logical cores  : 12
# Host memory        : 41875 MB
# Swap memory        : 27648 MB
# Total Virtual      : 69524 MB
# Available Virtual  : 63374 MB
#-----------------------------------------------------------
source xsim.dir/tb_top_snap/xsim_script.tcl
# xsim {tb_top_snap} -testplusarg BT -autoloadwcfg -runall -sv_seed 44
Time resolution is 1 ps
run -all
[0] RUNNING BASE TEST
[0] INSIDE THE BASE TEST CONSTRUCTOR
[0] ENV: before agent
[0] SLAVE CONSTRUCTED
[0] MASTER MONITOR CONSTRUCTED
[0] MASTER MONITOR CONSTRUCTED
[0] SLAVE MONITOR CONSTRUCTED
[0] SLAVE MONITOR CONSTRUCTED
[0] ARB MONITOR CONSTRUCTED
GENERATOR CONSTRUCTED
[0] ENV: after agent
[0] ENV: before scoreboard
[0] ENV: after scoreboard
[15000] [SEQUENCER] READ mst_id=1 s_id=0 araddr=159f33b8 arid=0 arlen=1 arsize=3 arburst=1 rid=[] rresp=[] rdata=[]
[15000] [SEQUENCER] mst_id=0 s_id=0 awaddr=9a88d0 awid=110 awlen=150 awsize=5 awburst=1 wdata=[b9d39e9330fcf185 ddde6596d0e0c687 3f725284c9e6efae fae3e133d0ba1081 a19ad708f945f117 c32ce0c5d8c246c9 a97c574ae10d298c da531aa4be10c1f8 96d308c1cb172e53 ac2457df9d7ffb69 db90bd62c04f600c b668e5f86777283 23f76dedf263c623 b2b3262fb78ae63e 3e0258c2ff882b4f f1ebf172be19b48e f5a49acde1f9c6af e181f1fe249f17a2 e2b8cc3033a6f38f 15a0ba3ed36de370 f80cfb12d85d66fd 8c045a8cf722ac3c ca908facdac5c743 b3232e40a1a514ca 98c7c106c29d8abf 1d6352023f2788cd e0cc9d97e35850b3 25f5db72d0868042 8fae090ff9945e9e dcecaf51c3592d74 93dfadb6f07aa6a7 ea0f054502e28ac3 c63bb837238db6c6 14085d6dc6fbb496 c9de3f59da1b65ed fda91cb3fe1762b2 c51317481019f790 ea355d7d91b17a20 8fc8dcd20ef156a1 1f0b4e31e7de7a31 f98ff451d4dbf41a e3cd4abb8940abae f11f25df0958d124 de34c53e82d898ec c19449beaaf1a31 f407eb55c2020ffa c4daa8e6fd386a7a e7e784abd23cb093 943ec08dd0f3ed81 ce2c57fcdbef7000 2e2c2094d9196974 aa0d56f5b613dca7 12034ca8c26ae121 9b844a95f839aef1 2e4d8b99c02f6d3c 829a4e5dc591a18b bdcb507cc050d841 80457d1e1e98f3 e3b03a7eec18dc15 ac69b456831a93da a1392ccda17b8afa d946710ace9f9d3 30048dae84e9674b 2664f246b9fe1b66 e6e8153ad13dba7b d62721c733f95956 edf774bc16eca2e8 e82a5d63fc8c140d 30856d63d4df89f6 ebcc2cdebe517f2a badd93379e7ce21f f35c6c16d3f68a42 9248096ceb63009a 9dfe2badf2898f4 b31f2336cd259ca4 b8889d3efd3c4ed0 dc64e7c4c5672ca3 128cc947c2687ff8 bfa4cec80f840afb d4eb379ecb156685 d7de67e1c09b68d 2b8dc188e77800e5 b28d676acd22b546 e92c6bd30078f926 e7f0fa0bc00b4de8 d2e032f94ba2d5b 953326819a7e6175 da89af5ef65a6f02 b149c5efd24208c 17a28202e7b7b28d de12218fa047c2df 1d6be36cf22c3160 d9e3e3ede926bded 96e80cd350e656e 273a96ceb7f6057c 211cc36a26da6439 dbe8c9a7011e7abb b91480372a8b4437 d165a87003236075 441db30da3143a1 84bc87d82d4e7217 3071d28cbd565b67 17879f09d6223048 8370a25f34b3adbc f20a09239c4426e1 f266572ab3e274eb e89622a78991a82c 25d5cf0ef5d6f989 29b96e75daa02bcb e431d3f7183c2638 8e131fc1924f911c ecefbce78a07a305 a243c93db7cc8e36 ca1c1f53d12190df db2933e43056e8ff e8237735b70bdc3a 882d6d19fd6cfd22 2dc3e621b23f9688 e94b72c3e356a0fe e0c39e2095e75d56 c826f3dff178dfdc d4cf80da0e878441 a46ee197317266a2 a2eb467eb5931efa c41aa33bec95d576 9e083c18f7bac759 ad4de653e88984d3 d51f5a49c0f38297 38ae49f0f168898f d9f20e62f3279662 341b18f9e5fc3043 d764b9d2af1168ab a238ff0decc962e9 d2c5932cb156c834 e06830e0d6541806 c31d7aef2a2a4cff db81153382a12fed d8f547f415e30e1c c00d5b1bbbe94613 3e8a76019c12c2e3 b1f5d0ff9b8e704e d777b662177fbdf5 b39280d8f2032c1a d919c6916022c63 2d81ea58e58851d8 d78b7df2e50952cb fb0b7f2ee1146b30 c69cbd08e51d1a5b ca266d26288d6986 89a1d4b61e283afb 83455556c531ec54 ] wstrb=[bf da 7d ba 91 d1 10 50 ac 8d a 3d 5f 1a 8d b a8 97 48 7 b1 d5 12 59 6c 5a 60 1d 2f 72 77 9b cc d7 b8 fb 4a 2f 96 16 7 4f 12 51 7e a8 67 85 f7 79 d6 76 22 3e fb 19 b7 d2 8f d9 10 8b f3 c7 5d 82 a1 6d d 94 34 6a 16 d5 d7 24 69 c 8e 80 e1 66 a4 4b 72 32 cb 53 98 6f 9e a a1 69 5e 3a d8 fc 44 7a 66 a2 b4 3e 9f f8 b8 5 9b 6c 43 3a 65 fc 3f 0 68 82 3a cd 7e 79 cd e7 fb 7 b4 7a 80 82 61 7c 89 15 f6 a 97 57 86 21 6c 7c 2b 4 d3 b1 25 3f 2d 50 43 ] bresp=0 bid=0
[15000] [SEQUENCER] READ mst_id=0 s_id=0 araddr=7517310 arid=1 arlen=1 arsize=3 arburst=1 rid=[] rresp=[] rdata=[]
[15000] [SEQUENCER] READ mst_id=0 s_id=0 araddr=1ce2f260 arid=2 arlen=1 arsize=3 arburst=1 rid=[] rresp=[] rdata=[]
[15000] [SEQUENCER] mst_id=1 s_id=0 awaddr=2330290 awid=1100 awlen=24 awsize=6 awburst=1 wdata=[8ee54a669fd117cd 9bf0992bdab669e4 93af183ba4f0527e c4c16a4cab549074 860afa58229462a2 c784b520e0b20377 c0693ec19ba1294 3c4e75368c461f6c ecf822e492118e44 abcba0d883d32a56 101949c3f8feb6d0 8b104514e81a160e ebed4065fd116ca7 f610237736dbe5ed 9ef5fbfbfc068a28 f917f6cf8120688b b7fc4e788ae33c60 86e9c688ef281a46 f04882d1d6f24a74 e1d586d48001bd57 ef29d79d2844d14a ff371bbee8bf4d5d e8c10ab4df725a6f 7b72bb9e10ca292 c9cbefefd7eae252 ] wstrb=[77 c1 a4 9 7a f6 f9 f1 b7 9d fa 31 93 f3 22 4a 90 1c 7b 23 10 9d 6d a0 b9 ] bresp=0 bid=0
[15000] MASTER_DRIVER1 received transaction, op=AXI_READ
[15000] MASTER_DRIVER0 received transaction, op=AXI_WRITE
[35000] MASTER 0 AW_VALID_RDY Handshake
[35000] MASTER_DRIVER1 received transaction, op=AXI_WRITE
[45000] ARB MONITOR: slave=0 m0_req=1 m1_req=0 winner=0
[45000] ARB MONITOR: slave=1 m0_req=0 m1_req=1 winner=1
[45000] AXI S0_ARVALID_RDY HANDSHAKE
[45000] MEMORY READ MISS beat=0 addr=159f33b8 -> default data id=16
[45000] AXI S0_AWVALID_RDY HANDSHAKE
[55000] MEMORY READ MISS beat=1 addr=159f33c0 -> default data id=16
[55000] SLAVE 1 R_VALID_RDY Handshake beat=0 rlast=0
[55000] MASTER 1 AW_VALID_RDY Handshake
[55000] MASTER 0 W_VALID_RDY Handshake beat=0 wlast=0
[65000] MASTER 0 W_VALID_RDY Handshake beat=1 wlast=0
[65000] SLAVE 1 R_VALID_RDY Handshake beat=1 rlast=1
[65000] [SLAVE MONITOR] READ mst_id=1 s_id=1 araddr=159f33b8 arid=0 arlen=1 arsize=3 arburst=1 rid=[1010] rresp=[00] rdata=[baadf00d12345678baadf00d12345678]
[65000] AXI S0_WVALID_RDY HANDSHAKE
[65000] S0 MEMORY WRITE beat=0 addr=009a88d0 data=b9d39e9330fcf185 id=06
[75000] AXI S0_WVALID_RDY HANDSHAKE
[75000] S0 MEMORY WRITE beat=1 addr=009a88f0 data=ddde6596d0e0c687 id=06
[75000] MASTER 1 R_VALID_RDY Handshake beat=0 rlast=0
[75000] MASTER 1 W_VALID_RDY Handshake beat=0 wlast=0
[75000] MASTER 0 W_VALID_RDY Handshake beat=2 wlast=0
[85000] [MASTER DRIVER] READ mst_id=1 s_id=0 araddr=159f33b8 arid=0 arlen=1 arsize=3 arburst=1 rid=[00] rresp=[00] rdata=[baadf00d12345678baadf00d12345678]
[85000] MASTER 0 W_VALID_RDY Handshake beat=3 wlast=0
[85000] MASTER 1 W_VALID_RDY Handshake beat=1 wlast=0
[85000] MASTER 1 R_VALID_RDY Handshake beat=1 rlast=1
[85000] [MASTER MONITOR] READ mst_id=1 s_id=1 araddr=159f33b8 arid=0 arlen=1 arsize=3 arburst=1 rid=[00] rresp=[00] rdata=[baadf00d12345678baadf00d12345678]
[85000] AXI S0_WVALID_RDY HANDSHAKE
[85000] S0 MEMORY WRITE beat=2 addr=009a8910 data=3f725284c9e6efae id=06
[85000] SCOREBOARD MATCH: decode_err expected = 0, actual =0
[85000] SCOREBOARD MATCH: slave_id expected = 1, actual =1
[85000] SCOREBOARD MATCH: araddr passthrough expected = 159f33b8, actual =159f33b8
[85000] SCOREBOARD MATCH: arlen passthrough expected = 1, actual =1
[85000] SCOREBOARD MATCH: arsize passthrough expected = 3, actual =3
[85000] SCOREBOARD MATCH: arburst passthrough expected = 1, actual =1
[85000] SCOREBOARD MATCH: rdata size check expected = 2, actual =2
[85000] SCOREBOARD MATCH: rdata passthrough beat=0 expected = baadf00d12345678, actual =baadf00d12345678
[85000] SCOREBOARD MATCH: rdata passthrough beat=1 expected = baadf00d12345678, actual =baadf00d12345678
[85000] SCOREBOARD MATCH: rresp size check expected = 2, actual =2
[85000] SCOREBOARD MATCH: rresp passthrough beat=0 expected = 0, actual =0
[85000] SCOREBOARD MATCH: rresp passthrough beat=1 expected = 0, actual =0
[85000] SCOREBOARD MATCH: response routed to correct master (read beat 0) expected = 1, actual =1
[85000] SCOREBOARD MATCH: response routed to correct master (read beat 1) expected = 1, actual =1
[85000] [SCOREBOARD-M] READ mst_id=1 s_id=1 araddr=159f33b8 arid=0 arlen=1 arsize=3 arburst=1 rid=[00] rresp=[00] rdata=[baadf00d12345678baadf00d12345678]
[85000] [SCOREBOARD-S] READ mst_id=1 s_id=1 araddr=159f33b8 arid=0 arlen=1 arsize=3 arburst=1 rid=[1010] rresp=[00] rdata=[baadf00d12345678baadf00d12345678]
[85000] SCOREBOARD: Transaction 1 received. pass=14 fail=0
[85000] ALL PASS. Total transactions: 1
[95000] AXI S0_WVALID_RDY HANDSHAKE
[95000] S0 MEMORY WRITE beat=3 addr=009a8930 data=fae3e133d0ba1081 id=06
[95000] MASTER 1 W_VALID_RDY Handshake beat=2 wlast=0
[95000] MASTER 0 W_VALID_RDY Handshake beat=4 wlast=0
[105000] MASTER 0 W_VALID_RDY Handshake beat=5 wlast=0
[105000] MASTER 1 W_VALID_RDY Handshake beat=3 wlast=0
[105000] AXI S0_WVALID_RDY HANDSHAKE
[105000] S0 MEMORY WRITE beat=4 addr=009a8950 data=a19ad708f945f117 id=06
[115000] AXI S0_WVALID_RDY HANDSHAKE
[115000] S0 MEMORY WRITE beat=5 addr=009a8970 data=c32ce0c5d8c246c9 id=06
[115000] MASTER 1 W_VALID_RDY Handshake beat=4 wlast=0
[115000] MASTER 0 W_VALID_RDY Handshake beat=6 wlast=0
[125000] MASTER 0 W_VALID_RDY Handshake beat=7 wlast=0
[125000] MASTER 1 W_VALID_RDY Handshake beat=5 wlast=0
[125000] AXI S0_WVALID_RDY HANDSHAKE
[125000] S0 MEMORY WRITE beat=6 addr=009a8990 data=a97c574ae10d298c id=06
[135000] AXI S0_WVALID_RDY HANDSHAKE
[135000] S0 MEMORY WRITE beat=7 addr=009a89b0 data=da531aa4be10c1f8 id=06
[135000] MASTER 1 W_VALID_RDY Handshake beat=6 wlast=0
[135000] MASTER 0 W_VALID_RDY Handshake beat=8 wlast=0
[145000] MASTER 0 W_VALID_RDY Handshake beat=9 wlast=0
[145000] MASTER 1 W_VALID_RDY Handshake beat=7 wlast=0
[145000] AXI S0_WVALID_RDY HANDSHAKE
[145000] S0 MEMORY WRITE beat=8 addr=009a89d0 data=96d308c1cb172e53 id=06
[155000] AXI S0_WVALID_RDY HANDSHAKE
[155000] S0 MEMORY WRITE beat=9 addr=009a89f0 data=ac2457df9d7ffb69 id=06
[155000] MASTER 0 W_VALID_RDY Handshake beat=10 wlast=0
[165000] MASTER 0 W_VALID_RDY Handshake beat=11 wlast=0
[165000] AXI S0_WVALID_RDY HANDSHAKE
[165000] S0 MEMORY WRITE beat=10 addr=009a8a10 data=db90bd62c04f600c id=06
[175000] AXI S0_WVALID_RDY HANDSHAKE
[175000] S0 MEMORY WRITE beat=11 addr=009a8a30 data=0b668e5f86777283 id=06
[175000] MASTER 0 W_VALID_RDY Handshake beat=12 wlast=0
[185000] MASTER 0 W_VALID_RDY Handshake beat=13 wlast=0
[185000] AXI S0_WVALID_RDY HANDSHAKE
[185000] S0 MEMORY WRITE beat=12 addr=009a8a50 data=23f76dedf263c623 id=06
[195000] AXI S0_WVALID_RDY HANDSHAKE
[195000] S0 MEMORY WRITE beat=13 addr=009a8a70 data=b2b3262fb78ae63e id=06
[195000] MASTER 0 W_VALID_RDY Handshake beat=14 wlast=0
[205000] MASTER 0 W_VALID_RDY Handshake beat=15 wlast=0
[205000] AXI S0_WVALID_RDY HANDSHAKE
[205000] S0 MEMORY WRITE beat=14 addr=009a8a90 data=3e0258c2ff882b4f id=06
[215000] AXI S0_WVALID_RDY HANDSHAKE
[215000] S0 MEMORY WRITE beat=15 addr=009a8ab0 data=f1ebf172be19b48e id=06
[215000] MASTER 0 W_VALID_RDY Handshake beat=16 wlast=0
[225000] MASTER 0 W_VALID_RDY Handshake beat=17 wlast=0
[225000] AXI S0_WVALID_RDY HANDSHAKE
[225000] S0 MEMORY WRITE beat=16 addr=009a8ad0 data=f5a49acde1f9c6af id=06
[235000] AXI S0_WVALID_RDY HANDSHAKE
[235000] S0 MEMORY WRITE beat=17 addr=009a8af0 data=e181f1fe249f17a2 id=06
[235000] MASTER 0 W_VALID_RDY Handshake beat=18 wlast=0
[245000] MASTER 0 W_VALID_RDY Handshake beat=19 wlast=0
[245000] AXI S0_WVALID_RDY HANDSHAKE
[245000] S0 MEMORY WRITE beat=18 addr=009a8b10 data=e2b8cc3033a6f38f id=06
[255000] AXI S0_WVALID_RDY HANDSHAKE
[255000] S0 MEMORY WRITE beat=19 addr=009a8b30 data=15a0ba3ed36de370 id=06
[255000] MASTER 0 W_VALID_RDY Handshake beat=20 wlast=0
[265000] MASTER 0 W_VALID_RDY Handshake beat=21 wlast=0
[265000] AXI S0_WVALID_RDY HANDSHAKE
[265000] S0 MEMORY WRITE beat=20 addr=009a8b50 data=f80cfb12d85d66fd id=06
[275000] AXI S0_WVALID_RDY HANDSHAKE
[275000] S0 MEMORY WRITE beat=21 addr=009a8b70 data=8c045a8cf722ac3c id=06
[275000] MASTER 0 W_VALID_RDY Handshake beat=22 wlast=0
[285000] MASTER 0 W_VALID_RDY Handshake beat=23 wlast=0
[285000] AXI S0_WVALID_RDY HANDSHAKE
[285000] S0 MEMORY WRITE beat=22 addr=009a8b90 data=ca908facdac5c743 id=06
[295000] AXI S0_WVALID_RDY HANDSHAKE
[295000] S0 MEMORY WRITE beat=23 addr=009a8bb0 data=b3232e40a1a514ca id=06
[295000] MASTER 0 W_VALID_RDY Handshake beat=24 wlast=0
[305000] MASTER 0 W_VALID_RDY Handshake beat=25 wlast=0
[305000] AXI S0_WVALID_RDY HANDSHAKE
[305000] S0 MEMORY WRITE beat=24 addr=009a8bd0 data=98c7c106c29d8abf id=06
[315000] AXI S0_WVALID_RDY HANDSHAKE
[315000] S0 MEMORY WRITE beat=25 addr=009a8bf0 data=1d6352023f2788cd id=06
[315000] MASTER 0 W_VALID_RDY Handshake beat=26 wlast=0
[325000] MASTER 0 W_VALID_RDY Handshake beat=27 wlast=0
[325000] AXI S0_WVALID_RDY HANDSHAKE
[325000] S0 MEMORY WRITE beat=26 addr=009a8c10 data=e0cc9d97e35850b3 id=06
[335000] AXI S0_WVALID_RDY HANDSHAKE
[335000] S0 MEMORY WRITE beat=27 addr=009a8c30 data=25f5db72d0868042 id=06
[335000] MASTER 0 W_VALID_RDY Handshake beat=28 wlast=0
[345000] MASTER 0 W_VALID_RDY Handshake beat=29 wlast=0
[345000] AXI S0_WVALID_RDY HANDSHAKE
[345000] S0 MEMORY WRITE beat=28 addr=009a8c50 data=8fae090ff9945e9e id=06
[355000] AXI S0_WVALID_RDY HANDSHAKE
[355000] S0 MEMORY WRITE beat=29 addr=009a8c70 data=dcecaf51c3592d74 id=06
[355000] MASTER 0 W_VALID_RDY Handshake beat=30 wlast=0
[365000] MASTER 0 W_VALID_RDY Handshake beat=31 wlast=0
[365000] AXI S0_WVALID_RDY HANDSHAKE
[365000] S0 MEMORY WRITE beat=30 addr=009a8c90 data=93dfadb6f07aa6a7 id=06
[375000] AXI S0_WVALID_RDY HANDSHAKE
[375000] S0 MEMORY WRITE beat=31 addr=009a8cb0 data=ea0f054502e28ac3 id=06
[375000] MASTER 0 W_VALID_RDY Handshake beat=32 wlast=0
[385000] MASTER 0 W_VALID_RDY Handshake beat=33 wlast=0
[385000] AXI S0_WVALID_RDY HANDSHAKE
[385000] S0 MEMORY WRITE beat=32 addr=009a8cd0 data=c63bb837238db6c6 id=06
[395000] AXI S0_WVALID_RDY HANDSHAKE
[395000] S0 MEMORY WRITE beat=33 addr=009a8cf0 data=14085d6dc6fbb496 id=06
[395000] MASTER 0 W_VALID_RDY Handshake beat=34 wlast=0
[405000] MASTER 0 W_VALID_RDY Handshake beat=35 wlast=0
[405000] AXI S0_WVALID_RDY HANDSHAKE
[405000] S0 MEMORY WRITE beat=34 addr=009a8d10 data=c9de3f59da1b65ed id=06
[415000] AXI S0_WVALID_RDY HANDSHAKE
[415000] S0 MEMORY WRITE beat=35 addr=009a8d30 data=fda91cb3fe1762b2 id=06
[415000] MASTER 0 W_VALID_RDY Handshake beat=36 wlast=0
[425000] MASTER 0 W_VALID_RDY Handshake beat=37 wlast=0
[425000] AXI S0_WVALID_RDY HANDSHAKE
[425000] S0 MEMORY WRITE beat=36 addr=009a8d50 data=c51317481019f790 id=06
[435000] AXI S0_WVALID_RDY HANDSHAKE
[435000] S0 MEMORY WRITE beat=37 addr=009a8d70 data=ea355d7d91b17a20 id=06
[435000] MASTER 0 W_VALID_RDY Handshake beat=38 wlast=0
[445000] MASTER 0 W_VALID_RDY Handshake beat=39 wlast=0
[445000] AXI S0_WVALID_RDY HANDSHAKE
[445000] S0 MEMORY WRITE beat=38 addr=009a8d90 data=8fc8dcd20ef156a1 id=06
[455000] AXI S0_WVALID_RDY HANDSHAKE
[455000] S0 MEMORY WRITE beat=39 addr=009a8db0 data=1f0b4e31e7de7a31 id=06
[455000] MASTER 0 W_VALID_RDY Handshake beat=40 wlast=0
[465000] MASTER 0 W_VALID_RDY Handshake beat=41 wlast=0
[465000] AXI S0_WVALID_RDY HANDSHAKE
[465000] S0 MEMORY WRITE beat=40 addr=009a8dd0 data=f98ff451d4dbf41a id=06
[475000] AXI S0_WVALID_RDY HANDSHAKE
[475000] S0 MEMORY WRITE beat=41 addr=009a8df0 data=e3cd4abb8940abae id=06
[475000] MASTER 0 W_VALID_RDY Handshake beat=42 wlast=0
[485000] MASTER 0 W_VALID_RDY Handshake beat=43 wlast=0
[485000] AXI S0_WVALID_RDY HANDSHAKE
[485000] S0 MEMORY WRITE beat=42 addr=009a8e10 data=f11f25df0958d124 id=06
[495000] AXI S0_WVALID_RDY HANDSHAKE
[495000] S0 MEMORY WRITE beat=43 addr=009a8e30 data=de34c53e82d898ec id=06
[495000] MASTER 0 W_VALID_RDY Handshake beat=44 wlast=0
[505000] MASTER 0 W_VALID_RDY Handshake beat=45 wlast=0
[505000] AXI S0_WVALID_RDY HANDSHAKE
[505000] S0 MEMORY WRITE beat=44 addr=009a8e50 data=0c19449beaaf1a31 id=06
[515000] AXI S0_WVALID_RDY HANDSHAKE
[515000] S0 MEMORY WRITE beat=45 addr=009a8e70 data=f407eb55c2020ffa id=06
[515000] MASTER 0 W_VALID_RDY Handshake beat=46 wlast=0
[525000] MASTER 0 W_VALID_RDY Handshake beat=47 wlast=0
[525000] AXI S0_WVALID_RDY HANDSHAKE
[525000] S0 MEMORY WRITE beat=46 addr=009a8e90 data=c4daa8e6fd386a7a id=06
[535000] AXI S0_WVALID_RDY HANDSHAKE
[535000] S0 MEMORY WRITE beat=47 addr=009a8eb0 data=e7e784abd23cb093 id=06
[535000] MASTER 0 W_VALID_RDY Handshake beat=48 wlast=0
[545000] MASTER 0 W_VALID_RDY Handshake beat=49 wlast=0
[545000] AXI S0_WVALID_RDY HANDSHAKE
[545000] S0 MEMORY WRITE beat=48 addr=009a8ed0 data=943ec08dd0f3ed81 id=06
[555000] AXI S0_WVALID_RDY HANDSHAKE
[555000] S0 MEMORY WRITE beat=49 addr=009a8ef0 data=ce2c57fcdbef7000 id=06
[555000] MASTER 0 W_VALID_RDY Handshake beat=50 wlast=0
[565000] MASTER 0 W_VALID_RDY Handshake beat=51 wlast=0
[565000] AXI S0_WVALID_RDY HANDSHAKE
[565000] S0 MEMORY WRITE beat=50 addr=009a8f10 data=2e2c2094d9196974 id=06
[575000] AXI S0_WVALID_RDY HANDSHAKE
[575000] S0 MEMORY WRITE beat=51 addr=009a8f30 data=aa0d56f5b613dca7 id=06
[575000] MASTER 0 W_VALID_RDY Handshake beat=52 wlast=0
[585000] MASTER 0 W_VALID_RDY Handshake beat=53 wlast=0
[585000] AXI S0_WVALID_RDY HANDSHAKE
[585000] S0 MEMORY WRITE beat=52 addr=009a8f50 data=12034ca8c26ae121 id=06
[595000] AXI S0_WVALID_RDY HANDSHAKE
[595000] S0 MEMORY WRITE beat=53 addr=009a8f70 data=9b844a95f839aef1 id=06
[595000] MASTER 0 W_VALID_RDY Handshake beat=54 wlast=0
[605000] MASTER 0 W_VALID_RDY Handshake beat=55 wlast=0
[605000] AXI S0_WVALID_RDY HANDSHAKE
[605000] S0 MEMORY WRITE beat=54 addr=009a8f90 data=2e4d8b99c02f6d3c id=06
[615000] AXI S0_WVALID_RDY HANDSHAKE
[615000] S0 MEMORY WRITE beat=55 addr=009a8fb0 data=829a4e5dc591a18b id=06
[615000] MASTER 0 W_VALID_RDY Handshake beat=56 wlast=0
[625000] MASTER 0 W_VALID_RDY Handshake beat=57 wlast=0
[625000] AXI S0_WVALID_RDY HANDSHAKE
[625000] S0 MEMORY WRITE beat=56 addr=009a8fd0 data=bdcb507cc050d841 id=06
[635000] AXI S0_WVALID_RDY HANDSHAKE
[635000] S0 MEMORY WRITE beat=57 addr=009a8ff0 data=0080457d1e1e98f3 id=06
[635000] MASTER 0 W_VALID_RDY Handshake beat=58 wlast=0
[645000] MASTER 0 W_VALID_RDY Handshake beat=59 wlast=0
[645000] AXI S0_WVALID_RDY HANDSHAKE
[645000] S0 MEMORY WRITE beat=58 addr=009a9010 data=e3b03a7eec18dc15 id=06
[655000] AXI S0_WVALID_RDY HANDSHAKE
[655000] S0 MEMORY WRITE beat=59 addr=009a9030 data=ac69b456831a93da id=06
[655000] MASTER 0 W_VALID_RDY Handshake beat=60 wlast=0
[665000] MASTER 0 W_VALID_RDY Handshake beat=61 wlast=0
[665000] AXI S0_WVALID_RDY HANDSHAKE
[665000] S0 MEMORY WRITE beat=60 addr=009a9050 data=a1392ccda17b8afa id=06
[675000] AXI S0_WVALID_RDY HANDSHAKE
[675000] S0 MEMORY WRITE beat=61 addr=009a9070 data=0d946710ace9f9d3 id=06
[675000] MASTER 0 W_VALID_RDY Handshake beat=62 wlast=0
[685000] MASTER 0 W_VALID_RDY Handshake beat=63 wlast=0
[685000] AXI S0_WVALID_RDY HANDSHAKE
[685000] S0 MEMORY WRITE beat=62 addr=009a9090 data=30048dae84e9674b id=06
[695000] AXI S0_WVALID_RDY HANDSHAKE
[695000] S0 MEMORY WRITE beat=63 addr=009a90b0 data=2664f246b9fe1b66 id=06
[695000] MASTER 0 W_VALID_RDY Handshake beat=64 wlast=0
[705000] MASTER 0 W_VALID_RDY Handshake beat=65 wlast=0
[705000] AXI S0_WVALID_RDY HANDSHAKE
[705000] S0 MEMORY WRITE beat=64 addr=009a90d0 data=e6e8153ad13dba7b id=06
[715000] AXI S0_WVALID_RDY HANDSHAKE
[715000] S0 MEMORY WRITE beat=65 addr=009a90f0 data=d62721c733f95956 id=06
[715000] MASTER 0 W_VALID_RDY Handshake beat=66 wlast=0
[725000] MASTER 0 W_VALID_RDY Handshake beat=67 wlast=0
[725000] AXI S0_WVALID_RDY HANDSHAKE
[725000] S0 MEMORY WRITE beat=66 addr=009a9110 data=edf774bc16eca2e8 id=06
[735000] AXI S0_WVALID_RDY HANDSHAKE
[735000] S0 MEMORY WRITE beat=67 addr=009a9130 data=e82a5d63fc8c140d id=06
[735000] MASTER 0 W_VALID_RDY Handshake beat=68 wlast=0
[745000] MASTER 0 W_VALID_RDY Handshake beat=69 wlast=0
[745000] AXI S0_WVALID_RDY HANDSHAKE
[745000] S0 MEMORY WRITE beat=68 addr=009a9150 data=30856d63d4df89f6 id=06
[755000] AXI S0_WVALID_RDY HANDSHAKE
[755000] S0 MEMORY WRITE beat=69 addr=009a9170 data=ebcc2cdebe517f2a id=06
[755000] MASTER 0 W_VALID_RDY Handshake beat=70 wlast=0
[765000] MASTER 0 W_VALID_RDY Handshake beat=71 wlast=0
[765000] AXI S0_WVALID_RDY HANDSHAKE
[765000] S0 MEMORY WRITE beat=70 addr=009a9190 data=badd93379e7ce21f id=06
[775000] AXI S0_WVALID_RDY HANDSHAKE
[775000] S0 MEMORY WRITE beat=71 addr=009a91b0 data=f35c6c16d3f68a42 id=06
[775000] MASTER 0 W_VALID_RDY Handshake beat=72 wlast=0
[785000] MASTER 0 W_VALID_RDY Handshake beat=73 wlast=0
[785000] AXI S0_WVALID_RDY HANDSHAKE
[785000] S0 MEMORY WRITE beat=72 addr=009a91d0 data=9248096ceb63009a id=06
[795000] AXI S0_WVALID_RDY HANDSHAKE
[795000] S0 MEMORY WRITE beat=73 addr=009a91f0 data=09dfe2badf2898f4 id=06
[795000] MASTER 0 W_VALID_RDY Handshake beat=74 wlast=0
[805000] MASTER 0 W_VALID_RDY Handshake beat=75 wlast=0
[805000] AXI S0_WVALID_RDY HANDSHAKE
[805000] S0 MEMORY WRITE beat=74 addr=009a9210 data=b31f2336cd259ca4 id=06
[815000] AXI S0_WVALID_RDY HANDSHAKE
[815000] S0 MEMORY WRITE beat=75 addr=009a9230 data=b8889d3efd3c4ed0 id=06
[815000] MASTER 0 W_VALID_RDY Handshake beat=76 wlast=0
[825000] MASTER 0 W_VALID_RDY Handshake beat=77 wlast=0
[825000] AXI S0_WVALID_RDY HANDSHAKE
[825000] S0 MEMORY WRITE beat=76 addr=009a9250 data=dc64e7c4c5672ca3 id=06
[835000] AXI S0_WVALID_RDY HANDSHAKE
[835000] S0 MEMORY WRITE beat=77 addr=009a9270 data=128cc947c2687ff8 id=06
[835000] MASTER 0 W_VALID_RDY Handshake beat=78 wlast=0
[845000] MASTER 0 W_VALID_RDY Handshake beat=79 wlast=0
[845000] AXI S0_WVALID_RDY HANDSHAKE
[845000] S0 MEMORY WRITE beat=78 addr=009a9290 data=bfa4cec80f840afb id=06
[855000] AXI S0_WVALID_RDY HANDSHAKE
[855000] S0 MEMORY WRITE beat=79 addr=009a92b0 data=d4eb379ecb156685 id=06
[855000] MASTER 0 W_VALID_RDY Handshake beat=80 wlast=0
[865000] MASTER 0 W_VALID_RDY Handshake beat=81 wlast=0
[865000] AXI S0_WVALID_RDY HANDSHAKE
[865000] S0 MEMORY WRITE beat=80 addr=009a92d0 data=0d7de67e1c09b68d id=06
[875000] AXI S0_WVALID_RDY HANDSHAKE
[875000] S0 MEMORY WRITE beat=81 addr=009a92f0 data=2b8dc188e77800e5 id=06
[875000] MASTER 0 W_VALID_RDY Handshake beat=82 wlast=0
[885000] MASTER 0 W_VALID_RDY Handshake beat=83 wlast=0
[885000] AXI S0_WVALID_RDY HANDSHAKE
[885000] S0 MEMORY WRITE beat=82 addr=009a9310 data=b28d676acd22b546 id=06
[895000] AXI S0_WVALID_RDY HANDSHAKE
[895000] S0 MEMORY WRITE beat=83 addr=009a9330 data=e92c6bd30078f926 id=06
[895000] MASTER 0 W_VALID_RDY Handshake beat=84 wlast=0
[905000] MASTER 0 W_VALID_RDY Handshake beat=85 wlast=0
[905000] AXI S0_WVALID_RDY HANDSHAKE
[905000] S0 MEMORY WRITE beat=84 addr=009a9350 data=e7f0fa0bc00b4de8 id=06
[915000] AXI S0_WVALID_RDY HANDSHAKE
[915000] S0 MEMORY WRITE beat=85 addr=009a9370 data=0d2e032f94ba2d5b id=06
[915000] MASTER 0 W_VALID_RDY Handshake beat=86 wlast=0
[925000] MASTER 0 W_VALID_RDY Handshake beat=87 wlast=0
[925000] AXI S0_WVALID_RDY HANDSHAKE
[925000] S0 MEMORY WRITE beat=86 addr=009a9390 data=953326819a7e6175 id=06
[935000] AXI S0_WVALID_RDY HANDSHAKE
[935000] S0 MEMORY WRITE beat=87 addr=009a93b0 data=da89af5ef65a6f02 id=06
[935000] MASTER 0 W_VALID_RDY Handshake beat=88 wlast=0
[945000] MASTER 0 W_VALID_RDY Handshake beat=89 wlast=0
[945000] AXI S0_WVALID_RDY HANDSHAKE
[945000] S0 MEMORY WRITE beat=88 addr=009a93d0 data=0b149c5efd24208c id=06
[955000] AXI S0_WVALID_RDY HANDSHAKE
[955000] S0 MEMORY WRITE beat=89 addr=009a93f0 data=17a28202e7b7b28d id=06
[955000] MASTER 0 W_VALID_RDY Handshake beat=90 wlast=0
[965000] MASTER 0 W_VALID_RDY Handshake beat=91 wlast=0
[965000] AXI S0_WVALID_RDY HANDSHAKE
[965000] S0 MEMORY WRITE beat=90 addr=009a9410 data=de12218fa047c2df id=06
[975000] AXI S0_WVALID_RDY HANDSHAKE
[975000] S0 MEMORY WRITE beat=91 addr=009a9430 data=1d6be36cf22c3160 id=06
[975000] MASTER 0 W_VALID_RDY Handshake beat=92 wlast=0
[985000] MASTER 0 W_VALID_RDY Handshake beat=93 wlast=0
[985000] AXI S0_WVALID_RDY HANDSHAKE
[985000] S0 MEMORY WRITE beat=92 addr=009a9450 data=d9e3e3ede926bded id=06
[995000] AXI S0_WVALID_RDY HANDSHAKE
[995000] S0 MEMORY WRITE beat=93 addr=009a9470 data=096e80cd350e656e id=06
[995000] MASTER 0 W_VALID_RDY Handshake beat=94 wlast=0
[1005000] MASTER 0 W_VALID_RDY Handshake beat=95 wlast=0
[1005000] AXI S0_WVALID_RDY HANDSHAKE
[1005000] S0 MEMORY WRITE beat=94 addr=009a9490 data=273a96ceb7f6057c id=06
[1015000] AXI S0_WVALID_RDY HANDSHAKE
[1015000] S0 MEMORY WRITE beat=95 addr=009a94b0 data=211cc36a26da6439 id=06
[1015000] MASTER 0 W_VALID_RDY Handshake beat=96 wlast=0
[1025000] MASTER 0 W_VALID_RDY Handshake beat=97 wlast=0
[1025000] AXI S0_WVALID_RDY HANDSHAKE
[1025000] S0 MEMORY WRITE beat=96 addr=009a94d0 data=dbe8c9a7011e7abb id=06
[1035000] AXI S0_WVALID_RDY HANDSHAKE
[1035000] S0 MEMORY WRITE beat=97 addr=009a94f0 data=b91480372a8b4437 id=06
[1035000] MASTER 0 W_VALID_RDY Handshake beat=98 wlast=0
[1045000] MASTER 0 W_VALID_RDY Handshake beat=99 wlast=0
[1045000] AXI S0_WVALID_RDY HANDSHAKE
[1045000] S0 MEMORY WRITE beat=98 addr=009a9510 data=d165a87003236075 id=06
[1055000] AXI S0_WVALID_RDY HANDSHAKE
[1055000] S0 MEMORY WRITE beat=99 addr=009a9530 data=0441db30da3143a1 id=06
[1055000] MASTER 0 W_VALID_RDY Handshake beat=100 wlast=0
[1065000] MASTER 0 W_VALID_RDY Handshake beat=101 wlast=0
[1065000] AXI S0_WVALID_RDY HANDSHAKE
[1065000] S0 MEMORY WRITE beat=100 addr=009a9550 data=84bc87d82d4e7217 id=06
[1075000] AXI S0_WVALID_RDY HANDSHAKE
[1075000] S0 MEMORY WRITE beat=101 addr=009a9570 data=3071d28cbd565b67 id=06
[1075000] MASTER 0 W_VALID_RDY Handshake beat=102 wlast=0
[1085000] MASTER 0 W_VALID_RDY Handshake beat=103 wlast=0
[1085000] AXI S0_WVALID_RDY HANDSHAKE
[1085000] S0 MEMORY WRITE beat=102 addr=009a9590 data=17879f09d6223048 id=06
[1095000] AXI S0_WVALID_RDY HANDSHAKE
[1095000] S0 MEMORY WRITE beat=103 addr=009a95b0 data=8370a25f34b3adbc id=06
[1095000] MASTER 0 W_VALID_RDY Handshake beat=104 wlast=0
[1105000] MASTER 0 W_VALID_RDY Handshake beat=105 wlast=0
[1105000] AXI S0_WVALID_RDY HANDSHAKE
[1105000] S0 MEMORY WRITE beat=104 addr=009a95d0 data=f20a09239c4426e1 id=06
[1115000] AXI S0_WVALID_RDY HANDSHAKE
[1115000] S0 MEMORY WRITE beat=105 addr=009a95f0 data=f266572ab3e274eb id=06
[1115000] MASTER 0 W_VALID_RDY Handshake beat=106 wlast=0
[1125000] MASTER 0 W_VALID_RDY Handshake beat=107 wlast=0
[1125000] AXI S0_WVALID_RDY HANDSHAKE
[1125000] S0 MEMORY WRITE beat=106 addr=009a9610 data=e89622a78991a82c id=06
[1135000] AXI S0_WVALID_RDY HANDSHAKE
[1135000] S0 MEMORY WRITE beat=107 addr=009a9630 data=25d5cf0ef5d6f989 id=06
[1135000] MASTER 0 W_VALID_RDY Handshake beat=108 wlast=0
[1145000] MASTER 0 W_VALID_RDY Handshake beat=109 wlast=0
[1145000] AXI S0_WVALID_RDY HANDSHAKE
[1145000] S0 MEMORY WRITE beat=108 addr=009a9650 data=29b96e75daa02bcb id=06
[1155000] AXI S0_WVALID_RDY HANDSHAKE
[1155000] S0 MEMORY WRITE beat=109 addr=009a9670 data=e431d3f7183c2638 id=06
[1155000] MASTER 0 W_VALID_RDY Handshake beat=110 wlast=0
[1165000] MASTER 0 W_VALID_RDY Handshake beat=111 wlast=0
[1165000] AXI S0_WVALID_RDY HANDSHAKE
[1165000] S0 MEMORY WRITE beat=110 addr=009a9690 data=8e131fc1924f911c id=06
[1175000] AXI S0_WVALID_RDY HANDSHAKE
[1175000] S0 MEMORY WRITE beat=111 addr=009a96b0 data=ecefbce78a07a305 id=06
[1175000] MASTER 0 W_VALID_RDY Handshake beat=112 wlast=0
[1185000] MASTER 0 W_VALID_RDY Handshake beat=113 wlast=0
[1185000] AXI S0_WVALID_RDY HANDSHAKE
[1185000] S0 MEMORY WRITE beat=112 addr=009a96d0 data=a243c93db7cc8e36 id=06
[1195000] AXI S0_WVALID_RDY HANDSHAKE
[1195000] S0 MEMORY WRITE beat=113 addr=009a96f0 data=ca1c1f53d12190df id=06
[1195000] MASTER 0 W_VALID_RDY Handshake beat=114 wlast=0
[1205000] MASTER 0 W_VALID_RDY Handshake beat=115 wlast=0
[1205000] AXI S0_WVALID_RDY HANDSHAKE
[1205000] S0 MEMORY WRITE beat=114 addr=009a9710 data=db2933e43056e8ff id=06
[1215000] AXI S0_WVALID_RDY HANDSHAKE
[1215000] S0 MEMORY WRITE beat=115 addr=009a9730 data=e8237735b70bdc3a id=06
[1215000] MASTER 0 W_VALID_RDY Handshake beat=116 wlast=0
[1225000] MASTER 0 W_VALID_RDY Handshake beat=117 wlast=0
[1225000] AXI S0_WVALID_RDY HANDSHAKE
[1225000] S0 MEMORY WRITE beat=116 addr=009a9750 data=882d6d19fd6cfd22 id=06
[1235000] AXI S0_WVALID_RDY HANDSHAKE
[1235000] S0 MEMORY WRITE beat=117 addr=009a9770 data=2dc3e621b23f9688 id=06
[1235000] MASTER 0 W_VALID_RDY Handshake beat=118 wlast=0
[1245000] MASTER 0 W_VALID_RDY Handshake beat=119 wlast=0
[1245000] AXI S0_WVALID_RDY HANDSHAKE
[1245000] S0 MEMORY WRITE beat=118 addr=009a9790 data=e94b72c3e356a0fe id=06
[1255000] AXI S0_WVALID_RDY HANDSHAKE
[1255000] S0 MEMORY WRITE beat=119 addr=009a97b0 data=e0c39e2095e75d56 id=06
[1255000] MASTER 0 W_VALID_RDY Handshake beat=120 wlast=0
[1265000] MASTER 0 W_VALID_RDY Handshake beat=121 wlast=0
[1265000] AXI S0_WVALID_RDY HANDSHAKE
[1265000] S0 MEMORY WRITE beat=120 addr=009a97d0 data=c826f3dff178dfdc id=06
[1275000] AXI S0_WVALID_RDY HANDSHAKE
[1275000] S0 MEMORY WRITE beat=121 addr=009a97f0 data=d4cf80da0e878441 id=06
[1275000] MASTER 0 W_VALID_RDY Handshake beat=122 wlast=0
[1285000] MASTER 0 W_VALID_RDY Handshake beat=123 wlast=0
[1285000] AXI S0_WVALID_RDY HANDSHAKE
[1285000] S0 MEMORY WRITE beat=122 addr=009a9810 data=a46ee197317266a2 id=06
[1295000] AXI S0_WVALID_RDY HANDSHAKE
[1295000] S0 MEMORY WRITE beat=123 addr=009a9830 data=a2eb467eb5931efa id=06
[1295000] MASTER 0 W_VALID_RDY Handshake beat=124 wlast=0
[1305000] MASTER 0 W_VALID_RDY Handshake beat=125 wlast=0
[1305000] AXI S0_WVALID_RDY HANDSHAKE
[1305000] S0 MEMORY WRITE beat=124 addr=009a9850 data=c41aa33bec95d576 id=06
[1315000] AXI S0_WVALID_RDY HANDSHAKE
[1315000] S0 MEMORY WRITE beat=125 addr=009a9870 data=9e083c18f7bac759 id=06
[1315000] MASTER 0 W_VALID_RDY Handshake beat=126 wlast=0
[1325000] MASTER 0 W_VALID_RDY Handshake beat=127 wlast=0
[1325000] AXI S0_WVALID_RDY HANDSHAKE
[1325000] S0 MEMORY WRITE beat=126 addr=009a9890 data=ad4de653e88984d3 id=06
[1335000] AXI S0_WVALID_RDY HANDSHAKE
[1335000] S0 MEMORY WRITE beat=127 addr=009a98b0 data=d51f5a49c0f38297 id=06
[1335000] MASTER 0 W_VALID_RDY Handshake beat=128 wlast=0
[1345000] MASTER 0 W_VALID_RDY Handshake beat=129 wlast=0
[1345000] AXI S0_WVALID_RDY HANDSHAKE
[1345000] S0 MEMORY WRITE beat=128 addr=009a98d0 data=38ae49f0f168898f id=06
[1355000] AXI S0_WVALID_RDY HANDSHAKE
[1355000] S0 MEMORY WRITE beat=129 addr=009a98f0 data=d9f20e62f3279662 id=06
[1355000] MASTER 0 W_VALID_RDY Handshake beat=130 wlast=0
[1365000] MASTER 0 W_VALID_RDY Handshake beat=131 wlast=0
[1365000] AXI S0_WVALID_RDY HANDSHAKE
[1365000] S0 MEMORY WRITE beat=130 addr=009a9910 data=341b18f9e5fc3043 id=06
[1375000] AXI S0_WVALID_RDY HANDSHAKE
[1375000] S0 MEMORY WRITE beat=131 addr=009a9930 data=d764b9d2af1168ab id=06
[1375000] MASTER 0 W_VALID_RDY Handshake beat=132 wlast=0
[1385000] MASTER 0 W_VALID_RDY Handshake beat=133 wlast=0
[1385000] AXI S0_WVALID_RDY HANDSHAKE
[1385000] S0 MEMORY WRITE beat=132 addr=009a9950 data=a238ff0decc962e9 id=06
[1395000] AXI S0_WVALID_RDY HANDSHAKE
[1395000] S0 MEMORY WRITE beat=133 addr=009a9970 data=d2c5932cb156c834 id=06
[1395000] MASTER 0 W_VALID_RDY Handshake beat=134 wlast=0
[1405000] MASTER 0 W_VALID_RDY Handshake beat=135 wlast=0
[1405000] AXI S0_WVALID_RDY HANDSHAKE
[1405000] S0 MEMORY WRITE beat=134 addr=009a9990 data=e06830e0d6541806 id=06
[1415000] AXI S0_WVALID_RDY HANDSHAKE
[1415000] S0 MEMORY WRITE beat=135 addr=009a99b0 data=c31d7aef2a2a4cff id=06
[1415000] MASTER 0 W_VALID_RDY Handshake beat=136 wlast=0
[1425000] MASTER 0 W_VALID_RDY Handshake beat=137 wlast=0
[1425000] AXI S0_WVALID_RDY HANDSHAKE
[1425000] S0 MEMORY WRITE beat=136 addr=009a99d0 data=db81153382a12fed id=06
[1435000] AXI S0_WVALID_RDY HANDSHAKE
[1435000] S0 MEMORY WRITE beat=137 addr=009a99f0 data=d8f547f415e30e1c id=06
[1435000] MASTER 0 W_VALID_RDY Handshake beat=138 wlast=0
[1445000] MASTER 0 W_VALID_RDY Handshake beat=139 wlast=0
[1445000] AXI S0_WVALID_RDY HANDSHAKE
[1445000] S0 MEMORY WRITE beat=138 addr=009a9a10 data=c00d5b1bbbe94613 id=06
[1455000] AXI S0_WVALID_RDY HANDSHAKE
[1455000] S0 MEMORY WRITE beat=139 addr=009a9a30 data=3e8a76019c12c2e3 id=06
[1455000] MASTER 0 W_VALID_RDY Handshake beat=140 wlast=0
[1465000] MASTER 0 W_VALID_RDY Handshake beat=141 wlast=0
[1465000] AXI S0_WVALID_RDY HANDSHAKE
[1465000] S0 MEMORY WRITE beat=140 addr=009a9a50 data=b1f5d0ff9b8e704e id=06
[1475000] AXI S0_WVALID_RDY HANDSHAKE
[1475000] S0 MEMORY WRITE beat=141 addr=009a9a70 data=d777b662177fbdf5 id=06
[1475000] MASTER 0 W_VALID_RDY Handshake beat=142 wlast=0
[1485000] MASTER 0 W_VALID_RDY Handshake beat=143 wlast=0
[1485000] AXI S0_WVALID_RDY HANDSHAKE
[1485000] S0 MEMORY WRITE beat=142 addr=009a9a90 data=b39280d8f2032c1a id=06
[1495000] AXI S0_WVALID_RDY HANDSHAKE
[1495000] S0 MEMORY WRITE beat=143 addr=009a9ab0 data=0d919c6916022c63 id=06
[1495000] MASTER 0 W_VALID_RDY Handshake beat=144 wlast=0
[1505000] MASTER 0 W_VALID_RDY Handshake beat=145 wlast=0
[1505000] AXI S0_WVALID_RDY HANDSHAKE
[1505000] S0 MEMORY WRITE beat=144 addr=009a9ad0 data=2d81ea58e58851d8 id=06
[1515000] AXI S0_WVALID_RDY HANDSHAKE
[1515000] S0 MEMORY WRITE beat=145 addr=009a9af0 data=d78b7df2e50952cb id=06
[1515000] MASTER 0 W_VALID_RDY Handshake beat=146 wlast=0
[1525000] MASTER 0 W_VALID_RDY Handshake beat=147 wlast=0
[1525000] AXI S0_WVALID_RDY HANDSHAKE
[1525000] S0 MEMORY WRITE beat=146 addr=009a9b10 data=fb0b7f2ee1146b30 id=06
[1535000] AXI S0_WVALID_RDY HANDSHAKE
[1535000] S0 MEMORY WRITE beat=147 addr=009a9b30 data=c69cbd08e51d1a5b id=06
[1535000] MASTER 0 W_VALID_RDY Handshake beat=148 wlast=0
[1545000] MASTER 0 W_VALID_RDY Handshake beat=149 wlast=0
[1545000] AXI S0_WVALID_RDY HANDSHAKE
[1545000] S0 MEMORY WRITE beat=148 addr=009a9b50 data=ca266d26288d6986 id=06
[1555000] AXI S0_WVALID_RDY HANDSHAKE
[1555000] S0 MEMORY WRITE beat=149 addr=009a9b70 data=89a1d4b61e283afb id=06
[1555000] MASTER 0 W_VALID_RDY Handshake beat=150 wlast=1
[1555000] MASTER_DRIVER0 received transaction, op=AXI_READ
[1565000] AXI S0_WVALID_RDY HANDSHAKE
[1565000] S0 MEMORY WRITE beat=150 addr=009a9b90 data=83455556c531ec54 id=06
[1575000] SLAVE0 sent B resp, id=6
[1575000] [SLAVE MONITOR] mst_id=0 s_id=0 awaddr=9a88d0 awid=110 awlen=150 awsize=5 awburst=1 wdata=[b9d39e9330fcf185 ddde6596d0e0c687 3f725284c9e6efae fae3e133d0ba1081 a19ad708f945f117 c32ce0c5d8c246c9 a97c574ae10d298c da531aa4be10c1f8 96d308c1cb172e53 ac2457df9d7ffb69 db90bd62c04f600c b668e5f86777283 23f76dedf263c623 b2b3262fb78ae63e 3e0258c2ff882b4f f1ebf172be19b48e f5a49acde1f9c6af e181f1fe249f17a2 e2b8cc3033a6f38f 15a0ba3ed36de370 f80cfb12d85d66fd 8c045a8cf722ac3c ca908facdac5c743 b3232e40a1a514ca 98c7c106c29d8abf 1d6352023f2788cd e0cc9d97e35850b3 25f5db72d0868042 8fae090ff9945e9e dcecaf51c3592d74 93dfadb6f07aa6a7 ea0f054502e28ac3 c63bb837238db6c6 14085d6dc6fbb496 c9de3f59da1b65ed fda91cb3fe1762b2 c51317481019f790 ea355d7d91b17a20 8fc8dcd20ef156a1 1f0b4e31e7de7a31 f98ff451d4dbf41a e3cd4abb8940abae f11f25df0958d124 de34c53e82d898ec c19449beaaf1a31 f407eb55c2020ffa c4daa8e6fd386a7a e7e784abd23cb093 943ec08dd0f3ed81 ce2c57fcdbef7000 2e2c2094d9196974 aa0d56f5b613dca7 12034ca8c26ae121 9b844a95f839aef1 2e4d8b99c02f6d3c 829a4e5dc591a18b bdcb507cc050d841 80457d1e1e98f3 e3b03a7eec18dc15 ac69b456831a93da a1392ccda17b8afa d946710ace9f9d3 30048dae84e9674b 2664f246b9fe1b66 e6e8153ad13dba7b d62721c733f95956 edf774bc16eca2e8 e82a5d63fc8c140d 30856d63d4df89f6 ebcc2cdebe517f2a badd93379e7ce21f f35c6c16d3f68a42 9248096ceb63009a 9dfe2badf2898f4 b31f2336cd259ca4 b8889d3efd3c4ed0 dc64e7c4c5672ca3 128cc947c2687ff8 bfa4cec80f840afb d4eb379ecb156685 d7de67e1c09b68d 2b8dc188e77800e5 b28d676acd22b546 e92c6bd30078f926 e7f0fa0bc00b4de8 d2e032f94ba2d5b 953326819a7e6175 da89af5ef65a6f02 b149c5efd24208c 17a28202e7b7b28d de12218fa047c2df 1d6be36cf22c3160 d9e3e3ede926bded 96e80cd350e656e 273a96ceb7f6057c 211cc36a26da6439 dbe8c9a7011e7abb b91480372a8b4437 d165a87003236075 441db30da3143a1 84bc87d82d4e7217 3071d28cbd565b67 17879f09d6223048 8370a25f34b3adbc f20a09239c4426e1 f266572ab3e274eb e89622a78991a82c 25d5cf0ef5d6f989 29b96e75daa02bcb e431d3f7183c2638 8e131fc1924f911c ecefbce78a07a305 a243c93db7cc8e36 ca1c1f53d12190df db2933e43056e8ff e8237735b70bdc3a 882d6d19fd6cfd22 2dc3e621b23f9688 e94b72c3e356a0fe e0c39e2095e75d56 c826f3dff178dfdc d4cf80da0e878441 a46ee197317266a2 a2eb467eb5931efa c41aa33bec95d576 9e083c18f7bac759 ad4de653e88984d3 d51f5a49c0f38297 38ae49f0f168898f d9f20e62f3279662 341b18f9e5fc3043 d764b9d2af1168ab a238ff0decc962e9 d2c5932cb156c834 e06830e0d6541806 c31d7aef2a2a4cff db81153382a12fed d8f547f415e30e1c c00d5b1bbbe94613 3e8a76019c12c2e3 b1f5d0ff9b8e704e d777b662177fbdf5 b39280d8f2032c1a d919c6916022c63 2d81ea58e58851d8 d78b7df2e50952cb fb0b7f2ee1146b30 c69cbd08e51d1a5b ca266d26288d6986 89a1d4b61e283afb 83455556c531ec54 ] wstrb=[bf da 7d ba 91 d1 10 50 ac 8d a 3d 5f 1a 8d b a8 97 48 7 b1 d5 12 59 6c 5a 60 1d 2f 72 77 9b cc d7 b8 fb 4a 2f 96 16 7 4f 12 51 7e a8 67 85 f7 79 d6 76 22 3e fb 19 b7 d2 8f d9 10 8b f3 c7 5d 82 a1 6d d 94 34 6a 16 d5 d7 24 69 c 8e 80 e1 66 a4 4b 72 32 cb 53 98 6f 9e a a1 69 5e 3a d8 fc 44 7a 66 a2 b4 3e 9f f8 b8 5 9b 6c 43 3a 65 fc 3f 0 68 82 3a cd 7e 79 cd e7 fb 7 b4 7a 80 82 61 7c 89 15 f6 a 97 57 86 21 6c 7c 2b 4 d3 b1 25 3f 2d 50 43 ] bresp=0 bid=110
[1575000] MASTER_DRIVER0 received transaction, op=AXI_READ
[1585000] ARB MONITOR: slave=0 m0_req=0 m1_req=1 winner=1
[1585000] ARB MONITOR: slave=0 m0_req=1 m1_req=0 winner=0
[1585000] AXI S0_ARVALID_RDY HANDSHAKE
[1585000] MEMORY READ MISS beat=0 addr=7517310 -> default data id=1
[1585000] AXI S0_AWVALID_RDY HANDSHAKE
[1595000] AXI S0_WVALID_RDY HANDSHAKE
[1595000] S0 MEMORY WRITE beat=0 addr=02330290 data=8ee54a669fd117cd id=1c
[1595000] MEMORY READ MISS beat=1 addr=7517318 -> default data id=1
[1595000] SLAVE 0 R_VALID_RDY Handshake beat=0 rlast=0
[1595000] MASTER 0 B_VALID_RDY Handshake
[1595000] [MASTER MONITOR] mst_id=0 s_id=0 awaddr=9a88d0 awid=110 awlen=150 awsize=5 awburst=1 wdata=[b9d39e9330fcf185 ddde6596d0e0c687 3f725284c9e6efae fae3e133d0ba1081 a19ad708f945f117 c32ce0c5d8c246c9 a97c574ae10d298c da531aa4be10c1f8 96d308c1cb172e53 ac2457df9d7ffb69 db90bd62c04f600c b668e5f86777283 23f76dedf263c623 b2b3262fb78ae63e 3e0258c2ff882b4f f1ebf172be19b48e f5a49acde1f9c6af e181f1fe249f17a2 e2b8cc3033a6f38f 15a0ba3ed36de370 f80cfb12d85d66fd 8c045a8cf722ac3c ca908facdac5c743 b3232e40a1a514ca 98c7c106c29d8abf 1d6352023f2788cd e0cc9d97e35850b3 25f5db72d0868042 8fae090ff9945e9e dcecaf51c3592d74 93dfadb6f07aa6a7 ea0f054502e28ac3 c63bb837238db6c6 14085d6dc6fbb496 c9de3f59da1b65ed fda91cb3fe1762b2 c51317481019f790 ea355d7d91b17a20 8fc8dcd20ef156a1 1f0b4e31e7de7a31 f98ff451d4dbf41a e3cd4abb8940abae f11f25df0958d124 de34c53e82d898ec c19449beaaf1a31 f407eb55c2020ffa c4daa8e6fd386a7a e7e784abd23cb093 943ec08dd0f3ed81 ce2c57fcdbef7000 2e2c2094d9196974 aa0d56f5b613dca7 12034ca8c26ae121 9b844a95f839aef1 2e4d8b99c02f6d3c 829a4e5dc591a18b bdcb507cc050d841 80457d1e1e98f3 e3b03a7eec18dc15 ac69b456831a93da a1392ccda17b8afa d946710ace9f9d3 30048dae84e9674b 2664f246b9fe1b66 e6e8153ad13dba7b d62721c733f95956 edf774bc16eca2e8 e82a5d63fc8c140d 30856d63d4df89f6 ebcc2cdebe517f2a badd93379e7ce21f f35c6c16d3f68a42 9248096ceb63009a 9dfe2badf2898f4 b31f2336cd259ca4 b8889d3efd3c4ed0 dc64e7c4c5672ca3 128cc947c2687ff8 bfa4cec80f840afb d4eb379ecb156685 d7de67e1c09b68d 2b8dc188e77800e5 b28d676acd22b546 e92c6bd30078f926 e7f0fa0bc00b4de8 d2e032f94ba2d5b 953326819a7e6175 da89af5ef65a6f02 b149c5efd24208c 17a28202e7b7b28d de12218fa047c2df 1d6be36cf22c3160 d9e3e3ede926bded 96e80cd350e656e 273a96ceb7f6057c 211cc36a26da6439 dbe8c9a7011e7abb b91480372a8b4437 d165a87003236075 441db30da3143a1 84bc87d82d4e7217 3071d28cbd565b67 17879f09d6223048 8370a25f34b3adbc f20a09239c4426e1 f266572ab3e274eb e89622a78991a82c 25d5cf0ef5d6f989 29b96e75daa02bcb e431d3f7183c2638 8e131fc1924f911c ecefbce78a07a305 a243c93db7cc8e36 ca1c1f53d12190df db2933e43056e8ff e8237735b70bdc3a 882d6d19fd6cfd22 2dc3e621b23f9688 e94b72c3e356a0fe e0c39e2095e75d56 c826f3dff178dfdc d4cf80da0e878441 a46ee197317266a2 a2eb467eb5931efa c41aa33bec95d576 9e083c18f7bac759 ad4de653e88984d3 d51f5a49c0f38297 38ae49f0f168898f d9f20e62f3279662 341b18f9e5fc3043 d764b9d2af1168ab a238ff0decc962e9 d2c5932cb156c834 e06830e0d6541806 c31d7aef2a2a4cff db81153382a12fed d8f547f415e30e1c c00d5b1bbbe94613 3e8a76019c12c2e3 b1f5d0ff9b8e704e d777b662177fbdf5 b39280d8f2032c1a d919c6916022c63 2d81ea58e58851d8 d78b7df2e50952cb fb0b7f2ee1146b30 c69cbd08e51d1a5b ca266d26288d6986 89a1d4b61e283afb 83455556c531ec54 ] wstrb=[bf da 7d ba 91 d1 10 50 ac 8d a 3d 5f 1a 8d b a8 97 48 7 b1 d5 12 59 6c 5a 60 1d 2f 72 77 9b cc d7 b8 fb 4a 2f 96 16 7 4f 12 51 7e a8 67 85 f7 79 d6 76 22 3e fb 19 b7 d2 8f d9 10 8b f3 c7 5d 82 a1 6d d 94 34 6a 16 d5 d7 24 69 c 8e 80 e1 66 a4 4b 72 32 cb 53 98 6f 9e a a1 69 5e 3a d8 fc 44 7a 66 a2 b4 3e 9f f8 b8 5 9b 6c 43 3a 65 fc 3f 0 68 82 3a cd 7e 79 cd e7 fb 7 b4 7a 80 82 61 7c 89 15 f6 a 97 57 86 21 6c 7c 2b 4 d3 b1 25 3f 2d 50 43 ] bresp=0 bid=110
[1595000] MASTER 0 RECEIVED BRESP. BRESP=0
[1595000] [MASTER DRIVER] mst_id=0 s_id=0 awaddr=9a88d0 awid=110 awlen=150 awsize=5 awburst=1 wdata=[b9d39e9330fcf185 ddde6596d0e0c687 3f725284c9e6efae fae3e133d0ba1081 a19ad708f945f117 c32ce0c5d8c246c9 a97c574ae10d298c da531aa4be10c1f8 96d308c1cb172e53 ac2457df9d7ffb69 db90bd62c04f600c b668e5f86777283 23f76dedf263c623 b2b3262fb78ae63e 3e0258c2ff882b4f f1ebf172be19b48e f5a49acde1f9c6af e181f1fe249f17a2 e2b8cc3033a6f38f 15a0ba3ed36de370 f80cfb12d85d66fd 8c045a8cf722ac3c ca908facdac5c743 b3232e40a1a514ca 98c7c106c29d8abf 1d6352023f2788cd e0cc9d97e35850b3 25f5db72d0868042 8fae090ff9945e9e dcecaf51c3592d74 93dfadb6f07aa6a7 ea0f054502e28ac3 c63bb837238db6c6 14085d6dc6fbb496 c9de3f59da1b65ed fda91cb3fe1762b2 c51317481019f790 ea355d7d91b17a20 8fc8dcd20ef156a1 1f0b4e31e7de7a31 f98ff451d4dbf41a e3cd4abb8940abae f11f25df0958d124 de34c53e82d898ec c19449beaaf1a31 f407eb55c2020ffa c4daa8e6fd386a7a e7e784abd23cb093 943ec08dd0f3ed81 ce2c57fcdbef7000 2e2c2094d9196974 aa0d56f5b613dca7 12034ca8c26ae121 9b844a95f839aef1 2e4d8b99c02f6d3c 829a4e5dc591a18b bdcb507cc050d841 80457d1e1e98f3 e3b03a7eec18dc15 ac69b456831a93da a1392ccda17b8afa d946710ace9f9d3 30048dae84e9674b 2664f246b9fe1b66 e6e8153ad13dba7b d62721c733f95956 edf774bc16eca2e8 e82a5d63fc8c140d 30856d63d4df89f6 ebcc2cdebe517f2a badd93379e7ce21f f35c6c16d3f68a42 9248096ceb63009a 9dfe2badf2898f4 b31f2336cd259ca4 b8889d3efd3c4ed0 dc64e7c4c5672ca3 128cc947c2687ff8 bfa4cec80f840afb d4eb379ecb156685 d7de67e1c09b68d 2b8dc188e77800e5 b28d676acd22b546 e92c6bd30078f926 e7f0fa0bc00b4de8 d2e032f94ba2d5b 953326819a7e6175 da89af5ef65a6f02 b149c5efd24208c 17a28202e7b7b28d de12218fa047c2df 1d6be36cf22c3160 d9e3e3ede926bded 96e80cd350e656e 273a96ceb7f6057c 211cc36a26da6439 dbe8c9a7011e7abb b91480372a8b4437 d165a87003236075 441db30da3143a1 84bc87d82d4e7217 3071d28cbd565b67 17879f09d6223048 8370a25f34b3adbc f20a09239c4426e1 f266572ab3e274eb e89622a78991a82c 25d5cf0ef5d6f989 29b96e75daa02bcb e431d3f7183c2638 8e131fc1924f911c ecefbce78a07a305 a243c93db7cc8e36 ca1c1f53d12190df db2933e43056e8ff e8237735b70bdc3a 882d6d19fd6cfd22 2dc3e621b23f9688 e94b72c3e356a0fe e0c39e2095e75d56 c826f3dff178dfdc d4cf80da0e878441 a46ee197317266a2 a2eb467eb5931efa c41aa33bec95d576 9e083c18f7bac759 ad4de653e88984d3 d51f5a49c0f38297 38ae49f0f168898f d9f20e62f3279662 341b18f9e5fc3043 d764b9d2af1168ab a238ff0decc962e9 d2c5932cb156c834 e06830e0d6541806 c31d7aef2a2a4cff db81153382a12fed d8f547f415e30e1c c00d5b1bbbe94613 3e8a76019c12c2e3 b1f5d0ff9b8e704e d777b662177fbdf5 b39280d8f2032c1a d919c6916022c63 2d81ea58e58851d8 d78b7df2e50952cb fb0b7f2ee1146b30 c69cbd08e51d1a5b ca266d26288d6986 89a1d4b61e283afb 83455556c531ec54 ] wstrb=[bf da 7d ba 91 d1 10 50 ac 8d a 3d 5f 1a 8d b a8 97 48 7 b1 d5 12 59 6c 5a 60 1d 2f 72 77 9b cc d7 b8 fb 4a 2f 96 16 7 4f 12 51 7e a8 67 85 f7 79 d6 76 22 3e fb 19 b7 d2 8f d9 10 8b f3 c7 5d 82 a1 6d d 94 34 6a 16 d5 d7 24 69 c 8e 80 e1 66 a4 4b 72 32 cb 53 98 6f 9e a a1 69 5e 3a d8 fc 44 7a 66 a2 b4 3e 9f f8 b8 5 9b 6c 43 3a 65 fc 3f 0 68 82 3a cd 7e 79 cd e7 fb 7 b4 7a 80 82 61 7c 89 15 f6 a 97 57 86 21 6c 7c 2b 4 d3 b1 25 3f 2d 50 43 ] bresp=0 bid=110
[1595000] SCOREBOARD MATCH: decode_err expected = 0, actual =0
[1595000] SCOREBOARD MATCH: slave_id expected = 0, actual =0
[1595000] SCOREBOARD MATCH: awaddr passthrough expected = 9a88d0, actual =9a88d0
[1595000] SCOREBOARD MATCH: awlen passthrough expected = 150, actual =150
[1595000] SCOREBOARD MATCH: awsize passthrough expected = 5, actual =5
[1595000] SCOREBOARD MATCH: awburst passthrough expected = 1, actual =1
[1595000] SCOREBOARD MATCH: wdata size check expected = 97, actual =97
[1595000] SCOREBOARD MATCH: wdata passthrough beat=0 expected = b9d39e9330fcf185, actual =b9d39e9330fcf185
[1595000] SCOREBOARD MATCH: wdata passthrough beat=1 expected = ddde6596d0e0c687, actual =ddde6596d0e0c687
[1595000] SCOREBOARD MATCH: wdata passthrough beat=2 expected = 3f725284c9e6efae, actual =3f725284c9e6efae
[1595000] SCOREBOARD MATCH: wdata passthrough beat=3 expected = fae3e133d0ba1081, actual =fae3e133d0ba1081
[1595000] SCOREBOARD MATCH: wdata passthrough beat=4 expected = a19ad708f945f117, actual =a19ad708f945f117
[1595000] SCOREBOARD MATCH: wdata passthrough beat=5 expected = c32ce0c5d8c246c9, actual =c32ce0c5d8c246c9
[1595000] SCOREBOARD MATCH: wdata passthrough beat=6 expected = a97c574ae10d298c, actual =a97c574ae10d298c
[1595000] SCOREBOARD MATCH: wdata passthrough beat=7 expected = da531aa4be10c1f8, actual =da531aa4be10c1f8
[1595000] SCOREBOARD MATCH: wdata passthrough beat=8 expected = 96d308c1cb172e53, actual =96d308c1cb172e53
[1595000] SCOREBOARD MATCH: wdata passthrough beat=9 expected = ac2457df9d7ffb69, actual =ac2457df9d7ffb69
[1595000] SCOREBOARD MATCH: wdata passthrough beat=10 expected = db90bd62c04f600c, actual =db90bd62c04f600c
[1595000] SCOREBOARD MATCH: wdata passthrough beat=11 expected = b668e5f86777283, actual =b668e5f86777283
[1595000] SCOREBOARD MATCH: wdata passthrough beat=12 expected = 23f76dedf263c623, actual =23f76dedf263c623
[1595000] SCOREBOARD MATCH: wdata passthrough beat=13 expected = b2b3262fb78ae63e, actual =b2b3262fb78ae63e
[1595000] SCOREBOARD MATCH: wdata passthrough beat=14 expected = 3e0258c2ff882b4f, actual =3e0258c2ff882b4f
[1595000] SCOREBOARD MATCH: wdata passthrough beat=15 expected = f1ebf172be19b48e, actual =f1ebf172be19b48e
[1595000] SCOREBOARD MATCH: wdata passthrough beat=16 expected = f5a49acde1f9c6af, actual =f5a49acde1f9c6af
[1595000] SCOREBOARD MATCH: wdata passthrough beat=17 expected = e181f1fe249f17a2, actual =e181f1fe249f17a2
[1595000] SCOREBOARD MATCH: wdata passthrough beat=18 expected = e2b8cc3033a6f38f, actual =e2b8cc3033a6f38f
[1595000] SCOREBOARD MATCH: wdata passthrough beat=19 expected = 15a0ba3ed36de370, actual =15a0ba3ed36de370
[1595000] SCOREBOARD MATCH: wdata passthrough beat=20 expected = f80cfb12d85d66fd, actual =f80cfb12d85d66fd
[1595000] SCOREBOARD MATCH: wdata passthrough beat=21 expected = 8c045a8cf722ac3c, actual =8c045a8cf722ac3c
[1595000] SCOREBOARD MATCH: wdata passthrough beat=22 expected = ca908facdac5c743, actual =ca908facdac5c743
[1595000] SCOREBOARD MATCH: wdata passthrough beat=23 expected = b3232e40a1a514ca, actual =b3232e40a1a514ca
[1595000] SCOREBOARD MATCH: wdata passthrough beat=24 expected = 98c7c106c29d8abf, actual =98c7c106c29d8abf
[1595000] SCOREBOARD MATCH: wdata passthrough beat=25 expected = 1d6352023f2788cd, actual =1d6352023f2788cd
[1595000] SCOREBOARD MATCH: wdata passthrough beat=26 expected = e0cc9d97e35850b3, actual =e0cc9d97e35850b3
[1595000] SCOREBOARD MATCH: wdata passthrough beat=27 expected = 25f5db72d0868042, actual =25f5db72d0868042
[1595000] SCOREBOARD MATCH: wdata passthrough beat=28 expected = 8fae090ff9945e9e, actual =8fae090ff9945e9e
[1595000] SCOREBOARD MATCH: wdata passthrough beat=29 expected = dcecaf51c3592d74, actual =dcecaf51c3592d74
[1595000] SCOREBOARD MATCH: wdata passthrough beat=30 expected = 93dfadb6f07aa6a7, actual =93dfadb6f07aa6a7
[1595000] SCOREBOARD MATCH: wdata passthrough beat=31 expected = ea0f054502e28ac3, actual =ea0f054502e28ac3
[1595000] SCOREBOARD MATCH: wdata passthrough beat=32 expected = c63bb837238db6c6, actual =c63bb837238db6c6
[1595000] SCOREBOARD MATCH: wdata passthrough beat=33 expected = 14085d6dc6fbb496, actual =14085d6dc6fbb496
[1595000] SCOREBOARD MATCH: wdata passthrough beat=34 expected = c9de3f59da1b65ed, actual =c9de3f59da1b65ed
[1595000] SCOREBOARD MATCH: wdata passthrough beat=35 expected = fda91cb3fe1762b2, actual =fda91cb3fe1762b2
[1595000] SCOREBOARD MATCH: wdata passthrough beat=36 expected = c51317481019f790, actual =c51317481019f790
[1595000] SCOREBOARD MATCH: wdata passthrough beat=37 expected = ea355d7d91b17a20, actual =ea355d7d91b17a20
[1595000] SCOREBOARD MATCH: wdata passthrough beat=38 expected = 8fc8dcd20ef156a1, actual =8fc8dcd20ef156a1
[1595000] SCOREBOARD MATCH: wdata passthrough beat=39 expected = 1f0b4e31e7de7a31, actual =1f0b4e31e7de7a31
[1595000] SCOREBOARD MATCH: wdata passthrough beat=40 expected = f98ff451d4dbf41a, actual =f98ff451d4dbf41a
[1595000] SCOREBOARD MATCH: wdata passthrough beat=41 expected = e3cd4abb8940abae, actual =e3cd4abb8940abae
[1595000] SCOREBOARD MATCH: wdata passthrough beat=42 expected = f11f25df0958d124, actual =f11f25df0958d124
[1595000] SCOREBOARD MATCH: wdata passthrough beat=43 expected = de34c53e82d898ec, actual =de34c53e82d898ec
[1595000] SCOREBOARD MATCH: wdata passthrough beat=44 expected = c19449beaaf1a31, actual =c19449beaaf1a31
[1595000] SCOREBOARD MATCH: wdata passthrough beat=45 expected = f407eb55c2020ffa, actual =f407eb55c2020ffa
[1595000] SCOREBOARD MATCH: wdata passthrough beat=46 expected = c4daa8e6fd386a7a, actual =c4daa8e6fd386a7a
[1595000] SCOREBOARD MATCH: wdata passthrough beat=47 expected = e7e784abd23cb093, actual =e7e784abd23cb093
[1595000] SCOREBOARD MATCH: wdata passthrough beat=48 expected = 943ec08dd0f3ed81, actual =943ec08dd0f3ed81
[1595000] SCOREBOARD MATCH: wdata passthrough beat=49 expected = ce2c57fcdbef7000, actual =ce2c57fcdbef7000
[1595000] SCOREBOARD MATCH: wdata passthrough beat=50 expected = 2e2c2094d9196974, actual =2e2c2094d9196974
[1595000] SCOREBOARD MATCH: wdata passthrough beat=51 expected = aa0d56f5b613dca7, actual =aa0d56f5b613dca7
[1595000] SCOREBOARD MATCH: wdata passthrough beat=52 expected = 12034ca8c26ae121, actual =12034ca8c26ae121
[1595000] SCOREBOARD MATCH: wdata passthrough beat=53 expected = 9b844a95f839aef1, actual =9b844a95f839aef1
[1595000] SCOREBOARD MATCH: wdata passthrough beat=54 expected = 2e4d8b99c02f6d3c, actual =2e4d8b99c02f6d3c
[1595000] SCOREBOARD MATCH: wdata passthrough beat=55 expected = 829a4e5dc591a18b, actual =829a4e5dc591a18b
[1595000] SCOREBOARD MATCH: wdata passthrough beat=56 expected = bdcb507cc050d841, actual =bdcb507cc050d841
[1595000] SCOREBOARD MATCH: wdata passthrough beat=57 expected = 80457d1e1e98f3, actual =80457d1e1e98f3
[1595000] SCOREBOARD MATCH: wdata passthrough beat=58 expected = e3b03a7eec18dc15, actual =e3b03a7eec18dc15
[1595000] SCOREBOARD MATCH: wdata passthrough beat=59 expected = ac69b456831a93da, actual =ac69b456831a93da
[1595000] SCOREBOARD MATCH: wdata passthrough beat=60 expected = a1392ccda17b8afa, actual =a1392ccda17b8afa
[1595000] SCOREBOARD MATCH: wdata passthrough beat=61 expected = d946710ace9f9d3, actual =d946710ace9f9d3
[1595000] SCOREBOARD MATCH: wdata passthrough beat=62 expected = 30048dae84e9674b, actual =30048dae84e9674b
[1595000] SCOREBOARD MATCH: wdata passthrough beat=63 expected = 2664f246b9fe1b66, actual =2664f246b9fe1b66
[1595000] SCOREBOARD MATCH: wdata passthrough beat=64 expected = e6e8153ad13dba7b, actual =e6e8153ad13dba7b
[1595000] SCOREBOARD MATCH: wdata passthrough beat=65 expected = d62721c733f95956, actual =d62721c733f95956
[1595000] SCOREBOARD MATCH: wdata passthrough beat=66 expected = edf774bc16eca2e8, actual =edf774bc16eca2e8
[1595000] SCOREBOARD MATCH: wdata passthrough beat=67 expected = e82a5d63fc8c140d, actual =e82a5d63fc8c140d
[1595000] SCOREBOARD MATCH: wdata passthrough beat=68 expected = 30856d63d4df89f6, actual =30856d63d4df89f6
[1595000] SCOREBOARD MATCH: wdata passthrough beat=69 expected = ebcc2cdebe517f2a, actual =ebcc2cdebe517f2a
[1595000] SCOREBOARD MATCH: wdata passthrough beat=70 expected = badd93379e7ce21f, actual =badd93379e7ce21f
[1595000] SCOREBOARD MATCH: wdata passthrough beat=71 expected = f35c6c16d3f68a42, actual =f35c6c16d3f68a42
[1595000] SCOREBOARD MATCH: wdata passthrough beat=72 expected = 9248096ceb63009a, actual =9248096ceb63009a
[1595000] SCOREBOARD MATCH: wdata passthrough beat=73 expected = 9dfe2badf2898f4, actual =9dfe2badf2898f4
[1595000] SCOREBOARD MATCH: wdata passthrough beat=74 expected = b31f2336cd259ca4, actual =b31f2336cd259ca4
[1595000] SCOREBOARD MATCH: wdata passthrough beat=75 expected = b8889d3efd3c4ed0, actual =b8889d3efd3c4ed0
[1595000] SCOREBOARD MATCH: wdata passthrough beat=76 expected = dc64e7c4c5672ca3, actual =dc64e7c4c5672ca3
[1595000] SCOREBOARD MATCH: wdata passthrough beat=77 expected = 128cc947c2687ff8, actual =128cc947c2687ff8
[1595000] SCOREBOARD MATCH: wdata passthrough beat=78 expected = bfa4cec80f840afb, actual =bfa4cec80f840afb
[1595000] SCOREBOARD MATCH: wdata passthrough beat=79 expected = d4eb379ecb156685, actual =d4eb379ecb156685
[1595000] SCOREBOARD MATCH: wdata passthrough beat=80 expected = d7de67e1c09b68d, actual =d7de67e1c09b68d
[1595000] SCOREBOARD MATCH: wdata passthrough beat=81 expected = 2b8dc188e77800e5, actual =2b8dc188e77800e5
[1595000] SCOREBOARD MATCH: wdata passthrough beat=82 expected = b28d676acd22b546, actual =b28d676acd22b546
[1595000] SCOREBOARD MATCH: wdata passthrough beat=83 expected = e92c6bd30078f926, actual =e92c6bd30078f926
[1595000] SCOREBOARD MATCH: wdata passthrough beat=84 expected = e7f0fa0bc00b4de8, actual =e7f0fa0bc00b4de8
[1595000] SCOREBOARD MATCH: wdata passthrough beat=85 expected = d2e032f94ba2d5b, actual =d2e032f94ba2d5b
[1595000] SCOREBOARD MATCH: wdata passthrough beat=86 expected = 953326819a7e6175, actual =953326819a7e6175
[1595000] SCOREBOARD MATCH: wdata passthrough beat=87 expected = da89af5ef65a6f02, actual =da89af5ef65a6f02
[1595000] SCOREBOARD MATCH: wdata passthrough beat=88 expected = b149c5efd24208c, actual =b149c5efd24208c
[1595000] SCOREBOARD MATCH: wdata passthrough beat=89 expected = 17a28202e7b7b28d, actual =17a28202e7b7b28d
[1595000] SCOREBOARD MATCH: wdata passthrough beat=90 expected = de12218fa047c2df, actual =de12218fa047c2df
[1595000] SCOREBOARD MATCH: wdata passthrough beat=91 expected = 1d6be36cf22c3160, actual =1d6be36cf22c3160
[1595000] SCOREBOARD MATCH: wdata passthrough beat=92 expected = d9e3e3ede926bded, actual =d9e3e3ede926bded
[1595000] SCOREBOARD MATCH: wdata passthrough beat=93 expected = 96e80cd350e656e, actual =96e80cd350e656e
[1595000] SCOREBOARD MATCH: wdata passthrough beat=94 expected = 273a96ceb7f6057c, actual =273a96ceb7f6057c
[1595000] SCOREBOARD MATCH: wdata passthrough beat=95 expected = 211cc36a26da6439, actual =211cc36a26da6439
[1595000] SCOREBOARD MATCH: wdata passthrough beat=96 expected = dbe8c9a7011e7abb, actual =dbe8c9a7011e7abb
[1595000] SCOREBOARD MATCH: wdata passthrough beat=97 expected = b91480372a8b4437, actual =b91480372a8b4437
[1595000] SCOREBOARD MATCH: wdata passthrough beat=98 expected = d165a87003236075, actual =d165a87003236075
[1595000] SCOREBOARD MATCH: wdata passthrough beat=99 expected = 441db30da3143a1, actual =441db30da3143a1
[1595000] SCOREBOARD MATCH: wdata passthrough beat=100 expected = 84bc87d82d4e7217, actual =84bc87d82d4e7217
[1595000] SCOREBOARD MATCH: wdata passthrough beat=101 expected = 3071d28cbd565b67, actual =3071d28cbd565b67
[1595000] SCOREBOARD MATCH: wdata passthrough beat=102 expected = 17879f09d6223048, actual =17879f09d6223048
[1595000] SCOREBOARD MATCH: wdata passthrough beat=103 expected = 8370a25f34b3adbc, actual =8370a25f34b3adbc
[1595000] SCOREBOARD MATCH: wdata passthrough beat=104 expected = f20a09239c4426e1, actual =f20a09239c4426e1
[1595000] SCOREBOARD MATCH: wdata passthrough beat=105 expected = f266572ab3e274eb, actual =f266572ab3e274eb
[1595000] SCOREBOARD MATCH: wdata passthrough beat=106 expected = e89622a78991a82c, actual =e89622a78991a82c
[1595000] SCOREBOARD MATCH: wdata passthrough beat=107 expected = 25d5cf0ef5d6f989, actual =25d5cf0ef5d6f989
[1595000] SCOREBOARD MATCH: wdata passthrough beat=108 expected = 29b96e75daa02bcb, actual =29b96e75daa02bcb
[1595000] SCOREBOARD MATCH: wdata passthrough beat=109 expected = e431d3f7183c2638, actual =e431d3f7183c2638
[1595000] SCOREBOARD MATCH: wdata passthrough beat=110 expected = 8e131fc1924f911c, actual =8e131fc1924f911c
[1595000] SCOREBOARD MATCH: wdata passthrough beat=111 expected = ecefbce78a07a305, actual =ecefbce78a07a305
[1595000] SCOREBOARD MATCH: wdata passthrough beat=112 expected = a243c93db7cc8e36, actual =a243c93db7cc8e36
[1595000] SCOREBOARD MATCH: wdata passthrough beat=113 expected = ca1c1f53d12190df, actual =ca1c1f53d12190df
[1595000] SCOREBOARD MATCH: wdata passthrough beat=114 expected = db2933e43056e8ff, actual =db2933e43056e8ff
[1595000] SCOREBOARD MATCH: wdata passthrough beat=115 expected = e8237735b70bdc3a, actual =e8237735b70bdc3a
[1595000] SCOREBOARD MATCH: wdata passthrough beat=116 expected = 882d6d19fd6cfd22, actual =882d6d19fd6cfd22
[1595000] SCOREBOARD MATCH: wdata passthrough beat=117 expected = 2dc3e621b23f9688, actual =2dc3e621b23f9688
[1595000] SCOREBOARD MATCH: wdata passthrough beat=118 expected = e94b72c3e356a0fe, actual =e94b72c3e356a0fe
[1595000] SCOREBOARD MATCH: wdata passthrough beat=119 expected = e0c39e2095e75d56, actual =e0c39e2095e75d56
[1595000] SCOREBOARD MATCH: wdata passthrough beat=120 expected = c826f3dff178dfdc, actual =c826f3dff178dfdc
[1595000] SCOREBOARD MATCH: wdata passthrough beat=121 expected = d4cf80da0e878441, actual =d4cf80da0e878441
[1595000] SCOREBOARD MATCH: wdata passthrough beat=122 expected = a46ee197317266a2, actual =a46ee197317266a2
[1595000] SCOREBOARD MATCH: wdata passthrough beat=123 expected = a2eb467eb5931efa, actual =a2eb467eb5931efa
[1595000] SCOREBOARD MATCH: wdata passthrough beat=124 expected = c41aa33bec95d576, actual =c41aa33bec95d576
[1595000] SCOREBOARD MATCH: wdata passthrough beat=125 expected = 9e083c18f7bac759, actual =9e083c18f7bac759
[1595000] SCOREBOARD MATCH: wdata passthrough beat=126 expected = ad4de653e88984d3, actual =ad4de653e88984d3
[1595000] SCOREBOARD MATCH: wdata passthrough beat=127 expected = d51f5a49c0f38297, actual =d51f5a49c0f38297
[1595000] SCOREBOARD MATCH: wdata passthrough beat=128 expected = 38ae49f0f168898f, actual =38ae49f0f168898f
[1595000] SCOREBOARD MATCH: wdata passthrough beat=129 expected = d9f20e62f3279662, actual =d9f20e62f3279662
[1595000] SCOREBOARD MATCH: wdata passthrough beat=130 expected = 341b18f9e5fc3043, actual =341b18f9e5fc3043
[1595000] SCOREBOARD MATCH: wdata passthrough beat=131 expected = d764b9d2af1168ab, actual =d764b9d2af1168ab
[1595000] SCOREBOARD MATCH: wdata passthrough beat=132 expected = a238ff0decc962e9, actual =a238ff0decc962e9
[1595000] SCOREBOARD MATCH: wdata passthrough beat=133 expected = d2c5932cb156c834, actual =d2c5932cb156c834
[1595000] SCOREBOARD MATCH: wdata passthrough beat=134 expected = e06830e0d6541806, actual =e06830e0d6541806
[1595000] SCOREBOARD MATCH: wdata passthrough beat=135 expected = c31d7aef2a2a4cff, actual =c31d7aef2a2a4cff
[1595000] SCOREBOARD MATCH: wdata passthrough beat=136 expected = db81153382a12fed, actual =db81153382a12fed
[1595000] SCOREBOARD MATCH: wdata passthrough beat=137 expected = d8f547f415e30e1c, actual =d8f547f415e30e1c
[1595000] SCOREBOARD MATCH: wdata passthrough beat=138 expected = c00d5b1bbbe94613, actual =c00d5b1bbbe94613
[1595000] SCOREBOARD MATCH: wdata passthrough beat=139 expected = 3e8a76019c12c2e3, actual =3e8a76019c12c2e3
[1595000] SCOREBOARD MATCH: wdata passthrough beat=140 expected = b1f5d0ff9b8e704e, actual =b1f5d0ff9b8e704e
[1595000] SCOREBOARD MATCH: wdata passthrough beat=141 expected = d777b662177fbdf5, actual =d777b662177fbdf5
[1595000] SCOREBOARD MATCH: wdata passthrough beat=142 expected = b39280d8f2032c1a, actual =b39280d8f2032c1a
[1595000] SCOREBOARD MATCH: wdata passthrough beat=143 expected = d919c6916022c63, actual =d919c6916022c63
[1595000] SCOREBOARD MATCH: wdata passthrough beat=144 expected = 2d81ea58e58851d8, actual =2d81ea58e58851d8
[1595000] SCOREBOARD MATCH: wdata passthrough beat=145 expected = d78b7df2e50952cb, actual =d78b7df2e50952cb
[1595000] SCOREBOARD MATCH: wdata passthrough beat=146 expected = fb0b7f2ee1146b30, actual =fb0b7f2ee1146b30
[1595000] SCOREBOARD MATCH: wdata passthrough beat=147 expected = c69cbd08e51d1a5b, actual =c69cbd08e51d1a5b
[1595000] SCOREBOARD MATCH: wdata passthrough beat=148 expected = ca266d26288d6986, actual =ca266d26288d6986
[1595000] SCOREBOARD MATCH: wdata passthrough beat=149 expected = 89a1d4b61e283afb, actual =89a1d4b61e283afb
[1595000] SCOREBOARD MATCH: wdata passthrough beat=150 expected = 83455556c531ec54, actual =83455556c531ec54
[1595000] SCOREBOARD MATCH: wstrb size check expected = 97, actual =97
[1595000] SCOREBOARD MATCH: wstrb passthrough beat=0 expected = bf, actual =bf
[1595000] SCOREBOARD MATCH: wstrb passthrough beat=1 expected = da, actual =da
[1595000] SCOREBOARD MATCH: wstrb passthrough beat=2 expected = 7d, actual =7d
[1595000] SCOREBOARD MATCH: wstrb passthrough beat=3 expected = ba, actual =ba
[1595000] SCOREBOARD MATCH: wstrb passthrough beat=4 expected = 91, actual =91
[1595000] SCOREBOARD MATCH: wstrb passthrough beat=5 expected = d1, actual =d1
[1595000] SCOREBOARD MATCH: wstrb passthrough beat=6 expected = 10, actual =10
[1595000] SCOREBOARD MATCH: wstrb passthrough beat=7 expected = 50, actual =50
[1595000] SCOREBOARD MATCH: wstrb passthrough beat=8 expected = ac, actual =ac
[1595000] SCOREBOARD MATCH: wstrb passthrough beat=9 expected = 8d, actual =8d
[1595000] SCOREBOARD MATCH: wstrb passthrough beat=10 expected = a, actual =a
[1595000] SCOREBOARD MATCH: wstrb passthrough beat=11 expected = 3d, actual =3d
[1595000] SCOREBOARD MATCH: wstrb passthrough beat=12 expected = 5f, actual =5f
[1595000] SCOREBOARD MATCH: wstrb passthrough beat=13 expected = 1a, actual =1a
[1595000] SCOREBOARD MATCH: wstrb passthrough beat=14 expected = 8d, actual =8d
[1595000] SCOREBOARD MATCH: wstrb passthrough beat=15 expected = b, actual =b
[1595000] SCOREBOARD MATCH: wstrb passthrough beat=16 expected = a8, actual =a8
[1595000] SCOREBOARD MATCH: wstrb passthrough beat=17 expected = 97, actual =97
[1595000] SCOREBOARD MATCH: wstrb passthrough beat=18 expected = 48, actual =48
[1595000] SCOREBOARD MATCH: wstrb passthrough beat=19 expected = 7, actual =7
[1595000] SCOREBOARD MATCH: wstrb passthrough beat=20 expected = b1, actual =b1
[1595000] SCOREBOARD MATCH: wstrb passthrough beat=21 expected = d5, actual =d5
[1595000] SCOREBOARD MATCH: wstrb passthrough beat=22 expected = 12, actual =12
[1595000] SCOREBOARD MATCH: wstrb passthrough beat=23 expected = 59, actual =59
[1595000] SCOREBOARD MATCH: wstrb passthrough beat=24 expected = 6c, actual =6c
[1595000] SCOREBOARD MATCH: wstrb passthrough beat=25 expected = 5a, actual =5a
[1595000] SCOREBOARD MATCH: wstrb passthrough beat=26 expected = 60, actual =60
[1595000] SCOREBOARD MATCH: wstrb passthrough beat=27 expected = 1d, actual =1d
[1595000] SCOREBOARD MATCH: wstrb passthrough beat=28 expected = 2f, actual =2f
[1595000] SCOREBOARD MATCH: wstrb passthrough beat=29 expected = 72, actual =72
[1595000] SCOREBOARD MATCH: wstrb passthrough beat=30 expected = 77, actual =77
[1595000] SCOREBOARD MATCH: wstrb passthrough beat=31 expected = 9b, actual =9b
[1595000] SCOREBOARD MATCH: wstrb passthrough beat=32 expected = cc, actual =cc
[1595000] SCOREBOARD MATCH: wstrb passthrough beat=33 expected = d7, actual =d7
[1595000] SCOREBOARD MATCH: wstrb passthrough beat=34 expected = b8, actual =b8
[1595000] SCOREBOARD MATCH: wstrb passthrough beat=35 expected = fb, actual =fb
[1595000] SCOREBOARD MATCH: wstrb passthrough beat=36 expected = 4a, actual =4a
[1595000] SCOREBOARD MATCH: wstrb passthrough beat=37 expected = 2f, actual =2f
[1595000] SCOREBOARD MATCH: wstrb passthrough beat=38 expected = 96, actual =96
[1595000] SCOREBOARD MATCH: wstrb passthrough beat=39 expected = 16, actual =16
[1595000] SCOREBOARD MATCH: wstrb passthrough beat=40 expected = 7, actual =7
[1595000] SCOREBOARD MATCH: wstrb passthrough beat=41 expected = 4f, actual =4f
[1595000] SCOREBOARD MATCH: wstrb passthrough beat=42 expected = 12, actual =12
[1595000] SCOREBOARD MATCH: wstrb passthrough beat=43 expected = 51, actual =51
[1595000] SCOREBOARD MATCH: wstrb passthrough beat=44 expected = 7e, actual =7e
[1595000] SCOREBOARD MATCH: wstrb passthrough beat=45 expected = a8, actual =a8
[1595000] SCOREBOARD MATCH: wstrb passthrough beat=46 expected = 67, actual =67
[1595000] SCOREBOARD MATCH: wstrb passthrough beat=47 expected = 85, actual =85
[1595000] SCOREBOARD MATCH: wstrb passthrough beat=48 expected = f7, actual =f7
[1595000] SCOREBOARD MATCH: wstrb passthrough beat=49 expected = 79, actual =79
[1595000] SCOREBOARD MATCH: wstrb passthrough beat=50 expected = d6, actual =d6
[1595000] SCOREBOARD MATCH: wstrb passthrough beat=51 expected = 76, actual =76
[1595000] SCOREBOARD MATCH: wstrb passthrough beat=52 expected = 22, actual =22
[1595000] SCOREBOARD MATCH: wstrb passthrough beat=53 expected = 3e, actual =3e
[1595000] SCOREBOARD MATCH: wstrb passthrough beat=54 expected = fb, actual =fb
[1595000] SCOREBOARD MATCH: wstrb passthrough beat=55 expected = 19, actual =19
[1595000] SCOREBOARD MATCH: wstrb passthrough beat=56 expected = b7, actual =b7
[1595000] SCOREBOARD MATCH: wstrb passthrough beat=57 expected = d2, actual =d2
[1595000] SCOREBOARD MATCH: wstrb passthrough beat=58 expected = 8f, actual =8f
[1595000] SCOREBOARD MATCH: wstrb passthrough beat=59 expected = d9, actual =d9
[1595000] SCOREBOARD MATCH: wstrb passthrough beat=60 expected = 10, actual =10
[1595000] SCOREBOARD MATCH: wstrb passthrough beat=61 expected = 8b, actual =8b
[1595000] SCOREBOARD MATCH: wstrb passthrough beat=62 expected = f3, actual =f3
[1595000] SCOREBOARD MATCH: wstrb passthrough beat=63 expected = c7, actual =c7
[1595000] SCOREBOARD MATCH: wstrb passthrough beat=64 expected = 5d, actual =5d
[1595000] SCOREBOARD MATCH: wstrb passthrough beat=65 expected = 82, actual =82
[1595000] SCOREBOARD MATCH: wstrb passthrough beat=66 expected = a1, actual =a1
[1595000] SCOREBOARD MATCH: wstrb passthrough beat=67 expected = 6d, actual =6d
[1595000] SCOREBOARD MATCH: wstrb passthrough beat=68 expected = d, actual =d
[1595000] SCOREBOARD MATCH: wstrb passthrough beat=69 expected = 94, actual =94
[1595000] SCOREBOARD MATCH: wstrb passthrough beat=70 expected = 34, actual =34
[1595000] SCOREBOARD MATCH: wstrb passthrough beat=71 expected = 6a, actual =6a
[1595000] SCOREBOARD MATCH: wstrb passthrough beat=72 expected = 16, actual =16
[1595000] SCOREBOARD MATCH: wstrb passthrough beat=73 expected = d5, actual =d5
[1595000] SCOREBOARD MATCH: wstrb passthrough beat=74 expected = d7, actual =d7
[1595000] SCOREBOARD MATCH: wstrb passthrough beat=75 expected = 24, actual =24
[1595000] SCOREBOARD MATCH: wstrb passthrough beat=76 expected = 69, actual =69
[1595000] SCOREBOARD MATCH: wstrb passthrough beat=77 expected = c, actual =c
[1595000] SCOREBOARD MATCH: wstrb passthrough beat=78 expected = 8e, actual =8e
[1595000] SCOREBOARD MATCH: wstrb passthrough beat=79 expected = 80, actual =80
[1595000] SCOREBOARD MATCH: wstrb passthrough beat=80 expected = e1, actual =e1
[1595000] SCOREBOARD MATCH: wstrb passthrough beat=81 expected = 66, actual =66
[1595000] SCOREBOARD MATCH: wstrb passthrough beat=82 expected = a4, actual =a4
[1595000] SCOREBOARD MATCH: wstrb passthrough beat=83 expected = 4b, actual =4b
[1595000] SCOREBOARD MATCH: wstrb passthrough beat=84 expected = 72, actual =72
[1595000] SCOREBOARD MATCH: wstrb passthrough beat=85 expected = 32, actual =32
[1595000] SCOREBOARD MATCH: wstrb passthrough beat=86 expected = cb, actual =cb
[1595000] SCOREBOARD MATCH: wstrb passthrough beat=87 expected = 53, actual =53
[1595000] SCOREBOARD MATCH: wstrb passthrough beat=88 expected = 98, actual =98
[1595000] SCOREBOARD MATCH: wstrb passthrough beat=89 expected = 6f, actual =6f
[1595000] SCOREBOARD MATCH: wstrb passthrough beat=90 expected = 9e, actual =9e
[1595000] SCOREBOARD MATCH: wstrb passthrough beat=91 expected = a, actual =a
[1595000] SCOREBOARD MATCH: wstrb passthrough beat=92 expected = a1, actual =a1
[1595000] SCOREBOARD MATCH: wstrb passthrough beat=93 expected = 69, actual =69
[1595000] SCOREBOARD MATCH: wstrb passthrough beat=94 expected = 5e, actual =5e
[1595000] SCOREBOARD MATCH: wstrb passthrough beat=95 expected = 3a, actual =3a
[1595000] SCOREBOARD MATCH: wstrb passthrough beat=96 expected = d8, actual =d8
[1595000] SCOREBOARD MATCH: wstrb passthrough beat=97 expected = fc, actual =fc
[1595000] SCOREBOARD MATCH: wstrb passthrough beat=98 expected = 44, actual =44
[1595000] SCOREBOARD MATCH: wstrb passthrough beat=99 expected = 7a, actual =7a
[1595000] SCOREBOARD MATCH: wstrb passthrough beat=100 expected = 66, actual =66
[1595000] SCOREBOARD MATCH: wstrb passthrough beat=101 expected = a2, actual =a2
[1595000] SCOREBOARD MATCH: wstrb passthrough beat=102 expected = b4, actual =b4
[1595000] SCOREBOARD MATCH: wstrb passthrough beat=103 expected = 3e, actual =3e
[1595000] SCOREBOARD MATCH: wstrb passthrough beat=104 expected = 9f, actual =9f
[1595000] SCOREBOARD MATCH: wstrb passthrough beat=105 expected = f8, actual =f8
[1595000] SCOREBOARD MATCH: wstrb passthrough beat=106 expected = b8, actual =b8
[1595000] SCOREBOARD MATCH: wstrb passthrough beat=107 expected = 5, actual =5
[1595000] SCOREBOARD MATCH: wstrb passthrough beat=108 expected = 9b, actual =9b
[1595000] SCOREBOARD MATCH: wstrb passthrough beat=109 expected = 6c, actual =6c
[1595000] SCOREBOARD MATCH: wstrb passthrough beat=110 expected = 43, actual =43
[1595000] SCOREBOARD MATCH: wstrb passthrough beat=111 expected = 3a, actual =3a
[1595000] SCOREBOARD MATCH: wstrb passthrough beat=112 expected = 65, actual =65
[1595000] SCOREBOARD MATCH: wstrb passthrough beat=113 expected = fc, actual =fc
[1595000] SCOREBOARD MATCH: wstrb passthrough beat=114 expected = 3f, actual =3f
[1595000] SCOREBOARD MATCH: wstrb passthrough beat=115 expected = 0, actual =0
[1595000] SCOREBOARD MATCH: wstrb passthrough beat=116 expected = 68, actual =68
[1595000] SCOREBOARD MATCH: wstrb passthrough beat=117 expected = 82, actual =82
[1595000] SCOREBOARD MATCH: wstrb passthrough beat=118 expected = 3a, actual =3a
[1595000] SCOREBOARD MATCH: wstrb passthrough beat=119 expected = cd, actual =cd
[1595000] SCOREBOARD MATCH: wstrb passthrough beat=120 expected = 7e, actual =7e
[1595000] SCOREBOARD MATCH: wstrb passthrough beat=121 expected = 79, actual =79
[1595000] SCOREBOARD MATCH: wstrb passthrough beat=122 expected = cd, actual =cd
[1595000] SCOREBOARD MATCH: wstrb passthrough beat=123 expected = e7, actual =e7
[1595000] SCOREBOARD MATCH: wstrb passthrough beat=124 expected = fb, actual =fb
[1595000] SCOREBOARD MATCH: wstrb passthrough beat=125 expected = 7, actual =7
[1595000] SCOREBOARD MATCH: wstrb passthrough beat=126 expected = b4, actual =b4
[1595000] SCOREBOARD MATCH: wstrb passthrough beat=127 expected = 7a, actual =7a
[1595000] SCOREBOARD MATCH: wstrb passthrough beat=128 expected = 80, actual =80
[1595000] SCOREBOARD MATCH: wstrb passthrough beat=129 expected = 82, actual =82
[1595000] SCOREBOARD MATCH: wstrb passthrough beat=130 expected = 61, actual =61
[1595000] SCOREBOARD MATCH: wstrb passthrough beat=131 expected = 7c, actual =7c
[1595000] SCOREBOARD MATCH: wstrb passthrough beat=132 expected = 89, actual =89
[1595000] SCOREBOARD MATCH: wstrb passthrough beat=133 expected = 15, actual =15
[1595000] SCOREBOARD MATCH: wstrb passthrough beat=134 expected = f6, actual =f6
[1595000] SCOREBOARD MATCH: wstrb passthrough beat=135 expected = a, actual =a
[1595000] SCOREBOARD MATCH: wstrb passthrough beat=136 expected = 97, actual =97
[1595000] SCOREBOARD MATCH: wstrb passthrough beat=137 expected = 57, actual =57
[1595000] SCOREBOARD MATCH: wstrb passthrough beat=138 expected = 86, actual =86
[1595000] SCOREBOARD MATCH: wstrb passthrough beat=139 expected = 21, actual =21
[1595000] SCOREBOARD MATCH: wstrb passthrough beat=140 expected = 6c, actual =6c
[1595000] SCOREBOARD MATCH: wstrb passthrough beat=141 expected = 7c, actual =7c
[1595000] SCOREBOARD MATCH: wstrb passthrough beat=142 expected = 2b, actual =2b
[1595000] SCOREBOARD MATCH: wstrb passthrough beat=143 expected = 4, actual =4
[1595000] SCOREBOARD MATCH: wstrb passthrough beat=144 expected = d3, actual =d3
[1595000] SCOREBOARD MATCH: wstrb passthrough beat=145 expected = b1, actual =b1
[1595000] SCOREBOARD MATCH: wstrb passthrough beat=146 expected = 25, actual =25
[1595000] SCOREBOARD MATCH: wstrb passthrough beat=147 expected = 3f, actual =3f
[1595000] SCOREBOARD MATCH: wstrb passthrough beat=148 expected = 2d, actual =2d
[1595000] SCOREBOARD MATCH: wstrb passthrough beat=149 expected = 50, actual =50
[1595000] SCOREBOARD MATCH: wstrb passthrough beat=150 expected = 43, actual =43
[1595000] SCOREBOARD MATCH: bresp passthrough expected = 0, actual =0
[1595000] SCOREBOARD MATCH: response routed to correct master (write) expected = 0, actual =0
[1595000] [SCOREBOARD-M] mst_id=0 s_id=0 awaddr=9a88d0 awid=110 awlen=150 awsize=5 awburst=1 wdata=[b9d39e9330fcf185 ddde6596d0e0c687 3f725284c9e6efae fae3e133d0ba1081 a19ad708f945f117 c32ce0c5d8c246c9 a97c574ae10d298c da531aa4be10c1f8 96d308c1cb172e53 ac2457df9d7ffb69 db90bd62c04f600c b668e5f86777283 23f76dedf263c623 b2b3262fb78ae63e 3e0258c2ff882b4f f1ebf172be19b48e f5a49acde1f9c6af e181f1fe249f17a2 e2b8cc3033a6f38f 15a0ba3ed36de370 f80cfb12d85d66fd 8c045a8cf722ac3c ca908facdac5c743 b3232e40a1a514ca 98c7c106c29d8abf 1d6352023f2788cd e0cc9d97e35850b3 25f5db72d0868042 8fae090ff9945e9e dcecaf51c3592d74 93dfadb6f07aa6a7 ea0f054502e28ac3 c63bb837238db6c6 14085d6dc6fbb496 c9de3f59da1b65ed fda91cb3fe1762b2 c51317481019f790 ea355d7d91b17a20 8fc8dcd20ef156a1 1f0b4e31e7de7a31 f98ff451d4dbf41a e3cd4abb8940abae f11f25df0958d124 de34c53e82d898ec c19449beaaf1a31 f407eb55c2020ffa c4daa8e6fd386a7a e7e784abd23cb093 943ec08dd0f3ed81 ce2c57fcdbef7000 2e2c2094d9196974 aa0d56f5b613dca7 12034ca8c26ae121 9b844a95f839aef1 2e4d8b99c02f6d3c 829a4e5dc591a18b bdcb507cc050d841 80457d1e1e98f3 e3b03a7eec18dc15 ac69b456831a93da a1392ccda17b8afa d946710ace9f9d3 30048dae84e9674b 2664f246b9fe1b66 e6e8153ad13dba7b d62721c733f95956 edf774bc16eca2e8 e82a5d63fc8c140d 30856d63d4df89f6 ebcc2cdebe517f2a badd93379e7ce21f f35c6c16d3f68a42 9248096ceb63009a 9dfe2badf2898f4 b31f2336cd259ca4 b8889d3efd3c4ed0 dc64e7c4c5672ca3 128cc947c2687ff8 bfa4cec80f840afb d4eb379ecb156685 d7de67e1c09b68d 2b8dc188e77800e5 b28d676acd22b546 e92c6bd30078f926 e7f0fa0bc00b4de8 d2e032f94ba2d5b 953326819a7e6175 da89af5ef65a6f02 b149c5efd24208c 17a28202e7b7b28d de12218fa047c2df 1d6be36cf22c3160 d9e3e3ede926bded 96e80cd350e656e 273a96ceb7f6057c 211cc36a26da6439 dbe8c9a7011e7abb b91480372a8b4437 d165a87003236075 441db30da3143a1 84bc87d82d4e7217 3071d28cbd565b67 17879f09d6223048 8370a25f34b3adbc f20a09239c4426e1 f266572ab3e274eb e89622a78991a82c 25d5cf0ef5d6f989 29b96e75daa02bcb e431d3f7183c2638 8e131fc1924f911c ecefbce78a07a305 a243c93db7cc8e36 ca1c1f53d12190df db2933e43056e8ff e8237735b70bdc3a 882d6d19fd6cfd22 2dc3e621b23f9688 e94b72c3e356a0fe e0c39e2095e75d56 c826f3dff178dfdc d4cf80da0e878441 a46ee197317266a2 a2eb467eb5931efa c41aa33bec95d576 9e083c18f7bac759 ad4de653e88984d3 d51f5a49c0f38297 38ae49f0f168898f d9f20e62f3279662 341b18f9e5fc3043 d764b9d2af1168ab a238ff0decc962e9 d2c5932cb156c834 e06830e0d6541806 c31d7aef2a2a4cff db81153382a12fed d8f547f415e30e1c c00d5b1bbbe94613 3e8a76019c12c2e3 b1f5d0ff9b8e704e d777b662177fbdf5 b39280d8f2032c1a d919c6916022c63 2d81ea58e58851d8 d78b7df2e50952cb fb0b7f2ee1146b30 c69cbd08e51d1a5b ca266d26288d6986 89a1d4b61e283afb 83455556c531ec54 ] wstrb=[bf da 7d ba 91 d1 10 50 ac 8d a 3d 5f 1a 8d b a8 97 48 7 b1 d5 12 59 6c 5a 60 1d 2f 72 77 9b cc d7 b8 fb 4a 2f 96 16 7 4f 12 51 7e a8 67 85 f7 79 d6 76 22 3e fb 19 b7 d2 8f d9 10 8b f3 c7 5d 82 a1 6d d 94 34 6a 16 d5 d7 24 69 c 8e 80 e1 66 a4 4b 72 32 cb 53 98 6f 9e a a1 69 5e 3a d8 fc 44 7a 66 a2 b4 3e 9f f8 b8 5 9b 6c 43 3a 65 fc 3f 0 68 82 3a cd 7e 79 cd e7 fb 7 b4 7a 80 82 61 7c 89 15 f6 a 97 57 86 21 6c 7c 2b 4 d3 b1 25 3f 2d 50 43 ] bresp=0 bid=110
[1595000] [SCOREBOARD-S] mst_id=0 s_id=0 awaddr=9a88d0 awid=110 awlen=150 awsize=5 awburst=1 wdata=[b9d39e9330fcf185 ddde6596d0e0c687 3f725284c9e6efae fae3e133d0ba1081 a19ad708f945f117 c32ce0c5d8c246c9 a97c574ae10d298c da531aa4be10c1f8 96d308c1cb172e53 ac2457df9d7ffb69 db90bd62c04f600c b668e5f86777283 23f76dedf263c623 b2b3262fb78ae63e 3e0258c2ff882b4f f1ebf172be19b48e f5a49acde1f9c6af e181f1fe249f17a2 e2b8cc3033a6f38f 15a0ba3ed36de370 f80cfb12d85d66fd 8c045a8cf722ac3c ca908facdac5c743 b3232e40a1a514ca 98c7c106c29d8abf 1d6352023f2788cd e0cc9d97e35850b3 25f5db72d0868042 8fae090ff9945e9e dcecaf51c3592d74 93dfadb6f07aa6a7 ea0f054502e28ac3 c63bb837238db6c6 14085d6dc6fbb496 c9de3f59da1b65ed fda91cb3fe1762b2 c51317481019f790 ea355d7d91b17a20 8fc8dcd20ef156a1 1f0b4e31e7de7a31 f98ff451d4dbf41a e3cd4abb8940abae f11f25df0958d124 de34c53e82d898ec c19449beaaf1a31 f407eb55c2020ffa c4daa8e6fd386a7a e7e784abd23cb093 943ec08dd0f3ed81 ce2c57fcdbef7000 2e2c2094d9196974 aa0d56f5b613dca7 12034ca8c26ae121 9b844a95f839aef1 2e4d8b99c02f6d3c 829a4e5dc591a18b bdcb507cc050d841 80457d1e1e98f3 e3b03a7eec18dc15 ac69b456831a93da a1392ccda17b8afa d946710ace9f9d3 30048dae84e9674b 2664f246b9fe1b66 e6e8153ad13dba7b d62721c733f95956 edf774bc16eca2e8 e82a5d63fc8c140d 30856d63d4df89f6 ebcc2cdebe517f2a badd93379e7ce21f f35c6c16d3f68a42 9248096ceb63009a 9dfe2badf2898f4 b31f2336cd259ca4 b8889d3efd3c4ed0 dc64e7c4c5672ca3 128cc947c2687ff8 bfa4cec80f840afb d4eb379ecb156685 d7de67e1c09b68d 2b8dc188e77800e5 b28d676acd22b546 e92c6bd30078f926 e7f0fa0bc00b4de8 d2e032f94ba2d5b 953326819a7e6175 da89af5ef65a6f02 b149c5efd24208c 17a28202e7b7b28d de12218fa047c2df 1d6be36cf22c3160 d9e3e3ede926bded 96e80cd350e656e 273a96ceb7f6057c 211cc36a26da6439 dbe8c9a7011e7abb b91480372a8b4437 d165a87003236075 441db30da3143a1 84bc87d82d4e7217 3071d28cbd565b67 17879f09d6223048 8370a25f34b3adbc f20a09239c4426e1 f266572ab3e274eb e89622a78991a82c 25d5cf0ef5d6f989 29b96e75daa02bcb e431d3f7183c2638 8e131fc1924f911c ecefbce78a07a305 a243c93db7cc8e36 ca1c1f53d12190df db2933e43056e8ff e8237735b70bdc3a 882d6d19fd6cfd22 2dc3e621b23f9688 e94b72c3e356a0fe e0c39e2095e75d56 c826f3dff178dfdc d4cf80da0e878441 a46ee197317266a2 a2eb467eb5931efa c41aa33bec95d576 9e083c18f7bac759 ad4de653e88984d3 d51f5a49c0f38297 38ae49f0f168898f d9f20e62f3279662 341b18f9e5fc3043 d764b9d2af1168ab a238ff0decc962e9 d2c5932cb156c834 e06830e0d6541806 c31d7aef2a2a4cff db81153382a12fed d8f547f415e30e1c c00d5b1bbbe94613 3e8a76019c12c2e3 b1f5d0ff9b8e704e d777b662177fbdf5 b39280d8f2032c1a d919c6916022c63 2d81ea58e58851d8 d78b7df2e50952cb fb0b7f2ee1146b30 c69cbd08e51d1a5b ca266d26288d6986 89a1d4b61e283afb 83455556c531ec54 ] wstrb=[bf da 7d ba 91 d1 10 50 ac 8d a 3d 5f 1a 8d b a8 97 48 7 b1 d5 12 59 6c 5a 60 1d 2f 72 77 9b cc d7 b8 fb 4a 2f 96 16 7 4f 12 51 7e a8 67 85 f7 79 d6 76 22 3e fb 19 b7 d2 8f d9 10 8b f3 c7 5d 82 a1 6d d 94 34 6a 16 d5 d7 24 69 c 8e 80 e1 66 a4 4b 72 32 cb 53 98 6f 9e a a1 69 5e 3a d8 fc 44 7a 66 a2 b4 3e 9f f8 b8 5 9b 6c 43 3a 65 fc 3f 0 68 82 3a cd 7e 79 cd e7 fb 7 b4 7a 80 82 61 7c 89 15 f6 a 97 57 86 21 6c 7c 2b 4 d3 b1 25 3f 2d 50 43 ] bresp=0 bid=110
[1595000] SCOREBOARD: Transaction 2 received. pass=326 fail=0
[1595000] ALL PASS. Total transactions: 2
[1605000] MASTER 1 W_VALID_RDY Handshake beat=8 wlast=0
[1605000] ARB MONITOR: slave=1 m0_req=1 m1_req=0 winner=0
[1605000] SLAVE 0 R_VALID_RDY Handshake beat=1 rlast=1
[1605000] [SLAVE MONITOR] READ mst_id=0 s_id=0 araddr=7517310 arid=1 arlen=1 arsize=3 arburst=1 rid=[11] rresp=[00] rdata=[baadf00d12345678baadf00d12345678]
[1605000] AXI S0_ARVALID_RDY HANDSHAKE
[1605000] MEMORY READ MISS beat=0 addr=1ce2f260 -> default data id=2
[1605000] AXI S0_WVALID_RDY HANDSHAKE
[1605000] S0 MEMORY WRITE beat=1 addr=023302d0 data=9bf0992bdab669e4 id=1c
[1615000] AXI S0_WVALID_RDY HANDSHAKE
[1615000] S0 MEMORY WRITE beat=2 addr=02330310 data=93af183ba4f0527e id=1c
[1615000] MEMORY READ MISS beat=1 addr=1ce2f268 -> default data id=2
[1615000] SLAVE 1 R_VALID_RDY Handshake beat=0 rlast=0
[1615000] MASTER 1 W_VALID_RDY Handshake beat=9 wlast=0
[1615000] MASTER 0 R_VALID_RDY Handshake beat=0 rlast=0
[1625000] [MASTER DRIVER] READ mst_id=0 s_id=0 araddr=7517310 arid=1 arlen=1 arsize=3 arburst=1 rid=[11] rresp=[00] rdata=[baadf00d12345678baadf00d12345678]
[1625000] MASTER 0 R_VALID_RDY Handshake beat=1 rlast=1
[1625000] [MASTER MONITOR] READ mst_id=0 s_id=0 araddr=7517310 arid=1 arlen=1 arsize=3 arburst=1 rid=[11] rresp=[00] rdata=[baadf00d12345678baadf00d12345678]
[1625000] MASTER 1 W_VALID_RDY Handshake beat=10 wlast=0
[1625000] SLAVE 1 R_VALID_RDY Handshake beat=1 rlast=1
[1625000] [SLAVE MONITOR] READ mst_id=0 s_id=1 araddr=1ce2f260 arid=2 arlen=1 arsize=3 arburst=1 rid=[22] rresp=[00] rdata=[baadf00d12345678baadf00d12345678]
[1625000] AXI S0_WVALID_RDY HANDSHAKE
[1625000] S0 MEMORY WRITE beat=3 addr=02330350 data=c4c16a4cab549074 id=1c
[1625000] SCOREBOARD MATCH: decode_err expected = 0, actual =0
[1625000] SCOREBOARD MATCH: slave_id expected = 0, actual =0
[1625000] SCOREBOARD MATCH: araddr passthrough expected = 7517310, actual =7517310
[1625000] SCOREBOARD MATCH: arlen passthrough expected = 1, actual =1
[1625000] SCOREBOARD MATCH: arsize passthrough expected = 3, actual =3
[1625000] SCOREBOARD MATCH: arburst passthrough expected = 1, actual =1
[1625000] SCOREBOARD MATCH: rdata size check expected = 2, actual =2
[1625000] SCOREBOARD MATCH: rdata passthrough beat=0 expected = baadf00d12345678, actual =baadf00d12345678
[1625000] SCOREBOARD MATCH: rdata passthrough beat=1 expected = baadf00d12345678, actual =baadf00d12345678
[1625000] SCOREBOARD MATCH: rresp size check expected = 2, actual =2
[1625000] SCOREBOARD MATCH: rresp passthrough beat=0 expected = 0, actual =0
[1625000] SCOREBOARD MATCH: rresp passthrough beat=1 expected = 0, actual =0
[1625000] SCOREBOARD MATCH: response routed to correct master (read beat 0) expected = 0, actual =0
[1625000] SCOREBOARD MATCH: response routed to correct master (read beat 1) expected = 0, actual =0
[1625000] [SCOREBOARD-M] READ mst_id=0 s_id=0 araddr=7517310 arid=1 arlen=1 arsize=3 arburst=1 rid=[11] rresp=[00] rdata=[baadf00d12345678baadf00d12345678]
[1625000] [SCOREBOARD-S] READ mst_id=0 s_id=0 araddr=7517310 arid=1 arlen=1 arsize=3 arburst=1 rid=[11] rresp=[00] rdata=[baadf00d12345678baadf00d12345678]
[1625000] SCOREBOARD: Transaction 3 received. pass=340 fail=0
[1625000] ALL PASS. Total transactions: 3
[1635000] AXI S0_WVALID_RDY HANDSHAKE
[1635000] S0 MEMORY WRITE beat=4 addr=02330390 data=860afa58229462a2 id=1c
[1635000] MASTER 1 W_VALID_RDY Handshake beat=11 wlast=0
[1645000] MASTER 0 R_VALID_RDY Handshake beat=0 rlast=0
[1645000] MASTER 1 W_VALID_RDY Handshake beat=12 wlast=0
[1645000] AXI S0_WVALID_RDY HANDSHAKE
[1645000] S0 MEMORY WRITE beat=5 addr=023303d0 data=c784b520e0b20377 id=1c
[1655000] AXI S0_WVALID_RDY HANDSHAKE
[1655000] S0 MEMORY WRITE beat=6 addr=02330410 data=0c0693ec19ba1294 id=1c
[1655000] MASTER 1 W_VALID_RDY Handshake beat=13 wlast=0
[1655000] MASTER 0 R_VALID_RDY Handshake beat=1 rlast=1
[1655000] [MASTER MONITOR] READ mst_id=0 s_id=1 araddr=1ce2f260 arid=2 arlen=1 arsize=3 arburst=1 rid=[22] rresp=[00] rdata=[baadf00d12345678baadf00d12345678]
[1655000] [MASTER DRIVER] READ mst_id=0 s_id=0 araddr=1ce2f260 arid=2 arlen=1 arsize=3 arburst=1 rid=[22] rresp=[00] rdata=[baadf00d12345678baadf00d12345678]
[1655000] SCOREBOARD MATCH: decode_err expected = 0, actual =0
[1655000] SCOREBOARD MATCH: slave_id expected = 1, actual =1
[1655000] SCOREBOARD MATCH: araddr passthrough expected = 1ce2f260, actual =1ce2f260
[1655000] SCOREBOARD MATCH: arlen passthrough expected = 1, actual =1
[1655000] SCOREBOARD MATCH: arsize passthrough expected = 3, actual =3
[1655000] SCOREBOARD MATCH: arburst passthrough expected = 1, actual =1
[1655000] SCOREBOARD MATCH: rdata size check expected = 2, actual =2
[1655000] SCOREBOARD MATCH: rdata passthrough beat=0 expected = baadf00d12345678, actual =baadf00d12345678
[1655000] SCOREBOARD MATCH: rdata passthrough beat=1 expected = baadf00d12345678, actual =baadf00d12345678
[1655000] SCOREBOARD MATCH: rresp size check expected = 2, actual =2
[1655000] SCOREBOARD MATCH: rresp passthrough beat=0 expected = 0, actual =0
[1655000] SCOREBOARD MATCH: rresp passthrough beat=1 expected = 0, actual =0
[1655000] SCOREBOARD MATCH: response routed to correct master (read beat 0) expected = 0, actual =0
[1655000] SCOREBOARD MATCH: response routed to correct master (read beat 1) expected = 0, actual =0
[1655000] [SCOREBOARD-M] READ mst_id=0 s_id=1 araddr=1ce2f260 arid=2 arlen=1 arsize=3 arburst=1 rid=[22] rresp=[00] rdata=[baadf00d12345678baadf00d12345678]
[1655000] [SCOREBOARD-S] READ mst_id=0 s_id=1 araddr=1ce2f260 arid=2 arlen=1 arsize=3 arburst=1 rid=[22] rresp=[00] rdata=[baadf00d12345678baadf00d12345678]
[1655000] SCOREBOARD: Transaction 4 received. pass=354 fail=0
[1655000] ALL PASS. Total transactions: 4
[1665000] MASTER 1 W_VALID_RDY Handshake beat=14 wlast=0
[1665000] AXI S0_WVALID_RDY HANDSHAKE
[1665000] S0 MEMORY WRITE beat=7 addr=02330450 data=3c4e75368c461f6c id=1c
[1675000] AXI S0_WVALID_RDY HANDSHAKE
[1675000] S0 MEMORY WRITE beat=8 addr=02330490 data=ecf822e492118e44 id=1c
[1675000] MASTER 1 W_VALID_RDY Handshake beat=15 wlast=0
[1685000] MASTER 1 W_VALID_RDY Handshake beat=16 wlast=0
[1685000] AXI S0_WVALID_RDY HANDSHAKE
[1685000] S0 MEMORY WRITE beat=9 addr=023304d0 data=abcba0d883d32a56 id=1c
[1695000] AXI S0_WVALID_RDY HANDSHAKE
[1695000] S0 MEMORY WRITE beat=10 addr=02330510 data=101949c3f8feb6d0 id=1c
[1695000] MASTER 1 W_VALID_RDY Handshake beat=17 wlast=0
[1705000] MASTER 1 W_VALID_RDY Handshake beat=18 wlast=0
[1705000] AXI S0_WVALID_RDY HANDSHAKE
[1705000] S0 MEMORY WRITE beat=11 addr=02330550 data=8b104514e81a160e id=1c
[1715000] AXI S0_WVALID_RDY HANDSHAKE
[1715000] S0 MEMORY WRITE beat=12 addr=02330590 data=ebed4065fd116ca7 id=1c
[1715000] MASTER 1 W_VALID_RDY Handshake beat=19 wlast=0
[1725000] MASTER 1 W_VALID_RDY Handshake beat=20 wlast=0
[1725000] AXI S0_WVALID_RDY HANDSHAKE
[1725000] S0 MEMORY WRITE beat=13 addr=023305d0 data=f610237736dbe5ed id=1c
[1735000] AXI S0_WVALID_RDY HANDSHAKE
[1735000] S0 MEMORY WRITE beat=14 addr=02330610 data=9ef5fbfbfc068a28 id=1c
[1735000] MASTER 1 W_VALID_RDY Handshake beat=21 wlast=0
[1745000] MASTER 1 W_VALID_RDY Handshake beat=22 wlast=0
[1745000] AXI S0_WVALID_RDY HANDSHAKE
[1745000] S0 MEMORY WRITE beat=15 addr=02330650 data=f917f6cf8120688b id=1c
[1755000] AXI S0_WVALID_RDY HANDSHAKE
[1755000] S0 MEMORY WRITE beat=16 addr=02330690 data=b7fc4e788ae33c60 id=1c
[1755000] MASTER 1 W_VALID_RDY Handshake beat=23 wlast=0
[1765000] MASTER 1 W_VALID_RDY Handshake beat=24 wlast=1
[1765000] AXI S0_WVALID_RDY HANDSHAKE
[1765000] S0 MEMORY WRITE beat=17 addr=023306d0 data=86e9c688ef281a46 id=1c
[1775000] AXI S0_WVALID_RDY HANDSHAKE
[1775000] S0 MEMORY WRITE beat=18 addr=02330710 data=f04882d1d6f24a74 id=1c
[1785000] AXI S0_WVALID_RDY HANDSHAKE
[1785000] S0 MEMORY WRITE beat=19 addr=02330750 data=e1d586d48001bd57 id=1c
[1795000] AXI S0_WVALID_RDY HANDSHAKE
[1795000] S0 MEMORY WRITE beat=20 addr=02330790 data=ef29d79d2844d14a id=1c
[1805000] AXI S0_WVALID_RDY HANDSHAKE
[1805000] S0 MEMORY WRITE beat=21 addr=023307d0 data=ff371bbee8bf4d5d id=1c
[1815000] AXI S0_WVALID_RDY HANDSHAKE
[1815000] S0 MEMORY WRITE beat=22 addr=02330810 data=e8c10ab4df725a6f id=1c
[1825000] AXI S0_WVALID_RDY HANDSHAKE
[1825000] S0 MEMORY WRITE beat=23 addr=02330850 data=07b72bb9e10ca292 id=1c
[1835000] AXI S0_WVALID_RDY HANDSHAKE
[1835000] S0 MEMORY WRITE beat=24 addr=02330890 data=c9cbefefd7eae252 id=1c
[1845000] SLAVE0 sent B resp, id=12
[1855000] [SLAVE MONITOR] mst_id=1 s_id=0 awaddr=2330290 awid=1100 awlen=24 awsize=6 awburst=1 wdata=[8ee54a669fd117cd 9bf0992bdab669e4 93af183ba4f0527e c4c16a4cab549074 860afa58229462a2 c784b520e0b20377 c0693ec19ba1294 3c4e75368c461f6c ecf822e492118e44 abcba0d883d32a56 101949c3f8feb6d0 8b104514e81a160e ebed4065fd116ca7 f610237736dbe5ed 9ef5fbfbfc068a28 f917f6cf8120688b b7fc4e788ae33c60 86e9c688ef281a46 f04882d1d6f24a74 e1d586d48001bd57 ef29d79d2844d14a ff371bbee8bf4d5d e8c10ab4df725a6f 7b72bb9e10ca292 c9cbefefd7eae252 ] wstrb=[77 c1 a4 9 7a f6 f9 f1 b7 9d fa 31 93 f3 22 4a 90 1c 7b 23 10 9d 6d a0 b9 ] bresp=0 bid=11100
[1865000] MASTER 1 RECEIVED BRESP. BRESP=0
[1865000] [MASTER DRIVER] mst_id=1 s_id=0 awaddr=2330290 awid=1100 awlen=24 awsize=6 awburst=1 wdata=[8ee54a669fd117cd 9bf0992bdab669e4 93af183ba4f0527e c4c16a4cab549074 860afa58229462a2 c784b520e0b20377 c0693ec19ba1294 3c4e75368c461f6c ecf822e492118e44 abcba0d883d32a56 101949c3f8feb6d0 8b104514e81a160e ebed4065fd116ca7 f610237736dbe5ed 9ef5fbfbfc068a28 f917f6cf8120688b b7fc4e788ae33c60 86e9c688ef281a46 f04882d1d6f24a74 e1d586d48001bd57 ef29d79d2844d14a ff371bbee8bf4d5d e8c10ab4df725a6f 7b72bb9e10ca292 c9cbefefd7eae252 ] wstrb=[77 c1 a4 9 7a f6 f9 f1 b7 9d fa 31 93 f3 22 4a 90 1c 7b 23 10 9d 6d a0 b9 ] bresp=0 bid=1100
[1865000] MASTER 1 B_VALID_RDY Handshake
[1865000] [MASTER MONITOR] mst_id=1 s_id=0 awaddr=2330290 awid=1100 awlen=24 awsize=6 awburst=1 wdata=[8ee54a669fd117cd 9bf0992bdab669e4 93af183ba4f0527e c4c16a4cab549074 860afa58229462a2 c784b520e0b20377 c0693ec19ba1294 3c4e75368c461f6c ecf822e492118e44 abcba0d883d32a56 101949c3f8feb6d0 8b104514e81a160e ebed4065fd116ca7 f610237736dbe5ed 9ef5fbfbfc068a28 f917f6cf8120688b b7fc4e788ae33c60 86e9c688ef281a46 f04882d1d6f24a74 e1d586d48001bd57 ef29d79d2844d14a ff371bbee8bf4d5d e8c10ab4df725a6f 7b72bb9e10ca292 c9cbefefd7eae252 ] wstrb=[77 c1 a4 9 7a f6 f9 f1 b7 9d fa 31 93 f3 22 4a 90 1c 7b 23 10 9d 6d a0 b9 ] bresp=0 bid=1100
[1865000] SCOREBOARD MATCH: decode_err expected = 0, actual =0
[1865000] SCOREBOARD MATCH: slave_id expected = 0, actual =0
[1865000] SCOREBOARD MATCH: awaddr passthrough expected = 2330290, actual =2330290
[1865000] SCOREBOARD MATCH: awlen passthrough expected = 24, actual =24
[1865000] SCOREBOARD MATCH: awsize passthrough expected = 6, actual =6
[1865000] SCOREBOARD MATCH: awburst passthrough expected = 1, actual =1
[1865000] SCOREBOARD MATCH: wdata size check expected = 19, actual =19
[1865000] SCOREBOARD MATCH: wdata passthrough beat=0 expected = 8ee54a669fd117cd, actual =8ee54a669fd117cd
[1865000] SCOREBOARD MATCH: wdata passthrough beat=1 expected = 9bf0992bdab669e4, actual =9bf0992bdab669e4
[1865000] SCOREBOARD MATCH: wdata passthrough beat=2 expected = 93af183ba4f0527e, actual =93af183ba4f0527e
[1865000] SCOREBOARD MATCH: wdata passthrough beat=3 expected = c4c16a4cab549074, actual =c4c16a4cab549074
[1865000] SCOREBOARD MATCH: wdata passthrough beat=4 expected = 860afa58229462a2, actual =860afa58229462a2
[1865000] SCOREBOARD MATCH: wdata passthrough beat=5 expected = c784b520e0b20377, actual =c784b520e0b20377
[1865000] SCOREBOARD MATCH: wdata passthrough beat=6 expected = c0693ec19ba1294, actual =c0693ec19ba1294
[1865000] SCOREBOARD MATCH: wdata passthrough beat=7 expected = 3c4e75368c461f6c, actual =3c4e75368c461f6c
[1865000] SCOREBOARD MATCH: wdata passthrough beat=8 expected = ecf822e492118e44, actual =ecf822e492118e44
[1865000] SCOREBOARD MATCH: wdata passthrough beat=9 expected = abcba0d883d32a56, actual =abcba0d883d32a56
[1865000] SCOREBOARD MATCH: wdata passthrough beat=10 expected = 101949c3f8feb6d0, actual =101949c3f8feb6d0
[1865000] SCOREBOARD MATCH: wdata passthrough beat=11 expected = 8b104514e81a160e, actual =8b104514e81a160e
[1865000] SCOREBOARD MATCH: wdata passthrough beat=12 expected = ebed4065fd116ca7, actual =ebed4065fd116ca7
[1865000] SCOREBOARD MATCH: wdata passthrough beat=13 expected = f610237736dbe5ed, actual =f610237736dbe5ed
[1865000] SCOREBOARD MATCH: wdata passthrough beat=14 expected = 9ef5fbfbfc068a28, actual =9ef5fbfbfc068a28
[1865000] SCOREBOARD MATCH: wdata passthrough beat=15 expected = f917f6cf8120688b, actual =f917f6cf8120688b
[1865000] SCOREBOARD MATCH: wdata passthrough beat=16 expected = b7fc4e788ae33c60, actual =b7fc4e788ae33c60
[1865000] SCOREBOARD MATCH: wdata passthrough beat=17 expected = 86e9c688ef281a46, actual =86e9c688ef281a46
[1865000] SCOREBOARD MATCH: wdata passthrough beat=18 expected = f04882d1d6f24a74, actual =f04882d1d6f24a74
[1865000] SCOREBOARD MATCH: wdata passthrough beat=19 expected = e1d586d48001bd57, actual =e1d586d48001bd57
[1865000] SCOREBOARD MATCH: wdata passthrough beat=20 expected = ef29d79d2844d14a, actual =ef29d79d2844d14a
[1865000] SCOREBOARD MATCH: wdata passthrough beat=21 expected = ff371bbee8bf4d5d, actual =ff371bbee8bf4d5d
[1865000] SCOREBOARD MATCH: wdata passthrough beat=22 expected = e8c10ab4df725a6f, actual =e8c10ab4df725a6f
[1865000] SCOREBOARD MATCH: wdata passthrough beat=23 expected = 7b72bb9e10ca292, actual =7b72bb9e10ca292
[1865000] SCOREBOARD MATCH: wdata passthrough beat=24 expected = c9cbefefd7eae252, actual =c9cbefefd7eae252
[1865000] SCOREBOARD MATCH: wstrb size check expected = 19, actual =19
[1865000] SCOREBOARD MATCH: wstrb passthrough beat=0 expected = 77, actual =77
[1865000] SCOREBOARD MATCH: wstrb passthrough beat=1 expected = c1, actual =c1
[1865000] SCOREBOARD MATCH: wstrb passthrough beat=2 expected = a4, actual =a4
[1865000] SCOREBOARD MATCH: wstrb passthrough beat=3 expected = 9, actual =9
[1865000] SCOREBOARD MATCH: wstrb passthrough beat=4 expected = 7a, actual =7a
[1865000] SCOREBOARD MATCH: wstrb passthrough beat=5 expected = f6, actual =f6
[1865000] SCOREBOARD MATCH: wstrb passthrough beat=6 expected = f9, actual =f9
[1865000] SCOREBOARD MATCH: wstrb passthrough beat=7 expected = f1, actual =f1
[1865000] SCOREBOARD MATCH: wstrb passthrough beat=8 expected = b7, actual =b7
[1865000] SCOREBOARD MATCH: wstrb passthrough beat=9 expected = 9d, actual =9d
[1865000] SCOREBOARD MATCH: wstrb passthrough beat=10 expected = fa, actual =fa
[1865000] SCOREBOARD MATCH: wstrb passthrough beat=11 expected = 31, actual =31
[1865000] SCOREBOARD MATCH: wstrb passthrough beat=12 expected = 93, actual =93
[1865000] SCOREBOARD MATCH: wstrb passthrough beat=13 expected = f3, actual =f3
[1865000] SCOREBOARD MATCH: wstrb passthrough beat=14 expected = 22, actual =22
[1865000] SCOREBOARD MATCH: wstrb passthrough beat=15 expected = 4a, actual =4a
[1865000] SCOREBOARD MATCH: wstrb passthrough beat=16 expected = 90, actual =90
[1865000] SCOREBOARD MATCH: wstrb passthrough beat=17 expected = 1c, actual =1c
[1865000] SCOREBOARD MATCH: wstrb passthrough beat=18 expected = 7b, actual =7b
[1865000] SCOREBOARD MATCH: wstrb passthrough beat=19 expected = 23, actual =23
[1865000] SCOREBOARD MATCH: wstrb passthrough beat=20 expected = 10, actual =10
[1865000] SCOREBOARD MATCH: wstrb passthrough beat=21 expected = 9d, actual =9d
[1865000] SCOREBOARD MATCH: wstrb passthrough beat=22 expected = 6d, actual =6d
[1865000] SCOREBOARD MATCH: wstrb passthrough beat=23 expected = a0, actual =a0
[1865000] SCOREBOARD MATCH: wstrb passthrough beat=24 expected = b9, actual =b9
[1865000] SCOREBOARD MATCH: bresp passthrough expected = 0, actual =0
[1865000] SCOREBOARD MATCH: response routed to correct master (write) expected = 1, actual =1
[1865000] [SCOREBOARD-M] mst_id=1 s_id=0 awaddr=2330290 awid=1100 awlen=24 awsize=6 awburst=1 wdata=[8ee54a669fd117cd 9bf0992bdab669e4 93af183ba4f0527e c4c16a4cab549074 860afa58229462a2 c784b520e0b20377 c0693ec19ba1294 3c4e75368c461f6c ecf822e492118e44 abcba0d883d32a56 101949c3f8feb6d0 8b104514e81a160e ebed4065fd116ca7 f610237736dbe5ed 9ef5fbfbfc068a28 f917f6cf8120688b b7fc4e788ae33c60 86e9c688ef281a46 f04882d1d6f24a74 e1d586d48001bd57 ef29d79d2844d14a ff371bbee8bf4d5d e8c10ab4df725a6f 7b72bb9e10ca292 c9cbefefd7eae252 ] wstrb=[77 c1 a4 9 7a f6 f9 f1 b7 9d fa 31 93 f3 22 4a 90 1c 7b 23 10 9d 6d a0 b9 ] bresp=0 bid=1100
[1865000] [SCOREBOARD-S] mst_id=1 s_id=0 awaddr=2330290 awid=1100 awlen=24 awsize=6 awburst=1 wdata=[8ee54a669fd117cd 9bf0992bdab669e4 93af183ba4f0527e c4c16a4cab549074 860afa58229462a2 c784b520e0b20377 c0693ec19ba1294 3c4e75368c461f6c ecf822e492118e44 abcba0d883d32a56 101949c3f8feb6d0 8b104514e81a160e ebed4065fd116ca7 f610237736dbe5ed 9ef5fbfbfc068a28 f917f6cf8120688b b7fc4e788ae33c60 86e9c688ef281a46 f04882d1d6f24a74 e1d586d48001bd57 ef29d79d2844d14a ff371bbee8bf4d5d e8c10ab4df725a6f 7b72bb9e10ca292 c9cbefefd7eae252 ] wstrb=[77 c1 a4 9 7a f6 f9 f1 b7 9d fa 31 93 f3 22 4a 90 1c 7b 23 10 9d 6d a0 b9 ] bresp=0 bid=11100
[1865000] SCOREBOARD: Transaction 5 received. pass=414 fail=0
[1865000] SCOREBOARD: Expected 5 transactions completed, PASS=414 FAIL=0
[1865000] ALL PASS. Total transactions: 5
[1865000] ALL TRANSACTIONS MONITORED
$finish called at time : 1885 ns : File "/home/nashita/Desktop/practice/axi_xbar/tb/top/axi_tb_top.sv" Line 220
exit
INFO: xsimkernel Simulation Memory Usage: 289464 KB (Peak: 337864 KB), Simulation CPU Usage: 1150 ms
INFO: [Common 17-206] Exiting xsim at Fri Sep 11 11:13:42 2026...
