#-----------------------------------------------------------
# xsim v2025.2 (64-bit)
# SW Build 6299465 on Fri Nov 14 12:34:56 MST 2025
# IP Build 6300035 on Fri Nov 14 10:48:45 MST 2025
# SharedData Build 6298862 on Thu Nov 13 04:50:51 MST 2025
# Start of session at: Thu Sep 10 18:31:57 2026
# Process ID         : 3637507
# Current directory  : /home/nashita/Desktop/practice/axi_xbar/sim
# Command line       : xsim -log regress_results/BT_run278.log -mode tcl -source {xsim.dir/tb_top_snap/xsim_script.tcl}
# Log file           : /home/nashita/Desktop/practice/axi_xbar/sim/regress_results/BT_run278.log
# Journal file       : /home/nashita/Desktop/practice/axi_xbar/sim/xsim.jou
# Running On         : vlsi-vivado
# Platform           : Ubuntu
# Operating System   : Ubuntu 24.04.4 LTS
# Processor Detail   : Intel(R) Core(TM) i5-10400 CPU @ 2.90GHz
# CPU Frequency      : 3998.786 MHz
# CPU Physical cores : 6
# CPU Logical cores  : 12
# Host memory        : 41875 MB
# Swap memory        : 27648 MB
# Total Virtual      : 69524 MB
# Available Virtual  : 62636 MB
#-----------------------------------------------------------
source xsim.dir/tb_top_snap/xsim_script.tcl
# xsim {tb_top_snap} -testplusarg BT -autoloadwcfg -runall -sv_seed 279
Time resolution is 1 ps
run -all
[0] RUNNING BASE TEST
[0] INSIDE THE BASE TEST CONSTRUCTOR
[0] ENV: before agent
[0] SLAVE CONSTRUCTED
[0] MASTER MONITOR CONSTRUCTED
[0] MASTER MONITOR CONSTRUCTED
[0] SLAVE MONITOR CONSTRUCTED
[0] SLAVE MONITOR CONSTRUCTED
[0] ARB MONITOR CONSTRUCTED
GENERATOR CONSTRUCTED
[0] ENV: after agent
[0] ENV: before scoreboard
[0] ENV: after scoreboard
[15000] [SEQUENCER] READ mst_id=1 s_id=0 araddr=19411c20 arid=0 arlen=1 arsize=3 arburst=1 rid=[] rresp=[] rdata=[]
[15000] [SEQUENCER] mst_id=0 s_id=0 awaddr=1ea96c40 awid=1011 awlen=126 awsize=6 awburst=1 wdata=[c7eecaf9ded6d90f 8c853d62f54fc871 396965e212273217 f0fe0b263424ab34 297473a5015830db 137f62f2fd834888 b1a7f3bce2ddd987 e4360a62047d6e18 8200b6a0db1c6761 bdfa40e8f7b56d54 fc32db6c33a8aa5d 8ec511bea2304b4a 99e5b89efe33920c b1dc3c69ccbf52a7 eeef9df19618940a 144c2617c0a14e28 d60a0cf08d55690 9eedea9ac6286280 86c9b0a8fc503ec0 85259550b33a10b1 f9627332942a5177 107a903824137feb d74d909c802c23da 1456755295a02588 b9b3a573d0b003ce d0dc27a924d1058a ba712b1211013610 e1b139dee5329cfb a03a285f424d086 5260696b28d6187 97bffe82c474cd97 b8999e1de6d74074 1964a1fca1c3a107 e6386e9fbdbfa4b3 2496e528b124a07e d2e841869ed20cbc dc91b1703dfb8724 ef2027a23920b025 d7f2bce101289698 3f241dbcc2086928 fb29194db4846e51 b5ad04e9ae44455e f04cae87d31bd62f 87a04480f4d122a5 23156804eb75c7d4 be919e033d4d496a b21e6c0f1362168b fed7de5fc631e284 37f2beed533d413 e895ea9e3d697c63 39b5ee7b59d97fd ad16c11e76dc8fe 24d74561071a8ad5 bcb822d2f36756af dad51fad2872a448 2f8d2f1dc7898ee3 3af0e593ffac650e a81f0956ec4551ef 33cee0d395c60540 15726a4fd7ac3873 c3f18a63eebfc666 8485cba6bd9173a5 153dac19f7c06b36 e680319c99f835f5 d789a99bd92f367c d0efa1b2eb05fd42 4fe3338ecc755b4 c5f68c30376fd34e a275d090dc87dcd3 c94f328716e62de2 ce560130a77403c8 83fbe09b0f45beb7 262bec99f0cbd1c0 183fd589cd4b1322 dc90d1d9f481edc9 e54dbf899c3bb624 e986c94782bcbe72 f73eac3bfd8d9512 19c94b37c6179b20 c8d45993dc8c6bc5 da1a00d70350147e c967af9ec01305ce 9c9f7193f3e34c0e f733608c923c0931 d24f0f00f6b9726b ea9cbe79c09b102b d2d7195ceeee8093 e5a7f2fee1d01f06 226b2f31a526285c 1414a8f0d044b178 3214d07ef542488d 1a6870eaf9bc9bee ca014d66d47fffaf c9c2483c2e7d19da a839b5c8fc161de4 d0961d93e42ab926 92a7d300f23b032f ee5121131a5865d0 fe831ef63ae188c9 2d1c8bf83ee73ea7 d93fa477112af1f7 cc0c7ac09b6dad0b da54ebb2d7c2c36d e8edb564f92906b8 9496b3c3b3949029 b575397b4fa3024 ae2336dceeeb9f76 a2802f9ff44508fb 293f3920c2b9eaa0 31a58a16add78336 221c8c32d7626ffc 9a1c5a9cd425b9b5 1fd3ceccb5bc552 a2be354ecbc1e4b2 1fe79e682419c91e ef758e703cda8feb 889c749d21e4db54 c5fea4729233c3be cf0e53a9a8841305 ca68ee59357432e2 c7a7f6a0d7aac847 802edb4c906792cb c5dbc5ad16b64a4a ee611291ca97c9a6 daff5c710d83bc4e 243a0698ee8feddd b927b78320db221f ] wstrb=[29 6d f5 6 5 14 8a 2e 81 7f 34 86 93 be b4 14 3d e8 9a d0 a7 4e e4 e4 36 7e b5 dd cc 99 c2 3 18 77 e0 e4 10 a2 e7 28 19 c8 d 2a 6a f4 52 84 bc 5f ae 27 54 0 ab 10 60 59 37 b4 59 e2 c4 b9 3b fc 6d 95 de 32 4e 1a 2e bc af c ee fd 26 1c b9 d5 28 a7 d3 4f c3 8c 24 ec 34 f7 3b f7 84 5f e3 b8 57 1e af db 7e 93 93 d5 b1 42 b0 2f d5 43 4 87 85 b4 b6 5b f7 bb e2 7d 6f 98 d8 67 53 ] bresp=0 bid=0
[15000] [SEQUENCER] READ mst_id=0 s_id=0 araddr=16fdf6f0 arid=1 arlen=1 arsize=3 arburst=1 rid=[] rresp=[] rdata=[]
[15000] [SEQUENCER] READ mst_id=0 s_id=0 araddr=17dd9780 arid=2 arlen=1 arsize=3 arburst=1 rid=[] rresp=[] rdata=[]
[15000] [SEQUENCER] READ mst_id=1 s_id=0 araddr=15487a40 arid=1 arlen=1 arsize=3 arburst=1 rid=[] rresp=[] rdata=[]
[15000] MASTER_DRIVER1 received transaction, op=AXI_READ
[15000] MASTER_DRIVER0 received transaction, op=AXI_WRITE
[35000] MASTER 0 AW_VALID_RDY Handshake
[35000] MASTER_DRIVER1 received transaction, op=AXI_READ
[45000] ARB MONITOR: slave=1 m0_req=1 m1_req=0 winner=0
[45000] ARB MONITOR: slave=1 m0_req=0 m1_req=1 winner=1
[45000] AXI S0_ARVALID_RDY HANDSHAKE
[45000] MEMORY READ MISS beat=0 addr=19411c20 -> default data id=16
[45000] AXI S1_AWVALID_RDY HANDSHAKE
[55000] MEMORY READ MISS beat=1 addr=19411c28 -> default data id=16
[55000] SLAVE 1 R_VALID_RDY Handshake beat=0 rlast=0
[55000] MASTER 0 W_VALID_RDY Handshake beat=0 wlast=0
[65000] MASTER 0 W_VALID_RDY Handshake beat=1 wlast=0
[65000] SLAVE 1 R_VALID_RDY Handshake beat=1 rlast=1
[65000] [SLAVE MONITOR] READ mst_id=1 s_id=1 araddr=19411c20 arid=0 arlen=1 arsize=3 arburst=1 rid=[1010] rresp=[00] rdata=[baadf00d12345678baadf00d12345678]
[65000] S1 MEMORY WRITE beat=0 addr=1ea96c40 data=c7eecaf9ded6d90f id=0b
[75000] S1 MEMORY WRITE beat=1 addr=1ea96c80 data=8c853d62f54fc871 id=0b
[75000] AXI S0_ARVALID_RDY HANDSHAKE
[75000] MEMORY READ MISS beat=0 addr=15487a40 -> default data id=17
[75000] ARB MONITOR: slave=1 m0_req=0 m1_req=1 winner=1
[75000] MASTER 1 R_VALID_RDY Handshake beat=0 rlast=0
[75000] MASTER 0 W_VALID_RDY Handshake beat=2 wlast=0
[85000] [MASTER DRIVER] READ mst_id=1 s_id=0 araddr=19411c20 arid=0 arlen=1 arsize=3 arburst=1 rid=[00] rresp=[00] rdata=[baadf00d12345678baadf00d12345678]
[85000] MASTER 0 W_VALID_RDY Handshake beat=3 wlast=0
[85000] MASTER 1 R_VALID_RDY Handshake beat=1 rlast=1
[85000] [MASTER MONITOR] READ mst_id=1 s_id=1 araddr=19411c20 arid=0 arlen=1 arsize=3 arburst=1 rid=[00] rresp=[00] rdata=[baadf00d12345678baadf00d12345678]
[85000] SLAVE 1 R_VALID_RDY Handshake beat=0 rlast=0
[85000] MEMORY READ MISS beat=1 addr=15487a48 -> default data id=17
[85000] S1 MEMORY WRITE beat=2 addr=1ea96cc0 data=396965e212273217 id=0b
[85000] SCOREBOARD MATCH: decode_err expected = 0, actual =0
[85000] SCOREBOARD MATCH: slave_id expected = 1, actual =1
[85000] SCOREBOARD MATCH: araddr passthrough expected = 19411c20, actual =19411c20
[85000] SCOREBOARD MATCH: arlen passthrough expected = 1, actual =1
[85000] SCOREBOARD MATCH: arsize passthrough expected = 3, actual =3
[85000] SCOREBOARD MATCH: arburst passthrough expected = 1, actual =1
[85000] SCOREBOARD MATCH: rdata size check expected = 2, actual =2
[85000] SCOREBOARD MATCH: rdata passthrough beat=0 expected = baadf00d12345678, actual =baadf00d12345678
[85000] SCOREBOARD MATCH: rdata passthrough beat=1 expected = baadf00d12345678, actual =baadf00d12345678
[85000] SCOREBOARD MATCH: rresp size check expected = 2, actual =2
[85000] SCOREBOARD MATCH: rresp passthrough beat=0 expected = 0, actual =0
[85000] SCOREBOARD MATCH: rresp passthrough beat=1 expected = 0, actual =0
[85000] SCOREBOARD MATCH: response routed to correct master (read beat 0) expected = 1, actual =1
[85000] SCOREBOARD MATCH: response routed to correct master (read beat 1) expected = 1, actual =1
[85000] [SCOREBOARD-M] READ mst_id=1 s_id=1 araddr=19411c20 arid=0 arlen=1 arsize=3 arburst=1 rid=[00] rresp=[00] rdata=[baadf00d12345678baadf00d12345678]
[85000] [SCOREBOARD-S] READ mst_id=1 s_id=1 araddr=19411c20 arid=0 arlen=1 arsize=3 arburst=1 rid=[1010] rresp=[00] rdata=[baadf00d12345678baadf00d12345678]
[85000] SCOREBOARD: Transaction 1 received. pass=14 fail=0
[85000] ALL PASS. Total transactions: 1
[95000] S1 MEMORY WRITE beat=3 addr=1ea96d00 data=f0fe0b263424ab34 id=0b
[95000] SLAVE 1 R_VALID_RDY Handshake beat=1 rlast=1
[95000] [SLAVE MONITOR] READ mst_id=1 s_id=1 araddr=15487a40 arid=1 arlen=1 arsize=3 arburst=1 rid=[1111] rresp=[00] rdata=[baadf00d12345678baadf00d12345678]
[95000] MASTER 0 W_VALID_RDY Handshake beat=4 wlast=0
[105000] MASTER 0 W_VALID_RDY Handshake beat=5 wlast=0
[105000] MASTER 1 R_VALID_RDY Handshake beat=0 rlast=0
[105000] S1 MEMORY WRITE beat=4 addr=1ea96d40 data=297473a5015830db id=0b
[115000] S1 MEMORY WRITE beat=5 addr=1ea96d80 data=137f62f2fd834888 id=0b
[115000] MASTER 1 R_VALID_RDY Handshake beat=1 rlast=1
[115000] [MASTER MONITOR] READ mst_id=1 s_id=1 araddr=15487a40 arid=1 arlen=1 arsize=3 arburst=1 rid=[11] rresp=[00] rdata=[baadf00d12345678baadf00d12345678]
[115000] MASTER 0 W_VALID_RDY Handshake beat=6 wlast=0
[115000] [MASTER DRIVER] READ mst_id=1 s_id=0 araddr=15487a40 arid=1 arlen=1 arsize=3 arburst=1 rid=[11] rresp=[00] rdata=[baadf00d12345678baadf00d12345678]
[115000] SCOREBOARD MATCH: decode_err expected = 0, actual =0
[115000] SCOREBOARD MATCH: slave_id expected = 1, actual =1
[115000] SCOREBOARD MATCH: araddr passthrough expected = 15487a40, actual =15487a40
[115000] SCOREBOARD MATCH: arlen passthrough expected = 1, actual =1
[115000] SCOREBOARD MATCH: arsize passthrough expected = 3, actual =3
[115000] SCOREBOARD MATCH: arburst passthrough expected = 1, actual =1
[115000] SCOREBOARD MATCH: rdata size check expected = 2, actual =2
[115000] SCOREBOARD MATCH: rdata passthrough beat=0 expected = baadf00d12345678, actual =baadf00d12345678
[115000] SCOREBOARD MATCH: rdata passthrough beat=1 expected = baadf00d12345678, actual =baadf00d12345678
[115000] SCOREBOARD MATCH: rresp size check expected = 2, actual =2
[115000] SCOREBOARD MATCH: rresp passthrough beat=0 expected = 0, actual =0
[115000] SCOREBOARD MATCH: rresp passthrough beat=1 expected = 0, actual =0
[115000] SCOREBOARD MATCH: response routed to correct master (read beat 0) expected = 1, actual =1
[115000] SCOREBOARD MATCH: response routed to correct master (read beat 1) expected = 1, actual =1
[115000] [SCOREBOARD-M] READ mst_id=1 s_id=1 araddr=15487a40 arid=1 arlen=1 arsize=3 arburst=1 rid=[11] rresp=[00] rdata=[baadf00d12345678baadf00d12345678]
[115000] [SCOREBOARD-S] READ mst_id=1 s_id=1 araddr=15487a40 arid=1 arlen=1 arsize=3 arburst=1 rid=[1111] rresp=[00] rdata=[baadf00d12345678baadf00d12345678]
[115000] SCOREBOARD: Transaction 2 received. pass=28 fail=0
[115000] ALL PASS. Total transactions: 2
[125000] MASTER 0 W_VALID_RDY Handshake beat=7 wlast=0
[125000] S1 MEMORY WRITE beat=6 addr=1ea96dc0 data=b1a7f3bce2ddd987 id=0b
[135000] S1 MEMORY WRITE beat=7 addr=1ea96e00 data=e4360a62047d6e18 id=0b
[135000] MASTER 0 W_VALID_RDY Handshake beat=8 wlast=0
[145000] MASTER 0 W_VALID_RDY Handshake beat=9 wlast=0
[145000] S1 MEMORY WRITE beat=8 addr=1ea96e40 data=8200b6a0db1c6761 id=0b
[155000] S1 MEMORY WRITE beat=9 addr=1ea96e80 data=bdfa40e8f7b56d54 id=0b
[155000] MASTER 0 W_VALID_RDY Handshake beat=10 wlast=0
[165000] MASTER 0 W_VALID_RDY Handshake beat=11 wlast=0
[165000] S1 MEMORY WRITE beat=10 addr=1ea96ec0 data=fc32db6c33a8aa5d id=0b
[175000] S1 MEMORY WRITE beat=11 addr=1ea96f00 data=8ec511bea2304b4a id=0b
[175000] MASTER 0 W_VALID_RDY Handshake beat=12 wlast=0
[185000] MASTER 0 W_VALID_RDY Handshake beat=13 wlast=0
[185000] S1 MEMORY WRITE beat=12 addr=1ea96f40 data=99e5b89efe33920c id=0b
[195000] S1 MEMORY WRITE beat=13 addr=1ea96f80 data=b1dc3c69ccbf52a7 id=0b
[195000] MASTER 0 W_VALID_RDY Handshake beat=14 wlast=0
[205000] MASTER 0 W_VALID_RDY Handshake beat=15 wlast=0
[205000] S1 MEMORY WRITE beat=14 addr=1ea96fc0 data=eeef9df19618940a id=0b
[215000] S1 MEMORY WRITE beat=15 addr=1ea97000 data=144c2617c0a14e28 id=0b
[215000] MASTER 0 W_VALID_RDY Handshake beat=16 wlast=0
[225000] MASTER 0 W_VALID_RDY Handshake beat=17 wlast=0
[225000] S1 MEMORY WRITE beat=16 addr=1ea97040 data=0d60a0cf08d55690 id=0b
[235000] S1 MEMORY WRITE beat=17 addr=1ea97080 data=9eedea9ac6286280 id=0b
[235000] MASTER 0 W_VALID_RDY Handshake beat=18 wlast=0
[245000] MASTER 0 W_VALID_RDY Handshake beat=19 wlast=0
[245000] S1 MEMORY WRITE beat=18 addr=1ea970c0 data=86c9b0a8fc503ec0 id=0b
[255000] S1 MEMORY WRITE beat=19 addr=1ea97100 data=85259550b33a10b1 id=0b
[255000] MASTER 0 W_VALID_RDY Handshake beat=20 wlast=0
[265000] MASTER 0 W_VALID_RDY Handshake beat=21 wlast=0
[265000] S1 MEMORY WRITE beat=20 addr=1ea97140 data=f9627332942a5177 id=0b
[275000] S1 MEMORY WRITE beat=21 addr=1ea97180 data=107a903824137feb id=0b
[275000] MASTER 0 W_VALID_RDY Handshake beat=22 wlast=0
[285000] MASTER 0 W_VALID_RDY Handshake beat=23 wlast=0
[285000] S1 MEMORY WRITE beat=22 addr=1ea971c0 data=d74d909c802c23da id=0b
[295000] S1 MEMORY WRITE beat=23 addr=1ea97200 data=1456755295a02588 id=0b
[295000] MASTER 0 W_VALID_RDY Handshake beat=24 wlast=0
[305000] MASTER 0 W_VALID_RDY Handshake beat=25 wlast=0
[305000] S1 MEMORY WRITE beat=24 addr=1ea97240 data=b9b3a573d0b003ce id=0b
[315000] S1 MEMORY WRITE beat=25 addr=1ea97280 data=d0dc27a924d1058a id=0b
[315000] MASTER 0 W_VALID_RDY Handshake beat=26 wlast=0
[325000] MASTER 0 W_VALID_RDY Handshake beat=27 wlast=0
[325000] S1 MEMORY WRITE beat=26 addr=1ea972c0 data=ba712b1211013610 id=0b
[335000] S1 MEMORY WRITE beat=27 addr=1ea97300 data=e1b139dee5329cfb id=0b
[335000] MASTER 0 W_VALID_RDY Handshake beat=28 wlast=0
[345000] MASTER 0 W_VALID_RDY Handshake beat=29 wlast=0
[345000] S1 MEMORY WRITE beat=28 addr=1ea97340 data=0a03a285f424d086 id=0b
[355000] S1 MEMORY WRITE beat=29 addr=1ea97380 data=05260696b28d6187 id=0b
[355000] MASTER 0 W_VALID_RDY Handshake beat=30 wlast=0
[365000] MASTER 0 W_VALID_RDY Handshake beat=31 wlast=0
[365000] S1 MEMORY WRITE beat=30 addr=1ea973c0 data=97bffe82c474cd97 id=0b
[375000] S1 MEMORY WRITE beat=31 addr=1ea97400 data=b8999e1de6d74074 id=0b
[375000] MASTER 0 W_VALID_RDY Handshake beat=32 wlast=0
[385000] MASTER 0 W_VALID_RDY Handshake beat=33 wlast=0
[385000] S1 MEMORY WRITE beat=32 addr=1ea97440 data=1964a1fca1c3a107 id=0b
[395000] S1 MEMORY WRITE beat=33 addr=1ea97480 data=e6386e9fbdbfa4b3 id=0b
[395000] MASTER 0 W_VALID_RDY Handshake beat=34 wlast=0
[405000] MASTER 0 W_VALID_RDY Handshake beat=35 wlast=0
[405000] S1 MEMORY WRITE beat=34 addr=1ea974c0 data=2496e528b124a07e id=0b
[415000] S1 MEMORY WRITE beat=35 addr=1ea97500 data=d2e841869ed20cbc id=0b
[415000] MASTER 0 W_VALID_RDY Handshake beat=36 wlast=0
[425000] MASTER 0 W_VALID_RDY Handshake beat=37 wlast=0
[425000] S1 MEMORY WRITE beat=36 addr=1ea97540 data=dc91b1703dfb8724 id=0b
[435000] S1 MEMORY WRITE beat=37 addr=1ea97580 data=ef2027a23920b025 id=0b
[435000] MASTER 0 W_VALID_RDY Handshake beat=38 wlast=0
[445000] MASTER 0 W_VALID_RDY Handshake beat=39 wlast=0
[445000] S1 MEMORY WRITE beat=38 addr=1ea975c0 data=d7f2bce101289698 id=0b
[455000] S1 MEMORY WRITE beat=39 addr=1ea97600 data=3f241dbcc2086928 id=0b
[455000] MASTER 0 W_VALID_RDY Handshake beat=40 wlast=0
[465000] MASTER 0 W_VALID_RDY Handshake beat=41 wlast=0
[465000] S1 MEMORY WRITE beat=40 addr=1ea97640 data=fb29194db4846e51 id=0b
[475000] S1 MEMORY WRITE beat=41 addr=1ea97680 data=b5ad04e9ae44455e id=0b
[475000] MASTER 0 W_VALID_RDY Handshake beat=42 wlast=0
[485000] MASTER 0 W_VALID_RDY Handshake beat=43 wlast=0
[485000] S1 MEMORY WRITE beat=42 addr=1ea976c0 data=f04cae87d31bd62f id=0b
[495000] S1 MEMORY WRITE beat=43 addr=1ea97700 data=87a04480f4d122a5 id=0b
[495000] MASTER 0 W_VALID_RDY Handshake beat=44 wlast=0
[505000] MASTER 0 W_VALID_RDY Handshake beat=45 wlast=0
[505000] S1 MEMORY WRITE beat=44 addr=1ea97740 data=23156804eb75c7d4 id=0b
[515000] S1 MEMORY WRITE beat=45 addr=1ea97780 data=be919e033d4d496a id=0b
[515000] MASTER 0 W_VALID_RDY Handshake beat=46 wlast=0
[525000] MASTER 0 W_VALID_RDY Handshake beat=47 wlast=0
[525000] S1 MEMORY WRITE beat=46 addr=1ea977c0 data=b21e6c0f1362168b id=0b
[535000] S1 MEMORY WRITE beat=47 addr=1ea97800 data=fed7de5fc631e284 id=0b
[535000] MASTER 0 W_VALID_RDY Handshake beat=48 wlast=0
[545000] MASTER 0 W_VALID_RDY Handshake beat=49 wlast=0
[545000] S1 MEMORY WRITE beat=48 addr=1ea97840 data=037f2beed533d413 id=0b
[555000] S1 MEMORY WRITE beat=49 addr=1ea97880 data=e895ea9e3d697c63 id=0b
[555000] MASTER 0 W_VALID_RDY Handshake beat=50 wlast=0
[565000] MASTER 0 W_VALID_RDY Handshake beat=51 wlast=0
[565000] S1 MEMORY WRITE beat=50 addr=1ea978c0 data=039b5ee7b59d97fd id=0b
[575000] S1 MEMORY WRITE beat=51 addr=1ea97900 data=0ad16c11e76dc8fe id=0b
[575000] MASTER 0 W_VALID_RDY Handshake beat=52 wlast=0
[585000] MASTER 0 W_VALID_RDY Handshake beat=53 wlast=0
[585000] S1 MEMORY WRITE beat=52 addr=1ea97940 data=24d74561071a8ad5 id=0b
[595000] S1 MEMORY WRITE beat=53 addr=1ea97980 data=bcb822d2f36756af id=0b
[595000] MASTER 0 W_VALID_RDY Handshake beat=54 wlast=0
[605000] MASTER 0 W_VALID_RDY Handshake beat=55 wlast=0
[605000] S1 MEMORY WRITE beat=54 addr=1ea979c0 data=dad51fad2872a448 id=0b
[615000] S1 MEMORY WRITE beat=55 addr=1ea97a00 data=2f8d2f1dc7898ee3 id=0b
[615000] MASTER 0 W_VALID_RDY Handshake beat=56 wlast=0
[625000] MASTER 0 W_VALID_RDY Handshake beat=57 wlast=0
[625000] S1 MEMORY WRITE beat=56 addr=1ea97a40 data=3af0e593ffac650e id=0b
[635000] S1 MEMORY WRITE beat=57 addr=1ea97a80 data=a81f0956ec4551ef id=0b
[635000] MASTER 0 W_VALID_RDY Handshake beat=58 wlast=0
[645000] MASTER 0 W_VALID_RDY Handshake beat=59 wlast=0
[645000] S1 MEMORY WRITE beat=58 addr=1ea97ac0 data=33cee0d395c60540 id=0b
[655000] S1 MEMORY WRITE beat=59 addr=1ea97b00 data=15726a4fd7ac3873 id=0b
[655000] MASTER 0 W_VALID_RDY Handshake beat=60 wlast=0
[665000] MASTER 0 W_VALID_RDY Handshake beat=61 wlast=0
[665000] S1 MEMORY WRITE beat=60 addr=1ea97b40 data=c3f18a63eebfc666 id=0b
[675000] S1 MEMORY WRITE beat=61 addr=1ea97b80 data=8485cba6bd9173a5 id=0b
[675000] MASTER 0 W_VALID_RDY Handshake beat=62 wlast=0
[685000] MASTER 0 W_VALID_RDY Handshake beat=63 wlast=0
[685000] S1 MEMORY WRITE beat=62 addr=1ea97bc0 data=153dac19f7c06b36 id=0b
[695000] S1 MEMORY WRITE beat=63 addr=1ea97c00 data=e680319c99f835f5 id=0b
[695000] MASTER 0 W_VALID_RDY Handshake beat=64 wlast=0
[705000] MASTER 0 W_VALID_RDY Handshake beat=65 wlast=0
[705000] S1 MEMORY WRITE beat=64 addr=1ea97c40 data=d789a99bd92f367c id=0b
[715000] S1 MEMORY WRITE beat=65 addr=1ea97c80 data=d0efa1b2eb05fd42 id=0b
[715000] MASTER 0 W_VALID_RDY Handshake beat=66 wlast=0
[725000] MASTER 0 W_VALID_RDY Handshake beat=67 wlast=0
[725000] S1 MEMORY WRITE beat=66 addr=1ea97cc0 data=04fe3338ecc755b4 id=0b
[735000] S1 MEMORY WRITE beat=67 addr=1ea97d00 data=c5f68c30376fd34e id=0b
[735000] MASTER 0 W_VALID_RDY Handshake beat=68 wlast=0
[745000] MASTER 0 W_VALID_RDY Handshake beat=69 wlast=0
[745000] S1 MEMORY WRITE beat=68 addr=1ea97d40 data=a275d090dc87dcd3 id=0b
[755000] S1 MEMORY WRITE beat=69 addr=1ea97d80 data=c94f328716e62de2 id=0b
[755000] MASTER 0 W_VALID_RDY Handshake beat=70 wlast=0
[765000] MASTER 0 W_VALID_RDY Handshake beat=71 wlast=0
[765000] S1 MEMORY WRITE beat=70 addr=1ea97dc0 data=ce560130a77403c8 id=0b
[775000] S1 MEMORY WRITE beat=71 addr=1ea97e00 data=83fbe09b0f45beb7 id=0b
[775000] MASTER 0 W_VALID_RDY Handshake beat=72 wlast=0
[785000] MASTER 0 W_VALID_RDY Handshake beat=73 wlast=0
[785000] S1 MEMORY WRITE beat=72 addr=1ea97e40 data=262bec99f0cbd1c0 id=0b
[795000] S1 MEMORY WRITE beat=73 addr=1ea97e80 data=183fd589cd4b1322 id=0b
[795000] MASTER 0 W_VALID_RDY Handshake beat=74 wlast=0
[805000] MASTER 0 W_VALID_RDY Handshake beat=75 wlast=0
[805000] S1 MEMORY WRITE beat=74 addr=1ea97ec0 data=dc90d1d9f481edc9 id=0b
[815000] S1 MEMORY WRITE beat=75 addr=1ea97f00 data=e54dbf899c3bb624 id=0b
[815000] MASTER 0 W_VALID_RDY Handshake beat=76 wlast=0
[825000] MASTER 0 W_VALID_RDY Handshake beat=77 wlast=0
[825000] S1 MEMORY WRITE beat=76 addr=1ea97f40 data=e986c94782bcbe72 id=0b
[835000] S1 MEMORY WRITE beat=77 addr=1ea97f80 data=f73eac3bfd8d9512 id=0b
[835000] MASTER 0 W_VALID_RDY Handshake beat=78 wlast=0
[845000] MASTER 0 W_VALID_RDY Handshake beat=79 wlast=0
[845000] S1 MEMORY WRITE beat=78 addr=1ea97fc0 data=19c94b37c6179b20 id=0b
[855000] S1 MEMORY WRITE beat=79 addr=1ea98000 data=c8d45993dc8c6bc5 id=0b
[855000] MASTER 0 W_VALID_RDY Handshake beat=80 wlast=0
[865000] MASTER 0 W_VALID_RDY Handshake beat=81 wlast=0
[865000] S1 MEMORY WRITE beat=80 addr=1ea98040 data=da1a00d70350147e id=0b
[875000] S1 MEMORY WRITE beat=81 addr=1ea98080 data=c967af9ec01305ce id=0b
[875000] MASTER 0 W_VALID_RDY Handshake beat=82 wlast=0
[885000] MASTER 0 W_VALID_RDY Handshake beat=83 wlast=0
[885000] S1 MEMORY WRITE beat=82 addr=1ea980c0 data=9c9f7193f3e34c0e id=0b
[895000] S1 MEMORY WRITE beat=83 addr=1ea98100 data=f733608c923c0931 id=0b
[895000] MASTER 0 W_VALID_RDY Handshake beat=84 wlast=0
[905000] MASTER 0 W_VALID_RDY Handshake beat=85 wlast=0
[905000] S1 MEMORY WRITE beat=84 addr=1ea98140 data=d24f0f00f6b9726b id=0b
[915000] S1 MEMORY WRITE beat=85 addr=1ea98180 data=ea9cbe79c09b102b id=0b
[915000] MASTER 0 W_VALID_RDY Handshake beat=86 wlast=0
[925000] MASTER 0 W_VALID_RDY Handshake beat=87 wlast=0
[925000] S1 MEMORY WRITE beat=86 addr=1ea981c0 data=d2d7195ceeee8093 id=0b
[935000] S1 MEMORY WRITE beat=87 addr=1ea98200 data=e5a7f2fee1d01f06 id=0b
[935000] MASTER 0 W_VALID_RDY Handshake beat=88 wlast=0
[945000] MASTER 0 W_VALID_RDY Handshake beat=89 wlast=0
[945000] S1 MEMORY WRITE beat=88 addr=1ea98240 data=226b2f31a526285c id=0b
[955000] S1 MEMORY WRITE beat=89 addr=1ea98280 data=1414a8f0d044b178 id=0b
[955000] MASTER 0 W_VALID_RDY Handshake beat=90 wlast=0
[965000] MASTER 0 W_VALID_RDY Handshake beat=91 wlast=0
[965000] S1 MEMORY WRITE beat=90 addr=1ea982c0 data=3214d07ef542488d id=0b
[975000] S1 MEMORY WRITE beat=91 addr=1ea98300 data=1a6870eaf9bc9bee id=0b
[975000] MASTER 0 W_VALID_RDY Handshake beat=92 wlast=0
[985000] MASTER 0 W_VALID_RDY Handshake beat=93 wlast=0
[985000] S1 MEMORY WRITE beat=92 addr=1ea98340 data=ca014d66d47fffaf id=0b
[995000] S1 MEMORY WRITE beat=93 addr=1ea98380 data=c9c2483c2e7d19da id=0b
[995000] MASTER 0 W_VALID_RDY Handshake beat=94 wlast=0
[1005000] MASTER 0 W_VALID_RDY Handshake beat=95 wlast=0
[1005000] S1 MEMORY WRITE beat=94 addr=1ea983c0 data=a839b5c8fc161de4 id=0b
[1015000] S1 MEMORY WRITE beat=95 addr=1ea98400 data=d0961d93e42ab926 id=0b
[1015000] MASTER 0 W_VALID_RDY Handshake beat=96 wlast=0
[1025000] MASTER 0 W_VALID_RDY Handshake beat=97 wlast=0
[1025000] S1 MEMORY WRITE beat=96 addr=1ea98440 data=92a7d300f23b032f id=0b
[1035000] S1 MEMORY WRITE beat=97 addr=1ea98480 data=ee5121131a5865d0 id=0b
[1035000] MASTER 0 W_VALID_RDY Handshake beat=98 wlast=0
[1045000] MASTER 0 W_VALID_RDY Handshake beat=99 wlast=0
[1045000] S1 MEMORY WRITE beat=98 addr=1ea984c0 data=fe831ef63ae188c9 id=0b
[1055000] S1 MEMORY WRITE beat=99 addr=1ea98500 data=2d1c8bf83ee73ea7 id=0b
[1055000] MASTER 0 W_VALID_RDY Handshake beat=100 wlast=0
[1065000] MASTER 0 W_VALID_RDY Handshake beat=101 wlast=0
[1065000] S1 MEMORY WRITE beat=100 addr=1ea98540 data=d93fa477112af1f7 id=0b
[1075000] S1 MEMORY WRITE beat=101 addr=1ea98580 data=cc0c7ac09b6dad0b id=0b
[1075000] MASTER 0 W_VALID_RDY Handshake beat=102 wlast=0
[1085000] MASTER 0 W_VALID_RDY Handshake beat=103 wlast=0
[1085000] S1 MEMORY WRITE beat=102 addr=1ea985c0 data=da54ebb2d7c2c36d id=0b
[1095000] S1 MEMORY WRITE beat=103 addr=1ea98600 data=e8edb564f92906b8 id=0b
[1095000] MASTER 0 W_VALID_RDY Handshake beat=104 wlast=0
[1105000] MASTER 0 W_VALID_RDY Handshake beat=105 wlast=0
[1105000] S1 MEMORY WRITE beat=104 addr=1ea98640 data=9496b3c3b3949029 id=0b
[1115000] S1 MEMORY WRITE beat=105 addr=1ea98680 data=0b575397b4fa3024 id=0b
[1115000] MASTER 0 W_VALID_RDY Handshake beat=106 wlast=0
[1125000] MASTER 0 W_VALID_RDY Handshake beat=107 wlast=0
[1125000] S1 MEMORY WRITE beat=106 addr=1ea986c0 data=ae2336dceeeb9f76 id=0b
[1135000] S1 MEMORY WRITE beat=107 addr=1ea98700 data=a2802f9ff44508fb id=0b
[1135000] MASTER 0 W_VALID_RDY Handshake beat=108 wlast=0
[1145000] MASTER 0 W_VALID_RDY Handshake beat=109 wlast=0
[1145000] S1 MEMORY WRITE beat=108 addr=1ea98740 data=293f3920c2b9eaa0 id=0b
[1155000] S1 MEMORY WRITE beat=109 addr=1ea98780 data=31a58a16add78336 id=0b
[1155000] MASTER 0 W_VALID_RDY Handshake beat=110 wlast=0
[1165000] MASTER 0 W_VALID_RDY Handshake beat=111 wlast=0
[1165000] S1 MEMORY WRITE beat=110 addr=1ea987c0 data=221c8c32d7626ffc id=0b
[1175000] S1 MEMORY WRITE beat=111 addr=1ea98800 data=9a1c5a9cd425b9b5 id=0b
[1175000] MASTER 0 W_VALID_RDY Handshake beat=112 wlast=0
[1185000] MASTER 0 W_VALID_RDY Handshake beat=113 wlast=0
[1185000] S1 MEMORY WRITE beat=112 addr=1ea98840 data=01fd3ceccb5bc552 id=0b
[1195000] S1 MEMORY WRITE beat=113 addr=1ea98880 data=a2be354ecbc1e4b2 id=0b
[1195000] MASTER 0 W_VALID_RDY Handshake beat=114 wlast=0
[1205000] MASTER 0 W_VALID_RDY Handshake beat=115 wlast=0
[1205000] S1 MEMORY WRITE beat=114 addr=1ea988c0 data=1fe79e682419c91e id=0b
[1215000] S1 MEMORY WRITE beat=115 addr=1ea98900 data=ef758e703cda8feb id=0b
[1215000] MASTER 0 W_VALID_RDY Handshake beat=116 wlast=0
[1225000] MASTER 0 W_VALID_RDY Handshake beat=117 wlast=0
[1225000] S1 MEMORY WRITE beat=116 addr=1ea98940 data=889c749d21e4db54 id=0b
[1235000] S1 MEMORY WRITE beat=117 addr=1ea98980 data=c5fea4729233c3be id=0b
[1235000] MASTER 0 W_VALID_RDY Handshake beat=118 wlast=0
[1245000] MASTER 0 W_VALID_RDY Handshake beat=119 wlast=0
[1245000] S1 MEMORY WRITE beat=118 addr=1ea989c0 data=cf0e53a9a8841305 id=0b
[1255000] S1 MEMORY WRITE beat=119 addr=1ea98a00 data=ca68ee59357432e2 id=0b
[1255000] MASTER 0 W_VALID_RDY Handshake beat=120 wlast=0
[1265000] MASTER 0 W_VALID_RDY Handshake beat=121 wlast=0
[1265000] S1 MEMORY WRITE beat=120 addr=1ea98a40 data=c7a7f6a0d7aac847 id=0b
[1275000] S1 MEMORY WRITE beat=121 addr=1ea98a80 data=802edb4c906792cb id=0b
[1275000] MASTER 0 W_VALID_RDY Handshake beat=122 wlast=0
[1285000] MASTER 0 W_VALID_RDY Handshake beat=123 wlast=0
[1285000] S1 MEMORY WRITE beat=122 addr=1ea98ac0 data=c5dbc5ad16b64a4a id=0b
[1295000] S1 MEMORY WRITE beat=123 addr=1ea98b00 data=ee611291ca97c9a6 id=0b
[1295000] MASTER 0 W_VALID_RDY Handshake beat=124 wlast=0
[1305000] MASTER 0 W_VALID_RDY Handshake beat=125 wlast=0
[1305000] S1 MEMORY WRITE beat=124 addr=1ea98b40 data=daff5c710d83bc4e id=0b
[1315000] S1 MEMORY WRITE beat=125 addr=1ea98b80 data=243a0698ee8feddd id=0b
[1315000] MASTER 0 W_VALID_RDY Handshake beat=126 wlast=1
[1315000] MASTER_DRIVER0 received transaction, op=AXI_READ
[1325000] S1 MEMORY WRITE beat=126 addr=1ea98bc0 data=b927b78320db221f id=0b
[1335000] SLAVE1 sent B resp, id=11
[1335000] [SLAVE MONITOR] mst_id=0 s_id=1 awaddr=1ea96c40 awid=1011 awlen=126 awsize=6 awburst=1 wdata=[c7eecaf9ded6d90f 8c853d62f54fc871 396965e212273217 f0fe0b263424ab34 297473a5015830db 137f62f2fd834888 b1a7f3bce2ddd987 e4360a62047d6e18 8200b6a0db1c6761 bdfa40e8f7b56d54 fc32db6c33a8aa5d 8ec511bea2304b4a 99e5b89efe33920c b1dc3c69ccbf52a7 eeef9df19618940a 144c2617c0a14e28 d60a0cf08d55690 9eedea9ac6286280 86c9b0a8fc503ec0 85259550b33a10b1 f9627332942a5177 107a903824137feb d74d909c802c23da 1456755295a02588 b9b3a573d0b003ce d0dc27a924d1058a ba712b1211013610 e1b139dee5329cfb a03a285f424d086 5260696b28d6187 97bffe82c474cd97 b8999e1de6d74074 1964a1fca1c3a107 e6386e9fbdbfa4b3 2496e528b124a07e d2e841869ed20cbc dc91b1703dfb8724 ef2027a23920b025 d7f2bce101289698 3f241dbcc2086928 fb29194db4846e51 b5ad04e9ae44455e f04cae87d31bd62f 87a04480f4d122a5 23156804eb75c7d4 be919e033d4d496a b21e6c0f1362168b fed7de5fc631e284 37f2beed533d413 e895ea9e3d697c63 39b5ee7b59d97fd ad16c11e76dc8fe 24d74561071a8ad5 bcb822d2f36756af dad51fad2872a448 2f8d2f1dc7898ee3 3af0e593ffac650e a81f0956ec4551ef 33cee0d395c60540 15726a4fd7ac3873 c3f18a63eebfc666 8485cba6bd9173a5 153dac19f7c06b36 e680319c99f835f5 d789a99bd92f367c d0efa1b2eb05fd42 4fe3338ecc755b4 c5f68c30376fd34e a275d090dc87dcd3 c94f328716e62de2 ce560130a77403c8 83fbe09b0f45beb7 262bec99f0cbd1c0 183fd589cd4b1322 dc90d1d9f481edc9 e54dbf899c3bb624 e986c94782bcbe72 f73eac3bfd8d9512 19c94b37c6179b20 c8d45993dc8c6bc5 da1a00d70350147e c967af9ec01305ce 9c9f7193f3e34c0e f733608c923c0931 d24f0f00f6b9726b ea9cbe79c09b102b d2d7195ceeee8093 e5a7f2fee1d01f06 226b2f31a526285c 1414a8f0d044b178 3214d07ef542488d 1a6870eaf9bc9bee ca014d66d47fffaf c9c2483c2e7d19da a839b5c8fc161de4 d0961d93e42ab926 92a7d300f23b032f ee5121131a5865d0 fe831ef63ae188c9 2d1c8bf83ee73ea7 d93fa477112af1f7 cc0c7ac09b6dad0b da54ebb2d7c2c36d e8edb564f92906b8 9496b3c3b3949029 b575397b4fa3024 ae2336dceeeb9f76 a2802f9ff44508fb 293f3920c2b9eaa0 31a58a16add78336 221c8c32d7626ffc 9a1c5a9cd425b9b5 1fd3ceccb5bc552 a2be354ecbc1e4b2 1fe79e682419c91e ef758e703cda8feb 889c749d21e4db54 c5fea4729233c3be cf0e53a9a8841305 ca68ee59357432e2 c7a7f6a0d7aac847 802edb4c906792cb c5dbc5ad16b64a4a ee611291ca97c9a6 daff5c710d83bc4e 243a0698ee8feddd b927b78320db221f ] wstrb=[29 6d f5 6 5 14 8a 2e 81 7f 34 86 93 be b4 14 3d e8 9a d0 a7 4e e4 e4 36 7e b5 dd cc 99 c2 3 18 77 e0 e4 10 a2 e7 28 19 c8 d 2a 6a f4 52 84 bc 5f ae 27 54 0 ab 10 60 59 37 b4 59 e2 c4 b9 3b fc 6d 95 de 32 4e 1a 2e bc af c ee fd 26 1c b9 d5 28 a7 d3 4f c3 8c 24 ec 34 f7 3b f7 84 5f e3 b8 57 1e af db 7e 93 93 d5 b1 42 b0 2f d5 43 4 87 85 b4 b6 5b f7 bb e2 7d 6f 98 d8 67 53 ] bresp=0 bid=1011
[1335000] MASTER_DRIVER0 received transaction, op=AXI_READ
[1345000] ARB MONITOR: slave=1 m0_req=1 m1_req=0 winner=0
[1345000] AXI S0_ARVALID_RDY HANDSHAKE
[1345000] MEMORY READ MISS beat=0 addr=16fdf6f0 -> default data id=1
[1355000] MEMORY READ MISS beat=1 addr=16fdf6f8 -> default data id=1
[1355000] SLAVE 1 R_VALID_RDY Handshake beat=0 rlast=0
[1355000] MASTER 0 B_VALID_RDY Handshake
[1355000] [MASTER MONITOR] mst_id=0 s_id=1 awaddr=1ea96c40 awid=1011 awlen=126 awsize=6 awburst=1 wdata=[c7eecaf9ded6d90f 8c853d62f54fc871 396965e212273217 f0fe0b263424ab34 297473a5015830db 137f62f2fd834888 b1a7f3bce2ddd987 e4360a62047d6e18 8200b6a0db1c6761 bdfa40e8f7b56d54 fc32db6c33a8aa5d 8ec511bea2304b4a 99e5b89efe33920c b1dc3c69ccbf52a7 eeef9df19618940a 144c2617c0a14e28 d60a0cf08d55690 9eedea9ac6286280 86c9b0a8fc503ec0 85259550b33a10b1 f9627332942a5177 107a903824137feb d74d909c802c23da 1456755295a02588 b9b3a573d0b003ce d0dc27a924d1058a ba712b1211013610 e1b139dee5329cfb a03a285f424d086 5260696b28d6187 97bffe82c474cd97 b8999e1de6d74074 1964a1fca1c3a107 e6386e9fbdbfa4b3 2496e528b124a07e d2e841869ed20cbc dc91b1703dfb8724 ef2027a23920b025 d7f2bce101289698 3f241dbcc2086928 fb29194db4846e51 b5ad04e9ae44455e f04cae87d31bd62f 87a04480f4d122a5 23156804eb75c7d4 be919e033d4d496a b21e6c0f1362168b fed7de5fc631e284 37f2beed533d413 e895ea9e3d697c63 39b5ee7b59d97fd ad16c11e76dc8fe 24d74561071a8ad5 bcb822d2f36756af dad51fad2872a448 2f8d2f1dc7898ee3 3af0e593ffac650e a81f0956ec4551ef 33cee0d395c60540 15726a4fd7ac3873 c3f18a63eebfc666 8485cba6bd9173a5 153dac19f7c06b36 e680319c99f835f5 d789a99bd92f367c d0efa1b2eb05fd42 4fe3338ecc755b4 c5f68c30376fd34e a275d090dc87dcd3 c94f328716e62de2 ce560130a77403c8 83fbe09b0f45beb7 262bec99f0cbd1c0 183fd589cd4b1322 dc90d1d9f481edc9 e54dbf899c3bb624 e986c94782bcbe72 f73eac3bfd8d9512 19c94b37c6179b20 c8d45993dc8c6bc5 da1a00d70350147e c967af9ec01305ce 9c9f7193f3e34c0e f733608c923c0931 d24f0f00f6b9726b ea9cbe79c09b102b d2d7195ceeee8093 e5a7f2fee1d01f06 226b2f31a526285c 1414a8f0d044b178 3214d07ef542488d 1a6870eaf9bc9bee ca014d66d47fffaf c9c2483c2e7d19da a839b5c8fc161de4 d0961d93e42ab926 92a7d300f23b032f ee5121131a5865d0 fe831ef63ae188c9 2d1c8bf83ee73ea7 d93fa477112af1f7 cc0c7ac09b6dad0b da54ebb2d7c2c36d e8edb564f92906b8 9496b3c3b3949029 b575397b4fa3024 ae2336dceeeb9f76 a2802f9ff44508fb 293f3920c2b9eaa0 31a58a16add78336 221c8c32d7626ffc 9a1c5a9cd425b9b5 1fd3ceccb5bc552 a2be354ecbc1e4b2 1fe79e682419c91e ef758e703cda8feb 889c749d21e4db54 c5fea4729233c3be cf0e53a9a8841305 ca68ee59357432e2 c7a7f6a0d7aac847 802edb4c906792cb c5dbc5ad16b64a4a ee611291ca97c9a6 daff5c710d83bc4e 243a0698ee8feddd b927b78320db221f ] wstrb=[29 6d f5 6 5 14 8a 2e 81 7f 34 86 93 be b4 14 3d e8 9a d0 a7 4e e4 e4 36 7e b5 dd cc 99 c2 3 18 77 e0 e4 10 a2 e7 28 19 c8 d 2a 6a f4 52 84 bc 5f ae 27 54 0 ab 10 60 59 37 b4 59 e2 c4 b9 3b fc 6d 95 de 32 4e 1a 2e bc af c ee fd 26 1c b9 d5 28 a7 d3 4f c3 8c 24 ec 34 f7 3b f7 84 5f e3 b8 57 1e af db 7e 93 93 d5 b1 42 b0 2f d5 43 4 87 85 b4 b6 5b f7 bb e2 7d 6f 98 d8 67 53 ] bresp=0 bid=1011
[1355000] MASTER 0 RECEIVED BRESP. BRESP=0
[1355000] [MASTER DRIVER] mst_id=0 s_id=0 awaddr=1ea96c40 awid=1011 awlen=126 awsize=6 awburst=1 wdata=[c7eecaf9ded6d90f 8c853d62f54fc871 396965e212273217 f0fe0b263424ab34 297473a5015830db 137f62f2fd834888 b1a7f3bce2ddd987 e4360a62047d6e18 8200b6a0db1c6761 bdfa40e8f7b56d54 fc32db6c33a8aa5d 8ec511bea2304b4a 99e5b89efe33920c b1dc3c69ccbf52a7 eeef9df19618940a 144c2617c0a14e28 d60a0cf08d55690 9eedea9ac6286280 86c9b0a8fc503ec0 85259550b33a10b1 f9627332942a5177 107a903824137feb d74d909c802c23da 1456755295a02588 b9b3a573d0b003ce d0dc27a924d1058a ba712b1211013610 e1b139dee5329cfb a03a285f424d086 5260696b28d6187 97bffe82c474cd97 b8999e1de6d74074 1964a1fca1c3a107 e6386e9fbdbfa4b3 2496e528b124a07e d2e841869ed20cbc dc91b1703dfb8724 ef2027a23920b025 d7f2bce101289698 3f241dbcc2086928 fb29194db4846e51 b5ad04e9ae44455e f04cae87d31bd62f 87a04480f4d122a5 23156804eb75c7d4 be919e033d4d496a b21e6c0f1362168b fed7de5fc631e284 37f2beed533d413 e895ea9e3d697c63 39b5ee7b59d97fd ad16c11e76dc8fe 24d74561071a8ad5 bcb822d2f36756af dad51fad2872a448 2f8d2f1dc7898ee3 3af0e593ffac650e a81f0956ec4551ef 33cee0d395c60540 15726a4fd7ac3873 c3f18a63eebfc666 8485cba6bd9173a5 153dac19f7c06b36 e680319c99f835f5 d789a99bd92f367c d0efa1b2eb05fd42 4fe3338ecc755b4 c5f68c30376fd34e a275d090dc87dcd3 c94f328716e62de2 ce560130a77403c8 83fbe09b0f45beb7 262bec99f0cbd1c0 183fd589cd4b1322 dc90d1d9f481edc9 e54dbf899c3bb624 e986c94782bcbe72 f73eac3bfd8d9512 19c94b37c6179b20 c8d45993dc8c6bc5 da1a00d70350147e c967af9ec01305ce 9c9f7193f3e34c0e f733608c923c0931 d24f0f00f6b9726b ea9cbe79c09b102b d2d7195ceeee8093 e5a7f2fee1d01f06 226b2f31a526285c 1414a8f0d044b178 3214d07ef542488d 1a6870eaf9bc9bee ca014d66d47fffaf c9c2483c2e7d19da a839b5c8fc161de4 d0961d93e42ab926 92a7d300f23b032f ee5121131a5865d0 fe831ef63ae188c9 2d1c8bf83ee73ea7 d93fa477112af1f7 cc0c7ac09b6dad0b da54ebb2d7c2c36d e8edb564f92906b8 9496b3c3b3949029 b575397b4fa3024 ae2336dceeeb9f76 a2802f9ff44508fb 293f3920c2b9eaa0 31a58a16add78336 221c8c32d7626ffc 9a1c5a9cd425b9b5 1fd3ceccb5bc552 a2be354ecbc1e4b2 1fe79e682419c91e ef758e703cda8feb 889c749d21e4db54 c5fea4729233c3be cf0e53a9a8841305 ca68ee59357432e2 c7a7f6a0d7aac847 802edb4c906792cb c5dbc5ad16b64a4a ee611291ca97c9a6 daff5c710d83bc4e 243a0698ee8feddd b927b78320db221f ] wstrb=[29 6d f5 6 5 14 8a 2e 81 7f 34 86 93 be b4 14 3d e8 9a d0 a7 4e e4 e4 36 7e b5 dd cc 99 c2 3 18 77 e0 e4 10 a2 e7 28 19 c8 d 2a 6a f4 52 84 bc 5f ae 27 54 0 ab 10 60 59 37 b4 59 e2 c4 b9 3b fc 6d 95 de 32 4e 1a 2e bc af c ee fd 26 1c b9 d5 28 a7 d3 4f c3 8c 24 ec 34 f7 3b f7 84 5f e3 b8 57 1e af db 7e 93 93 d5 b1 42 b0 2f d5 43 4 87 85 b4 b6 5b f7 bb e2 7d 6f 98 d8 67 53 ] bresp=0 bid=1011
[1355000] SCOREBOARD MATCH: decode_err expected = 0, actual =0
[1355000] SCOREBOARD MATCH: slave_id expected = 1, actual =1
[1355000] SCOREBOARD MATCH: awaddr passthrough expected = 1ea96c40, actual =1ea96c40
[1355000] SCOREBOARD MATCH: awlen passthrough expected = 126, actual =126
[1355000] SCOREBOARD MATCH: awsize passthrough expected = 6, actual =6
[1355000] SCOREBOARD MATCH: awburst passthrough expected = 1, actual =1
[1355000] SCOREBOARD MATCH: wdata size check expected = 7f, actual =7f
[1355000] SCOREBOARD MATCH: wdata passthrough beat=0 expected = c7eecaf9ded6d90f, actual =c7eecaf9ded6d90f
[1355000] SCOREBOARD MATCH: wdata passthrough beat=1 expected = 8c853d62f54fc871, actual =8c853d62f54fc871
[1355000] SCOREBOARD MATCH: wdata passthrough beat=2 expected = 396965e212273217, actual =396965e212273217
[1355000] SCOREBOARD MATCH: wdata passthrough beat=3 expected = f0fe0b263424ab34, actual =f0fe0b263424ab34
[1355000] SCOREBOARD MATCH: wdata passthrough beat=4 expected = 297473a5015830db, actual =297473a5015830db
[1355000] SCOREBOARD MATCH: wdata passthrough beat=5 expected = 137f62f2fd834888, actual =137f62f2fd834888
[1355000] SCOREBOARD MATCH: wdata passthrough beat=6 expected = b1a7f3bce2ddd987, actual =b1a7f3bce2ddd987
[1355000] SCOREBOARD MATCH: wdata passthrough beat=7 expected = e4360a62047d6e18, actual =e4360a62047d6e18
[1355000] SCOREBOARD MATCH: wdata passthrough beat=8 expected = 8200b6a0db1c6761, actual =8200b6a0db1c6761
[1355000] SCOREBOARD MATCH: wdata passthrough beat=9 expected = bdfa40e8f7b56d54, actual =bdfa40e8f7b56d54
[1355000] SCOREBOARD MATCH: wdata passthrough beat=10 expected = fc32db6c33a8aa5d, actual =fc32db6c33a8aa5d
[1355000] SCOREBOARD MATCH: wdata passthrough beat=11 expected = 8ec511bea2304b4a, actual =8ec511bea2304b4a
[1355000] SCOREBOARD MATCH: wdata passthrough beat=12 expected = 99e5b89efe33920c, actual =99e5b89efe33920c
[1355000] SCOREBOARD MATCH: wdata passthrough beat=13 expected = b1dc3c69ccbf52a7, actual =b1dc3c69ccbf52a7
[1355000] SCOREBOARD MATCH: wdata passthrough beat=14 expected = eeef9df19618940a, actual =eeef9df19618940a
[1355000] SCOREBOARD MATCH: wdata passthrough beat=15 expected = 144c2617c0a14e28, actual =144c2617c0a14e28
[1355000] SCOREBOARD MATCH: wdata passthrough beat=16 expected = d60a0cf08d55690, actual =d60a0cf08d55690
[1355000] SCOREBOARD MATCH: wdata passthrough beat=17 expected = 9eedea9ac6286280, actual =9eedea9ac6286280
[1355000] SCOREBOARD MATCH: wdata passthrough beat=18 expected = 86c9b0a8fc503ec0, actual =86c9b0a8fc503ec0
[1355000] SCOREBOARD MATCH: wdata passthrough beat=19 expected = 85259550b33a10b1, actual =85259550b33a10b1
[1355000] SCOREBOARD MATCH: wdata passthrough beat=20 expected = f9627332942a5177, actual =f9627332942a5177
[1355000] SCOREBOARD MATCH: wdata passthrough beat=21 expected = 107a903824137feb, actual =107a903824137feb
[1355000] SCOREBOARD MATCH: wdata passthrough beat=22 expected = d74d909c802c23da, actual =d74d909c802c23da
[1355000] SCOREBOARD MATCH: wdata passthrough beat=23 expected = 1456755295a02588, actual =1456755295a02588
[1355000] SCOREBOARD MATCH: wdata passthrough beat=24 expected = b9b3a573d0b003ce, actual =b9b3a573d0b003ce
[1355000] SCOREBOARD MATCH: wdata passthrough beat=25 expected = d0dc27a924d1058a, actual =d0dc27a924d1058a
[1355000] SCOREBOARD MATCH: wdata passthrough beat=26 expected = ba712b1211013610, actual =ba712b1211013610
[1355000] SCOREBOARD MATCH: wdata passthrough beat=27 expected = e1b139dee5329cfb, actual =e1b139dee5329cfb
[1355000] SCOREBOARD MATCH: wdata passthrough beat=28 expected = a03a285f424d086, actual =a03a285f424d086
[1355000] SCOREBOARD MATCH: wdata passthrough beat=29 expected = 5260696b28d6187, actual =5260696b28d6187
[1355000] SCOREBOARD MATCH: wdata passthrough beat=30 expected = 97bffe82c474cd97, actual =97bffe82c474cd97
[1355000] SCOREBOARD MATCH: wdata passthrough beat=31 expected = b8999e1de6d74074, actual =b8999e1de6d74074
[1355000] SCOREBOARD MATCH: wdata passthrough beat=32 expected = 1964a1fca1c3a107, actual =1964a1fca1c3a107
[1355000] SCOREBOARD MATCH: wdata passthrough beat=33 expected = e6386e9fbdbfa4b3, actual =e6386e9fbdbfa4b3
[1355000] SCOREBOARD MATCH: wdata passthrough beat=34 expected = 2496e528b124a07e, actual =2496e528b124a07e
[1355000] SCOREBOARD MATCH: wdata passthrough beat=35 expected = d2e841869ed20cbc, actual =d2e841869ed20cbc
[1355000] SCOREBOARD MATCH: wdata passthrough beat=36 expected = dc91b1703dfb8724, actual =dc91b1703dfb8724
[1355000] SCOREBOARD MATCH: wdata passthrough beat=37 expected = ef2027a23920b025, actual =ef2027a23920b025
[1355000] SCOREBOARD MATCH: wdata passthrough beat=38 expected = d7f2bce101289698, actual =d7f2bce101289698
[1355000] SCOREBOARD MATCH: wdata passthrough beat=39 expected = 3f241dbcc2086928, actual =3f241dbcc2086928
[1355000] SCOREBOARD MATCH: wdata passthrough beat=40 expected = fb29194db4846e51, actual =fb29194db4846e51
[1355000] SCOREBOARD MATCH: wdata passthrough beat=41 expected = b5ad04e9ae44455e, actual =b5ad04e9ae44455e
[1355000] SCOREBOARD MATCH: wdata passthrough beat=42 expected = f04cae87d31bd62f, actual =f04cae87d31bd62f
[1355000] SCOREBOARD MATCH: wdata passthrough beat=43 expected = 87a04480f4d122a5, actual =87a04480f4d122a5
[1355000] SCOREBOARD MATCH: wdata passthrough beat=44 expected = 23156804eb75c7d4, actual =23156804eb75c7d4
[1355000] SCOREBOARD MATCH: wdata passthrough beat=45 expected = be919e033d4d496a, actual =be919e033d4d496a
[1355000] SCOREBOARD MATCH: wdata passthrough beat=46 expected = b21e6c0f1362168b, actual =b21e6c0f1362168b
[1355000] SCOREBOARD MATCH: wdata passthrough beat=47 expected = fed7de5fc631e284, actual =fed7de5fc631e284
[1355000] SCOREBOARD MATCH: wdata passthrough beat=48 expected = 37f2beed533d413, actual =37f2beed533d413
[1355000] SCOREBOARD MATCH: wdata passthrough beat=49 expected = e895ea9e3d697c63, actual =e895ea9e3d697c63
[1355000] SCOREBOARD MATCH: wdata passthrough beat=50 expected = 39b5ee7b59d97fd, actual =39b5ee7b59d97fd
[1355000] SCOREBOARD MATCH: wdata passthrough beat=51 expected = ad16c11e76dc8fe, actual =ad16c11e76dc8fe
[1355000] SCOREBOARD MATCH: wdata passthrough beat=52 expected = 24d74561071a8ad5, actual =24d74561071a8ad5
[1355000] SCOREBOARD MATCH: wdata passthrough beat=53 expected = bcb822d2f36756af, actual =bcb822d2f36756af
[1355000] SCOREBOARD MATCH: wdata passthrough beat=54 expected = dad51fad2872a448, actual =dad51fad2872a448
[1355000] SCOREBOARD MATCH: wdata passthrough beat=55 expected = 2f8d2f1dc7898ee3, actual =2f8d2f1dc7898ee3
[1355000] SCOREBOARD MATCH: wdata passthrough beat=56 expected = 3af0e593ffac650e, actual =3af0e593ffac650e
[1355000] SCOREBOARD MATCH: wdata passthrough beat=57 expected = a81f0956ec4551ef, actual =a81f0956ec4551ef
[1355000] SCOREBOARD MATCH: wdata passthrough beat=58 expected = 33cee0d395c60540, actual =33cee0d395c60540
[1355000] SCOREBOARD MATCH: wdata passthrough beat=59 expected = 15726a4fd7ac3873, actual =15726a4fd7ac3873
[1355000] SCOREBOARD MATCH: wdata passthrough beat=60 expected = c3f18a63eebfc666, actual =c3f18a63eebfc666
[1355000] SCOREBOARD MATCH: wdata passthrough beat=61 expected = 8485cba6bd9173a5, actual =8485cba6bd9173a5
[1355000] SCOREBOARD MATCH: wdata passthrough beat=62 expected = 153dac19f7c06b36, actual =153dac19f7c06b36
[1355000] SCOREBOARD MATCH: wdata passthrough beat=63 expected = e680319c99f835f5, actual =e680319c99f835f5
[1355000] SCOREBOARD MATCH: wdata passthrough beat=64 expected = d789a99bd92f367c, actual =d789a99bd92f367c
[1355000] SCOREBOARD MATCH: wdata passthrough beat=65 expected = d0efa1b2eb05fd42, actual =d0efa1b2eb05fd42
[1355000] SCOREBOARD MATCH: wdata passthrough beat=66 expected = 4fe3338ecc755b4, actual =4fe3338ecc755b4
[1355000] SCOREBOARD MATCH: wdata passthrough beat=67 expected = c5f68c30376fd34e, actual =c5f68c30376fd34e
[1355000] SCOREBOARD MATCH: wdata passthrough beat=68 expected = a275d090dc87dcd3, actual =a275d090dc87dcd3
[1355000] SCOREBOARD MATCH: wdata passthrough beat=69 expected = c94f328716e62de2, actual =c94f328716e62de2
[1355000] SCOREBOARD MATCH: wdata passthrough beat=70 expected = ce560130a77403c8, actual =ce560130a77403c8
[1355000] SCOREBOARD MATCH: wdata passthrough beat=71 expected = 83fbe09b0f45beb7, actual =83fbe09b0f45beb7
[1355000] SCOREBOARD MATCH: wdata passthrough beat=72 expected = 262bec99f0cbd1c0, actual =262bec99f0cbd1c0
[1355000] SCOREBOARD MATCH: wdata passthrough beat=73 expected = 183fd589cd4b1322, actual =183fd589cd4b1322
[1355000] SCOREBOARD MATCH: wdata passthrough beat=74 expected = dc90d1d9f481edc9, actual =dc90d1d9f481edc9
[1355000] SCOREBOARD MATCH: wdata passthrough beat=75 expected = e54dbf899c3bb624, actual =e54dbf899c3bb624
[1355000] SCOREBOARD MATCH: wdata passthrough beat=76 expected = e986c94782bcbe72, actual =e986c94782bcbe72
[1355000] SCOREBOARD MATCH: wdata passthrough beat=77 expected = f73eac3bfd8d9512, actual =f73eac3bfd8d9512
[1355000] SCOREBOARD MATCH: wdata passthrough beat=78 expected = 19c94b37c6179b20, actual =19c94b37c6179b20
[1355000] SCOREBOARD MATCH: wdata passthrough beat=79 expected = c8d45993dc8c6bc5, actual =c8d45993dc8c6bc5
[1355000] SCOREBOARD MATCH: wdata passthrough beat=80 expected = da1a00d70350147e, actual =da1a00d70350147e
[1355000] SCOREBOARD MATCH: wdata passthrough beat=81 expected = c967af9ec01305ce, actual =c967af9ec01305ce
[1355000] SCOREBOARD MATCH: wdata passthrough beat=82 expected = 9c9f7193f3e34c0e, actual =9c9f7193f3e34c0e
[1355000] SCOREBOARD MATCH: wdata passthrough beat=83 expected = f733608c923c0931, actual =f733608c923c0931
[1355000] SCOREBOARD MATCH: wdata passthrough beat=84 expected = d24f0f00f6b9726b, actual =d24f0f00f6b9726b
[1355000] SCOREBOARD MATCH: wdata passthrough beat=85 expected = ea9cbe79c09b102b, actual =ea9cbe79c09b102b
[1355000] SCOREBOARD MATCH: wdata passthrough beat=86 expected = d2d7195ceeee8093, actual =d2d7195ceeee8093
[1355000] SCOREBOARD MATCH: wdata passthrough beat=87 expected = e5a7f2fee1d01f06, actual =e5a7f2fee1d01f06
[1355000] SCOREBOARD MATCH: wdata passthrough beat=88 expected = 226b2f31a526285c, actual =226b2f31a526285c
[1355000] SCOREBOARD MATCH: wdata passthrough beat=89 expected = 1414a8f0d044b178, actual =1414a8f0d044b178
[1355000] SCOREBOARD MATCH: wdata passthrough beat=90 expected = 3214d07ef542488d, actual =3214d07ef542488d
[1355000] SCOREBOARD MATCH: wdata passthrough beat=91 expected = 1a6870eaf9bc9bee, actual =1a6870eaf9bc9bee
[1355000] SCOREBOARD MATCH: wdata passthrough beat=92 expected = ca014d66d47fffaf, actual =ca014d66d47fffaf
[1355000] SCOREBOARD MATCH: wdata passthrough beat=93 expected = c9c2483c2e7d19da, actual =c9c2483c2e7d19da
[1355000] SCOREBOARD MATCH: wdata passthrough beat=94 expected = a839b5c8fc161de4, actual =a839b5c8fc161de4
[1355000] SCOREBOARD MATCH: wdata passthrough beat=95 expected = d0961d93e42ab926, actual =d0961d93e42ab926
[1355000] SCOREBOARD MATCH: wdata passthrough beat=96 expected = 92a7d300f23b032f, actual =92a7d300f23b032f
[1355000] SCOREBOARD MATCH: wdata passthrough beat=97 expected = ee5121131a5865d0, actual =ee5121131a5865d0
[1355000] SCOREBOARD MATCH: wdata passthrough beat=98 expected = fe831ef63ae188c9, actual =fe831ef63ae188c9
[1355000] SCOREBOARD MATCH: wdata passthrough beat=99 expected = 2d1c8bf83ee73ea7, actual =2d1c8bf83ee73ea7
[1355000] SCOREBOARD MATCH: wdata passthrough beat=100 expected = d93fa477112af1f7, actual =d93fa477112af1f7
[1355000] SCOREBOARD MATCH: wdata passthrough beat=101 expected = cc0c7ac09b6dad0b, actual =cc0c7ac09b6dad0b
[1355000] SCOREBOARD MATCH: wdata passthrough beat=102 expected = da54ebb2d7c2c36d, actual =da54ebb2d7c2c36d
[1355000] SCOREBOARD MATCH: wdata passthrough beat=103 expected = e8edb564f92906b8, actual =e8edb564f92906b8
[1355000] SCOREBOARD MATCH: wdata passthrough beat=104 expected = 9496b3c3b3949029, actual =9496b3c3b3949029
[1355000] SCOREBOARD MATCH: wdata passthrough beat=105 expected = b575397b4fa3024, actual =b575397b4fa3024
[1355000] SCOREBOARD MATCH: wdata passthrough beat=106 expected = ae2336dceeeb9f76, actual =ae2336dceeeb9f76
[1355000] SCOREBOARD MATCH: wdata passthrough beat=107 expected = a2802f9ff44508fb, actual =a2802f9ff44508fb
[1355000] SCOREBOARD MATCH: wdata passthrough beat=108 expected = 293f3920c2b9eaa0, actual =293f3920c2b9eaa0
[1355000] SCOREBOARD MATCH: wdata passthrough beat=109 expected = 31a58a16add78336, actual =31a58a16add78336
[1355000] SCOREBOARD MATCH: wdata passthrough beat=110 expected = 221c8c32d7626ffc, actual =221c8c32d7626ffc
[1355000] SCOREBOARD MATCH: wdata passthrough beat=111 expected = 9a1c5a9cd425b9b5, actual =9a1c5a9cd425b9b5
[1355000] SCOREBOARD MATCH: wdata passthrough beat=112 expected = 1fd3ceccb5bc552, actual =1fd3ceccb5bc552
[1355000] SCOREBOARD MATCH: wdata passthrough beat=113 expected = a2be354ecbc1e4b2, actual =a2be354ecbc1e4b2
[1355000] SCOREBOARD MATCH: wdata passthrough beat=114 expected = 1fe79e682419c91e, actual =1fe79e682419c91e
[1355000] SCOREBOARD MATCH: wdata passthrough beat=115 expected = ef758e703cda8feb, actual =ef758e703cda8feb
[1355000] SCOREBOARD MATCH: wdata passthrough beat=116 expected = 889c749d21e4db54, actual =889c749d21e4db54
[1355000] SCOREBOARD MATCH: wdata passthrough beat=117 expected = c5fea4729233c3be, actual =c5fea4729233c3be
[1355000] SCOREBOARD MATCH: wdata passthrough beat=118 expected = cf0e53a9a8841305, actual =cf0e53a9a8841305
[1355000] SCOREBOARD MATCH: wdata passthrough beat=119 expected = ca68ee59357432e2, actual =ca68ee59357432e2
[1355000] SCOREBOARD MATCH: wdata passthrough beat=120 expected = c7a7f6a0d7aac847, actual =c7a7f6a0d7aac847
[1355000] SCOREBOARD MATCH: wdata passthrough beat=121 expected = 802edb4c906792cb, actual =802edb4c906792cb
[1355000] SCOREBOARD MATCH: wdata passthrough beat=122 expected = c5dbc5ad16b64a4a, actual =c5dbc5ad16b64a4a
[1355000] SCOREBOARD MATCH: wdata passthrough beat=123 expected = ee611291ca97c9a6, actual =ee611291ca97c9a6
[1355000] SCOREBOARD MATCH: wdata passthrough beat=124 expected = daff5c710d83bc4e, actual =daff5c710d83bc4e
[1355000] SCOREBOARD MATCH: wdata passthrough beat=125 expected = 243a0698ee8feddd, actual =243a0698ee8feddd
[1355000] SCOREBOARD MATCH: wdata passthrough beat=126 expected = b927b78320db221f, actual =b927b78320db221f
[1355000] SCOREBOARD MATCH: wstrb size check expected = 7f, actual =7f
[1355000] SCOREBOARD MATCH: wstrb passthrough beat=0 expected = 29, actual =29
[1355000] SCOREBOARD MATCH: wstrb passthrough beat=1 expected = 6d, actual =6d
[1355000] SCOREBOARD MATCH: wstrb passthrough beat=2 expected = f5, actual =f5
[1355000] SCOREBOARD MATCH: wstrb passthrough beat=3 expected = 6, actual =6
[1355000] SCOREBOARD MATCH: wstrb passthrough beat=4 expected = 5, actual =5
[1355000] SCOREBOARD MATCH: wstrb passthrough beat=5 expected = 14, actual =14
[1355000] SCOREBOARD MATCH: wstrb passthrough beat=6 expected = 8a, actual =8a
[1355000] SCOREBOARD MATCH: wstrb passthrough beat=7 expected = 2e, actual =2e
[1355000] SCOREBOARD MATCH: wstrb passthrough beat=8 expected = 81, actual =81
[1355000] SCOREBOARD MATCH: wstrb passthrough beat=9 expected = 7f, actual =7f
[1355000] SCOREBOARD MATCH: wstrb passthrough beat=10 expected = 34, actual =34
[1355000] SCOREBOARD MATCH: wstrb passthrough beat=11 expected = 86, actual =86
[1355000] SCOREBOARD MATCH: wstrb passthrough beat=12 expected = 93, actual =93
[1355000] SCOREBOARD MATCH: wstrb passthrough beat=13 expected = be, actual =be
[1355000] SCOREBOARD MATCH: wstrb passthrough beat=14 expected = b4, actual =b4
[1355000] SCOREBOARD MATCH: wstrb passthrough beat=15 expected = 14, actual =14
[1355000] SCOREBOARD MATCH: wstrb passthrough beat=16 expected = 3d, actual =3d
[1355000] SCOREBOARD MATCH: wstrb passthrough beat=17 expected = e8, actual =e8
[1355000] SCOREBOARD MATCH: wstrb passthrough beat=18 expected = 9a, actual =9a
[1355000] SCOREBOARD MATCH: wstrb passthrough beat=19 expected = d0, actual =d0
[1355000] SCOREBOARD MATCH: wstrb passthrough beat=20 expected = a7, actual =a7
[1355000] SCOREBOARD MATCH: wstrb passthrough beat=21 expected = 4e, actual =4e
[1355000] SCOREBOARD MATCH: wstrb passthrough beat=22 expected = e4, actual =e4
[1355000] SCOREBOARD MATCH: wstrb passthrough beat=23 expected = e4, actual =e4
[1355000] SCOREBOARD MATCH: wstrb passthrough beat=24 expected = 36, actual =36
[1355000] SCOREBOARD MATCH: wstrb passthrough beat=25 expected = 7e, actual =7e
[1355000] SCOREBOARD MATCH: wstrb passthrough beat=26 expected = b5, actual =b5
[1355000] SCOREBOARD MATCH: wstrb passthrough beat=27 expected = dd, actual =dd
[1355000] SCOREBOARD MATCH: wstrb passthrough beat=28 expected = cc, actual =cc
[1355000] SCOREBOARD MATCH: wstrb passthrough beat=29 expected = 99, actual =99
[1355000] SCOREBOARD MATCH: wstrb passthrough beat=30 expected = c2, actual =c2
[1355000] SCOREBOARD MATCH: wstrb passthrough beat=31 expected = 3, actual =3
[1355000] SCOREBOARD MATCH: wstrb passthrough beat=32 expected = 18, actual =18
[1355000] SCOREBOARD MATCH: wstrb passthrough beat=33 expected = 77, actual =77
[1355000] SCOREBOARD MATCH: wstrb passthrough beat=34 expected = e0, actual =e0
[1355000] SCOREBOARD MATCH: wstrb passthrough beat=35 expected = e4, actual =e4
[1355000] SCOREBOARD MATCH: wstrb passthrough beat=36 expected = 10, actual =10
[1355000] SCOREBOARD MATCH: wstrb passthrough beat=37 expected = a2, actual =a2
[1355000] SCOREBOARD MATCH: wstrb passthrough beat=38 expected = e7, actual =e7
[1355000] SCOREBOARD MATCH: wstrb passthrough beat=39 expected = 28, actual =28
[1355000] SCOREBOARD MATCH: wstrb passthrough beat=40 expected = 19, actual =19
[1355000] SCOREBOARD MATCH: wstrb passthrough beat=41 expected = c8, actual =c8
[1355000] SCOREBOARD MATCH: wstrb passthrough beat=42 expected = d, actual =d
[1355000] SCOREBOARD MATCH: wstrb passthrough beat=43 expected = 2a, actual =2a
[1355000] SCOREBOARD MATCH: wstrb passthrough beat=44 expected = 6a, actual =6a
[1355000] SCOREBOARD MATCH: wstrb passthrough beat=45 expected = f4, actual =f4
[1355000] SCOREBOARD MATCH: wstrb passthrough beat=46 expected = 52, actual =52
[1355000] SCOREBOARD MATCH: wstrb passthrough beat=47 expected = 84, actual =84
[1355000] SCOREBOARD MATCH: wstrb passthrough beat=48 expected = bc, actual =bc
[1355000] SCOREBOARD MATCH: wstrb passthrough beat=49 expected = 5f, actual =5f
[1355000] SCOREBOARD MATCH: wstrb passthrough beat=50 expected = ae, actual =ae
[1355000] SCOREBOARD MATCH: wstrb passthrough beat=51 expected = 27, actual =27
[1355000] SCOREBOARD MATCH: wstrb passthrough beat=52 expected = 54, actual =54
[1355000] SCOREBOARD MATCH: wstrb passthrough beat=53 expected = 0, actual =0
[1355000] SCOREBOARD MATCH: wstrb passthrough beat=54 expected = ab, actual =ab
[1355000] SCOREBOARD MATCH: wstrb passthrough beat=55 expected = 10, actual =10
[1355000] SCOREBOARD MATCH: wstrb passthrough beat=56 expected = 60, actual =60
[1355000] SCOREBOARD MATCH: wstrb passthrough beat=57 expected = 59, actual =59
[1355000] SCOREBOARD MATCH: wstrb passthrough beat=58 expected = 37, actual =37
[1355000] SCOREBOARD MATCH: wstrb passthrough beat=59 expected = b4, actual =b4
[1355000] SCOREBOARD MATCH: wstrb passthrough beat=60 expected = 59, actual =59
[1355000] SCOREBOARD MATCH: wstrb passthrough beat=61 expected = e2, actual =e2
[1355000] SCOREBOARD MATCH: wstrb passthrough beat=62 expected = c4, actual =c4
[1355000] SCOREBOARD MATCH: wstrb passthrough beat=63 expected = b9, actual =b9
[1355000] SCOREBOARD MATCH: wstrb passthrough beat=64 expected = 3b, actual =3b
[1355000] SCOREBOARD MATCH: wstrb passthrough beat=65 expected = fc, actual =fc
[1355000] SCOREBOARD MATCH: wstrb passthrough beat=66 expected = 6d, actual =6d
[1355000] SCOREBOARD MATCH: wstrb passthrough beat=67 expected = 95, actual =95
[1355000] SCOREBOARD MATCH: wstrb passthrough beat=68 expected = de, actual =de
[1355000] SCOREBOARD MATCH: wstrb passthrough beat=69 expected = 32, actual =32
[1355000] SCOREBOARD MATCH: wstrb passthrough beat=70 expected = 4e, actual =4e
[1355000] SCOREBOARD MATCH: wstrb passthrough beat=71 expected = 1a, actual =1a
[1355000] SCOREBOARD MATCH: wstrb passthrough beat=72 expected = 2e, actual =2e
[1355000] SCOREBOARD MATCH: wstrb passthrough beat=73 expected = bc, actual =bc
[1355000] SCOREBOARD MATCH: wstrb passthrough beat=74 expected = af, actual =af
[1355000] SCOREBOARD MATCH: wstrb passthrough beat=75 expected = c, actual =c
[1355000] SCOREBOARD MATCH: wstrb passthrough beat=76 expected = ee, actual =ee
[1355000] SCOREBOARD MATCH: wstrb passthrough beat=77 expected = fd, actual =fd
[1355000] SCOREBOARD MATCH: wstrb passthrough beat=78 expected = 26, actual =26
[1355000] SCOREBOARD MATCH: wstrb passthrough beat=79 expected = 1c, actual =1c
[1355000] SCOREBOARD MATCH: wstrb passthrough beat=80 expected = b9, actual =b9
[1355000] SCOREBOARD MATCH: wstrb passthrough beat=81 expected = d5, actual =d5
[1355000] SCOREBOARD MATCH: wstrb passthrough beat=82 expected = 28, actual =28
[1355000] SCOREBOARD MATCH: wstrb passthrough beat=83 expected = a7, actual =a7
[1355000] SCOREBOARD MATCH: wstrb passthrough beat=84 expected = d3, actual =d3
[1355000] SCOREBOARD MATCH: wstrb passthrough beat=85 expected = 4f, actual =4f
[1355000] SCOREBOARD MATCH: wstrb passthrough beat=86 expected = c3, actual =c3
[1355000] SCOREBOARD MATCH: wstrb passthrough beat=87 expected = 8c, actual =8c
[1355000] SCOREBOARD MATCH: wstrb passthrough beat=88 expected = 24, actual =24
[1355000] SCOREBOARD MATCH: wstrb passthrough beat=89 expected = ec, actual =ec
[1355000] SCOREBOARD MATCH: wstrb passthrough beat=90 expected = 34, actual =34
[1355000] SCOREBOARD MATCH: wstrb passthrough beat=91 expected = f7, actual =f7
[1355000] SCOREBOARD MATCH: wstrb passthrough beat=92 expected = 3b, actual =3b
[1355000] SCOREBOARD MATCH: wstrb passthrough beat=93 expected = f7, actual =f7
[1355000] SCOREBOARD MATCH: wstrb passthrough beat=94 expected = 84, actual =84
[1355000] SCOREBOARD MATCH: wstrb passthrough beat=95 expected = 5f, actual =5f
[1355000] SCOREBOARD MATCH: wstrb passthrough beat=96 expected = e3, actual =e3
[1355000] SCOREBOARD MATCH: wstrb passthrough beat=97 expected = b8, actual =b8
[1355000] SCOREBOARD MATCH: wstrb passthrough beat=98 expected = 57, actual =57
[1355000] SCOREBOARD MATCH: wstrb passthrough beat=99 expected = 1e, actual =1e
[1355000] SCOREBOARD MATCH: wstrb passthrough beat=100 expected = af, actual =af
[1355000] SCOREBOARD MATCH: wstrb passthrough beat=101 expected = db, actual =db
[1355000] SCOREBOARD MATCH: wstrb passthrough beat=102 expected = 7e, actual =7e
[1355000] SCOREBOARD MATCH: wstrb passthrough beat=103 expected = 93, actual =93
[1355000] SCOREBOARD MATCH: wstrb passthrough beat=104 expected = 93, actual =93
[1355000] SCOREBOARD MATCH: wstrb passthrough beat=105 expected = d5, actual =d5
[1355000] SCOREBOARD MATCH: wstrb passthrough beat=106 expected = b1, actual =b1
[1355000] SCOREBOARD MATCH: wstrb passthrough beat=107 expected = 42, actual =42
[1355000] SCOREBOARD MATCH: wstrb passthrough beat=108 expected = b0, actual =b0
[1355000] SCOREBOARD MATCH: wstrb passthrough beat=109 expected = 2f, actual =2f
[1355000] SCOREBOARD MATCH: wstrb passthrough beat=110 expected = d5, actual =d5
[1355000] SCOREBOARD MATCH: wstrb passthrough beat=111 expected = 43, actual =43
[1355000] SCOREBOARD MATCH: wstrb passthrough beat=112 expected = 4, actual =4
[1355000] SCOREBOARD MATCH: wstrb passthrough beat=113 expected = 87, actual =87
[1355000] SCOREBOARD MATCH: wstrb passthrough beat=114 expected = 85, actual =85
[1355000] SCOREBOARD MATCH: wstrb passthrough beat=115 expected = b4, actual =b4
[1355000] SCOREBOARD MATCH: wstrb passthrough beat=116 expected = b6, actual =b6
[1355000] SCOREBOARD MATCH: wstrb passthrough beat=117 expected = 5b, actual =5b
[1355000] SCOREBOARD MATCH: wstrb passthrough beat=118 expected = f7, actual =f7
[1355000] SCOREBOARD MATCH: wstrb passthrough beat=119 expected = bb, actual =bb
[1355000] SCOREBOARD MATCH: wstrb passthrough beat=120 expected = e2, actual =e2
[1355000] SCOREBOARD MATCH: wstrb passthrough beat=121 expected = 7d, actual =7d
[1355000] SCOREBOARD MATCH: wstrb passthrough beat=122 expected = 6f, actual =6f
[1355000] SCOREBOARD MATCH: wstrb passthrough beat=123 expected = 98, actual =98
[1355000] SCOREBOARD MATCH: wstrb passthrough beat=124 expected = d8, actual =d8
[1355000] SCOREBOARD MATCH: wstrb passthrough beat=125 expected = 67, actual =67
[1355000] SCOREBOARD MATCH: wstrb passthrough beat=126 expected = 53, actual =53
[1355000] SCOREBOARD MATCH: bresp passthrough expected = 0, actual =0
[1355000] SCOREBOARD MATCH: response routed to correct master (write) expected = 0, actual =0
[1355000] [SCOREBOARD-M] mst_id=0 s_id=1 awaddr=1ea96c40 awid=1011 awlen=126 awsize=6 awburst=1 wdata=[c7eecaf9ded6d90f 8c853d62f54fc871 396965e212273217 f0fe0b263424ab34 297473a5015830db 137f62f2fd834888 b1a7f3bce2ddd987 e4360a62047d6e18 8200b6a0db1c6761 bdfa40e8f7b56d54 fc32db6c33a8aa5d 8ec511bea2304b4a 99e5b89efe33920c b1dc3c69ccbf52a7 eeef9df19618940a 144c2617c0a14e28 d60a0cf08d55690 9eedea9ac6286280 86c9b0a8fc503ec0 85259550b33a10b1 f9627332942a5177 107a903824137feb d74d909c802c23da 1456755295a02588 b9b3a573d0b003ce d0dc27a924d1058a ba712b1211013610 e1b139dee5329cfb a03a285f424d086 5260696b28d6187 97bffe82c474cd97 b8999e1de6d74074 1964a1fca1c3a107 e6386e9fbdbfa4b3 2496e528b124a07e d2e841869ed20cbc dc91b1703dfb8724 ef2027a23920b025 d7f2bce101289698 3f241dbcc2086928 fb29194db4846e51 b5ad04e9ae44455e f04cae87d31bd62f 87a04480f4d122a5 23156804eb75c7d4 be919e033d4d496a b21e6c0f1362168b fed7de5fc631e284 37f2beed533d413 e895ea9e3d697c63 39b5ee7b59d97fd ad16c11e76dc8fe 24d74561071a8ad5 bcb822d2f36756af dad51fad2872a448 2f8d2f1dc7898ee3 3af0e593ffac650e a81f0956ec4551ef 33cee0d395c60540 15726a4fd7ac3873 c3f18a63eebfc666 8485cba6bd9173a5 153dac19f7c06b36 e680319c99f835f5 d789a99bd92f367c d0efa1b2eb05fd42 4fe3338ecc755b4 c5f68c30376fd34e a275d090dc87dcd3 c94f328716e62de2 ce560130a77403c8 83fbe09b0f45beb7 262bec99f0cbd1c0 183fd589cd4b1322 dc90d1d9f481edc9 e54dbf899c3bb624 e986c94782bcbe72 f73eac3bfd8d9512 19c94b37c6179b20 c8d45993dc8c6bc5 da1a00d70350147e c967af9ec01305ce 9c9f7193f3e34c0e f733608c923c0931 d24f0f00f6b9726b ea9cbe79c09b102b d2d7195ceeee8093 e5a7f2fee1d01f06 226b2f31a526285c 1414a8f0d044b178 3214d07ef542488d 1a6870eaf9bc9bee ca014d66d47fffaf c9c2483c2e7d19da a839b5c8fc161de4 d0961d93e42ab926 92a7d300f23b032f ee5121131a5865d0 fe831ef63ae188c9 2d1c8bf83ee73ea7 d93fa477112af1f7 cc0c7ac09b6dad0b da54ebb2d7c2c36d e8edb564f92906b8 9496b3c3b3949029 b575397b4fa3024 ae2336dceeeb9f76 a2802f9ff44508fb 293f3920c2b9eaa0 31a58a16add78336 221c8c32d7626ffc 9a1c5a9cd425b9b5 1fd3ceccb5bc552 a2be354ecbc1e4b2 1fe79e682419c91e ef758e703cda8feb 889c749d21e4db54 c5fea4729233c3be cf0e53a9a8841305 ca68ee59357432e2 c7a7f6a0d7aac847 802edb4c906792cb c5dbc5ad16b64a4a ee611291ca97c9a6 daff5c710d83bc4e 243a0698ee8feddd b927b78320db221f ] wstrb=[29 6d f5 6 5 14 8a 2e 81 7f 34 86 93 be b4 14 3d e8 9a d0 a7 4e e4 e4 36 7e b5 dd cc 99 c2 3 18 77 e0 e4 10 a2 e7 28 19 c8 d 2a 6a f4 52 84 bc 5f ae 27 54 0 ab 10 60 59 37 b4 59 e2 c4 b9 3b fc 6d 95 de 32 4e 1a 2e bc af c ee fd 26 1c b9 d5 28 a7 d3 4f c3 8c 24 ec 34 f7 3b f7 84 5f e3 b8 57 1e af db 7e 93 93 d5 b1 42 b0 2f d5 43 4 87 85 b4 b6 5b f7 bb e2 7d 6f 98 d8 67 53 ] bresp=0 bid=1011
[1355000] [SCOREBOARD-S] mst_id=0 s_id=1 awaddr=1ea96c40 awid=1011 awlen=126 awsize=6 awburst=1 wdata=[c7eecaf9ded6d90f 8c853d62f54fc871 396965e212273217 f0fe0b263424ab34 297473a5015830db 137f62f2fd834888 b1a7f3bce2ddd987 e4360a62047d6e18 8200b6a0db1c6761 bdfa40e8f7b56d54 fc32db6c33a8aa5d 8ec511bea2304b4a 99e5b89efe33920c b1dc3c69ccbf52a7 eeef9df19618940a 144c2617c0a14e28 d60a0cf08d55690 9eedea9ac6286280 86c9b0a8fc503ec0 85259550b33a10b1 f9627332942a5177 107a903824137feb d74d909c802c23da 1456755295a02588 b9b3a573d0b003ce d0dc27a924d1058a ba712b1211013610 e1b139dee5329cfb a03a285f424d086 5260696b28d6187 97bffe82c474cd97 b8999e1de6d74074 1964a1fca1c3a107 e6386e9fbdbfa4b3 2496e528b124a07e d2e841869ed20cbc dc91b1703dfb8724 ef2027a23920b025 d7f2bce101289698 3f241dbcc2086928 fb29194db4846e51 b5ad04e9ae44455e f04cae87d31bd62f 87a04480f4d122a5 23156804eb75c7d4 be919e033d4d496a b21e6c0f1362168b fed7de5fc631e284 37f2beed533d413 e895ea9e3d697c63 39b5ee7b59d97fd ad16c11e76dc8fe 24d74561071a8ad5 bcb822d2f36756af dad51fad2872a448 2f8d2f1dc7898ee3 3af0e593ffac650e a81f0956ec4551ef 33cee0d395c60540 15726a4fd7ac3873 c3f18a63eebfc666 8485cba6bd9173a5 153dac19f7c06b36 e680319c99f835f5 d789a99bd92f367c d0efa1b2eb05fd42 4fe3338ecc755b4 c5f68c30376fd34e a275d090dc87dcd3 c94f328716e62de2 ce560130a77403c8 83fbe09b0f45beb7 262bec99f0cbd1c0 183fd589cd4b1322 dc90d1d9f481edc9 e54dbf899c3bb624 e986c94782bcbe72 f73eac3bfd8d9512 19c94b37c6179b20 c8d45993dc8c6bc5 da1a00d70350147e c967af9ec01305ce 9c9f7193f3e34c0e f733608c923c0931 d24f0f00f6b9726b ea9cbe79c09b102b d2d7195ceeee8093 e5a7f2fee1d01f06 226b2f31a526285c 1414a8f0d044b178 3214d07ef542488d 1a6870eaf9bc9bee ca014d66d47fffaf c9c2483c2e7d19da a839b5c8fc161de4 d0961d93e42ab926 92a7d300f23b032f ee5121131a5865d0 fe831ef63ae188c9 2d1c8bf83ee73ea7 d93fa477112af1f7 cc0c7ac09b6dad0b da54ebb2d7c2c36d e8edb564f92906b8 9496b3c3b3949029 b575397b4fa3024 ae2336dceeeb9f76 a2802f9ff44508fb 293f3920c2b9eaa0 31a58a16add78336 221c8c32d7626ffc 9a1c5a9cd425b9b5 1fd3ceccb5bc552 a2be354ecbc1e4b2 1fe79e682419c91e ef758e703cda8feb 889c749d21e4db54 c5fea4729233c3be cf0e53a9a8841305 ca68ee59357432e2 c7a7f6a0d7aac847 802edb4c906792cb c5dbc5ad16b64a4a ee611291ca97c9a6 daff5c710d83bc4e 243a0698ee8feddd b927b78320db221f ] wstrb=[29 6d f5 6 5 14 8a 2e 81 7f 34 86 93 be b4 14 3d e8 9a d0 a7 4e e4 e4 36 7e b5 dd cc 99 c2 3 18 77 e0 e4 10 a2 e7 28 19 c8 d 2a 6a f4 52 84 bc 5f ae 27 54 0 ab 10 60 59 37 b4 59 e2 c4 b9 3b fc 6d 95 de 32 4e 1a 2e bc af c ee fd 26 1c b9 d5 28 a7 d3 4f c3 8c 24 ec 34 f7 3b f7 84 5f e3 b8 57 1e af db 7e 93 93 d5 b1 42 b0 2f d5 43 4 87 85 b4 b6 5b f7 bb e2 7d 6f 98 d8 67 53 ] bresp=0 bid=1011
[1355000] SCOREBOARD: Transaction 3 received. pass=292 fail=0
[1355000] ALL PASS. Total transactions: 3
[1365000] SLAVE 1 R_VALID_RDY Handshake beat=1 rlast=1
[1365000] [SLAVE MONITOR] READ mst_id=0 s_id=1 araddr=16fdf6f0 arid=1 arlen=1 arsize=3 arburst=1 rid=[11] rresp=[00] rdata=[baadf00d12345678baadf00d12345678]
[1375000] AXI S0_ARVALID_RDY HANDSHAKE
[1375000] MEMORY READ MISS beat=0 addr=17dd9780 -> default data id=2
[1375000] ARB MONITOR: slave=1 m0_req=1 m1_req=0 winner=0
[1375000] MASTER 0 R_VALID_RDY Handshake beat=0 rlast=0
[1385000] [MASTER DRIVER] READ mst_id=0 s_id=0 araddr=16fdf6f0 arid=1 arlen=1 arsize=3 arburst=1 rid=[11] rresp=[00] rdata=[baadf00d12345678baadf00d12345678]
[1385000] MASTER 0 R_VALID_RDY Handshake beat=1 rlast=1
[1385000] [MASTER MONITOR] READ mst_id=0 s_id=1 araddr=16fdf6f0 arid=1 arlen=1 arsize=3 arburst=1 rid=[11] rresp=[00] rdata=[baadf00d12345678baadf00d12345678]
[1385000] SLAVE 1 R_VALID_RDY Handshake beat=0 rlast=0
[1385000] MEMORY READ MISS beat=1 addr=17dd9788 -> default data id=2
[1385000] SCOREBOARD MATCH: decode_err expected = 0, actual =0
[1385000] SCOREBOARD MATCH: slave_id expected = 1, actual =1
[1385000] SCOREBOARD MATCH: araddr passthrough expected = 16fdf6f0, actual =16fdf6f0
[1385000] SCOREBOARD MATCH: arlen passthrough expected = 1, actual =1
[1385000] SCOREBOARD MATCH: arsize passthrough expected = 3, actual =3
[1385000] SCOREBOARD MATCH: arburst passthrough expected = 1, actual =1
[1385000] SCOREBOARD MATCH: rdata size check expected = 2, actual =2
[1385000] SCOREBOARD MATCH: rdata passthrough beat=0 expected = baadf00d12345678, actual =baadf00d12345678
[1385000] SCOREBOARD MATCH: rdata passthrough beat=1 expected = baadf00d12345678, actual =baadf00d12345678
[1385000] SCOREBOARD MATCH: rresp size check expected = 2, actual =2
[1385000] SCOREBOARD MATCH: rresp passthrough beat=0 expected = 0, actual =0
[1385000] SCOREBOARD MATCH: rresp passthrough beat=1 expected = 0, actual =0
[1385000] SCOREBOARD MATCH: response routed to correct master (read beat 0) expected = 0, actual =0
[1385000] SCOREBOARD MATCH: response routed to correct master (read beat 1) expected = 0, actual =0
[1385000] [SCOREBOARD-M] READ mst_id=0 s_id=1 araddr=16fdf6f0 arid=1 arlen=1 arsize=3 arburst=1 rid=[11] rresp=[00] rdata=[baadf00d12345678baadf00d12345678]
[1385000] [SCOREBOARD-S] READ mst_id=0 s_id=1 araddr=16fdf6f0 arid=1 arlen=1 arsize=3 arburst=1 rid=[11] rresp=[00] rdata=[baadf00d12345678baadf00d12345678]
[1385000] SCOREBOARD: Transaction 4 received. pass=306 fail=0
[1385000] ALL PASS. Total transactions: 4
[1395000] SLAVE 1 R_VALID_RDY Handshake beat=1 rlast=1
[1395000] [SLAVE MONITOR] READ mst_id=0 s_id=1 araddr=17dd9780 arid=2 arlen=1 arsize=3 arburst=1 rid=[22] rresp=[00] rdata=[baadf00d12345678baadf00d12345678]
[1405000] MASTER 0 R_VALID_RDY Handshake beat=0 rlast=0
[1415000] MASTER 0 R_VALID_RDY Handshake beat=1 rlast=1
[1415000] [MASTER MONITOR] READ mst_id=0 s_id=1 araddr=17dd9780 arid=2 arlen=1 arsize=3 arburst=1 rid=[22] rresp=[00] rdata=[baadf00d12345678baadf00d12345678]
[1415000] [MASTER DRIVER] READ mst_id=0 s_id=0 araddr=17dd9780 arid=2 arlen=1 arsize=3 arburst=1 rid=[22] rresp=[00] rdata=[baadf00d12345678baadf00d12345678]
[1415000] SCOREBOARD MATCH: decode_err expected = 0, actual =0
[1415000] SCOREBOARD MATCH: slave_id expected = 1, actual =1
[1415000] SCOREBOARD MATCH: araddr passthrough expected = 17dd9780, actual =17dd9780
[1415000] SCOREBOARD MATCH: arlen passthrough expected = 1, actual =1
[1415000] SCOREBOARD MATCH: arsize passthrough expected = 3, actual =3
[1415000] SCOREBOARD MATCH: arburst passthrough expected = 1, actual =1
[1415000] SCOREBOARD MATCH: rdata size check expected = 2, actual =2
[1415000] SCOREBOARD MATCH: rdata passthrough beat=0 expected = baadf00d12345678, actual =baadf00d12345678
[1415000] SCOREBOARD MATCH: rdata passthrough beat=1 expected = baadf00d12345678, actual =baadf00d12345678
[1415000] SCOREBOARD MATCH: rresp size check expected = 2, actual =2
[1415000] SCOREBOARD MATCH: rresp passthrough beat=0 expected = 0, actual =0
[1415000] SCOREBOARD MATCH: rresp passthrough beat=1 expected = 0, actual =0
[1415000] SCOREBOARD MATCH: response routed to correct master (read beat 0) expected = 0, actual =0
[1415000] SCOREBOARD MATCH: response routed to correct master (read beat 1) expected = 0, actual =0
[1415000] [SCOREBOARD-M] READ mst_id=0 s_id=1 araddr=17dd9780 arid=2 arlen=1 arsize=3 arburst=1 rid=[22] rresp=[00] rdata=[baadf00d12345678baadf00d12345678]
[1415000] [SCOREBOARD-S] READ mst_id=0 s_id=1 araddr=17dd9780 arid=2 arlen=1 arsize=3 arburst=1 rid=[22] rresp=[00] rdata=[baadf00d12345678baadf00d12345678]
[1415000] SCOREBOARD: Transaction 5 received. pass=320 fail=0
[1415000] SCOREBOARD: Expected 5 transactions completed, PASS=320 FAIL=0
[1415000] ALL PASS. Total transactions: 5
[1415000] ALL TRANSACTIONS MONITORED
$finish called at time : 1435 ns : File "/home/nashita/Desktop/practice/axi_xbar/tb/top/axi_tb_top.sv" Line 220
exit
INFO: xsimkernel Simulation Memory Usage: 289464 KB (Peak: 337864 KB), Simulation CPU Usage: 1220 ms
INFO: [Common 17-206] Exiting xsim at Thu Sep 10 18:32:00 2026...
