#-----------------------------------------------------------
# xsim v2025.2 (64-bit)
# SW Build 6299465 on Fri Nov 14 12:34:56 MST 2025
# IP Build 6300035 on Fri Nov 14 10:48:45 MST 2025
# SharedData Build 6298862 on Thu Nov 13 04:50:51 MST 2025
# Start of session at: Fri Sep 11 11:25:47 2026
# Process ID         : 655548
# Current directory  : /home/nashita/Desktop/practice/axi_xbar/sim
# Command line       : xsim -log regress_results/BT_run53.log -mode tcl -source {xsim.dir/tb_top_snap/xsim_script.tcl}
# Log file           : /home/nashita/Desktop/practice/axi_xbar/sim/regress_results/BT_run53.log
# Journal file       : /home/nashita/Desktop/practice/axi_xbar/sim/xsim.jou
# Running On         : vlsi-vivado
# Platform           : Ubuntu
# Operating System   : Ubuntu 24.04.4 LTS
# Processor Detail   : Intel(R) Core(TM) i5-10400 CPU @ 2.90GHz
# CPU Frequency      : 3999.964 MHz
# CPU Physical cores : 6
# CPU Logical cores  : 12
# Host memory        : 41875 MB
# Swap memory        : 27648 MB
# Total Virtual      : 69524 MB
# Available Virtual  : 63058 MB
#-----------------------------------------------------------
source xsim.dir/tb_top_snap/xsim_script.tcl
# xsim {tb_top_snap} -testplusarg BT -autoloadwcfg -runall -sv_seed 54
Time resolution is 1 ps
run -all
[0] RUNNING BASE TEST
[0] INSIDE THE BASE TEST CONSTRUCTOR
[0] ENV: before agent
[0] SLAVE CONSTRUCTED
[0] MASTER MONITOR CONSTRUCTED
[0] MASTER MONITOR CONSTRUCTED
[0] SLAVE MONITOR CONSTRUCTED
[0] SLAVE MONITOR CONSTRUCTED
[0] ARB MONITOR CONSTRUCTED
GENERATOR CONSTRUCTED
[0] ENV: after agent
[0] ENV: before scoreboard
[0] ENV: after scoreboard
[15000] [SEQUENCER] READ mst_id=1 s_id=0 araddr=741b4d8 arid=0 arlen=1 arsize=3 arburst=1 rid=[] rresp=[] rdata=[]
[15000] [SEQUENCER] READ mst_id=1 s_id=0 araddr=a042b38 arid=1 arlen=1 arsize=3 arburst=1 rid=[] rresp=[] rdata=[]
[15000] [SEQUENCER] READ mst_id=1 s_id=0 araddr=1cf994e0 arid=2 arlen=1 arsize=3 arburst=1 rid=[] rresp=[] rdata=[]
[15000] [SEQUENCER] mst_id=1 s_id=0 awaddr=aadcb88 awid=1111 awlen=10 awsize=2 awburst=0 wdata=[9547719ad2cec42e 91aeee6712ffa4cf b14f8c8bb7d4839e aa347cdebb464eb feb409bac696fe26 fe6b81c49c523634 88069b1fb0039645 f69a946b890ec991 2560ffc686baa4d9 36be3b1ff5061630 fe14dfc1ad679ae5 ] wstrb=[8a bf 87 ba de 6d 7c 68 2c 3 23 ] bresp=0 bid=0
[15000] [SEQUENCER] READ mst_id=0 s_id=0 araddr=b8675a0 arid=0 arlen=1 arsize=3 arburst=1 rid=[] rresp=[] rdata=[]
[15000] MASTER_DRIVER1 received transaction, op=AXI_READ
[15000] MASTER_DRIVER0 received transaction, op=AXI_READ
[35000] MASTER_DRIVER1 received transaction, op=AXI_READ
[45000] ARB MONITOR: slave=0 m0_req=1 m1_req=1 winner=0
[45000] AXI S0_ARVALID_RDY HANDSHAKE
[45000] MEMORY READ MISS beat=0 addr=b8675a0 -> default data id=0
[45000] SCOREBOARD MATCH: arbitration winner (slave 0) expected = 0, actual =0
[55000] MEMORY READ MISS beat=1 addr=b8675a8 -> default data id=0
[55000] SLAVE 0 R_VALID_RDY Handshake beat=0 rlast=0
[55000] MASTER_DRIVER1 received transaction, op=AXI_READ
[65000] SLAVE 0 R_VALID_RDY Handshake beat=1 rlast=1
[65000] [SLAVE MONITOR] READ mst_id=0 s_id=0 araddr=b8675a0 arid=0 arlen=1 arsize=3 arburst=1 rid=[00] rresp=[00] rdata=[baadf00d12345678baadf00d12345678]
[75000] AXI S0_ARVALID_RDY HANDSHAKE
[75000] MEMORY READ MISS beat=0 addr=741b4d8 -> default data id=16
[75000] ARB MONITOR: slave=0 m0_req=0 m1_req=1 winner=1
[75000] MASTER 0 R_VALID_RDY Handshake beat=0 rlast=0
[75000] MASTER_DRIVER1 received transaction, op=AXI_WRITE
[85000] [MASTER DRIVER] READ mst_id=0 s_id=0 araddr=b8675a0 arid=0 arlen=1 arsize=3 arburst=1 rid=[00] rresp=[00] rdata=[baadf00d12345678baadf00d12345678]
[85000] MASTER 0 R_VALID_RDY Handshake beat=1 rlast=1
[85000] [MASTER MONITOR] READ mst_id=0 s_id=0 araddr=b8675a0 arid=0 arlen=1 arsize=3 arburst=1 rid=[00] rresp=[00] rdata=[baadf00d12345678baadf00d12345678]
[85000] SLAVE 0 R_VALID_RDY Handshake beat=0 rlast=0
[85000] MEMORY READ MISS beat=1 addr=741b4e0 -> default data id=16
[85000] SCOREBOARD MATCH: decode_err expected = 0, actual =0
[85000] SCOREBOARD MATCH: slave_id expected = 0, actual =0
[85000] SCOREBOARD MATCH: araddr passthrough expected = b8675a0, actual =b8675a0
[85000] SCOREBOARD MATCH: arlen passthrough expected = 1, actual =1
[85000] SCOREBOARD MATCH: arsize passthrough expected = 3, actual =3
[85000] SCOREBOARD MATCH: arburst passthrough expected = 1, actual =1
[85000] SCOREBOARD MATCH: rdata size check expected = 2, actual =2
[85000] SCOREBOARD MATCH: rdata passthrough beat=0 expected = baadf00d12345678, actual =baadf00d12345678
[85000] SCOREBOARD MATCH: rdata passthrough beat=1 expected = baadf00d12345678, actual =baadf00d12345678
[85000] SCOREBOARD MATCH: rresp size check expected = 2, actual =2
[85000] SCOREBOARD MATCH: rresp passthrough beat=0 expected = 0, actual =0
[85000] SCOREBOARD MATCH: rresp passthrough beat=1 expected = 0, actual =0
[85000] SCOREBOARD MATCH: response routed to correct master (read beat 0) expected = 0, actual =0
[85000] SCOREBOARD MATCH: response routed to correct master (read beat 1) expected = 0, actual =0
[85000] [SCOREBOARD-M] READ mst_id=0 s_id=0 araddr=b8675a0 arid=0 arlen=1 arsize=3 arburst=1 rid=[00] rresp=[00] rdata=[baadf00d12345678baadf00d12345678]
[85000] [SCOREBOARD-S] READ mst_id=0 s_id=0 araddr=b8675a0 arid=0 arlen=1 arsize=3 arburst=1 rid=[00] rresp=[00] rdata=[baadf00d12345678baadf00d12345678]
[85000] SCOREBOARD: Transaction 1 received. pass=15 fail=0
[85000] ALL PASS. Total transactions: 1
[95000] SLAVE 0 R_VALID_RDY Handshake beat=1 rlast=1
[95000] [SLAVE MONITOR] READ mst_id=1 s_id=0 araddr=741b4d8 arid=0 arlen=1 arsize=3 arburst=1 rid=[1010] rresp=[00] rdata=[baadf00d12345678baadf00d12345678]
[95000] MASTER 1 AW_VALID_RDY Handshake
[105000] MASTER 1 R_VALID_RDY Handshake beat=0 rlast=0
[105000] ARB MONITOR: slave=0 m0_req=0 m1_req=1 winner=1
[105000] ARB MONITOR: slave=0 m0_req=0 m1_req=0 winner=1
[105000] AXI S0_ARVALID_RDY HANDSHAKE
[105000] MEMORY READ MISS beat=0 addr=a042b38 -> default data id=17
[105000] AXI S0_AWVALID_RDY HANDSHAKE
[115000] MEMORY READ MISS beat=1 addr=a042b40 -> default data id=17
[115000] AXI S0_ARVALID_RDY HANDSHAKE
[115000] MEMORY READ MISS beat=0 addr=1cf994e0 -> default data id=18
[115000] SLAVE 0 R_VALID_RDY Handshake beat=0 rlast=0
[115000] ARB MONITOR: slave=1 m0_req=0 m1_req=0 winner=1
[115000] MASTER 1 R_VALID_RDY Handshake beat=1 rlast=1
[115000] [MASTER MONITOR] READ mst_id=1 s_id=0 araddr=741b4d8 arid=0 arlen=1 arsize=3 arburst=1 rid=[00] rresp=[00] rdata=[baadf00d12345678baadf00d12345678]
[115000] MASTER 1 W_VALID_RDY Handshake beat=0 wlast=0
[115000] [MASTER DRIVER] READ mst_id=1 s_id=0 araddr=741b4d8 arid=0 arlen=1 arsize=3 arburst=1 rid=[00] rresp=[00] rdata=[baadf00d12345678baadf00d12345678]
[115000] SCOREBOARD MATCH: decode_err expected = 0, actual =0
[115000] SCOREBOARD MATCH: slave_id expected = 0, actual =0
[115000] SCOREBOARD MATCH: araddr passthrough expected = 741b4d8, actual =741b4d8
[115000] SCOREBOARD MATCH: arlen passthrough expected = 1, actual =1
[115000] SCOREBOARD MATCH: arsize passthrough expected = 3, actual =3
[115000] SCOREBOARD MATCH: arburst passthrough expected = 1, actual =1
[115000] SCOREBOARD MATCH: rdata size check expected = 2, actual =2
[115000] SCOREBOARD MATCH: rdata passthrough beat=0 expected = baadf00d12345678, actual =baadf00d12345678
[115000] SCOREBOARD MATCH: rdata passthrough beat=1 expected = baadf00d12345678, actual =baadf00d12345678
[115000] SCOREBOARD MATCH: rresp size check expected = 2, actual =2
[115000] SCOREBOARD MATCH: rresp passthrough beat=0 expected = 0, actual =0
[115000] SCOREBOARD MATCH: rresp passthrough beat=1 expected = 0, actual =0
[115000] SCOREBOARD MATCH: response routed to correct master (read beat 0) expected = 1, actual =1
[115000] SCOREBOARD MATCH: response routed to correct master (read beat 1) expected = 1, actual =1
[115000] [SCOREBOARD-M] READ mst_id=1 s_id=0 araddr=741b4d8 arid=0 arlen=1 arsize=3 arburst=1 rid=[00] rresp=[00] rdata=[baadf00d12345678baadf00d12345678]
[115000] [SCOREBOARD-S] READ mst_id=1 s_id=0 araddr=741b4d8 arid=0 arlen=1 arsize=3 arburst=1 rid=[1010] rresp=[00] rdata=[baadf00d12345678baadf00d12345678]
[115000] SCOREBOARD: Transaction 2 received. pass=29 fail=0
[115000] ALL PASS. Total transactions: 2
[125000] MASTER 1 W_VALID_RDY Handshake beat=1 wlast=0
[125000] SLAVE 1 R_VALID_RDY Handshake beat=0 rlast=0
[125000] SLAVE 0 R_VALID_RDY Handshake beat=1 rlast=1
[125000] [SLAVE MONITOR] READ mst_id=1 s_id=0 araddr=a042b38 arid=1 arlen=1 arsize=3 arburst=1 rid=[1111] rresp=[00] rdata=[baadf00d12345678baadf00d12345678]
[125000] MEMORY READ MISS beat=1 addr=1cf994e8 -> default data id=18
[125000] AXI S0_WVALID_RDY HANDSHAKE
[125000] S0 MEMORY WRITE beat=0 addr=0aadcb88 data=9547719ad2cec42e id=1f
[135000] AXI S0_WVALID_RDY HANDSHAKE
[135000] S0 MEMORY WRITE beat=1 addr=0aadcb88 data=91aeee6712ffa4cf id=1f
[135000] SLAVE 1 R_VALID_RDY Handshake beat=1 rlast=1
[135000] [SLAVE MONITOR] READ mst_id=1 s_id=1 araddr=1cf994e0 arid=2 arlen=1 arsize=3 arburst=1 rid=[1212] rresp=[00] rdata=[baadf00d12345678baadf00d12345678]
[135000] MASTER 1 R_VALID_RDY Handshake beat=0 rlast=0
[135000] MASTER 1 W_VALID_RDY Handshake beat=2 wlast=0
[145000] [MASTER DRIVER] READ mst_id=1 s_id=0 araddr=a042b38 arid=1 arlen=1 arsize=3 arburst=1 rid=[11] rresp=[00] rdata=[baadf00d12345678baadf00d12345678]
[145000] MASTER 1 W_VALID_RDY Handshake beat=3 wlast=0
[145000] MASTER 1 R_VALID_RDY Handshake beat=1 rlast=1
[145000] [MASTER MONITOR] READ mst_id=1 s_id=0 araddr=a042b38 arid=1 arlen=1 arsize=3 arburst=1 rid=[11] rresp=[00] rdata=[baadf00d12345678baadf00d12345678]
[145000] AXI S0_WVALID_RDY HANDSHAKE
[145000] S0 MEMORY WRITE beat=2 addr=0aadcb88 data=b14f8c8bb7d4839e id=1f
[145000] SCOREBOARD MATCH: decode_err expected = 0, actual =0
[145000] SCOREBOARD MATCH: slave_id expected = 0, actual =0
[145000] SCOREBOARD MATCH: araddr passthrough expected = a042b38, actual =a042b38
[145000] SCOREBOARD MATCH: arlen passthrough expected = 1, actual =1
[145000] SCOREBOARD MATCH: arsize passthrough expected = 3, actual =3
[145000] SCOREBOARD MATCH: arburst passthrough expected = 1, actual =1
[145000] SCOREBOARD MATCH: rdata size check expected = 2, actual =2
[145000] SCOREBOARD MATCH: rdata passthrough beat=0 expected = baadf00d12345678, actual =baadf00d12345678
[145000] SCOREBOARD MATCH: rdata passthrough beat=1 expected = baadf00d12345678, actual =baadf00d12345678
[145000] SCOREBOARD MATCH: rresp size check expected = 2, actual =2
[145000] SCOREBOARD MATCH: rresp passthrough beat=0 expected = 0, actual =0
[145000] SCOREBOARD MATCH: rresp passthrough beat=1 expected = 0, actual =0
[145000] SCOREBOARD MATCH: response routed to correct master (read beat 0) expected = 1, actual =1
[145000] SCOREBOARD MATCH: response routed to correct master (read beat 1) expected = 1, actual =1
[145000] [SCOREBOARD-M] READ mst_id=1 s_id=0 araddr=a042b38 arid=1 arlen=1 arsize=3 arburst=1 rid=[11] rresp=[00] rdata=[baadf00d12345678baadf00d12345678]
[145000] [SCOREBOARD-S] READ mst_id=1 s_id=0 araddr=a042b38 arid=1 arlen=1 arsize=3 arburst=1 rid=[1111] rresp=[00] rdata=[baadf00d12345678baadf00d12345678]
[145000] SCOREBOARD: Transaction 3 received. pass=43 fail=0
[145000] ALL PASS. Total transactions: 3
[155000] AXI S0_WVALID_RDY HANDSHAKE
[155000] S0 MEMORY WRITE beat=3 addr=0aadcb88 data=0aa347cdebb464eb id=1f
[155000] MASTER 1 W_VALID_RDY Handshake beat=4 wlast=0
[165000] MASTER 1 W_VALID_RDY Handshake beat=5 wlast=0
[165000] MASTER 1 R_VALID_RDY Handshake beat=0 rlast=0
[165000] AXI S0_WVALID_RDY HANDSHAKE
[165000] S0 MEMORY WRITE beat=4 addr=0aadcb88 data=feb409bac696fe26 id=1f
[175000] AXI S0_WVALID_RDY HANDSHAKE
[175000] S0 MEMORY WRITE beat=5 addr=0aadcb88 data=fe6b81c49c523634 id=1f
[175000] MASTER 1 R_VALID_RDY Handshake beat=1 rlast=1
[175000] [MASTER MONITOR] READ mst_id=1 s_id=1 araddr=1cf994e0 arid=2 arlen=1 arsize=3 arburst=1 rid=[22] rresp=[00] rdata=[baadf00d12345678baadf00d12345678]
[175000] MASTER 1 W_VALID_RDY Handshake beat=6 wlast=0
[175000] [MASTER DRIVER] READ mst_id=1 s_id=0 araddr=1cf994e0 arid=2 arlen=1 arsize=3 arburst=1 rid=[22] rresp=[00] rdata=[baadf00d12345678baadf00d12345678]
[175000] SCOREBOARD MATCH: decode_err expected = 0, actual =0
[175000] SCOREBOARD MATCH: slave_id expected = 1, actual =1
[175000] SCOREBOARD MATCH: araddr passthrough expected = 1cf994e0, actual =1cf994e0
[175000] SCOREBOARD MATCH: arlen passthrough expected = 1, actual =1
[175000] SCOREBOARD MATCH: arsize passthrough expected = 3, actual =3
[175000] SCOREBOARD MATCH: arburst passthrough expected = 1, actual =1
[175000] SCOREBOARD MATCH: rdata size check expected = 2, actual =2
[175000] SCOREBOARD MATCH: rdata passthrough beat=0 expected = baadf00d12345678, actual =baadf00d12345678
[175000] SCOREBOARD MATCH: rdata passthrough beat=1 expected = baadf00d12345678, actual =baadf00d12345678
[175000] SCOREBOARD MATCH: rresp size check expected = 2, actual =2
[175000] SCOREBOARD MATCH: rresp passthrough beat=0 expected = 0, actual =0
[175000] SCOREBOARD MATCH: rresp passthrough beat=1 expected = 0, actual =0
[175000] SCOREBOARD MATCH: response routed to correct master (read beat 0) expected = 1, actual =1
[175000] SCOREBOARD MATCH: response routed to correct master (read beat 1) expected = 1, actual =1
[175000] [SCOREBOARD-M] READ mst_id=1 s_id=1 araddr=1cf994e0 arid=2 arlen=1 arsize=3 arburst=1 rid=[22] rresp=[00] rdata=[baadf00d12345678baadf00d12345678]
[175000] [SCOREBOARD-S] READ mst_id=1 s_id=1 araddr=1cf994e0 arid=2 arlen=1 arsize=3 arburst=1 rid=[1212] rresp=[00] rdata=[baadf00d12345678baadf00d12345678]
[175000] SCOREBOARD: Transaction 4 received. pass=57 fail=0
[175000] ALL PASS. Total transactions: 4
[185000] MASTER 1 W_VALID_RDY Handshake beat=7 wlast=0
[185000] AXI S0_WVALID_RDY HANDSHAKE
[185000] S0 MEMORY WRITE beat=6 addr=0aadcb88 data=88069b1fb0039645 id=1f
[195000] AXI S0_WVALID_RDY HANDSHAKE
[195000] S0 MEMORY WRITE beat=7 addr=0aadcb88 data=f69a946b890ec991 id=1f
[195000] MASTER 1 W_VALID_RDY Handshake beat=8 wlast=0
[205000] MASTER 1 W_VALID_RDY Handshake beat=9 wlast=0
[205000] AXI S0_WVALID_RDY HANDSHAKE
[205000] S0 MEMORY WRITE beat=8 addr=0aadcb88 data=2560ffc686baa4d9 id=1f
[215000] AXI S0_WVALID_RDY HANDSHAKE
[215000] S0 MEMORY WRITE beat=9 addr=0aadcb88 data=36be3b1ff5061630 id=1f
[215000] MASTER 1 W_VALID_RDY Handshake beat=10 wlast=1
[225000] AXI S0_WVALID_RDY HANDSHAKE
[225000] S0 MEMORY WRITE beat=10 addr=0aadcb88 data=fe14dfc1ad679ae5 id=1f
[235000] SLAVE0 sent B resp, id=15
[235000] [SLAVE MONITOR] mst_id=1 s_id=0 awaddr=aadcb88 awid=1111 awlen=10 awsize=2 awburst=0 wdata=[9547719ad2cec42e 91aeee6712ffa4cf b14f8c8bb7d4839e aa347cdebb464eb feb409bac696fe26 fe6b81c49c523634 88069b1fb0039645 f69a946b890ec991 2560ffc686baa4d9 36be3b1ff5061630 fe14dfc1ad679ae5 ] wstrb=[8a bf 87 ba de 6d 7c 68 2c 3 23 ] bresp=0 bid=11111
[255000] MASTER 1 B_VALID_RDY Handshake
[255000] [MASTER MONITOR] mst_id=1 s_id=0 awaddr=aadcb88 awid=1111 awlen=10 awsize=2 awburst=0 wdata=[9547719ad2cec42e 91aeee6712ffa4cf b14f8c8bb7d4839e aa347cdebb464eb feb409bac696fe26 fe6b81c49c523634 88069b1fb0039645 f69a946b890ec991 2560ffc686baa4d9 36be3b1ff5061630 fe14dfc1ad679ae5 ] wstrb=[8a bf 87 ba de 6d 7c 68 2c 3 23 ] bresp=0 bid=1111
[255000] MASTER 1 RECEIVED BRESP. BRESP=0
[255000] [MASTER DRIVER] mst_id=1 s_id=0 awaddr=aadcb88 awid=1111 awlen=10 awsize=2 awburst=0 wdata=[9547719ad2cec42e 91aeee6712ffa4cf b14f8c8bb7d4839e aa347cdebb464eb feb409bac696fe26 fe6b81c49c523634 88069b1fb0039645 f69a946b890ec991 2560ffc686baa4d9 36be3b1ff5061630 fe14dfc1ad679ae5 ] wstrb=[8a bf 87 ba de 6d 7c 68 2c 3 23 ] bresp=0 bid=1111
[255000] SCOREBOARD MATCH: decode_err expected = 0, actual =0
[255000] SCOREBOARD MATCH: slave_id expected = 0, actual =0
[255000] SCOREBOARD MATCH: awaddr passthrough expected = aadcb88, actual =aadcb88
[255000] SCOREBOARD MATCH: awlen passthrough expected = 10, actual =10
[255000] SCOREBOARD MATCH: awsize passthrough expected = 2, actual =2
[255000] SCOREBOARD MATCH: awburst passthrough expected = 0, actual =0
[255000] SCOREBOARD MATCH: wdata size check expected = b, actual =b
[255000] SCOREBOARD MATCH: wdata passthrough beat=0 expected = 9547719ad2cec42e, actual =9547719ad2cec42e
[255000] SCOREBOARD MATCH: wdata passthrough beat=1 expected = 91aeee6712ffa4cf, actual =91aeee6712ffa4cf
[255000] SCOREBOARD MATCH: wdata passthrough beat=2 expected = b14f8c8bb7d4839e, actual =b14f8c8bb7d4839e
[255000] SCOREBOARD MATCH: wdata passthrough beat=3 expected = aa347cdebb464eb, actual =aa347cdebb464eb
[255000] SCOREBOARD MATCH: wdata passthrough beat=4 expected = feb409bac696fe26, actual =feb409bac696fe26
[255000] SCOREBOARD MATCH: wdata passthrough beat=5 expected = fe6b81c49c523634, actual =fe6b81c49c523634
[255000] SCOREBOARD MATCH: wdata passthrough beat=6 expected = 88069b1fb0039645, actual =88069b1fb0039645
[255000] SCOREBOARD MATCH: wdata passthrough beat=7 expected = f69a946b890ec991, actual =f69a946b890ec991
[255000] SCOREBOARD MATCH: wdata passthrough beat=8 expected = 2560ffc686baa4d9, actual =2560ffc686baa4d9
[255000] SCOREBOARD MATCH: wdata passthrough beat=9 expected = 36be3b1ff5061630, actual =36be3b1ff5061630
[255000] SCOREBOARD MATCH: wdata passthrough beat=10 expected = fe14dfc1ad679ae5, actual =fe14dfc1ad679ae5
[255000] SCOREBOARD MATCH: wstrb size check expected = b, actual =b
[255000] SCOREBOARD MATCH: wstrb passthrough beat=0 expected = 8a, actual =8a
[255000] SCOREBOARD MATCH: wstrb passthrough beat=1 expected = bf, actual =bf
[255000] SCOREBOARD MATCH: wstrb passthrough beat=2 expected = 87, actual =87
[255000] SCOREBOARD MATCH: wstrb passthrough beat=3 expected = ba, actual =ba
[255000] SCOREBOARD MATCH: wstrb passthrough beat=4 expected = de, actual =de
[255000] SCOREBOARD MATCH: wstrb passthrough beat=5 expected = 6d, actual =6d
[255000] SCOREBOARD MATCH: wstrb passthrough beat=6 expected = 7c, actual =7c
[255000] SCOREBOARD MATCH: wstrb passthrough beat=7 expected = 68, actual =68
[255000] SCOREBOARD MATCH: wstrb passthrough beat=8 expected = 2c, actual =2c
[255000] SCOREBOARD MATCH: wstrb passthrough beat=9 expected = 3, actual =3
[255000] SCOREBOARD MATCH: wstrb passthrough beat=10 expected = 23, actual =23
[255000] SCOREBOARD MATCH: bresp passthrough expected = 0, actual =0
[255000] SCOREBOARD MATCH: response routed to correct master (write) expected = 1, actual =1
[255000] [SCOREBOARD-M] mst_id=1 s_id=0 awaddr=aadcb88 awid=1111 awlen=10 awsize=2 awburst=0 wdata=[9547719ad2cec42e 91aeee6712ffa4cf b14f8c8bb7d4839e aa347cdebb464eb feb409bac696fe26 fe6b81c49c523634 88069b1fb0039645 f69a946b890ec991 2560ffc686baa4d9 36be3b1ff5061630 fe14dfc1ad679ae5 ] wstrb=[8a bf 87 ba de 6d 7c 68 2c 3 23 ] bresp=0 bid=1111
[255000] [SCOREBOARD-S] mst_id=1 s_id=0 awaddr=aadcb88 awid=1111 awlen=10 awsize=2 awburst=0 wdata=[9547719ad2cec42e 91aeee6712ffa4cf b14f8c8bb7d4839e aa347cdebb464eb feb409bac696fe26 fe6b81c49c523634 88069b1fb0039645 f69a946b890ec991 2560ffc686baa4d9 36be3b1ff5061630 fe14dfc1ad679ae5 ] wstrb=[8a bf 87 ba de 6d 7c 68 2c 3 23 ] bresp=0 bid=11111
[255000] SCOREBOARD: Transaction 5 received. pass=89 fail=0
[255000] SCOREBOARD: Expected 5 transactions completed, PASS=89 FAIL=0
[255000] ALL PASS. Total transactions: 5
[255000] ALL TRANSACTIONS MONITORED
$finish called at time : 275 ns : File "/home/nashita/Desktop/practice/axi_xbar/tb/top/axi_tb_top.sv" Line 220
exit
INFO: xsimkernel Simulation Memory Usage: 289464 KB (Peak: 337864 KB), Simulation CPU Usage: 1160 ms
INFO: [Common 17-206] Exiting xsim at Fri Sep 11 11:25:50 2026...
