#-----------------------------------------------------------
# xsim v2025.2 (64-bit)
# SW Build 6299465 on Fri Nov 14 12:34:56 MST 2025
# IP Build 6300035 on Fri Nov 14 10:48:45 MST 2025
# SharedData Build 6298862 on Thu Nov 13 04:50:51 MST 2025
# Start of session at: Thu Sep 10 18:20:49 2026
# Process ID         : 3607666
# Current directory  : /home/nashita/Desktop/practice/axi_xbar/sim
# Command line       : xsim -log regress_results/BT_run135.log -mode tcl -source {xsim.dir/tb_top_snap/xsim_script.tcl}
# Log file           : /home/nashita/Desktop/practice/axi_xbar/sim/regress_results/BT_run135.log
# Journal file       : /home/nashita/Desktop/practice/axi_xbar/sim/xsim.jou
# Running On         : vlsi-vivado
# Platform           : Ubuntu
# Operating System   : Ubuntu 24.04.4 LTS
# Processor Detail   : Intel(R) Core(TM) i5-10400 CPU @ 2.90GHz
# CPU Frequency      : 4003.586 MHz
# CPU Physical cores : 6
# CPU Logical cores  : 12
# Host memory        : 41875 MB
# Swap memory        : 27648 MB
# Total Virtual      : 69524 MB
# Available Virtual  : 62822 MB
#-----------------------------------------------------------
source xsim.dir/tb_top_snap/xsim_script.tcl
# xsim {tb_top_snap} -testplusarg BT -autoloadwcfg -runall -sv_seed 136
Time resolution is 1 ps
run -all
[0] RUNNING BASE TEST
[0] INSIDE THE BASE TEST CONSTRUCTOR
[0] ENV: before agent
[0] SLAVE CONSTRUCTED
[0] MASTER MONITOR CONSTRUCTED
[0] MASTER MONITOR CONSTRUCTED
[0] SLAVE MONITOR CONSTRUCTED
[0] SLAVE MONITOR CONSTRUCTED
[0] ARB MONITOR CONSTRUCTED
GENERATOR CONSTRUCTED
[0] ENV: after agent
[0] ENV: before scoreboard
[0] ENV: after scoreboard
[15000] [SEQUENCER] mst_id=0 s_id=0 awaddr=8c1e2b8 awid=11 awlen=112 awsize=2 awburst=1 wdata=[3b1154c8ecbcdd4f cd4e7cfac3c0af3e fcd8eb95b5edbeff a2aa9c4ed15dbd97 151e6cd5b7ea405d edd7ff5deff91949 c156d6e091f7586a c9e198c890829bab 807bb4f4d67543b5 e86c9c1f37b99825 c83c33d0c1d28bd4 9847cf89b24e34e7 ea07cd0cc8b7e8c5 8a8a749900b46ba9 b302a090324400dd fafbe9a222d24423 2386afcc1d0a6d9d cf4e6e7a85865e3b a858a25ed689505c f393bdf9ca4a581c cfd0b657cbdf522a 2268a287c2e22c73 8d2c848ff82958b6 c408aae095fc6080 d8de8cf4dcfd3ae7 d526939de6714d67 fc6dade8e60b1183 c3084c6a992f3e7d ffa08be5d54c3adc bb574c5f982ee007 315e1e85fc0e39cd d15a74a9fe5f98ca 968e78d130feaa6a 2d0ce4378cb1c108 8b1159d2c7ec9756 f8eb41c0fe6758e0 8b1919e8219fd2a4 e98c69faa5f825f7 a45f7ed7162a73bb 37ca465fe277abbb 886fd1b22f7898c0 c5a30c7ba156b059 83ce5c142ccf508a dc47e94afd6d52da 9ec403330c3e2dc7 390d7e5121eaf5c5 1f58489f22925f48 2ed08d0f1555679b 37405d60be1c4bd2 e0aeab1ae7de0b60 fd3372fbd698a5ff 94b4f1d18f7f3829 f75d43893473d05b b0c765af5639cec 84e2d515f490b684 a90486df9fc1682b 95250517fc40189f f0d0cf23b410fd39 d3d265651a07da2d 1647f2cc19d55603 cde6533ce8f76a7c 82ff44a98718c1ef a0ee17f2a1b8b8a1 ab0231e99473775 205ff965eed46b2f 908d23d08daf67c7 26f69f3dc14e1157 b0227c869b3d46ee 28ecaeb6c75698a2 88a4a9f9c0afa057 dbece745cfe34df3 1739e69538c72680 f976c6d784d995fb d4bce3ee9fde908e d8a5b70ed563ae1c da3d4418ebf6ca83 bd55b12d21c7de5 27802c02aefa2806 1af0f28ae47b1220 3697900601bd701a b0b7982026c64d9c 8b415fbcde17bc08 dfd52c22cba88aaa f26ed846c1d8efc2 9ff0abca908cc442 dc354eedfdb03803 bf8927c5ffc5d7ec 10529c2fcea42733 cc545f36df79d390 df3fab7cec87eb1c bb2c124f0bdd86fc eb575a8cef9247ab dc1a32c707807186 135df882ca970608 3a294db417464517 1ec6b69dfeb5530e c94c59169643807b ad89c5923224af1f 30da022d8375a6ca 19b92746cc507c2f fe752b4efa265b43 fd9c020ec742ecd8 13936908af4f2d7b 297588bf17552954 de98162c92089456 c157c1d227118acd 3e66b421f22b7f34 434138beacd4a91 11ded55e9cfeca4d f2a4982c58bd55d 30591feed045897f ed4453cc135e5d0d d8ea326ac237f54c ] wstrb=[4e cb 58 5b 97 a4 c5 e6 6f 1d 41 6 c1 7 ec 30 24 2e 37 e6 35 23 16 59 51 4d 3f 86 71 56 e0 c2 a3 1f 49 14 75 29 d7 19 48 20 2d be 49 4 d7 91 24 4 4f 6d 9 26 ff 2d 2b 4e 9b 34 75 9a 61 a0 e8 fc d4 5d 96 35 fd 7f 32 d1 dc c8 7 da 47 39 ab 24 1 b2 fe 49 eb a9 6d ed 5c 6b 36 47 14 a3 34 70 e 6a b8 22 d ec 93 1b 57 4b 3e 64 37 d1 80 ] bresp=0 bid=0
[15000] [SEQUENCER] mst_id=1 s_id=0 awaddr=102e4410 awid=1111 awlen=74 awsize=0 awburst=1 wdata=[d176210dcd885f98 cead2eb891f64d65 cc67f7b081baac48 cf430be0c5b8c11f d7af0e851dde18bd 9f98c5051df03a99 e3a8fbb824170635 c1f51ef2eedbd0e6 ccc0b7fbb580a3d df6f1072e18de3f7 d069b4ddf0750737 2bcd1175a1642f64 2f2135cdd35c05c cdaac7948b3c21e7 2ca0514cd35bc839 30918896f977d909 84b3faf02f9264a8 82ee2ce1fe3c502a f7b42933b1544c3c e0e6b0e4b37fb577 b1bc05a1fc682423 2dbc7060e3d4ddc6 9754933da9702ed4 25d852f88ea32144 f277ff0ac91098df f280c7b3d394c358 e237e49c09cc9248 d2dd2b2798591aab ebedde03d4afe3a7 de7c75efc55df2da ddb70d86ce25c2a0 22d5a6473159a116 f6b793f0c9a4eb89 97caae2901521c36 32abbd4cd46ea176 1e138d00baa05470 bbf270a6a963513c fdd1f2b3b5de3b29 f07e8f9aee9e2df2 18017f2f1be57fb3 d1c3badcac710040 1b0f2e3315d371e2 31b8f195c2424a76 eeb34ab73310ad62 c8e41f44837cac71 c5bef6e809c278ea 3cd3264cfa9d10d9 fe19bd4a3472419f 3e34ba8905b74590 545669c3d8b432 f84af5d1fb07e0d5 bf2665fe6e13b3 c246c7e6b67fb05a b187912f01137cce ff819081ba91bdb7 f1116e12b246b794 b35a3462c1c85867 fc5a161fa298ff41 d4dfb6d632dbc4e4 f4a41d4bed6b8431 900483728839eb38 bb15b01cf0fe336a de69b79be4e43a48 ed1e25812fb9cd68 a0b800d2ee6e3b0e d3527556a833d59d d7eda305ff21b86e ed8ff37cc0709ad7 e8a47075f8a5a3d8 f7c75c46c0e268d2 15303aac092137a b937b752e5574fc2 a639b894e9f7741f aa898799b0ff1398 9656635aa78cbc3e ] wstrb=[ec 5d ef 84 f7 2d df e3 8b ce 67 82 fb 46 65 86 14 cc 8 10 13 6d 96 27 3a 9f 37 4d c ce 74 46 6d ac 93 79 7a 8 c0 e7 b4 53 60 2e 5b 20 15 f 74 75 3d cf 96 52 df a c8 1c d9 5e 6f b8 68 37 d5 41 95 44 fa fd 7b cf 3e 10 13 ] bresp=0 bid=0
[15000] [SEQUENCER] READ mst_id=0 s_id=0 araddr=7f46600 arid=1 arlen=1 arsize=3 arburst=1 rid=[] rresp=[] rdata=[]
[15000] [SEQUENCER] READ mst_id=0 s_id=0 araddr=18031b28 arid=2 arlen=1 arsize=3 arburst=1 rid=[] rresp=[] rdata=[]
[15000] [SEQUENCER] mst_id=0 s_id=0 awaddr=1908e530 awid=1100 awlen=8 awsize=1 awburst=0 wdata=[8c5d6ff12cc037d1 db480cc5c13186ef 11264818c90b076f f5cb3f4081942c63 c2c5b3539d83b809 e68ebf78d1134c05 d2a77868d3ebfb6b f16fb374dc59feb8 ad6d4abd956d2bbb ] wstrb=[ed 26 26 a5 9b e1 63 88 8 ] bresp=0 bid=0
[15000] MASTER_DRIVER0 received transaction, op=AXI_WRITE
[15000] MASTER_DRIVER1 received transaction, op=AXI_WRITE
[35000] MASTER 1 AW_VALID_RDY Handshake
[35000] MASTER 0 AW_VALID_RDY Handshake
[45000] ARB MONITOR: slave=0 m0_req=1 m1_req=0 winner=0
[45000] ARB MONITOR: slave=1 m0_req=0 m1_req=1 winner=1
[45000] AXI S1_AWVALID_RDY HANDSHAKE
[45000] AXI S0_AWVALID_RDY HANDSHAKE
[55000] MASTER 1 W_VALID_RDY Handshake beat=0 wlast=0
[55000] MASTER 0 W_VALID_RDY Handshake beat=0 wlast=0
[65000] MASTER 0 W_VALID_RDY Handshake beat=1 wlast=0
[65000] MASTER 1 W_VALID_RDY Handshake beat=1 wlast=0
[65000] S1 MEMORY WRITE beat=0 addr=102e4410 data=d176210dcd885f98 id=1f
[65000] AXI S0_WVALID_RDY HANDSHAKE
[65000] S0 MEMORY WRITE beat=0 addr=08c1e2b8 data=3b1154c8ecbcdd4f id=03
[75000] AXI S0_WVALID_RDY HANDSHAKE
[75000] S0 MEMORY WRITE beat=1 addr=08c1e2bc data=cd4e7cfac3c0af3e id=03
[75000] S1 MEMORY WRITE beat=1 addr=102e4411 data=cead2eb891f64d65 id=1f
[75000] MASTER 1 W_VALID_RDY Handshake beat=2 wlast=0
[75000] MASTER 0 W_VALID_RDY Handshake beat=2 wlast=0
[85000] MASTER 0 W_VALID_RDY Handshake beat=3 wlast=0
[85000] MASTER 1 W_VALID_RDY Handshake beat=3 wlast=0
[85000] S1 MEMORY WRITE beat=2 addr=102e4412 data=cc67f7b081baac48 id=1f
[85000] AXI S0_WVALID_RDY HANDSHAKE
[85000] S0 MEMORY WRITE beat=2 addr=08c1e2c0 data=fcd8eb95b5edbeff id=03
[95000] AXI S0_WVALID_RDY HANDSHAKE
[95000] S0 MEMORY WRITE beat=3 addr=08c1e2c4 data=a2aa9c4ed15dbd97 id=03
[95000] S1 MEMORY WRITE beat=3 addr=102e4413 data=cf430be0c5b8c11f id=1f
[95000] MASTER 1 W_VALID_RDY Handshake beat=4 wlast=0
[95000] MASTER 0 W_VALID_RDY Handshake beat=4 wlast=0
[105000] MASTER 0 W_VALID_RDY Handshake beat=5 wlast=0
[105000] MASTER 1 W_VALID_RDY Handshake beat=5 wlast=0
[105000] S1 MEMORY WRITE beat=4 addr=102e4414 data=d7af0e851dde18bd id=1f
[105000] AXI S0_WVALID_RDY HANDSHAKE
[105000] S0 MEMORY WRITE beat=4 addr=08c1e2c8 data=151e6cd5b7ea405d id=03
[115000] AXI S0_WVALID_RDY HANDSHAKE
[115000] S0 MEMORY WRITE beat=5 addr=08c1e2cc data=edd7ff5deff91949 id=03
[115000] S1 MEMORY WRITE beat=5 addr=102e4415 data=9f98c5051df03a99 id=1f
[115000] MASTER 1 W_VALID_RDY Handshake beat=6 wlast=0
[115000] MASTER 0 W_VALID_RDY Handshake beat=6 wlast=0
[125000] MASTER 0 W_VALID_RDY Handshake beat=7 wlast=0
[125000] MASTER 1 W_VALID_RDY Handshake beat=7 wlast=0
[125000] S1 MEMORY WRITE beat=6 addr=102e4416 data=e3a8fbb824170635 id=1f
[125000] AXI S0_WVALID_RDY HANDSHAKE
[125000] S0 MEMORY WRITE beat=6 addr=08c1e2d0 data=c156d6e091f7586a id=03
[135000] AXI S0_WVALID_RDY HANDSHAKE
[135000] S0 MEMORY WRITE beat=7 addr=08c1e2d4 data=c9e198c890829bab id=03
[135000] S1 MEMORY WRITE beat=7 addr=102e4417 data=c1f51ef2eedbd0e6 id=1f
[135000] MASTER 1 W_VALID_RDY Handshake beat=8 wlast=0
[135000] MASTER 0 W_VALID_RDY Handshake beat=8 wlast=0
[145000] MASTER 0 W_VALID_RDY Handshake beat=9 wlast=0
[145000] MASTER 1 W_VALID_RDY Handshake beat=9 wlast=0
[145000] S1 MEMORY WRITE beat=8 addr=102e4418 data=0ccc0b7fbb580a3d id=1f
[145000] AXI S0_WVALID_RDY HANDSHAKE
[145000] S0 MEMORY WRITE beat=8 addr=08c1e2d8 data=807bb4f4d67543b5 id=03
[155000] AXI S0_WVALID_RDY HANDSHAKE
[155000] S0 MEMORY WRITE beat=9 addr=08c1e2dc data=e86c9c1f37b99825 id=03
[155000] S1 MEMORY WRITE beat=9 addr=102e4419 data=df6f1072e18de3f7 id=1f
[155000] MASTER 1 W_VALID_RDY Handshake beat=10 wlast=0
[155000] MASTER 0 W_VALID_RDY Handshake beat=10 wlast=0
[165000] MASTER 0 W_VALID_RDY Handshake beat=11 wlast=0
[165000] MASTER 1 W_VALID_RDY Handshake beat=11 wlast=0
[165000] S1 MEMORY WRITE beat=10 addr=102e441a data=d069b4ddf0750737 id=1f
[165000] AXI S0_WVALID_RDY HANDSHAKE
[165000] S0 MEMORY WRITE beat=10 addr=08c1e2e0 data=c83c33d0c1d28bd4 id=03
[175000] AXI S0_WVALID_RDY HANDSHAKE
[175000] S0 MEMORY WRITE beat=11 addr=08c1e2e4 data=9847cf89b24e34e7 id=03
[175000] S1 MEMORY WRITE beat=11 addr=102e441b data=2bcd1175a1642f64 id=1f
[175000] MASTER 1 W_VALID_RDY Handshake beat=12 wlast=0
[175000] MASTER 0 W_VALID_RDY Handshake beat=12 wlast=0
[185000] MASTER 0 W_VALID_RDY Handshake beat=13 wlast=0
[185000] MASTER 1 W_VALID_RDY Handshake beat=13 wlast=0
[185000] S1 MEMORY WRITE beat=12 addr=102e441c data=02f2135cdd35c05c id=1f
[185000] AXI S0_WVALID_RDY HANDSHAKE
[185000] S0 MEMORY WRITE beat=12 addr=08c1e2e8 data=ea07cd0cc8b7e8c5 id=03
[195000] AXI S0_WVALID_RDY HANDSHAKE
[195000] S0 MEMORY WRITE beat=13 addr=08c1e2ec data=8a8a749900b46ba9 id=03
[195000] S1 MEMORY WRITE beat=13 addr=102e441d data=cdaac7948b3c21e7 id=1f
[195000] MASTER 1 W_VALID_RDY Handshake beat=14 wlast=0
[195000] MASTER 0 W_VALID_RDY Handshake beat=14 wlast=0
[205000] MASTER 0 W_VALID_RDY Handshake beat=15 wlast=0
[205000] MASTER 1 W_VALID_RDY Handshake beat=15 wlast=0
[205000] S1 MEMORY WRITE beat=14 addr=102e441e data=2ca0514cd35bc839 id=1f
[205000] AXI S0_WVALID_RDY HANDSHAKE
[205000] S0 MEMORY WRITE beat=14 addr=08c1e2f0 data=b302a090324400dd id=03
[215000] AXI S0_WVALID_RDY HANDSHAKE
[215000] S0 MEMORY WRITE beat=15 addr=08c1e2f4 data=fafbe9a222d24423 id=03
[215000] S1 MEMORY WRITE beat=15 addr=102e441f data=30918896f977d909 id=1f
[215000] MASTER 1 W_VALID_RDY Handshake beat=16 wlast=0
[215000] MASTER 0 W_VALID_RDY Handshake beat=16 wlast=0
[225000] MASTER 0 W_VALID_RDY Handshake beat=17 wlast=0
[225000] MASTER 1 W_VALID_RDY Handshake beat=17 wlast=0
[225000] S1 MEMORY WRITE beat=16 addr=102e4420 data=84b3faf02f9264a8 id=1f
[225000] AXI S0_WVALID_RDY HANDSHAKE
[225000] S0 MEMORY WRITE beat=16 addr=08c1e2f8 data=2386afcc1d0a6d9d id=03
[235000] AXI S0_WVALID_RDY HANDSHAKE
[235000] S0 MEMORY WRITE beat=17 addr=08c1e2fc data=cf4e6e7a85865e3b id=03
[235000] S1 MEMORY WRITE beat=17 addr=102e4421 data=82ee2ce1fe3c502a id=1f
[235000] MASTER 1 W_VALID_RDY Handshake beat=18 wlast=0
[235000] MASTER 0 W_VALID_RDY Handshake beat=18 wlast=0
[245000] MASTER 0 W_VALID_RDY Handshake beat=19 wlast=0
[245000] MASTER 1 W_VALID_RDY Handshake beat=19 wlast=0
[245000] S1 MEMORY WRITE beat=18 addr=102e4422 data=f7b42933b1544c3c id=1f
[245000] AXI S0_WVALID_RDY HANDSHAKE
[245000] S0 MEMORY WRITE beat=18 addr=08c1e300 data=a858a25ed689505c id=03
[255000] AXI S0_WVALID_RDY HANDSHAKE
[255000] S0 MEMORY WRITE beat=19 addr=08c1e304 data=f393bdf9ca4a581c id=03
[255000] S1 MEMORY WRITE beat=19 addr=102e4423 data=e0e6b0e4b37fb577 id=1f
[255000] MASTER 1 W_VALID_RDY Handshake beat=20 wlast=0
[255000] MASTER 0 W_VALID_RDY Handshake beat=20 wlast=0
[265000] MASTER 0 W_VALID_RDY Handshake beat=21 wlast=0
[265000] MASTER 1 W_VALID_RDY Handshake beat=21 wlast=0
[265000] S1 MEMORY WRITE beat=20 addr=102e4424 data=b1bc05a1fc682423 id=1f
[265000] AXI S0_WVALID_RDY HANDSHAKE
[265000] S0 MEMORY WRITE beat=20 addr=08c1e308 data=cfd0b657cbdf522a id=03
[275000] AXI S0_WVALID_RDY HANDSHAKE
[275000] S0 MEMORY WRITE beat=21 addr=08c1e30c data=2268a287c2e22c73 id=03
[275000] S1 MEMORY WRITE beat=21 addr=102e4425 data=2dbc7060e3d4ddc6 id=1f
[275000] MASTER 1 W_VALID_RDY Handshake beat=22 wlast=0
[275000] MASTER 0 W_VALID_RDY Handshake beat=22 wlast=0
[285000] MASTER 0 W_VALID_RDY Handshake beat=23 wlast=0
[285000] MASTER 1 W_VALID_RDY Handshake beat=23 wlast=0
[285000] S1 MEMORY WRITE beat=22 addr=102e4426 data=9754933da9702ed4 id=1f
[285000] AXI S0_WVALID_RDY HANDSHAKE
[285000] S0 MEMORY WRITE beat=22 addr=08c1e310 data=8d2c848ff82958b6 id=03
[295000] AXI S0_WVALID_RDY HANDSHAKE
[295000] S0 MEMORY WRITE beat=23 addr=08c1e314 data=c408aae095fc6080 id=03
[295000] S1 MEMORY WRITE beat=23 addr=102e4427 data=25d852f88ea32144 id=1f
[295000] MASTER 1 W_VALID_RDY Handshake beat=24 wlast=0
[295000] MASTER 0 W_VALID_RDY Handshake beat=24 wlast=0
[305000] MASTER 0 W_VALID_RDY Handshake beat=25 wlast=0
[305000] MASTER 1 W_VALID_RDY Handshake beat=25 wlast=0
[305000] S1 MEMORY WRITE beat=24 addr=102e4428 data=f277ff0ac91098df id=1f
[305000] AXI S0_WVALID_RDY HANDSHAKE
[305000] S0 MEMORY WRITE beat=24 addr=08c1e318 data=d8de8cf4dcfd3ae7 id=03
[315000] AXI S0_WVALID_RDY HANDSHAKE
[315000] S0 MEMORY WRITE beat=25 addr=08c1e31c data=d526939de6714d67 id=03
[315000] S1 MEMORY WRITE beat=25 addr=102e4429 data=f280c7b3d394c358 id=1f
[315000] MASTER 1 W_VALID_RDY Handshake beat=26 wlast=0
[315000] MASTER 0 W_VALID_RDY Handshake beat=26 wlast=0
[325000] MASTER 0 W_VALID_RDY Handshake beat=27 wlast=0
[325000] MASTER 1 W_VALID_RDY Handshake beat=27 wlast=0
[325000] S1 MEMORY WRITE beat=26 addr=102e442a data=e237e49c09cc9248 id=1f
[325000] AXI S0_WVALID_RDY HANDSHAKE
[325000] S0 MEMORY WRITE beat=26 addr=08c1e320 data=fc6dade8e60b1183 id=03
[335000] AXI S0_WVALID_RDY HANDSHAKE
[335000] S0 MEMORY WRITE beat=27 addr=08c1e324 data=c3084c6a992f3e7d id=03
[335000] S1 MEMORY WRITE beat=27 addr=102e442b data=d2dd2b2798591aab id=1f
[335000] MASTER 1 W_VALID_RDY Handshake beat=28 wlast=0
[335000] MASTER 0 W_VALID_RDY Handshake beat=28 wlast=0
[345000] MASTER 0 W_VALID_RDY Handshake beat=29 wlast=0
[345000] MASTER 1 W_VALID_RDY Handshake beat=29 wlast=0
[345000] S1 MEMORY WRITE beat=28 addr=102e442c data=ebedde03d4afe3a7 id=1f
[345000] AXI S0_WVALID_RDY HANDSHAKE
[345000] S0 MEMORY WRITE beat=28 addr=08c1e328 data=ffa08be5d54c3adc id=03
[355000] AXI S0_WVALID_RDY HANDSHAKE
[355000] S0 MEMORY WRITE beat=29 addr=08c1e32c data=bb574c5f982ee007 id=03
[355000] S1 MEMORY WRITE beat=29 addr=102e442d data=de7c75efc55df2da id=1f
[355000] MASTER 1 W_VALID_RDY Handshake beat=30 wlast=0
[355000] MASTER 0 W_VALID_RDY Handshake beat=30 wlast=0
[365000] MASTER 0 W_VALID_RDY Handshake beat=31 wlast=0
[365000] MASTER 1 W_VALID_RDY Handshake beat=31 wlast=0
[365000] S1 MEMORY WRITE beat=30 addr=102e442e data=ddb70d86ce25c2a0 id=1f
[365000] AXI S0_WVALID_RDY HANDSHAKE
[365000] S0 MEMORY WRITE beat=30 addr=08c1e330 data=315e1e85fc0e39cd id=03
[375000] AXI S0_WVALID_RDY HANDSHAKE
[375000] S0 MEMORY WRITE beat=31 addr=08c1e334 data=d15a74a9fe5f98ca id=03
[375000] S1 MEMORY WRITE beat=31 addr=102e442f data=22d5a6473159a116 id=1f
[375000] MASTER 1 W_VALID_RDY Handshake beat=32 wlast=0
[375000] MASTER 0 W_VALID_RDY Handshake beat=32 wlast=0
[385000] MASTER 0 W_VALID_RDY Handshake beat=33 wlast=0
[385000] MASTER 1 W_VALID_RDY Handshake beat=33 wlast=0
[385000] S1 MEMORY WRITE beat=32 addr=102e4430 data=f6b793f0c9a4eb89 id=1f
[385000] AXI S0_WVALID_RDY HANDSHAKE
[385000] S0 MEMORY WRITE beat=32 addr=08c1e338 data=968e78d130feaa6a id=03
[395000] AXI S0_WVALID_RDY HANDSHAKE
[395000] S0 MEMORY WRITE beat=33 addr=08c1e33c data=2d0ce4378cb1c108 id=03
[395000] S1 MEMORY WRITE beat=33 addr=102e4431 data=97caae2901521c36 id=1f
[395000] MASTER 1 W_VALID_RDY Handshake beat=34 wlast=0
[395000] MASTER 0 W_VALID_RDY Handshake beat=34 wlast=0
[405000] MASTER 0 W_VALID_RDY Handshake beat=35 wlast=0
[405000] MASTER 1 W_VALID_RDY Handshake beat=35 wlast=0
[405000] S1 MEMORY WRITE beat=34 addr=102e4432 data=32abbd4cd46ea176 id=1f
[405000] AXI S0_WVALID_RDY HANDSHAKE
[405000] S0 MEMORY WRITE beat=34 addr=08c1e340 data=8b1159d2c7ec9756 id=03
[415000] AXI S0_WVALID_RDY HANDSHAKE
[415000] S0 MEMORY WRITE beat=35 addr=08c1e344 data=f8eb41c0fe6758e0 id=03
[415000] S1 MEMORY WRITE beat=35 addr=102e4433 data=1e138d00baa05470 id=1f
[415000] MASTER 1 W_VALID_RDY Handshake beat=36 wlast=0
[415000] MASTER 0 W_VALID_RDY Handshake beat=36 wlast=0
[425000] MASTER 0 W_VALID_RDY Handshake beat=37 wlast=0
[425000] MASTER 1 W_VALID_RDY Handshake beat=37 wlast=0
[425000] S1 MEMORY WRITE beat=36 addr=102e4434 data=bbf270a6a963513c id=1f
[425000] AXI S0_WVALID_RDY HANDSHAKE
[425000] S0 MEMORY WRITE beat=36 addr=08c1e348 data=8b1919e8219fd2a4 id=03
[435000] AXI S0_WVALID_RDY HANDSHAKE
[435000] S0 MEMORY WRITE beat=37 addr=08c1e34c data=e98c69faa5f825f7 id=03
[435000] S1 MEMORY WRITE beat=37 addr=102e4435 data=fdd1f2b3b5de3b29 id=1f
[435000] MASTER 1 W_VALID_RDY Handshake beat=38 wlast=0
[435000] MASTER 0 W_VALID_RDY Handshake beat=38 wlast=0
[445000] MASTER 0 W_VALID_RDY Handshake beat=39 wlast=0
[445000] MASTER 1 W_VALID_RDY Handshake beat=39 wlast=0
[445000] S1 MEMORY WRITE beat=38 addr=102e4436 data=f07e8f9aee9e2df2 id=1f
[445000] AXI S0_WVALID_RDY HANDSHAKE
[445000] S0 MEMORY WRITE beat=38 addr=08c1e350 data=a45f7ed7162a73bb id=03
[455000] AXI S0_WVALID_RDY HANDSHAKE
[455000] S0 MEMORY WRITE beat=39 addr=08c1e354 data=37ca465fe277abbb id=03
[455000] S1 MEMORY WRITE beat=39 addr=102e4437 data=18017f2f1be57fb3 id=1f
[455000] MASTER 1 W_VALID_RDY Handshake beat=40 wlast=0
[455000] MASTER 0 W_VALID_RDY Handshake beat=40 wlast=0
[465000] MASTER 0 W_VALID_RDY Handshake beat=41 wlast=0
[465000] MASTER 1 W_VALID_RDY Handshake beat=41 wlast=0
[465000] S1 MEMORY WRITE beat=40 addr=102e4438 data=d1c3badcac710040 id=1f
[465000] AXI S0_WVALID_RDY HANDSHAKE
[465000] S0 MEMORY WRITE beat=40 addr=08c1e358 data=886fd1b22f7898c0 id=03
[475000] AXI S0_WVALID_RDY HANDSHAKE
[475000] S0 MEMORY WRITE beat=41 addr=08c1e35c data=c5a30c7ba156b059 id=03
[475000] S1 MEMORY WRITE beat=41 addr=102e4439 data=1b0f2e3315d371e2 id=1f
[475000] MASTER 1 W_VALID_RDY Handshake beat=42 wlast=0
[475000] MASTER 0 W_VALID_RDY Handshake beat=42 wlast=0
[485000] MASTER 0 W_VALID_RDY Handshake beat=43 wlast=0
[485000] MASTER 1 W_VALID_RDY Handshake beat=43 wlast=0
[485000] S1 MEMORY WRITE beat=42 addr=102e443a data=31b8f195c2424a76 id=1f
[485000] AXI S0_WVALID_RDY HANDSHAKE
[485000] S0 MEMORY WRITE beat=42 addr=08c1e360 data=83ce5c142ccf508a id=03
[495000] AXI S0_WVALID_RDY HANDSHAKE
[495000] S0 MEMORY WRITE beat=43 addr=08c1e364 data=dc47e94afd6d52da id=03
[495000] S1 MEMORY WRITE beat=43 addr=102e443b data=eeb34ab73310ad62 id=1f
[495000] MASTER 1 W_VALID_RDY Handshake beat=44 wlast=0
[495000] MASTER 0 W_VALID_RDY Handshake beat=44 wlast=0
[505000] MASTER 0 W_VALID_RDY Handshake beat=45 wlast=0
[505000] MASTER 1 W_VALID_RDY Handshake beat=45 wlast=0
[505000] S1 MEMORY WRITE beat=44 addr=102e443c data=c8e41f44837cac71 id=1f
[505000] AXI S0_WVALID_RDY HANDSHAKE
[505000] S0 MEMORY WRITE beat=44 addr=08c1e368 data=9ec403330c3e2dc7 id=03
[515000] AXI S0_WVALID_RDY HANDSHAKE
[515000] S0 MEMORY WRITE beat=45 addr=08c1e36c data=390d7e5121eaf5c5 id=03
[515000] S1 MEMORY WRITE beat=45 addr=102e443d data=c5bef6e809c278ea id=1f
[515000] MASTER 1 W_VALID_RDY Handshake beat=46 wlast=0
[515000] MASTER 0 W_VALID_RDY Handshake beat=46 wlast=0
[525000] MASTER 0 W_VALID_RDY Handshake beat=47 wlast=0
[525000] MASTER 1 W_VALID_RDY Handshake beat=47 wlast=0
[525000] S1 MEMORY WRITE beat=46 addr=102e443e data=3cd3264cfa9d10d9 id=1f
[525000] AXI S0_WVALID_RDY HANDSHAKE
[525000] S0 MEMORY WRITE beat=46 addr=08c1e370 data=1f58489f22925f48 id=03
[535000] AXI S0_WVALID_RDY HANDSHAKE
[535000] S0 MEMORY WRITE beat=47 addr=08c1e374 data=2ed08d0f1555679b id=03
[535000] S1 MEMORY WRITE beat=47 addr=102e443f data=fe19bd4a3472419f id=1f
[535000] MASTER 1 W_VALID_RDY Handshake beat=48 wlast=0
[535000] MASTER 0 W_VALID_RDY Handshake beat=48 wlast=0
[545000] MASTER 0 W_VALID_RDY Handshake beat=49 wlast=0
[545000] MASTER 1 W_VALID_RDY Handshake beat=49 wlast=0
[545000] S1 MEMORY WRITE beat=48 addr=102e4440 data=3e34ba8905b74590 id=1f
[545000] AXI S0_WVALID_RDY HANDSHAKE
[545000] S0 MEMORY WRITE beat=48 addr=08c1e378 data=37405d60be1c4bd2 id=03
[555000] AXI S0_WVALID_RDY HANDSHAKE
[555000] S0 MEMORY WRITE beat=49 addr=08c1e37c data=e0aeab1ae7de0b60 id=03
[555000] S1 MEMORY WRITE beat=49 addr=102e4441 data=00545669c3d8b432 id=1f
[555000] MASTER 1 W_VALID_RDY Handshake beat=50 wlast=0
[555000] MASTER 0 W_VALID_RDY Handshake beat=50 wlast=0
[565000] MASTER 0 W_VALID_RDY Handshake beat=51 wlast=0
[565000] MASTER 1 W_VALID_RDY Handshake beat=51 wlast=0
[565000] S1 MEMORY WRITE beat=50 addr=102e4442 data=f84af5d1fb07e0d5 id=1f
[565000] AXI S0_WVALID_RDY HANDSHAKE
[565000] S0 MEMORY WRITE beat=50 addr=08c1e380 data=fd3372fbd698a5ff id=03
[575000] AXI S0_WVALID_RDY HANDSHAKE
[575000] S0 MEMORY WRITE beat=51 addr=08c1e384 data=94b4f1d18f7f3829 id=03
[575000] S1 MEMORY WRITE beat=51 addr=102e4443 data=00bf2665fe6e13b3 id=1f
[575000] MASTER 1 W_VALID_RDY Handshake beat=52 wlast=0
[575000] MASTER 0 W_VALID_RDY Handshake beat=52 wlast=0
[585000] MASTER 0 W_VALID_RDY Handshake beat=53 wlast=0
[585000] MASTER 1 W_VALID_RDY Handshake beat=53 wlast=0
[585000] S1 MEMORY WRITE beat=52 addr=102e4444 data=c246c7e6b67fb05a id=1f
[585000] AXI S0_WVALID_RDY HANDSHAKE
[585000] S0 MEMORY WRITE beat=52 addr=08c1e388 data=f75d43893473d05b id=03
[595000] AXI S0_WVALID_RDY HANDSHAKE
[595000] S0 MEMORY WRITE beat=53 addr=08c1e38c data=0b0c765af5639cec id=03
[595000] S1 MEMORY WRITE beat=53 addr=102e4445 data=b187912f01137cce id=1f
[595000] MASTER 1 W_VALID_RDY Handshake beat=54 wlast=0
[595000] MASTER 0 W_VALID_RDY Handshake beat=54 wlast=0
[605000] MASTER 0 W_VALID_RDY Handshake beat=55 wlast=0
[605000] MASTER 1 W_VALID_RDY Handshake beat=55 wlast=0
[605000] S1 MEMORY WRITE beat=54 addr=102e4446 data=ff819081ba91bdb7 id=1f
[605000] AXI S0_WVALID_RDY HANDSHAKE
[605000] S0 MEMORY WRITE beat=54 addr=08c1e390 data=84e2d515f490b684 id=03
[615000] AXI S0_WVALID_RDY HANDSHAKE
[615000] S0 MEMORY WRITE beat=55 addr=08c1e394 data=a90486df9fc1682b id=03
[615000] S1 MEMORY WRITE beat=55 addr=102e4447 data=f1116e12b246b794 id=1f
[615000] MASTER 1 W_VALID_RDY Handshake beat=56 wlast=0
[615000] MASTER 0 W_VALID_RDY Handshake beat=56 wlast=0
[625000] MASTER 0 W_VALID_RDY Handshake beat=57 wlast=0
[625000] MASTER 1 W_VALID_RDY Handshake beat=57 wlast=0
[625000] S1 MEMORY WRITE beat=56 addr=102e4448 data=b35a3462c1c85867 id=1f
[625000] AXI S0_WVALID_RDY HANDSHAKE
[625000] S0 MEMORY WRITE beat=56 addr=08c1e398 data=95250517fc40189f id=03
[635000] AXI S0_WVALID_RDY HANDSHAKE
[635000] S0 MEMORY WRITE beat=57 addr=08c1e39c data=f0d0cf23b410fd39 id=03
[635000] S1 MEMORY WRITE beat=57 addr=102e4449 data=fc5a161fa298ff41 id=1f
[635000] MASTER 1 W_VALID_RDY Handshake beat=58 wlast=0
[635000] MASTER 0 W_VALID_RDY Handshake beat=58 wlast=0
[645000] MASTER 0 W_VALID_RDY Handshake beat=59 wlast=0
[645000] MASTER 1 W_VALID_RDY Handshake beat=59 wlast=0
[645000] S1 MEMORY WRITE beat=58 addr=102e444a data=d4dfb6d632dbc4e4 id=1f
[645000] AXI S0_WVALID_RDY HANDSHAKE
[645000] S0 MEMORY WRITE beat=58 addr=08c1e3a0 data=d3d265651a07da2d id=03
[655000] AXI S0_WVALID_RDY HANDSHAKE
[655000] S0 MEMORY WRITE beat=59 addr=08c1e3a4 data=1647f2cc19d55603 id=03
[655000] S1 MEMORY WRITE beat=59 addr=102e444b data=f4a41d4bed6b8431 id=1f
[655000] MASTER 1 W_VALID_RDY Handshake beat=60 wlast=0
[655000] MASTER 0 W_VALID_RDY Handshake beat=60 wlast=0
[665000] MASTER 0 W_VALID_RDY Handshake beat=61 wlast=0
[665000] MASTER 1 W_VALID_RDY Handshake beat=61 wlast=0
[665000] S1 MEMORY WRITE beat=60 addr=102e444c data=900483728839eb38 id=1f
[665000] AXI S0_WVALID_RDY HANDSHAKE
[665000] S0 MEMORY WRITE beat=60 addr=08c1e3a8 data=cde6533ce8f76a7c id=03
[675000] AXI S0_WVALID_RDY HANDSHAKE
[675000] S0 MEMORY WRITE beat=61 addr=08c1e3ac data=82ff44a98718c1ef id=03
[675000] S1 MEMORY WRITE beat=61 addr=102e444d data=bb15b01cf0fe336a id=1f
[675000] MASTER 1 W_VALID_RDY Handshake beat=62 wlast=0
[675000] MASTER 0 W_VALID_RDY Handshake beat=62 wlast=0
[685000] MASTER 0 W_VALID_RDY Handshake beat=63 wlast=0
[685000] MASTER 1 W_VALID_RDY Handshake beat=63 wlast=0
[685000] S1 MEMORY WRITE beat=62 addr=102e444e data=de69b79be4e43a48 id=1f
[685000] AXI S0_WVALID_RDY HANDSHAKE
[685000] S0 MEMORY WRITE beat=62 addr=08c1e3b0 data=a0ee17f2a1b8b8a1 id=03
[695000] AXI S0_WVALID_RDY HANDSHAKE
[695000] S0 MEMORY WRITE beat=63 addr=08c1e3b4 data=0ab0231e99473775 id=03
[695000] S1 MEMORY WRITE beat=63 addr=102e444f data=ed1e25812fb9cd68 id=1f
[695000] MASTER 1 W_VALID_RDY Handshake beat=64 wlast=0
[695000] MASTER 0 W_VALID_RDY Handshake beat=64 wlast=0
[705000] MASTER 0 W_VALID_RDY Handshake beat=65 wlast=0
[705000] MASTER 1 W_VALID_RDY Handshake beat=65 wlast=0
[705000] S1 MEMORY WRITE beat=64 addr=102e4450 data=a0b800d2ee6e3b0e id=1f
[705000] AXI S0_WVALID_RDY HANDSHAKE
[705000] S0 MEMORY WRITE beat=64 addr=08c1e3b8 data=205ff965eed46b2f id=03
[715000] AXI S0_WVALID_RDY HANDSHAKE
[715000] S0 MEMORY WRITE beat=65 addr=08c1e3bc data=908d23d08daf67c7 id=03
[715000] S1 MEMORY WRITE beat=65 addr=102e4451 data=d3527556a833d59d id=1f
[715000] MASTER 1 W_VALID_RDY Handshake beat=66 wlast=0
[715000] MASTER 0 W_VALID_RDY Handshake beat=66 wlast=0
[725000] MASTER 0 W_VALID_RDY Handshake beat=67 wlast=0
[725000] MASTER 1 W_VALID_RDY Handshake beat=67 wlast=0
[725000] S1 MEMORY WRITE beat=66 addr=102e4452 data=d7eda305ff21b86e id=1f
[725000] AXI S0_WVALID_RDY HANDSHAKE
[725000] S0 MEMORY WRITE beat=66 addr=08c1e3c0 data=26f69f3dc14e1157 id=03
[735000] AXI S0_WVALID_RDY HANDSHAKE
[735000] S0 MEMORY WRITE beat=67 addr=08c1e3c4 data=b0227c869b3d46ee id=03
[735000] S1 MEMORY WRITE beat=67 addr=102e4453 data=ed8ff37cc0709ad7 id=1f
[735000] MASTER 1 W_VALID_RDY Handshake beat=68 wlast=0
[735000] MASTER 0 W_VALID_RDY Handshake beat=68 wlast=0
[745000] MASTER 0 W_VALID_RDY Handshake beat=69 wlast=0
[745000] MASTER 1 W_VALID_RDY Handshake beat=69 wlast=0
[745000] S1 MEMORY WRITE beat=68 addr=102e4454 data=e8a47075f8a5a3d8 id=1f
[745000] AXI S0_WVALID_RDY HANDSHAKE
[745000] S0 MEMORY WRITE beat=68 addr=08c1e3c8 data=28ecaeb6c75698a2 id=03
[755000] AXI S0_WVALID_RDY HANDSHAKE
[755000] S0 MEMORY WRITE beat=69 addr=08c1e3cc data=88a4a9f9c0afa057 id=03
[755000] S1 MEMORY WRITE beat=69 addr=102e4455 data=f7c75c46c0e268d2 id=1f
[755000] MASTER 1 W_VALID_RDY Handshake beat=70 wlast=0
[755000] MASTER 0 W_VALID_RDY Handshake beat=70 wlast=0
[765000] MASTER 0 W_VALID_RDY Handshake beat=71 wlast=0
[765000] MASTER 1 W_VALID_RDY Handshake beat=71 wlast=0
[765000] S1 MEMORY WRITE beat=70 addr=102e4456 data=015303aac092137a id=1f
[765000] AXI S0_WVALID_RDY HANDSHAKE
[765000] S0 MEMORY WRITE beat=70 addr=08c1e3d0 data=dbece745cfe34df3 id=03
[775000] AXI S0_WVALID_RDY HANDSHAKE
[775000] S0 MEMORY WRITE beat=71 addr=08c1e3d4 data=1739e69538c72680 id=03
[775000] S1 MEMORY WRITE beat=71 addr=102e4457 data=b937b752e5574fc2 id=1f
[775000] MASTER 1 W_VALID_RDY Handshake beat=72 wlast=0
[775000] MASTER 0 W_VALID_RDY Handshake beat=72 wlast=0
[785000] MASTER 0 W_VALID_RDY Handshake beat=73 wlast=0
[785000] MASTER 1 W_VALID_RDY Handshake beat=73 wlast=0
[785000] S1 MEMORY WRITE beat=72 addr=102e4458 data=a639b894e9f7741f id=1f
[785000] AXI S0_WVALID_RDY HANDSHAKE
[785000] S0 MEMORY WRITE beat=72 addr=08c1e3d8 data=f976c6d784d995fb id=03
[795000] AXI S0_WVALID_RDY HANDSHAKE
[795000] S0 MEMORY WRITE beat=73 addr=08c1e3dc data=d4bce3ee9fde908e id=03
[795000] S1 MEMORY WRITE beat=73 addr=102e4459 data=aa898799b0ff1398 id=1f
[795000] MASTER 1 W_VALID_RDY Handshake beat=74 wlast=1
[795000] MASTER 0 W_VALID_RDY Handshake beat=74 wlast=0
[805000] MASTER 0 W_VALID_RDY Handshake beat=75 wlast=0
[805000] S1 MEMORY WRITE beat=74 addr=102e445a data=9656635aa78cbc3e id=1f
[805000] AXI S0_WVALID_RDY HANDSHAKE
[805000] S0 MEMORY WRITE beat=74 addr=08c1e3e0 data=d8a5b70ed563ae1c id=03
[815000] AXI S0_WVALID_RDY HANDSHAKE
[815000] S0 MEMORY WRITE beat=75 addr=08c1e3e4 data=da3d4418ebf6ca83 id=03
[815000] SLAVE1 sent B resp, id=15
[815000] [SLAVE MONITOR] mst_id=1 s_id=1 awaddr=102e4410 awid=1111 awlen=74 awsize=0 awburst=1 wdata=[d176210dcd885f98 cead2eb891f64d65 cc67f7b081baac48 cf430be0c5b8c11f d7af0e851dde18bd 9f98c5051df03a99 e3a8fbb824170635 c1f51ef2eedbd0e6 ccc0b7fbb580a3d df6f1072e18de3f7 d069b4ddf0750737 2bcd1175a1642f64 2f2135cdd35c05c cdaac7948b3c21e7 2ca0514cd35bc839 30918896f977d909 84b3faf02f9264a8 82ee2ce1fe3c502a f7b42933b1544c3c e0e6b0e4b37fb577 b1bc05a1fc682423 2dbc7060e3d4ddc6 9754933da9702ed4 25d852f88ea32144 f277ff0ac91098df f280c7b3d394c358 e237e49c09cc9248 d2dd2b2798591aab ebedde03d4afe3a7 de7c75efc55df2da ddb70d86ce25c2a0 22d5a6473159a116 f6b793f0c9a4eb89 97caae2901521c36 32abbd4cd46ea176 1e138d00baa05470 bbf270a6a963513c fdd1f2b3b5de3b29 f07e8f9aee9e2df2 18017f2f1be57fb3 d1c3badcac710040 1b0f2e3315d371e2 31b8f195c2424a76 eeb34ab73310ad62 c8e41f44837cac71 c5bef6e809c278ea 3cd3264cfa9d10d9 fe19bd4a3472419f 3e34ba8905b74590 545669c3d8b432 f84af5d1fb07e0d5 bf2665fe6e13b3 c246c7e6b67fb05a b187912f01137cce ff819081ba91bdb7 f1116e12b246b794 b35a3462c1c85867 fc5a161fa298ff41 d4dfb6d632dbc4e4 f4a41d4bed6b8431 900483728839eb38 bb15b01cf0fe336a de69b79be4e43a48 ed1e25812fb9cd68 a0b800d2ee6e3b0e d3527556a833d59d d7eda305ff21b86e ed8ff37cc0709ad7 e8a47075f8a5a3d8 f7c75c46c0e268d2 15303aac092137a b937b752e5574fc2 a639b894e9f7741f aa898799b0ff1398 9656635aa78cbc3e ] wstrb=[ec 5d ef 84 f7 2d df e3 8b ce 67 82 fb 46 65 86 14 cc 8 10 13 6d 96 27 3a 9f 37 4d c ce 74 46 6d ac 93 79 7a 8 c0 e7 b4 53 60 2e 5b 20 15 f 74 75 3d cf 96 52 df a c8 1c d9 5e 6f b8 68 37 d5 41 95 44 fa fd 7b cf 3e 10 13 ] bresp=0 bid=11111
[815000] MASTER 0 W_VALID_RDY Handshake beat=76 wlast=0
[825000] MASTER 0 W_VALID_RDY Handshake beat=77 wlast=0
[825000] AXI S0_WVALID_RDY HANDSHAKE
[825000] S0 MEMORY WRITE beat=76 addr=08c1e3e8 data=0bd55b12d21c7de5 id=03
[835000] AXI S0_WVALID_RDY HANDSHAKE
[835000] S0 MEMORY WRITE beat=77 addr=08c1e3ec data=27802c02aefa2806 id=03
[835000] MASTER 1 B_VALID_RDY Handshake
[835000] [MASTER MONITOR] mst_id=1 s_id=1 awaddr=102e4410 awid=1111 awlen=74 awsize=0 awburst=1 wdata=[d176210dcd885f98 cead2eb891f64d65 cc67f7b081baac48 cf430be0c5b8c11f d7af0e851dde18bd 9f98c5051df03a99 e3a8fbb824170635 c1f51ef2eedbd0e6 ccc0b7fbb580a3d df6f1072e18de3f7 d069b4ddf0750737 2bcd1175a1642f64 2f2135cdd35c05c cdaac7948b3c21e7 2ca0514cd35bc839 30918896f977d909 84b3faf02f9264a8 82ee2ce1fe3c502a f7b42933b1544c3c e0e6b0e4b37fb577 b1bc05a1fc682423 2dbc7060e3d4ddc6 9754933da9702ed4 25d852f88ea32144 f277ff0ac91098df f280c7b3d394c358 e237e49c09cc9248 d2dd2b2798591aab ebedde03d4afe3a7 de7c75efc55df2da ddb70d86ce25c2a0 22d5a6473159a116 f6b793f0c9a4eb89 97caae2901521c36 32abbd4cd46ea176 1e138d00baa05470 bbf270a6a963513c fdd1f2b3b5de3b29 f07e8f9aee9e2df2 18017f2f1be57fb3 d1c3badcac710040 1b0f2e3315d371e2 31b8f195c2424a76 eeb34ab73310ad62 c8e41f44837cac71 c5bef6e809c278ea 3cd3264cfa9d10d9 fe19bd4a3472419f 3e34ba8905b74590 545669c3d8b432 f84af5d1fb07e0d5 bf2665fe6e13b3 c246c7e6b67fb05a b187912f01137cce ff819081ba91bdb7 f1116e12b246b794 b35a3462c1c85867 fc5a161fa298ff41 d4dfb6d632dbc4e4 f4a41d4bed6b8431 900483728839eb38 bb15b01cf0fe336a de69b79be4e43a48 ed1e25812fb9cd68 a0b800d2ee6e3b0e d3527556a833d59d d7eda305ff21b86e ed8ff37cc0709ad7 e8a47075f8a5a3d8 f7c75c46c0e268d2 15303aac092137a b937b752e5574fc2 a639b894e9f7741f aa898799b0ff1398 9656635aa78cbc3e ] wstrb=[ec 5d ef 84 f7 2d df e3 8b ce 67 82 fb 46 65 86 14 cc 8 10 13 6d 96 27 3a 9f 37 4d c ce 74 46 6d ac 93 79 7a 8 c0 e7 b4 53 60 2e 5b 20 15 f 74 75 3d cf 96 52 df a c8 1c d9 5e 6f b8 68 37 d5 41 95 44 fa fd 7b cf 3e 10 13 ] bresp=0 bid=1111
[835000] MASTER 0 W_VALID_RDY Handshake beat=78 wlast=0
[835000] MASTER 1 RECEIVED BRESP. BRESP=0
[835000] [MASTER DRIVER] mst_id=1 s_id=0 awaddr=102e4410 awid=1111 awlen=74 awsize=0 awburst=1 wdata=[d176210dcd885f98 cead2eb891f64d65 cc67f7b081baac48 cf430be0c5b8c11f d7af0e851dde18bd 9f98c5051df03a99 e3a8fbb824170635 c1f51ef2eedbd0e6 ccc0b7fbb580a3d df6f1072e18de3f7 d069b4ddf0750737 2bcd1175a1642f64 2f2135cdd35c05c cdaac7948b3c21e7 2ca0514cd35bc839 30918896f977d909 84b3faf02f9264a8 82ee2ce1fe3c502a f7b42933b1544c3c e0e6b0e4b37fb577 b1bc05a1fc682423 2dbc7060e3d4ddc6 9754933da9702ed4 25d852f88ea32144 f277ff0ac91098df f280c7b3d394c358 e237e49c09cc9248 d2dd2b2798591aab ebedde03d4afe3a7 de7c75efc55df2da ddb70d86ce25c2a0 22d5a6473159a116 f6b793f0c9a4eb89 97caae2901521c36 32abbd4cd46ea176 1e138d00baa05470 bbf270a6a963513c fdd1f2b3b5de3b29 f07e8f9aee9e2df2 18017f2f1be57fb3 d1c3badcac710040 1b0f2e3315d371e2 31b8f195c2424a76 eeb34ab73310ad62 c8e41f44837cac71 c5bef6e809c278ea 3cd3264cfa9d10d9 fe19bd4a3472419f 3e34ba8905b74590 545669c3d8b432 f84af5d1fb07e0d5 bf2665fe6e13b3 c246c7e6b67fb05a b187912f01137cce ff819081ba91bdb7 f1116e12b246b794 b35a3462c1c85867 fc5a161fa298ff41 d4dfb6d632dbc4e4 f4a41d4bed6b8431 900483728839eb38 bb15b01cf0fe336a de69b79be4e43a48 ed1e25812fb9cd68 a0b800d2ee6e3b0e d3527556a833d59d d7eda305ff21b86e ed8ff37cc0709ad7 e8a47075f8a5a3d8 f7c75c46c0e268d2 15303aac092137a b937b752e5574fc2 a639b894e9f7741f aa898799b0ff1398 9656635aa78cbc3e ] wstrb=[ec 5d ef 84 f7 2d df e3 8b ce 67 82 fb 46 65 86 14 cc 8 10 13 6d 96 27 3a 9f 37 4d c ce 74 46 6d ac 93 79 7a 8 c0 e7 b4 53 60 2e 5b 20 15 f 74 75 3d cf 96 52 df a c8 1c d9 5e 6f b8 68 37 d5 41 95 44 fa fd 7b cf 3e 10 13 ] bresp=0 bid=1111
[835000] SCOREBOARD MATCH: decode_err expected = 0, actual =0
[835000] SCOREBOARD MATCH: slave_id expected = 1, actual =1
[835000] SCOREBOARD MATCH: awaddr passthrough expected = 102e4410, actual =102e4410
[835000] SCOREBOARD MATCH: awlen passthrough expected = 74, actual =74
[835000] SCOREBOARD MATCH: awsize passthrough expected = 0, actual =0
[835000] SCOREBOARD MATCH: awburst passthrough expected = 1, actual =1
[835000] SCOREBOARD MATCH: wdata size check expected = 4b, actual =4b
[835000] SCOREBOARD MATCH: wdata passthrough beat=0 expected = d176210dcd885f98, actual =d176210dcd885f98
[835000] SCOREBOARD MATCH: wdata passthrough beat=1 expected = cead2eb891f64d65, actual =cead2eb891f64d65
[835000] SCOREBOARD MATCH: wdata passthrough beat=2 expected = cc67f7b081baac48, actual =cc67f7b081baac48
[835000] SCOREBOARD MATCH: wdata passthrough beat=3 expected = cf430be0c5b8c11f, actual =cf430be0c5b8c11f
[835000] SCOREBOARD MATCH: wdata passthrough beat=4 expected = d7af0e851dde18bd, actual =d7af0e851dde18bd
[835000] SCOREBOARD MATCH: wdata passthrough beat=5 expected = 9f98c5051df03a99, actual =9f98c5051df03a99
[835000] SCOREBOARD MATCH: wdata passthrough beat=6 expected = e3a8fbb824170635, actual =e3a8fbb824170635
[835000] SCOREBOARD MATCH: wdata passthrough beat=7 expected = c1f51ef2eedbd0e6, actual =c1f51ef2eedbd0e6
[835000] SCOREBOARD MATCH: wdata passthrough beat=8 expected = ccc0b7fbb580a3d, actual =ccc0b7fbb580a3d
[835000] SCOREBOARD MATCH: wdata passthrough beat=9 expected = df6f1072e18de3f7, actual =df6f1072e18de3f7
[835000] SCOREBOARD MATCH: wdata passthrough beat=10 expected = d069b4ddf0750737, actual =d069b4ddf0750737
[835000] SCOREBOARD MATCH: wdata passthrough beat=11 expected = 2bcd1175a1642f64, actual =2bcd1175a1642f64
[835000] SCOREBOARD MATCH: wdata passthrough beat=12 expected = 2f2135cdd35c05c, actual =2f2135cdd35c05c
[835000] SCOREBOARD MATCH: wdata passthrough beat=13 expected = cdaac7948b3c21e7, actual =cdaac7948b3c21e7
[835000] SCOREBOARD MATCH: wdata passthrough beat=14 expected = 2ca0514cd35bc839, actual =2ca0514cd35bc839
[835000] SCOREBOARD MATCH: wdata passthrough beat=15 expected = 30918896f977d909, actual =30918896f977d909
[835000] SCOREBOARD MATCH: wdata passthrough beat=16 expected = 84b3faf02f9264a8, actual =84b3faf02f9264a8
[835000] SCOREBOARD MATCH: wdata passthrough beat=17 expected = 82ee2ce1fe3c502a, actual =82ee2ce1fe3c502a
[835000] SCOREBOARD MATCH: wdata passthrough beat=18 expected = f7b42933b1544c3c, actual =f7b42933b1544c3c
[835000] SCOREBOARD MATCH: wdata passthrough beat=19 expected = e0e6b0e4b37fb577, actual =e0e6b0e4b37fb577
[835000] SCOREBOARD MATCH: wdata passthrough beat=20 expected = b1bc05a1fc682423, actual =b1bc05a1fc682423
[835000] SCOREBOARD MATCH: wdata passthrough beat=21 expected = 2dbc7060e3d4ddc6, actual =2dbc7060e3d4ddc6
[835000] SCOREBOARD MATCH: wdata passthrough beat=22 expected = 9754933da9702ed4, actual =9754933da9702ed4
[835000] SCOREBOARD MATCH: wdata passthrough beat=23 expected = 25d852f88ea32144, actual =25d852f88ea32144
[835000] SCOREBOARD MATCH: wdata passthrough beat=24 expected = f277ff0ac91098df, actual =f277ff0ac91098df
[835000] SCOREBOARD MATCH: wdata passthrough beat=25 expected = f280c7b3d394c358, actual =f280c7b3d394c358
[835000] SCOREBOARD MATCH: wdata passthrough beat=26 expected = e237e49c09cc9248, actual =e237e49c09cc9248
[835000] SCOREBOARD MATCH: wdata passthrough beat=27 expected = d2dd2b2798591aab, actual =d2dd2b2798591aab
[835000] SCOREBOARD MATCH: wdata passthrough beat=28 expected = ebedde03d4afe3a7, actual =ebedde03d4afe3a7
[835000] SCOREBOARD MATCH: wdata passthrough beat=29 expected = de7c75efc55df2da, actual =de7c75efc55df2da
[835000] SCOREBOARD MATCH: wdata passthrough beat=30 expected = ddb70d86ce25c2a0, actual =ddb70d86ce25c2a0
[835000] SCOREBOARD MATCH: wdata passthrough beat=31 expected = 22d5a6473159a116, actual =22d5a6473159a116
[835000] SCOREBOARD MATCH: wdata passthrough beat=32 expected = f6b793f0c9a4eb89, actual =f6b793f0c9a4eb89
[835000] SCOREBOARD MATCH: wdata passthrough beat=33 expected = 97caae2901521c36, actual =97caae2901521c36
[835000] SCOREBOARD MATCH: wdata passthrough beat=34 expected = 32abbd4cd46ea176, actual =32abbd4cd46ea176
[835000] SCOREBOARD MATCH: wdata passthrough beat=35 expected = 1e138d00baa05470, actual =1e138d00baa05470
[835000] SCOREBOARD MATCH: wdata passthrough beat=36 expected = bbf270a6a963513c, actual =bbf270a6a963513c
[835000] SCOREBOARD MATCH: wdata passthrough beat=37 expected = fdd1f2b3b5de3b29, actual =fdd1f2b3b5de3b29
[835000] SCOREBOARD MATCH: wdata passthrough beat=38 expected = f07e8f9aee9e2df2, actual =f07e8f9aee9e2df2
[835000] SCOREBOARD MATCH: wdata passthrough beat=39 expected = 18017f2f1be57fb3, actual =18017f2f1be57fb3
[835000] SCOREBOARD MATCH: wdata passthrough beat=40 expected = d1c3badcac710040, actual =d1c3badcac710040
[835000] SCOREBOARD MATCH: wdata passthrough beat=41 expected = 1b0f2e3315d371e2, actual =1b0f2e3315d371e2
[835000] SCOREBOARD MATCH: wdata passthrough beat=42 expected = 31b8f195c2424a76, actual =31b8f195c2424a76
[835000] SCOREBOARD MATCH: wdata passthrough beat=43 expected = eeb34ab73310ad62, actual =eeb34ab73310ad62
[835000] SCOREBOARD MATCH: wdata passthrough beat=44 expected = c8e41f44837cac71, actual =c8e41f44837cac71
[835000] SCOREBOARD MATCH: wdata passthrough beat=45 expected = c5bef6e809c278ea, actual =c5bef6e809c278ea
[835000] SCOREBOARD MATCH: wdata passthrough beat=46 expected = 3cd3264cfa9d10d9, actual =3cd3264cfa9d10d9
[835000] SCOREBOARD MATCH: wdata passthrough beat=47 expected = fe19bd4a3472419f, actual =fe19bd4a3472419f
[835000] SCOREBOARD MATCH: wdata passthrough beat=48 expected = 3e34ba8905b74590, actual =3e34ba8905b74590
[835000] SCOREBOARD MATCH: wdata passthrough beat=49 expected = 545669c3d8b432, actual =545669c3d8b432
[835000] SCOREBOARD MATCH: wdata passthrough beat=50 expected = f84af5d1fb07e0d5, actual =f84af5d1fb07e0d5
[835000] SCOREBOARD MATCH: wdata passthrough beat=51 expected = bf2665fe6e13b3, actual =bf2665fe6e13b3
[835000] SCOREBOARD MATCH: wdata passthrough beat=52 expected = c246c7e6b67fb05a, actual =c246c7e6b67fb05a
[835000] SCOREBOARD MATCH: wdata passthrough beat=53 expected = b187912f01137cce, actual =b187912f01137cce
[835000] SCOREBOARD MATCH: wdata passthrough beat=54 expected = ff819081ba91bdb7, actual =ff819081ba91bdb7
[835000] SCOREBOARD MATCH: wdata passthrough beat=55 expected = f1116e12b246b794, actual =f1116e12b246b794
[835000] SCOREBOARD MATCH: wdata passthrough beat=56 expected = b35a3462c1c85867, actual =b35a3462c1c85867
[835000] SCOREBOARD MATCH: wdata passthrough beat=57 expected = fc5a161fa298ff41, actual =fc5a161fa298ff41
[835000] SCOREBOARD MATCH: wdata passthrough beat=58 expected = d4dfb6d632dbc4e4, actual =d4dfb6d632dbc4e4
[835000] SCOREBOARD MATCH: wdata passthrough beat=59 expected = f4a41d4bed6b8431, actual =f4a41d4bed6b8431
[835000] SCOREBOARD MATCH: wdata passthrough beat=60 expected = 900483728839eb38, actual =900483728839eb38
[835000] SCOREBOARD MATCH: wdata passthrough beat=61 expected = bb15b01cf0fe336a, actual =bb15b01cf0fe336a
[835000] SCOREBOARD MATCH: wdata passthrough beat=62 expected = de69b79be4e43a48, actual =de69b79be4e43a48
[835000] SCOREBOARD MATCH: wdata passthrough beat=63 expected = ed1e25812fb9cd68, actual =ed1e25812fb9cd68
[835000] SCOREBOARD MATCH: wdata passthrough beat=64 expected = a0b800d2ee6e3b0e, actual =a0b800d2ee6e3b0e
[835000] SCOREBOARD MATCH: wdata passthrough beat=65 expected = d3527556a833d59d, actual =d3527556a833d59d
[835000] SCOREBOARD MATCH: wdata passthrough beat=66 expected = d7eda305ff21b86e, actual =d7eda305ff21b86e
[835000] SCOREBOARD MATCH: wdata passthrough beat=67 expected = ed8ff37cc0709ad7, actual =ed8ff37cc0709ad7
[835000] SCOREBOARD MATCH: wdata passthrough beat=68 expected = e8a47075f8a5a3d8, actual =e8a47075f8a5a3d8
[835000] SCOREBOARD MATCH: wdata passthrough beat=69 expected = f7c75c46c0e268d2, actual =f7c75c46c0e268d2
[835000] SCOREBOARD MATCH: wdata passthrough beat=70 expected = 15303aac092137a, actual =15303aac092137a
[835000] SCOREBOARD MATCH: wdata passthrough beat=71 expected = b937b752e5574fc2, actual =b937b752e5574fc2
[835000] SCOREBOARD MATCH: wdata passthrough beat=72 expected = a639b894e9f7741f, actual =a639b894e9f7741f
[835000] SCOREBOARD MATCH: wdata passthrough beat=73 expected = aa898799b0ff1398, actual =aa898799b0ff1398
[835000] SCOREBOARD MATCH: wdata passthrough beat=74 expected = 9656635aa78cbc3e, actual =9656635aa78cbc3e
[835000] SCOREBOARD MATCH: wstrb size check expected = 4b, actual =4b
[835000] SCOREBOARD MATCH: wstrb passthrough beat=0 expected = ec, actual =ec
[835000] SCOREBOARD MATCH: wstrb passthrough beat=1 expected = 5d, actual =5d
[835000] SCOREBOARD MATCH: wstrb passthrough beat=2 expected = ef, actual =ef
[835000] SCOREBOARD MATCH: wstrb passthrough beat=3 expected = 84, actual =84
[835000] SCOREBOARD MATCH: wstrb passthrough beat=4 expected = f7, actual =f7
[835000] SCOREBOARD MATCH: wstrb passthrough beat=5 expected = 2d, actual =2d
[835000] SCOREBOARD MATCH: wstrb passthrough beat=6 expected = df, actual =df
[835000] SCOREBOARD MATCH: wstrb passthrough beat=7 expected = e3, actual =e3
[835000] SCOREBOARD MATCH: wstrb passthrough beat=8 expected = 8b, actual =8b
[835000] SCOREBOARD MATCH: wstrb passthrough beat=9 expected = ce, actual =ce
[835000] SCOREBOARD MATCH: wstrb passthrough beat=10 expected = 67, actual =67
[835000] SCOREBOARD MATCH: wstrb passthrough beat=11 expected = 82, actual =82
[835000] SCOREBOARD MATCH: wstrb passthrough beat=12 expected = fb, actual =fb
[835000] SCOREBOARD MATCH: wstrb passthrough beat=13 expected = 46, actual =46
[835000] SCOREBOARD MATCH: wstrb passthrough beat=14 expected = 65, actual =65
[835000] SCOREBOARD MATCH: wstrb passthrough beat=15 expected = 86, actual =86
[835000] SCOREBOARD MATCH: wstrb passthrough beat=16 expected = 14, actual =14
[835000] SCOREBOARD MATCH: wstrb passthrough beat=17 expected = cc, actual =cc
[835000] SCOREBOARD MATCH: wstrb passthrough beat=18 expected = 8, actual =8
[835000] SCOREBOARD MATCH: wstrb passthrough beat=19 expected = 10, actual =10
[835000] SCOREBOARD MATCH: wstrb passthrough beat=20 expected = 13, actual =13
[835000] SCOREBOARD MATCH: wstrb passthrough beat=21 expected = 6d, actual =6d
[835000] SCOREBOARD MATCH: wstrb passthrough beat=22 expected = 96, actual =96
[835000] SCOREBOARD MATCH: wstrb passthrough beat=23 expected = 27, actual =27
[835000] SCOREBOARD MATCH: wstrb passthrough beat=24 expected = 3a, actual =3a
[835000] SCOREBOARD MATCH: wstrb passthrough beat=25 expected = 9f, actual =9f
[835000] SCOREBOARD MATCH: wstrb passthrough beat=26 expected = 37, actual =37
[835000] SCOREBOARD MATCH: wstrb passthrough beat=27 expected = 4d, actual =4d
[835000] SCOREBOARD MATCH: wstrb passthrough beat=28 expected = c, actual =c
[835000] SCOREBOARD MATCH: wstrb passthrough beat=29 expected = ce, actual =ce
[835000] SCOREBOARD MATCH: wstrb passthrough beat=30 expected = 74, actual =74
[835000] SCOREBOARD MATCH: wstrb passthrough beat=31 expected = 46, actual =46
[835000] SCOREBOARD MATCH: wstrb passthrough beat=32 expected = 6d, actual =6d
[835000] SCOREBOARD MATCH: wstrb passthrough beat=33 expected = ac, actual =ac
[835000] SCOREBOARD MATCH: wstrb passthrough beat=34 expected = 93, actual =93
[835000] SCOREBOARD MATCH: wstrb passthrough beat=35 expected = 79, actual =79
[835000] SCOREBOARD MATCH: wstrb passthrough beat=36 expected = 7a, actual =7a
[835000] SCOREBOARD MATCH: wstrb passthrough beat=37 expected = 8, actual =8
[835000] SCOREBOARD MATCH: wstrb passthrough beat=38 expected = c0, actual =c0
[835000] SCOREBOARD MATCH: wstrb passthrough beat=39 expected = e7, actual =e7
[835000] SCOREBOARD MATCH: wstrb passthrough beat=40 expected = b4, actual =b4
[835000] SCOREBOARD MATCH: wstrb passthrough beat=41 expected = 53, actual =53
[835000] SCOREBOARD MATCH: wstrb passthrough beat=42 expected = 60, actual =60
[835000] SCOREBOARD MATCH: wstrb passthrough beat=43 expected = 2e, actual =2e
[835000] SCOREBOARD MATCH: wstrb passthrough beat=44 expected = 5b, actual =5b
[835000] SCOREBOARD MATCH: wstrb passthrough beat=45 expected = 20, actual =20
[835000] SCOREBOARD MATCH: wstrb passthrough beat=46 expected = 15, actual =15
[835000] SCOREBOARD MATCH: wstrb passthrough beat=47 expected = f, actual =f
[835000] SCOREBOARD MATCH: wstrb passthrough beat=48 expected = 74, actual =74
[835000] SCOREBOARD MATCH: wstrb passthrough beat=49 expected = 75, actual =75
[835000] SCOREBOARD MATCH: wstrb passthrough beat=50 expected = 3d, actual =3d
[835000] SCOREBOARD MATCH: wstrb passthrough beat=51 expected = cf, actual =cf
[835000] SCOREBOARD MATCH: wstrb passthrough beat=52 expected = 96, actual =96
[835000] SCOREBOARD MATCH: wstrb passthrough beat=53 expected = 52, actual =52
[835000] SCOREBOARD MATCH: wstrb passthrough beat=54 expected = df, actual =df
[835000] SCOREBOARD MATCH: wstrb passthrough beat=55 expected = a, actual =a
[835000] SCOREBOARD MATCH: wstrb passthrough beat=56 expected = c8, actual =c8
[835000] SCOREBOARD MATCH: wstrb passthrough beat=57 expected = 1c, actual =1c
[835000] SCOREBOARD MATCH: wstrb passthrough beat=58 expected = d9, actual =d9
[835000] SCOREBOARD MATCH: wstrb passthrough beat=59 expected = 5e, actual =5e
[835000] SCOREBOARD MATCH: wstrb passthrough beat=60 expected = 6f, actual =6f
[835000] SCOREBOARD MATCH: wstrb passthrough beat=61 expected = b8, actual =b8
[835000] SCOREBOARD MATCH: wstrb passthrough beat=62 expected = 68, actual =68
[835000] SCOREBOARD MATCH: wstrb passthrough beat=63 expected = 37, actual =37
[835000] SCOREBOARD MATCH: wstrb passthrough beat=64 expected = d5, actual =d5
[835000] SCOREBOARD MATCH: wstrb passthrough beat=65 expected = 41, actual =41
[835000] SCOREBOARD MATCH: wstrb passthrough beat=66 expected = 95, actual =95
[835000] SCOREBOARD MATCH: wstrb passthrough beat=67 expected = 44, actual =44
[835000] SCOREBOARD MATCH: wstrb passthrough beat=68 expected = fa, actual =fa
[835000] SCOREBOARD MATCH: wstrb passthrough beat=69 expected = fd, actual =fd
[835000] SCOREBOARD MATCH: wstrb passthrough beat=70 expected = 7b, actual =7b
[835000] SCOREBOARD MATCH: wstrb passthrough beat=71 expected = cf, actual =cf
[835000] SCOREBOARD MATCH: wstrb passthrough beat=72 expected = 3e, actual =3e
[835000] SCOREBOARD MATCH: wstrb passthrough beat=73 expected = 10, actual =10
[835000] SCOREBOARD MATCH: wstrb passthrough beat=74 expected = 13, actual =13
[835000] SCOREBOARD MATCH: bresp passthrough expected = 0, actual =0
[835000] SCOREBOARD MATCH: response routed to correct master (write) expected = 1, actual =1
[835000] [SCOREBOARD-M] mst_id=1 s_id=1 awaddr=102e4410 awid=1111 awlen=74 awsize=0 awburst=1 wdata=[d176210dcd885f98 cead2eb891f64d65 cc67f7b081baac48 cf430be0c5b8c11f d7af0e851dde18bd 9f98c5051df03a99 e3a8fbb824170635 c1f51ef2eedbd0e6 ccc0b7fbb580a3d df6f1072e18de3f7 d069b4ddf0750737 2bcd1175a1642f64 2f2135cdd35c05c cdaac7948b3c21e7 2ca0514cd35bc839 30918896f977d909 84b3faf02f9264a8 82ee2ce1fe3c502a f7b42933b1544c3c e0e6b0e4b37fb577 b1bc05a1fc682423 2dbc7060e3d4ddc6 9754933da9702ed4 25d852f88ea32144 f277ff0ac91098df f280c7b3d394c358 e237e49c09cc9248 d2dd2b2798591aab ebedde03d4afe3a7 de7c75efc55df2da ddb70d86ce25c2a0 22d5a6473159a116 f6b793f0c9a4eb89 97caae2901521c36 32abbd4cd46ea176 1e138d00baa05470 bbf270a6a963513c fdd1f2b3b5de3b29 f07e8f9aee9e2df2 18017f2f1be57fb3 d1c3badcac710040 1b0f2e3315d371e2 31b8f195c2424a76 eeb34ab73310ad62 c8e41f44837cac71 c5bef6e809c278ea 3cd3264cfa9d10d9 fe19bd4a3472419f 3e34ba8905b74590 545669c3d8b432 f84af5d1fb07e0d5 bf2665fe6e13b3 c246c7e6b67fb05a b187912f01137cce ff819081ba91bdb7 f1116e12b246b794 b35a3462c1c85867 fc5a161fa298ff41 d4dfb6d632dbc4e4 f4a41d4bed6b8431 900483728839eb38 bb15b01cf0fe336a de69b79be4e43a48 ed1e25812fb9cd68 a0b800d2ee6e3b0e d3527556a833d59d d7eda305ff21b86e ed8ff37cc0709ad7 e8a47075f8a5a3d8 f7c75c46c0e268d2 15303aac092137a b937b752e5574fc2 a639b894e9f7741f aa898799b0ff1398 9656635aa78cbc3e ] wstrb=[ec 5d ef 84 f7 2d df e3 8b ce 67 82 fb 46 65 86 14 cc 8 10 13 6d 96 27 3a 9f 37 4d c ce 74 46 6d ac 93 79 7a 8 c0 e7 b4 53 60 2e 5b 20 15 f 74 75 3d cf 96 52 df a c8 1c d9 5e 6f b8 68 37 d5 41 95 44 fa fd 7b cf 3e 10 13 ] bresp=0 bid=1111
[835000] [SCOREBOARD-S] mst_id=1 s_id=1 awaddr=102e4410 awid=1111 awlen=74 awsize=0 awburst=1 wdata=[d176210dcd885f98 cead2eb891f64d65 cc67f7b081baac48 cf430be0c5b8c11f d7af0e851dde18bd 9f98c5051df03a99 e3a8fbb824170635 c1f51ef2eedbd0e6 ccc0b7fbb580a3d df6f1072e18de3f7 d069b4ddf0750737 2bcd1175a1642f64 2f2135cdd35c05c cdaac7948b3c21e7 2ca0514cd35bc839 30918896f977d909 84b3faf02f9264a8 82ee2ce1fe3c502a f7b42933b1544c3c e0e6b0e4b37fb577 b1bc05a1fc682423 2dbc7060e3d4ddc6 9754933da9702ed4 25d852f88ea32144 f277ff0ac91098df f280c7b3d394c358 e237e49c09cc9248 d2dd2b2798591aab ebedde03d4afe3a7 de7c75efc55df2da ddb70d86ce25c2a0 22d5a6473159a116 f6b793f0c9a4eb89 97caae2901521c36 32abbd4cd46ea176 1e138d00baa05470 bbf270a6a963513c fdd1f2b3b5de3b29 f07e8f9aee9e2df2 18017f2f1be57fb3 d1c3badcac710040 1b0f2e3315d371e2 31b8f195c2424a76 eeb34ab73310ad62 c8e41f44837cac71 c5bef6e809c278ea 3cd3264cfa9d10d9 fe19bd4a3472419f 3e34ba8905b74590 545669c3d8b432 f84af5d1fb07e0d5 bf2665fe6e13b3 c246c7e6b67fb05a b187912f01137cce ff819081ba91bdb7 f1116e12b246b794 b35a3462c1c85867 fc5a161fa298ff41 d4dfb6d632dbc4e4 f4a41d4bed6b8431 900483728839eb38 bb15b01cf0fe336a de69b79be4e43a48 ed1e25812fb9cd68 a0b800d2ee6e3b0e d3527556a833d59d d7eda305ff21b86e ed8ff37cc0709ad7 e8a47075f8a5a3d8 f7c75c46c0e268d2 15303aac092137a b937b752e5574fc2 a639b894e9f7741f aa898799b0ff1398 9656635aa78cbc3e ] wstrb=[ec 5d ef 84 f7 2d df e3 8b ce 67 82 fb 46 65 86 14 cc 8 10 13 6d 96 27 3a 9f 37 4d c ce 74 46 6d ac 93 79 7a 8 c0 e7 b4 53 60 2e 5b 20 15 f 74 75 3d cf 96 52 df a c8 1c d9 5e 6f b8 68 37 d5 41 95 44 fa fd 7b cf 3e 10 13 ] bresp=0 bid=11111
[835000] SCOREBOARD: Transaction 1 received. pass=160 fail=0
[835000] ALL PASS. Total transactions: 1
[845000] MASTER 0 W_VALID_RDY Handshake beat=79 wlast=0
[845000] AXI S0_WVALID_RDY HANDSHAKE
[845000] S0 MEMORY WRITE beat=78 addr=08c1e3f0 data=1af0f28ae47b1220 id=03
[855000] AXI S0_WVALID_RDY HANDSHAKE
[855000] S0 MEMORY WRITE beat=79 addr=08c1e3f4 data=3697900601bd701a id=03
[855000] MASTER 0 W_VALID_RDY Handshake beat=80 wlast=0
[865000] MASTER 0 W_VALID_RDY Handshake beat=81 wlast=0
[865000] AXI S0_WVALID_RDY HANDSHAKE
[865000] S0 MEMORY WRITE beat=80 addr=08c1e3f8 data=b0b7982026c64d9c id=03
[875000] AXI S0_WVALID_RDY HANDSHAKE
[875000] S0 MEMORY WRITE beat=81 addr=08c1e3fc data=8b415fbcde17bc08 id=03
[875000] MASTER 0 W_VALID_RDY Handshake beat=82 wlast=0
[885000] MASTER 0 W_VALID_RDY Handshake beat=83 wlast=0
[885000] AXI S0_WVALID_RDY HANDSHAKE
[885000] S0 MEMORY WRITE beat=82 addr=08c1e400 data=dfd52c22cba88aaa id=03
[895000] AXI S0_WVALID_RDY HANDSHAKE
[895000] S0 MEMORY WRITE beat=83 addr=08c1e404 data=f26ed846c1d8efc2 id=03
[895000] MASTER 0 W_VALID_RDY Handshake beat=84 wlast=0
[905000] MASTER 0 W_VALID_RDY Handshake beat=85 wlast=0
[905000] AXI S0_WVALID_RDY HANDSHAKE
[905000] S0 MEMORY WRITE beat=84 addr=08c1e408 data=9ff0abca908cc442 id=03
[915000] AXI S0_WVALID_RDY HANDSHAKE
[915000] S0 MEMORY WRITE beat=85 addr=08c1e40c data=dc354eedfdb03803 id=03
[915000] MASTER 0 W_VALID_RDY Handshake beat=86 wlast=0
[925000] MASTER 0 W_VALID_RDY Handshake beat=87 wlast=0
[925000] AXI S0_WVALID_RDY HANDSHAKE
[925000] S0 MEMORY WRITE beat=86 addr=08c1e410 data=bf8927c5ffc5d7ec id=03
[935000] AXI S0_WVALID_RDY HANDSHAKE
[935000] S0 MEMORY WRITE beat=87 addr=08c1e414 data=10529c2fcea42733 id=03
[935000] MASTER 0 W_VALID_RDY Handshake beat=88 wlast=0
[945000] MASTER 0 W_VALID_RDY Handshake beat=89 wlast=0
[945000] AXI S0_WVALID_RDY HANDSHAKE
[945000] S0 MEMORY WRITE beat=88 addr=08c1e418 data=cc545f36df79d390 id=03
[955000] AXI S0_WVALID_RDY HANDSHAKE
[955000] S0 MEMORY WRITE beat=89 addr=08c1e41c data=df3fab7cec87eb1c id=03
[955000] MASTER 0 W_VALID_RDY Handshake beat=90 wlast=0
[965000] MASTER 0 W_VALID_RDY Handshake beat=91 wlast=0
[965000] AXI S0_WVALID_RDY HANDSHAKE
[965000] S0 MEMORY WRITE beat=90 addr=08c1e420 data=bb2c124f0bdd86fc id=03
[975000] AXI S0_WVALID_RDY HANDSHAKE
[975000] S0 MEMORY WRITE beat=91 addr=08c1e424 data=eb575a8cef9247ab id=03
[975000] MASTER 0 W_VALID_RDY Handshake beat=92 wlast=0
[985000] MASTER 0 W_VALID_RDY Handshake beat=93 wlast=0
[985000] AXI S0_WVALID_RDY HANDSHAKE
[985000] S0 MEMORY WRITE beat=92 addr=08c1e428 data=dc1a32c707807186 id=03
[995000] AXI S0_WVALID_RDY HANDSHAKE
[995000] S0 MEMORY WRITE beat=93 addr=08c1e42c data=135df882ca970608 id=03
[995000] MASTER 0 W_VALID_RDY Handshake beat=94 wlast=0
[1005000] MASTER 0 W_VALID_RDY Handshake beat=95 wlast=0
[1005000] AXI S0_WVALID_RDY HANDSHAKE
[1005000] S0 MEMORY WRITE beat=94 addr=08c1e430 data=3a294db417464517 id=03
[1015000] AXI S0_WVALID_RDY HANDSHAKE
[1015000] S0 MEMORY WRITE beat=95 addr=08c1e434 data=1ec6b69dfeb5530e id=03
[1015000] MASTER 0 W_VALID_RDY Handshake beat=96 wlast=0
[1025000] MASTER 0 W_VALID_RDY Handshake beat=97 wlast=0
[1025000] AXI S0_WVALID_RDY HANDSHAKE
[1025000] S0 MEMORY WRITE beat=96 addr=08c1e438 data=c94c59169643807b id=03
[1035000] AXI S0_WVALID_RDY HANDSHAKE
[1035000] S0 MEMORY WRITE beat=97 addr=08c1e43c data=ad89c5923224af1f id=03
[1035000] MASTER 0 W_VALID_RDY Handshake beat=98 wlast=0
[1045000] MASTER 0 W_VALID_RDY Handshake beat=99 wlast=0
[1045000] AXI S0_WVALID_RDY HANDSHAKE
[1045000] S0 MEMORY WRITE beat=98 addr=08c1e440 data=30da022d8375a6ca id=03
[1055000] AXI S0_WVALID_RDY HANDSHAKE
[1055000] S0 MEMORY WRITE beat=99 addr=08c1e444 data=19b92746cc507c2f id=03
[1055000] MASTER 0 W_VALID_RDY Handshake beat=100 wlast=0
[1065000] MASTER 0 W_VALID_RDY Handshake beat=101 wlast=0
[1065000] AXI S0_WVALID_RDY HANDSHAKE
[1065000] S0 MEMORY WRITE beat=100 addr=08c1e448 data=fe752b4efa265b43 id=03
[1075000] AXI S0_WVALID_RDY HANDSHAKE
[1075000] S0 MEMORY WRITE beat=101 addr=08c1e44c data=fd9c020ec742ecd8 id=03
[1075000] MASTER 0 W_VALID_RDY Handshake beat=102 wlast=0
[1085000] MASTER 0 W_VALID_RDY Handshake beat=103 wlast=0
[1085000] AXI S0_WVALID_RDY HANDSHAKE
[1085000] S0 MEMORY WRITE beat=102 addr=08c1e450 data=13936908af4f2d7b id=03
[1095000] AXI S0_WVALID_RDY HANDSHAKE
[1095000] S0 MEMORY WRITE beat=103 addr=08c1e454 data=297588bf17552954 id=03
[1095000] MASTER 0 W_VALID_RDY Handshake beat=104 wlast=0
[1105000] MASTER 0 W_VALID_RDY Handshake beat=105 wlast=0
[1105000] AXI S0_WVALID_RDY HANDSHAKE
[1105000] S0 MEMORY WRITE beat=104 addr=08c1e458 data=de98162c92089456 id=03
[1115000] AXI S0_WVALID_RDY HANDSHAKE
[1115000] S0 MEMORY WRITE beat=105 addr=08c1e45c data=c157c1d227118acd id=03
[1115000] MASTER 0 W_VALID_RDY Handshake beat=106 wlast=0
[1125000] MASTER 0 W_VALID_RDY Handshake beat=107 wlast=0
[1125000] AXI S0_WVALID_RDY HANDSHAKE
[1125000] S0 MEMORY WRITE beat=106 addr=08c1e460 data=3e66b421f22b7f34 id=03
[1135000] AXI S0_WVALID_RDY HANDSHAKE
[1135000] S0 MEMORY WRITE beat=107 addr=08c1e464 data=0434138beacd4a91 id=03
[1135000] MASTER 0 W_VALID_RDY Handshake beat=108 wlast=0
[1145000] MASTER 0 W_VALID_RDY Handshake beat=109 wlast=0
[1145000] AXI S0_WVALID_RDY HANDSHAKE
[1145000] S0 MEMORY WRITE beat=108 addr=08c1e468 data=11ded55e9cfeca4d id=03
[1155000] AXI S0_WVALID_RDY HANDSHAKE
[1155000] S0 MEMORY WRITE beat=109 addr=08c1e46c data=0f2a4982c58bd55d id=03
[1155000] MASTER 0 W_VALID_RDY Handshake beat=110 wlast=0
[1165000] MASTER 0 W_VALID_RDY Handshake beat=111 wlast=0
[1165000] AXI S0_WVALID_RDY HANDSHAKE
[1165000] S0 MEMORY WRITE beat=110 addr=08c1e470 data=30591feed045897f id=03
[1175000] AXI S0_WVALID_RDY HANDSHAKE
[1175000] S0 MEMORY WRITE beat=111 addr=08c1e474 data=ed4453cc135e5d0d id=03
[1175000] MASTER 0 W_VALID_RDY Handshake beat=112 wlast=1
[1175000] MASTER_DRIVER0 received transaction, op=AXI_READ
[1185000] AXI S0_WVALID_RDY HANDSHAKE
[1185000] S0 MEMORY WRITE beat=112 addr=08c1e478 data=d8ea326ac237f54c id=03
[1195000] SLAVE0 sent B resp, id=3
[1195000] [SLAVE MONITOR] mst_id=0 s_id=0 awaddr=8c1e2b8 awid=11 awlen=112 awsize=2 awburst=1 wdata=[3b1154c8ecbcdd4f cd4e7cfac3c0af3e fcd8eb95b5edbeff a2aa9c4ed15dbd97 151e6cd5b7ea405d edd7ff5deff91949 c156d6e091f7586a c9e198c890829bab 807bb4f4d67543b5 e86c9c1f37b99825 c83c33d0c1d28bd4 9847cf89b24e34e7 ea07cd0cc8b7e8c5 8a8a749900b46ba9 b302a090324400dd fafbe9a222d24423 2386afcc1d0a6d9d cf4e6e7a85865e3b a858a25ed689505c f393bdf9ca4a581c cfd0b657cbdf522a 2268a287c2e22c73 8d2c848ff82958b6 c408aae095fc6080 d8de8cf4dcfd3ae7 d526939de6714d67 fc6dade8e60b1183 c3084c6a992f3e7d ffa08be5d54c3adc bb574c5f982ee007 315e1e85fc0e39cd d15a74a9fe5f98ca 968e78d130feaa6a 2d0ce4378cb1c108 8b1159d2c7ec9756 f8eb41c0fe6758e0 8b1919e8219fd2a4 e98c69faa5f825f7 a45f7ed7162a73bb 37ca465fe277abbb 886fd1b22f7898c0 c5a30c7ba156b059 83ce5c142ccf508a dc47e94afd6d52da 9ec403330c3e2dc7 390d7e5121eaf5c5 1f58489f22925f48 2ed08d0f1555679b 37405d60be1c4bd2 e0aeab1ae7de0b60 fd3372fbd698a5ff 94b4f1d18f7f3829 f75d43893473d05b b0c765af5639cec 84e2d515f490b684 a90486df9fc1682b 95250517fc40189f f0d0cf23b410fd39 d3d265651a07da2d 1647f2cc19d55603 cde6533ce8f76a7c 82ff44a98718c1ef a0ee17f2a1b8b8a1 ab0231e99473775 205ff965eed46b2f 908d23d08daf67c7 26f69f3dc14e1157 b0227c869b3d46ee 28ecaeb6c75698a2 88a4a9f9c0afa057 dbece745cfe34df3 1739e69538c72680 f976c6d784d995fb d4bce3ee9fde908e d8a5b70ed563ae1c da3d4418ebf6ca83 bd55b12d21c7de5 27802c02aefa2806 1af0f28ae47b1220 3697900601bd701a b0b7982026c64d9c 8b415fbcde17bc08 dfd52c22cba88aaa f26ed846c1d8efc2 9ff0abca908cc442 dc354eedfdb03803 bf8927c5ffc5d7ec 10529c2fcea42733 cc545f36df79d390 df3fab7cec87eb1c bb2c124f0bdd86fc eb575a8cef9247ab dc1a32c707807186 135df882ca970608 3a294db417464517 1ec6b69dfeb5530e c94c59169643807b ad89c5923224af1f 30da022d8375a6ca 19b92746cc507c2f fe752b4efa265b43 fd9c020ec742ecd8 13936908af4f2d7b 297588bf17552954 de98162c92089456 c157c1d227118acd 3e66b421f22b7f34 434138beacd4a91 11ded55e9cfeca4d f2a4982c58bd55d 30591feed045897f ed4453cc135e5d0d d8ea326ac237f54c ] wstrb=[4e cb 58 5b 97 a4 c5 e6 6f 1d 41 6 c1 7 ec 30 24 2e 37 e6 35 23 16 59 51 4d 3f 86 71 56 e0 c2 a3 1f 49 14 75 29 d7 19 48 20 2d be 49 4 d7 91 24 4 4f 6d 9 26 ff 2d 2b 4e 9b 34 75 9a 61 a0 e8 fc d4 5d 96 35 fd 7f 32 d1 dc c8 7 da 47 39 ab 24 1 b2 fe 49 eb a9 6d ed 5c 6b 36 47 14 a3 34 70 e 6a b8 22 d ec 93 1b 57 4b 3e 64 37 d1 80 ] bresp=0 bid=11
[1195000] MASTER_DRIVER0 received transaction, op=AXI_READ
[1205000] ARB MONITOR: slave=0 m0_req=1 m1_req=0 winner=0
[1205000] AXI S0_ARVALID_RDY HANDSHAKE
[1205000] MEMORY READ MISS beat=0 addr=7f46600 -> default data id=1
[1215000] MEMORY READ MISS beat=1 addr=7f46608 -> default data id=1
[1215000] SLAVE 0 R_VALID_RDY Handshake beat=0 rlast=0
[1215000] MASTER 0 B_VALID_RDY Handshake
[1215000] [MASTER MONITOR] mst_id=0 s_id=0 awaddr=8c1e2b8 awid=11 awlen=112 awsize=2 awburst=1 wdata=[3b1154c8ecbcdd4f cd4e7cfac3c0af3e fcd8eb95b5edbeff a2aa9c4ed15dbd97 151e6cd5b7ea405d edd7ff5deff91949 c156d6e091f7586a c9e198c890829bab 807bb4f4d67543b5 e86c9c1f37b99825 c83c33d0c1d28bd4 9847cf89b24e34e7 ea07cd0cc8b7e8c5 8a8a749900b46ba9 b302a090324400dd fafbe9a222d24423 2386afcc1d0a6d9d cf4e6e7a85865e3b a858a25ed689505c f393bdf9ca4a581c cfd0b657cbdf522a 2268a287c2e22c73 8d2c848ff82958b6 c408aae095fc6080 d8de8cf4dcfd3ae7 d526939de6714d67 fc6dade8e60b1183 c3084c6a992f3e7d ffa08be5d54c3adc bb574c5f982ee007 315e1e85fc0e39cd d15a74a9fe5f98ca 968e78d130feaa6a 2d0ce4378cb1c108 8b1159d2c7ec9756 f8eb41c0fe6758e0 8b1919e8219fd2a4 e98c69faa5f825f7 a45f7ed7162a73bb 37ca465fe277abbb 886fd1b22f7898c0 c5a30c7ba156b059 83ce5c142ccf508a dc47e94afd6d52da 9ec403330c3e2dc7 390d7e5121eaf5c5 1f58489f22925f48 2ed08d0f1555679b 37405d60be1c4bd2 e0aeab1ae7de0b60 fd3372fbd698a5ff 94b4f1d18f7f3829 f75d43893473d05b b0c765af5639cec 84e2d515f490b684 a90486df9fc1682b 95250517fc40189f f0d0cf23b410fd39 d3d265651a07da2d 1647f2cc19d55603 cde6533ce8f76a7c 82ff44a98718c1ef a0ee17f2a1b8b8a1 ab0231e99473775 205ff965eed46b2f 908d23d08daf67c7 26f69f3dc14e1157 b0227c869b3d46ee 28ecaeb6c75698a2 88a4a9f9c0afa057 dbece745cfe34df3 1739e69538c72680 f976c6d784d995fb d4bce3ee9fde908e d8a5b70ed563ae1c da3d4418ebf6ca83 bd55b12d21c7de5 27802c02aefa2806 1af0f28ae47b1220 3697900601bd701a b0b7982026c64d9c 8b415fbcde17bc08 dfd52c22cba88aaa f26ed846c1d8efc2 9ff0abca908cc442 dc354eedfdb03803 bf8927c5ffc5d7ec 10529c2fcea42733 cc545f36df79d390 df3fab7cec87eb1c bb2c124f0bdd86fc eb575a8cef9247ab dc1a32c707807186 135df882ca970608 3a294db417464517 1ec6b69dfeb5530e c94c59169643807b ad89c5923224af1f 30da022d8375a6ca 19b92746cc507c2f fe752b4efa265b43 fd9c020ec742ecd8 13936908af4f2d7b 297588bf17552954 de98162c92089456 c157c1d227118acd 3e66b421f22b7f34 434138beacd4a91 11ded55e9cfeca4d f2a4982c58bd55d 30591feed045897f ed4453cc135e5d0d d8ea326ac237f54c ] wstrb=[4e cb 58 5b 97 a4 c5 e6 6f 1d 41 6 c1 7 ec 30 24 2e 37 e6 35 23 16 59 51 4d 3f 86 71 56 e0 c2 a3 1f 49 14 75 29 d7 19 48 20 2d be 49 4 d7 91 24 4 4f 6d 9 26 ff 2d 2b 4e 9b 34 75 9a 61 a0 e8 fc d4 5d 96 35 fd 7f 32 d1 dc c8 7 da 47 39 ab 24 1 b2 fe 49 eb a9 6d ed 5c 6b 36 47 14 a3 34 70 e 6a b8 22 d ec 93 1b 57 4b 3e 64 37 d1 80 ] bresp=0 bid=11
[1215000] MASTER_DRIVER0 received transaction, op=AXI_WRITE
[1215000] MASTER 0 RECEIVED BRESP. BRESP=0
[1215000] [MASTER DRIVER] mst_id=0 s_id=0 awaddr=8c1e2b8 awid=11 awlen=112 awsize=2 awburst=1 wdata=[3b1154c8ecbcdd4f cd4e7cfac3c0af3e fcd8eb95b5edbeff a2aa9c4ed15dbd97 151e6cd5b7ea405d edd7ff5deff91949 c156d6e091f7586a c9e198c890829bab 807bb4f4d67543b5 e86c9c1f37b99825 c83c33d0c1d28bd4 9847cf89b24e34e7 ea07cd0cc8b7e8c5 8a8a749900b46ba9 b302a090324400dd fafbe9a222d24423 2386afcc1d0a6d9d cf4e6e7a85865e3b a858a25ed689505c f393bdf9ca4a581c cfd0b657cbdf522a 2268a287c2e22c73 8d2c848ff82958b6 c408aae095fc6080 d8de8cf4dcfd3ae7 d526939de6714d67 fc6dade8e60b1183 c3084c6a992f3e7d ffa08be5d54c3adc bb574c5f982ee007 315e1e85fc0e39cd d15a74a9fe5f98ca 968e78d130feaa6a 2d0ce4378cb1c108 8b1159d2c7ec9756 f8eb41c0fe6758e0 8b1919e8219fd2a4 e98c69faa5f825f7 a45f7ed7162a73bb 37ca465fe277abbb 886fd1b22f7898c0 c5a30c7ba156b059 83ce5c142ccf508a dc47e94afd6d52da 9ec403330c3e2dc7 390d7e5121eaf5c5 1f58489f22925f48 2ed08d0f1555679b 37405d60be1c4bd2 e0aeab1ae7de0b60 fd3372fbd698a5ff 94b4f1d18f7f3829 f75d43893473d05b b0c765af5639cec 84e2d515f490b684 a90486df9fc1682b 95250517fc40189f f0d0cf23b410fd39 d3d265651a07da2d 1647f2cc19d55603 cde6533ce8f76a7c 82ff44a98718c1ef a0ee17f2a1b8b8a1 ab0231e99473775 205ff965eed46b2f 908d23d08daf67c7 26f69f3dc14e1157 b0227c869b3d46ee 28ecaeb6c75698a2 88a4a9f9c0afa057 dbece745cfe34df3 1739e69538c72680 f976c6d784d995fb d4bce3ee9fde908e d8a5b70ed563ae1c da3d4418ebf6ca83 bd55b12d21c7de5 27802c02aefa2806 1af0f28ae47b1220 3697900601bd701a b0b7982026c64d9c 8b415fbcde17bc08 dfd52c22cba88aaa f26ed846c1d8efc2 9ff0abca908cc442 dc354eedfdb03803 bf8927c5ffc5d7ec 10529c2fcea42733 cc545f36df79d390 df3fab7cec87eb1c bb2c124f0bdd86fc eb575a8cef9247ab dc1a32c707807186 135df882ca970608 3a294db417464517 1ec6b69dfeb5530e c94c59169643807b ad89c5923224af1f 30da022d8375a6ca 19b92746cc507c2f fe752b4efa265b43 fd9c020ec742ecd8 13936908af4f2d7b 297588bf17552954 de98162c92089456 c157c1d227118acd 3e66b421f22b7f34 434138beacd4a91 11ded55e9cfeca4d f2a4982c58bd55d 30591feed045897f ed4453cc135e5d0d d8ea326ac237f54c ] wstrb=[4e cb 58 5b 97 a4 c5 e6 6f 1d 41 6 c1 7 ec 30 24 2e 37 e6 35 23 16 59 51 4d 3f 86 71 56 e0 c2 a3 1f 49 14 75 29 d7 19 48 20 2d be 49 4 d7 91 24 4 4f 6d 9 26 ff 2d 2b 4e 9b 34 75 9a 61 a0 e8 fc d4 5d 96 35 fd 7f 32 d1 dc c8 7 da 47 39 ab 24 1 b2 fe 49 eb a9 6d ed 5c 6b 36 47 14 a3 34 70 e 6a b8 22 d ec 93 1b 57 4b 3e 64 37 d1 80 ] bresp=0 bid=11
[1215000] SCOREBOARD MATCH: decode_err expected = 0, actual =0
[1215000] SCOREBOARD MATCH: slave_id expected = 0, actual =0
[1215000] SCOREBOARD MATCH: awaddr passthrough expected = 8c1e2b8, actual =8c1e2b8
[1215000] SCOREBOARD MATCH: awlen passthrough expected = 112, actual =112
[1215000] SCOREBOARD MATCH: awsize passthrough expected = 2, actual =2
[1215000] SCOREBOARD MATCH: awburst passthrough expected = 1, actual =1
[1215000] SCOREBOARD MATCH: wdata size check expected = 71, actual =71
[1215000] SCOREBOARD MATCH: wdata passthrough beat=0 expected = 3b1154c8ecbcdd4f, actual =3b1154c8ecbcdd4f
[1215000] SCOREBOARD MATCH: wdata passthrough beat=1 expected = cd4e7cfac3c0af3e, actual =cd4e7cfac3c0af3e
[1215000] SCOREBOARD MATCH: wdata passthrough beat=2 expected = fcd8eb95b5edbeff, actual =fcd8eb95b5edbeff
[1215000] SCOREBOARD MATCH: wdata passthrough beat=3 expected = a2aa9c4ed15dbd97, actual =a2aa9c4ed15dbd97
[1215000] SCOREBOARD MATCH: wdata passthrough beat=4 expected = 151e6cd5b7ea405d, actual =151e6cd5b7ea405d
[1215000] SCOREBOARD MATCH: wdata passthrough beat=5 expected = edd7ff5deff91949, actual =edd7ff5deff91949
[1215000] SCOREBOARD MATCH: wdata passthrough beat=6 expected = c156d6e091f7586a, actual =c156d6e091f7586a
[1215000] SCOREBOARD MATCH: wdata passthrough beat=7 expected = c9e198c890829bab, actual =c9e198c890829bab
[1215000] SCOREBOARD MATCH: wdata passthrough beat=8 expected = 807bb4f4d67543b5, actual =807bb4f4d67543b5
[1215000] SCOREBOARD MATCH: wdata passthrough beat=9 expected = e86c9c1f37b99825, actual =e86c9c1f37b99825
[1215000] SCOREBOARD MATCH: wdata passthrough beat=10 expected = c83c33d0c1d28bd4, actual =c83c33d0c1d28bd4
[1215000] SCOREBOARD MATCH: wdata passthrough beat=11 expected = 9847cf89b24e34e7, actual =9847cf89b24e34e7
[1215000] SCOREBOARD MATCH: wdata passthrough beat=12 expected = ea07cd0cc8b7e8c5, actual =ea07cd0cc8b7e8c5
[1215000] SCOREBOARD MATCH: wdata passthrough beat=13 expected = 8a8a749900b46ba9, actual =8a8a749900b46ba9
[1215000] SCOREBOARD MATCH: wdata passthrough beat=14 expected = b302a090324400dd, actual =b302a090324400dd
[1215000] SCOREBOARD MATCH: wdata passthrough beat=15 expected = fafbe9a222d24423, actual =fafbe9a222d24423
[1215000] SCOREBOARD MATCH: wdata passthrough beat=16 expected = 2386afcc1d0a6d9d, actual =2386afcc1d0a6d9d
[1215000] SCOREBOARD MATCH: wdata passthrough beat=17 expected = cf4e6e7a85865e3b, actual =cf4e6e7a85865e3b
[1215000] SCOREBOARD MATCH: wdata passthrough beat=18 expected = a858a25ed689505c, actual =a858a25ed689505c
[1215000] SCOREBOARD MATCH: wdata passthrough beat=19 expected = f393bdf9ca4a581c, actual =f393bdf9ca4a581c
[1215000] SCOREBOARD MATCH: wdata passthrough beat=20 expected = cfd0b657cbdf522a, actual =cfd0b657cbdf522a
[1215000] SCOREBOARD MATCH: wdata passthrough beat=21 expected = 2268a287c2e22c73, actual =2268a287c2e22c73
[1215000] SCOREBOARD MATCH: wdata passthrough beat=22 expected = 8d2c848ff82958b6, actual =8d2c848ff82958b6
[1215000] SCOREBOARD MATCH: wdata passthrough beat=23 expected = c408aae095fc6080, actual =c408aae095fc6080
[1215000] SCOREBOARD MATCH: wdata passthrough beat=24 expected = d8de8cf4dcfd3ae7, actual =d8de8cf4dcfd3ae7
[1215000] SCOREBOARD MATCH: wdata passthrough beat=25 expected = d526939de6714d67, actual =d526939de6714d67
[1215000] SCOREBOARD MATCH: wdata passthrough beat=26 expected = fc6dade8e60b1183, actual =fc6dade8e60b1183
[1215000] SCOREBOARD MATCH: wdata passthrough beat=27 expected = c3084c6a992f3e7d, actual =c3084c6a992f3e7d
[1215000] SCOREBOARD MATCH: wdata passthrough beat=28 expected = ffa08be5d54c3adc, actual =ffa08be5d54c3adc
[1215000] SCOREBOARD MATCH: wdata passthrough beat=29 expected = bb574c5f982ee007, actual =bb574c5f982ee007
[1215000] SCOREBOARD MATCH: wdata passthrough beat=30 expected = 315e1e85fc0e39cd, actual =315e1e85fc0e39cd
[1215000] SCOREBOARD MATCH: wdata passthrough beat=31 expected = d15a74a9fe5f98ca, actual =d15a74a9fe5f98ca
[1215000] SCOREBOARD MATCH: wdata passthrough beat=32 expected = 968e78d130feaa6a, actual =968e78d130feaa6a
[1215000] SCOREBOARD MATCH: wdata passthrough beat=33 expected = 2d0ce4378cb1c108, actual =2d0ce4378cb1c108
[1215000] SCOREBOARD MATCH: wdata passthrough beat=34 expected = 8b1159d2c7ec9756, actual =8b1159d2c7ec9756
[1215000] SCOREBOARD MATCH: wdata passthrough beat=35 expected = f8eb41c0fe6758e0, actual =f8eb41c0fe6758e0
[1215000] SCOREBOARD MATCH: wdata passthrough beat=36 expected = 8b1919e8219fd2a4, actual =8b1919e8219fd2a4
[1215000] SCOREBOARD MATCH: wdata passthrough beat=37 expected = e98c69faa5f825f7, actual =e98c69faa5f825f7
[1215000] SCOREBOARD MATCH: wdata passthrough beat=38 expected = a45f7ed7162a73bb, actual =a45f7ed7162a73bb
[1215000] SCOREBOARD MATCH: wdata passthrough beat=39 expected = 37ca465fe277abbb, actual =37ca465fe277abbb
[1215000] SCOREBOARD MATCH: wdata passthrough beat=40 expected = 886fd1b22f7898c0, actual =886fd1b22f7898c0
[1215000] SCOREBOARD MATCH: wdata passthrough beat=41 expected = c5a30c7ba156b059, actual =c5a30c7ba156b059
[1215000] SCOREBOARD MATCH: wdata passthrough beat=42 expected = 83ce5c142ccf508a, actual =83ce5c142ccf508a
[1215000] SCOREBOARD MATCH: wdata passthrough beat=43 expected = dc47e94afd6d52da, actual =dc47e94afd6d52da
[1215000] SCOREBOARD MATCH: wdata passthrough beat=44 expected = 9ec403330c3e2dc7, actual =9ec403330c3e2dc7
[1215000] SCOREBOARD MATCH: wdata passthrough beat=45 expected = 390d7e5121eaf5c5, actual =390d7e5121eaf5c5
[1215000] SCOREBOARD MATCH: wdata passthrough beat=46 expected = 1f58489f22925f48, actual =1f58489f22925f48
[1215000] SCOREBOARD MATCH: wdata passthrough beat=47 expected = 2ed08d0f1555679b, actual =2ed08d0f1555679b
[1215000] SCOREBOARD MATCH: wdata passthrough beat=48 expected = 37405d60be1c4bd2, actual =37405d60be1c4bd2
[1215000] SCOREBOARD MATCH: wdata passthrough beat=49 expected = e0aeab1ae7de0b60, actual =e0aeab1ae7de0b60
[1215000] SCOREBOARD MATCH: wdata passthrough beat=50 expected = fd3372fbd698a5ff, actual =fd3372fbd698a5ff
[1215000] SCOREBOARD MATCH: wdata passthrough beat=51 expected = 94b4f1d18f7f3829, actual =94b4f1d18f7f3829
[1215000] SCOREBOARD MATCH: wdata passthrough beat=52 expected = f75d43893473d05b, actual =f75d43893473d05b
[1215000] SCOREBOARD MATCH: wdata passthrough beat=53 expected = b0c765af5639cec, actual =b0c765af5639cec
[1215000] SCOREBOARD MATCH: wdata passthrough beat=54 expected = 84e2d515f490b684, actual =84e2d515f490b684
[1215000] SCOREBOARD MATCH: wdata passthrough beat=55 expected = a90486df9fc1682b, actual =a90486df9fc1682b
[1215000] SCOREBOARD MATCH: wdata passthrough beat=56 expected = 95250517fc40189f, actual =95250517fc40189f
[1215000] SCOREBOARD MATCH: wdata passthrough beat=57 expected = f0d0cf23b410fd39, actual =f0d0cf23b410fd39
[1215000] SCOREBOARD MATCH: wdata passthrough beat=58 expected = d3d265651a07da2d, actual =d3d265651a07da2d
[1215000] SCOREBOARD MATCH: wdata passthrough beat=59 expected = 1647f2cc19d55603, actual =1647f2cc19d55603
[1215000] SCOREBOARD MATCH: wdata passthrough beat=60 expected = cde6533ce8f76a7c, actual =cde6533ce8f76a7c
[1215000] SCOREBOARD MATCH: wdata passthrough beat=61 expected = 82ff44a98718c1ef, actual =82ff44a98718c1ef
[1215000] SCOREBOARD MATCH: wdata passthrough beat=62 expected = a0ee17f2a1b8b8a1, actual =a0ee17f2a1b8b8a1
[1215000] SCOREBOARD MATCH: wdata passthrough beat=63 expected = ab0231e99473775, actual =ab0231e99473775
[1215000] SCOREBOARD MATCH: wdata passthrough beat=64 expected = 205ff965eed46b2f, actual =205ff965eed46b2f
[1215000] SCOREBOARD MATCH: wdata passthrough beat=65 expected = 908d23d08daf67c7, actual =908d23d08daf67c7
[1215000] SCOREBOARD MATCH: wdata passthrough beat=66 expected = 26f69f3dc14e1157, actual =26f69f3dc14e1157
[1215000] SCOREBOARD MATCH: wdata passthrough beat=67 expected = b0227c869b3d46ee, actual =b0227c869b3d46ee
[1215000] SCOREBOARD MATCH: wdata passthrough beat=68 expected = 28ecaeb6c75698a2, actual =28ecaeb6c75698a2
[1215000] SCOREBOARD MATCH: wdata passthrough beat=69 expected = 88a4a9f9c0afa057, actual =88a4a9f9c0afa057
[1215000] SCOREBOARD MATCH: wdata passthrough beat=70 expected = dbece745cfe34df3, actual =dbece745cfe34df3
[1215000] SCOREBOARD MATCH: wdata passthrough beat=71 expected = 1739e69538c72680, actual =1739e69538c72680
[1215000] SCOREBOARD MATCH: wdata passthrough beat=72 expected = f976c6d784d995fb, actual =f976c6d784d995fb
[1215000] SCOREBOARD MATCH: wdata passthrough beat=73 expected = d4bce3ee9fde908e, actual =d4bce3ee9fde908e
[1215000] SCOREBOARD MATCH: wdata passthrough beat=74 expected = d8a5b70ed563ae1c, actual =d8a5b70ed563ae1c
[1215000] SCOREBOARD MATCH: wdata passthrough beat=75 expected = da3d4418ebf6ca83, actual =da3d4418ebf6ca83
[1215000] SCOREBOARD MATCH: wdata passthrough beat=76 expected = bd55b12d21c7de5, actual =bd55b12d21c7de5
[1215000] SCOREBOARD MATCH: wdata passthrough beat=77 expected = 27802c02aefa2806, actual =27802c02aefa2806
[1215000] SCOREBOARD MATCH: wdata passthrough beat=78 expected = 1af0f28ae47b1220, actual =1af0f28ae47b1220
[1215000] SCOREBOARD MATCH: wdata passthrough beat=79 expected = 3697900601bd701a, actual =3697900601bd701a
[1215000] SCOREBOARD MATCH: wdata passthrough beat=80 expected = b0b7982026c64d9c, actual =b0b7982026c64d9c
[1215000] SCOREBOARD MATCH: wdata passthrough beat=81 expected = 8b415fbcde17bc08, actual =8b415fbcde17bc08
[1215000] SCOREBOARD MATCH: wdata passthrough beat=82 expected = dfd52c22cba88aaa, actual =dfd52c22cba88aaa
[1215000] SCOREBOARD MATCH: wdata passthrough beat=83 expected = f26ed846c1d8efc2, actual =f26ed846c1d8efc2
[1215000] SCOREBOARD MATCH: wdata passthrough beat=84 expected = 9ff0abca908cc442, actual =9ff0abca908cc442
[1215000] SCOREBOARD MATCH: wdata passthrough beat=85 expected = dc354eedfdb03803, actual =dc354eedfdb03803
[1215000] SCOREBOARD MATCH: wdata passthrough beat=86 expected = bf8927c5ffc5d7ec, actual =bf8927c5ffc5d7ec
[1215000] SCOREBOARD MATCH: wdata passthrough beat=87 expected = 10529c2fcea42733, actual =10529c2fcea42733
[1215000] SCOREBOARD MATCH: wdata passthrough beat=88 expected = cc545f36df79d390, actual =cc545f36df79d390
[1215000] SCOREBOARD MATCH: wdata passthrough beat=89 expected = df3fab7cec87eb1c, actual =df3fab7cec87eb1c
[1215000] SCOREBOARD MATCH: wdata passthrough beat=90 expected = bb2c124f0bdd86fc, actual =bb2c124f0bdd86fc
[1215000] SCOREBOARD MATCH: wdata passthrough beat=91 expected = eb575a8cef9247ab, actual =eb575a8cef9247ab
[1215000] SCOREBOARD MATCH: wdata passthrough beat=92 expected = dc1a32c707807186, actual =dc1a32c707807186
[1215000] SCOREBOARD MATCH: wdata passthrough beat=93 expected = 135df882ca970608, actual =135df882ca970608
[1215000] SCOREBOARD MATCH: wdata passthrough beat=94 expected = 3a294db417464517, actual =3a294db417464517
[1215000] SCOREBOARD MATCH: wdata passthrough beat=95 expected = 1ec6b69dfeb5530e, actual =1ec6b69dfeb5530e
[1215000] SCOREBOARD MATCH: wdata passthrough beat=96 expected = c94c59169643807b, actual =c94c59169643807b
[1215000] SCOREBOARD MATCH: wdata passthrough beat=97 expected = ad89c5923224af1f, actual =ad89c5923224af1f
[1215000] SCOREBOARD MATCH: wdata passthrough beat=98 expected = 30da022d8375a6ca, actual =30da022d8375a6ca
[1215000] SCOREBOARD MATCH: wdata passthrough beat=99 expected = 19b92746cc507c2f, actual =19b92746cc507c2f
[1215000] SCOREBOARD MATCH: wdata passthrough beat=100 expected = fe752b4efa265b43, actual =fe752b4efa265b43
[1215000] SCOREBOARD MATCH: wdata passthrough beat=101 expected = fd9c020ec742ecd8, actual =fd9c020ec742ecd8
[1215000] SCOREBOARD MATCH: wdata passthrough beat=102 expected = 13936908af4f2d7b, actual =13936908af4f2d7b
[1215000] SCOREBOARD MATCH: wdata passthrough beat=103 expected = 297588bf17552954, actual =297588bf17552954
[1215000] SCOREBOARD MATCH: wdata passthrough beat=104 expected = de98162c92089456, actual =de98162c92089456
[1215000] SCOREBOARD MATCH: wdata passthrough beat=105 expected = c157c1d227118acd, actual =c157c1d227118acd
[1215000] SCOREBOARD MATCH: wdata passthrough beat=106 expected = 3e66b421f22b7f34, actual =3e66b421f22b7f34
[1215000] SCOREBOARD MATCH: wdata passthrough beat=107 expected = 434138beacd4a91, actual =434138beacd4a91
[1215000] SCOREBOARD MATCH: wdata passthrough beat=108 expected = 11ded55e9cfeca4d, actual =11ded55e9cfeca4d
[1215000] SCOREBOARD MATCH: wdata passthrough beat=109 expected = f2a4982c58bd55d, actual =f2a4982c58bd55d
[1215000] SCOREBOARD MATCH: wdata passthrough beat=110 expected = 30591feed045897f, actual =30591feed045897f
[1215000] SCOREBOARD MATCH: wdata passthrough beat=111 expected = ed4453cc135e5d0d, actual =ed4453cc135e5d0d
[1215000] SCOREBOARD MATCH: wdata passthrough beat=112 expected = d8ea326ac237f54c, actual =d8ea326ac237f54c
[1215000] SCOREBOARD MATCH: wstrb size check expected = 71, actual =71
[1215000] SCOREBOARD MATCH: wstrb passthrough beat=0 expected = 4e, actual =4e
[1215000] SCOREBOARD MATCH: wstrb passthrough beat=1 expected = cb, actual =cb
[1215000] SCOREBOARD MATCH: wstrb passthrough beat=2 expected = 58, actual =58
[1215000] SCOREBOARD MATCH: wstrb passthrough beat=3 expected = 5b, actual =5b
[1215000] SCOREBOARD MATCH: wstrb passthrough beat=4 expected = 97, actual =97
[1215000] SCOREBOARD MATCH: wstrb passthrough beat=5 expected = a4, actual =a4
[1215000] SCOREBOARD MATCH: wstrb passthrough beat=6 expected = c5, actual =c5
[1215000] SCOREBOARD MATCH: wstrb passthrough beat=7 expected = e6, actual =e6
[1215000] SCOREBOARD MATCH: wstrb passthrough beat=8 expected = 6f, actual =6f
[1215000] SCOREBOARD MATCH: wstrb passthrough beat=9 expected = 1d, actual =1d
[1215000] SCOREBOARD MATCH: wstrb passthrough beat=10 expected = 41, actual =41
[1215000] SCOREBOARD MATCH: wstrb passthrough beat=11 expected = 6, actual =6
[1215000] SCOREBOARD MATCH: wstrb passthrough beat=12 expected = c1, actual =c1
[1215000] SCOREBOARD MATCH: wstrb passthrough beat=13 expected = 7, actual =7
[1215000] SCOREBOARD MATCH: wstrb passthrough beat=14 expected = ec, actual =ec
[1215000] SCOREBOARD MATCH: wstrb passthrough beat=15 expected = 30, actual =30
[1215000] SCOREBOARD MATCH: wstrb passthrough beat=16 expected = 24, actual =24
[1215000] SCOREBOARD MATCH: wstrb passthrough beat=17 expected = 2e, actual =2e
[1215000] SCOREBOARD MATCH: wstrb passthrough beat=18 expected = 37, actual =37
[1215000] SCOREBOARD MATCH: wstrb passthrough beat=19 expected = e6, actual =e6
[1215000] SCOREBOARD MATCH: wstrb passthrough beat=20 expected = 35, actual =35
[1215000] SCOREBOARD MATCH: wstrb passthrough beat=21 expected = 23, actual =23
[1215000] SCOREBOARD MATCH: wstrb passthrough beat=22 expected = 16, actual =16
[1215000] SCOREBOARD MATCH: wstrb passthrough beat=23 expected = 59, actual =59
[1215000] SCOREBOARD MATCH: wstrb passthrough beat=24 expected = 51, actual =51
[1215000] SCOREBOARD MATCH: wstrb passthrough beat=25 expected = 4d, actual =4d
[1215000] SCOREBOARD MATCH: wstrb passthrough beat=26 expected = 3f, actual =3f
[1215000] SCOREBOARD MATCH: wstrb passthrough beat=27 expected = 86, actual =86
[1215000] SCOREBOARD MATCH: wstrb passthrough beat=28 expected = 71, actual =71
[1215000] SCOREBOARD MATCH: wstrb passthrough beat=29 expected = 56, actual =56
[1215000] SCOREBOARD MATCH: wstrb passthrough beat=30 expected = e0, actual =e0
[1215000] SCOREBOARD MATCH: wstrb passthrough beat=31 expected = c2, actual =c2
[1215000] SCOREBOARD MATCH: wstrb passthrough beat=32 expected = a3, actual =a3
[1215000] SCOREBOARD MATCH: wstrb passthrough beat=33 expected = 1f, actual =1f
[1215000] SCOREBOARD MATCH: wstrb passthrough beat=34 expected = 49, actual =49
[1215000] SCOREBOARD MATCH: wstrb passthrough beat=35 expected = 14, actual =14
[1215000] SCOREBOARD MATCH: wstrb passthrough beat=36 expected = 75, actual =75
[1215000] SCOREBOARD MATCH: wstrb passthrough beat=37 expected = 29, actual =29
[1215000] SCOREBOARD MATCH: wstrb passthrough beat=38 expected = d7, actual =d7
[1215000] SCOREBOARD MATCH: wstrb passthrough beat=39 expected = 19, actual =19
[1215000] SCOREBOARD MATCH: wstrb passthrough beat=40 expected = 48, actual =48
[1215000] SCOREBOARD MATCH: wstrb passthrough beat=41 expected = 20, actual =20
[1215000] SCOREBOARD MATCH: wstrb passthrough beat=42 expected = 2d, actual =2d
[1215000] SCOREBOARD MATCH: wstrb passthrough beat=43 expected = be, actual =be
[1215000] SCOREBOARD MATCH: wstrb passthrough beat=44 expected = 49, actual =49
[1215000] SCOREBOARD MATCH: wstrb passthrough beat=45 expected = 4, actual =4
[1215000] SCOREBOARD MATCH: wstrb passthrough beat=46 expected = d7, actual =d7
[1215000] SCOREBOARD MATCH: wstrb passthrough beat=47 expected = 91, actual =91
[1215000] SCOREBOARD MATCH: wstrb passthrough beat=48 expected = 24, actual =24
[1215000] SCOREBOARD MATCH: wstrb passthrough beat=49 expected = 4, actual =4
[1215000] SCOREBOARD MATCH: wstrb passthrough beat=50 expected = 4f, actual =4f
[1215000] SCOREBOARD MATCH: wstrb passthrough beat=51 expected = 6d, actual =6d
[1215000] SCOREBOARD MATCH: wstrb passthrough beat=52 expected = 9, actual =9
[1215000] SCOREBOARD MATCH: wstrb passthrough beat=53 expected = 26, actual =26
[1215000] SCOREBOARD MATCH: wstrb passthrough beat=54 expected = ff, actual =ff
[1215000] SCOREBOARD MATCH: wstrb passthrough beat=55 expected = 2d, actual =2d
[1215000] SCOREBOARD MATCH: wstrb passthrough beat=56 expected = 2b, actual =2b
[1215000] SCOREBOARD MATCH: wstrb passthrough beat=57 expected = 4e, actual =4e
[1215000] SCOREBOARD MATCH: wstrb passthrough beat=58 expected = 9b, actual =9b
[1215000] SCOREBOARD MATCH: wstrb passthrough beat=59 expected = 34, actual =34
[1215000] SCOREBOARD MATCH: wstrb passthrough beat=60 expected = 75, actual =75
[1215000] SCOREBOARD MATCH: wstrb passthrough beat=61 expected = 9a, actual =9a
[1215000] SCOREBOARD MATCH: wstrb passthrough beat=62 expected = 61, actual =61
[1215000] SCOREBOARD MATCH: wstrb passthrough beat=63 expected = a0, actual =a0
[1215000] SCOREBOARD MATCH: wstrb passthrough beat=64 expected = e8, actual =e8
[1215000] SCOREBOARD MATCH: wstrb passthrough beat=65 expected = fc, actual =fc
[1215000] SCOREBOARD MATCH: wstrb passthrough beat=66 expected = d4, actual =d4
[1215000] SCOREBOARD MATCH: wstrb passthrough beat=67 expected = 5d, actual =5d
[1215000] SCOREBOARD MATCH: wstrb passthrough beat=68 expected = 96, actual =96
[1215000] SCOREBOARD MATCH: wstrb passthrough beat=69 expected = 35, actual =35
[1215000] SCOREBOARD MATCH: wstrb passthrough beat=70 expected = fd, actual =fd
[1215000] SCOREBOARD MATCH: wstrb passthrough beat=71 expected = 7f, actual =7f
[1215000] SCOREBOARD MATCH: wstrb passthrough beat=72 expected = 32, actual =32
[1215000] SCOREBOARD MATCH: wstrb passthrough beat=73 expected = d1, actual =d1
[1215000] SCOREBOARD MATCH: wstrb passthrough beat=74 expected = dc, actual =dc
[1215000] SCOREBOARD MATCH: wstrb passthrough beat=75 expected = c8, actual =c8
[1215000] SCOREBOARD MATCH: wstrb passthrough beat=76 expected = 7, actual =7
[1215000] SCOREBOARD MATCH: wstrb passthrough beat=77 expected = da, actual =da
[1215000] SCOREBOARD MATCH: wstrb passthrough beat=78 expected = 47, actual =47
[1215000] SCOREBOARD MATCH: wstrb passthrough beat=79 expected = 39, actual =39
[1215000] SCOREBOARD MATCH: wstrb passthrough beat=80 expected = ab, actual =ab
[1215000] SCOREBOARD MATCH: wstrb passthrough beat=81 expected = 24, actual =24
[1215000] SCOREBOARD MATCH: wstrb passthrough beat=82 expected = 1, actual =1
[1215000] SCOREBOARD MATCH: wstrb passthrough beat=83 expected = b2, actual =b2
[1215000] SCOREBOARD MATCH: wstrb passthrough beat=84 expected = fe, actual =fe
[1215000] SCOREBOARD MATCH: wstrb passthrough beat=85 expected = 49, actual =49
[1215000] SCOREBOARD MATCH: wstrb passthrough beat=86 expected = eb, actual =eb
[1215000] SCOREBOARD MATCH: wstrb passthrough beat=87 expected = a9, actual =a9
[1215000] SCOREBOARD MATCH: wstrb passthrough beat=88 expected = 6d, actual =6d
[1215000] SCOREBOARD MATCH: wstrb passthrough beat=89 expected = ed, actual =ed
[1215000] SCOREBOARD MATCH: wstrb passthrough beat=90 expected = 5c, actual =5c
[1215000] SCOREBOARD MATCH: wstrb passthrough beat=91 expected = 6b, actual =6b
[1215000] SCOREBOARD MATCH: wstrb passthrough beat=92 expected = 36, actual =36
[1215000] SCOREBOARD MATCH: wstrb passthrough beat=93 expected = 47, actual =47
[1215000] SCOREBOARD MATCH: wstrb passthrough beat=94 expected = 14, actual =14
[1215000] SCOREBOARD MATCH: wstrb passthrough beat=95 expected = a3, actual =a3
[1215000] SCOREBOARD MATCH: wstrb passthrough beat=96 expected = 34, actual =34
[1215000] SCOREBOARD MATCH: wstrb passthrough beat=97 expected = 70, actual =70
[1215000] SCOREBOARD MATCH: wstrb passthrough beat=98 expected = e, actual =e
[1215000] SCOREBOARD MATCH: wstrb passthrough beat=99 expected = 6a, actual =6a
[1215000] SCOREBOARD MATCH: wstrb passthrough beat=100 expected = b8, actual =b8
[1215000] SCOREBOARD MATCH: wstrb passthrough beat=101 expected = 22, actual =22
[1215000] SCOREBOARD MATCH: wstrb passthrough beat=102 expected = d, actual =d
[1215000] SCOREBOARD MATCH: wstrb passthrough beat=103 expected = ec, actual =ec
[1215000] SCOREBOARD MATCH: wstrb passthrough beat=104 expected = 93, actual =93
[1215000] SCOREBOARD MATCH: wstrb passthrough beat=105 expected = 1b, actual =1b
[1215000] SCOREBOARD MATCH: wstrb passthrough beat=106 expected = 57, actual =57
[1215000] SCOREBOARD MATCH: wstrb passthrough beat=107 expected = 4b, actual =4b
[1215000] SCOREBOARD MATCH: wstrb passthrough beat=108 expected = 3e, actual =3e
[1215000] SCOREBOARD MATCH: wstrb passthrough beat=109 expected = 64, actual =64
[1215000] SCOREBOARD MATCH: wstrb passthrough beat=110 expected = 37, actual =37
[1215000] SCOREBOARD MATCH: wstrb passthrough beat=111 expected = d1, actual =d1
[1215000] SCOREBOARD MATCH: wstrb passthrough beat=112 expected = 80, actual =80
[1215000] SCOREBOARD MATCH: bresp passthrough expected = 0, actual =0
[1215000] SCOREBOARD MATCH: response routed to correct master (write) expected = 0, actual =0
[1215000] [SCOREBOARD-M] mst_id=0 s_id=0 awaddr=8c1e2b8 awid=11 awlen=112 awsize=2 awburst=1 wdata=[3b1154c8ecbcdd4f cd4e7cfac3c0af3e fcd8eb95b5edbeff a2aa9c4ed15dbd97 151e6cd5b7ea405d edd7ff5deff91949 c156d6e091f7586a c9e198c890829bab 807bb4f4d67543b5 e86c9c1f37b99825 c83c33d0c1d28bd4 9847cf89b24e34e7 ea07cd0cc8b7e8c5 8a8a749900b46ba9 b302a090324400dd fafbe9a222d24423 2386afcc1d0a6d9d cf4e6e7a85865e3b a858a25ed689505c f393bdf9ca4a581c cfd0b657cbdf522a 2268a287c2e22c73 8d2c848ff82958b6 c408aae095fc6080 d8de8cf4dcfd3ae7 d526939de6714d67 fc6dade8e60b1183 c3084c6a992f3e7d ffa08be5d54c3adc bb574c5f982ee007 315e1e85fc0e39cd d15a74a9fe5f98ca 968e78d130feaa6a 2d0ce4378cb1c108 8b1159d2c7ec9756 f8eb41c0fe6758e0 8b1919e8219fd2a4 e98c69faa5f825f7 a45f7ed7162a73bb 37ca465fe277abbb 886fd1b22f7898c0 c5a30c7ba156b059 83ce5c142ccf508a dc47e94afd6d52da 9ec403330c3e2dc7 390d7e5121eaf5c5 1f58489f22925f48 2ed08d0f1555679b 37405d60be1c4bd2 e0aeab1ae7de0b60 fd3372fbd698a5ff 94b4f1d18f7f3829 f75d43893473d05b b0c765af5639cec 84e2d515f490b684 a90486df9fc1682b 95250517fc40189f f0d0cf23b410fd39 d3d265651a07da2d 1647f2cc19d55603 cde6533ce8f76a7c 82ff44a98718c1ef a0ee17f2a1b8b8a1 ab0231e99473775 205ff965eed46b2f 908d23d08daf67c7 26f69f3dc14e1157 b0227c869b3d46ee 28ecaeb6c75698a2 88a4a9f9c0afa057 dbece745cfe34df3 1739e69538c72680 f976c6d784d995fb d4bce3ee9fde908e d8a5b70ed563ae1c da3d4418ebf6ca83 bd55b12d21c7de5 27802c02aefa2806 1af0f28ae47b1220 3697900601bd701a b0b7982026c64d9c 8b415fbcde17bc08 dfd52c22cba88aaa f26ed846c1d8efc2 9ff0abca908cc442 dc354eedfdb03803 bf8927c5ffc5d7ec 10529c2fcea42733 cc545f36df79d390 df3fab7cec87eb1c bb2c124f0bdd86fc eb575a8cef9247ab dc1a32c707807186 135df882ca970608 3a294db417464517 1ec6b69dfeb5530e c94c59169643807b ad89c5923224af1f 30da022d8375a6ca 19b92746cc507c2f fe752b4efa265b43 fd9c020ec742ecd8 13936908af4f2d7b 297588bf17552954 de98162c92089456 c157c1d227118acd 3e66b421f22b7f34 434138beacd4a91 11ded55e9cfeca4d f2a4982c58bd55d 30591feed045897f ed4453cc135e5d0d d8ea326ac237f54c ] wstrb=[4e cb 58 5b 97 a4 c5 e6 6f 1d 41 6 c1 7 ec 30 24 2e 37 e6 35 23 16 59 51 4d 3f 86 71 56 e0 c2 a3 1f 49 14 75 29 d7 19 48 20 2d be 49 4 d7 91 24 4 4f 6d 9 26 ff 2d 2b 4e 9b 34 75 9a 61 a0 e8 fc d4 5d 96 35 fd 7f 32 d1 dc c8 7 da 47 39 ab 24 1 b2 fe 49 eb a9 6d ed 5c 6b 36 47 14 a3 34 70 e 6a b8 22 d ec 93 1b 57 4b 3e 64 37 d1 80 ] bresp=0 bid=11
[1215000] [SCOREBOARD-S] mst_id=0 s_id=0 awaddr=8c1e2b8 awid=11 awlen=112 awsize=2 awburst=1 wdata=[3b1154c8ecbcdd4f cd4e7cfac3c0af3e fcd8eb95b5edbeff a2aa9c4ed15dbd97 151e6cd5b7ea405d edd7ff5deff91949 c156d6e091f7586a c9e198c890829bab 807bb4f4d67543b5 e86c9c1f37b99825 c83c33d0c1d28bd4 9847cf89b24e34e7 ea07cd0cc8b7e8c5 8a8a749900b46ba9 b302a090324400dd fafbe9a222d24423 2386afcc1d0a6d9d cf4e6e7a85865e3b a858a25ed689505c f393bdf9ca4a581c cfd0b657cbdf522a 2268a287c2e22c73 8d2c848ff82958b6 c408aae095fc6080 d8de8cf4dcfd3ae7 d526939de6714d67 fc6dade8e60b1183 c3084c6a992f3e7d ffa08be5d54c3adc bb574c5f982ee007 315e1e85fc0e39cd d15a74a9fe5f98ca 968e78d130feaa6a 2d0ce4378cb1c108 8b1159d2c7ec9756 f8eb41c0fe6758e0 8b1919e8219fd2a4 e98c69faa5f825f7 a45f7ed7162a73bb 37ca465fe277abbb 886fd1b22f7898c0 c5a30c7ba156b059 83ce5c142ccf508a dc47e94afd6d52da 9ec403330c3e2dc7 390d7e5121eaf5c5 1f58489f22925f48 2ed08d0f1555679b 37405d60be1c4bd2 e0aeab1ae7de0b60 fd3372fbd698a5ff 94b4f1d18f7f3829 f75d43893473d05b b0c765af5639cec 84e2d515f490b684 a90486df9fc1682b 95250517fc40189f f0d0cf23b410fd39 d3d265651a07da2d 1647f2cc19d55603 cde6533ce8f76a7c 82ff44a98718c1ef a0ee17f2a1b8b8a1 ab0231e99473775 205ff965eed46b2f 908d23d08daf67c7 26f69f3dc14e1157 b0227c869b3d46ee 28ecaeb6c75698a2 88a4a9f9c0afa057 dbece745cfe34df3 1739e69538c72680 f976c6d784d995fb d4bce3ee9fde908e d8a5b70ed563ae1c da3d4418ebf6ca83 bd55b12d21c7de5 27802c02aefa2806 1af0f28ae47b1220 3697900601bd701a b0b7982026c64d9c 8b415fbcde17bc08 dfd52c22cba88aaa f26ed846c1d8efc2 9ff0abca908cc442 dc354eedfdb03803 bf8927c5ffc5d7ec 10529c2fcea42733 cc545f36df79d390 df3fab7cec87eb1c bb2c124f0bdd86fc eb575a8cef9247ab dc1a32c707807186 135df882ca970608 3a294db417464517 1ec6b69dfeb5530e c94c59169643807b ad89c5923224af1f 30da022d8375a6ca 19b92746cc507c2f fe752b4efa265b43 fd9c020ec742ecd8 13936908af4f2d7b 297588bf17552954 de98162c92089456 c157c1d227118acd 3e66b421f22b7f34 434138beacd4a91 11ded55e9cfeca4d f2a4982c58bd55d 30591feed045897f ed4453cc135e5d0d d8ea326ac237f54c ] wstrb=[4e cb 58 5b 97 a4 c5 e6 6f 1d 41 6 c1 7 ec 30 24 2e 37 e6 35 23 16 59 51 4d 3f 86 71 56 e0 c2 a3 1f 49 14 75 29 d7 19 48 20 2d be 49 4 d7 91 24 4 4f 6d 9 26 ff 2d 2b 4e 9b 34 75 9a 61 a0 e8 fc d4 5d 96 35 fd 7f 32 d1 dc c8 7 da 47 39 ab 24 1 b2 fe 49 eb a9 6d ed 5c 6b 36 47 14 a3 34 70 e 6a b8 22 d ec 93 1b 57 4b 3e 64 37 d1 80 ] bresp=0 bid=11
[1215000] SCOREBOARD: Transaction 2 received. pass=396 fail=0
[1215000] ALL PASS. Total transactions: 2
[1225000] ARB MONITOR: slave=1 m0_req=1 m1_req=0 winner=0
[1225000] SLAVE 0 R_VALID_RDY Handshake beat=1 rlast=1
[1225000] [SLAVE MONITOR] READ mst_id=0 s_id=0 araddr=7f46600 arid=1 arlen=1 arsize=3 arburst=1 rid=[11] rresp=[00] rdata=[baadf00d12345678baadf00d12345678]
[1225000] AXI S0_ARVALID_RDY HANDSHAKE
[1225000] MEMORY READ MISS beat=0 addr=18031b28 -> default data id=2
[1235000] MEMORY READ MISS beat=1 addr=18031b30 -> default data id=2
[1235000] SLAVE 1 R_VALID_RDY Handshake beat=0 rlast=0
[1235000] MASTER 0 R_VALID_RDY Handshake beat=0 rlast=0
[1235000] MASTER 0 AW_VALID_RDY Handshake
[1245000] [MASTER DRIVER] READ mst_id=0 s_id=0 araddr=7f46600 arid=1 arlen=1 arsize=3 arburst=1 rid=[11] rresp=[00] rdata=[baadf00d12345678baadf00d12345678]
[1245000] MASTER 0 R_VALID_RDY Handshake beat=1 rlast=1
[1245000] [MASTER MONITOR] READ mst_id=0 s_id=0 araddr=7f46600 arid=1 arlen=1 arsize=3 arburst=1 rid=[11] rresp=[00] rdata=[baadf00d12345678baadf00d12345678]
[1245000] ARB MONITOR: slave=1 m0_req=1 m1_req=0 winner=0
[1245000] SLAVE 1 R_VALID_RDY Handshake beat=1 rlast=1
[1245000] [SLAVE MONITOR] READ mst_id=0 s_id=1 araddr=18031b28 arid=2 arlen=1 arsize=3 arburst=1 rid=[22] rresp=[00] rdata=[baadf00d12345678baadf00d12345678]
[1245000] AXI S1_AWVALID_RDY HANDSHAKE
[1245000] SCOREBOARD MATCH: decode_err expected = 0, actual =0
[1245000] SCOREBOARD MATCH: slave_id expected = 0, actual =0
[1245000] SCOREBOARD MATCH: araddr passthrough expected = 7f46600, actual =7f46600
[1245000] SCOREBOARD MATCH: arlen passthrough expected = 1, actual =1
[1245000] SCOREBOARD MATCH: arsize passthrough expected = 3, actual =3
[1245000] SCOREBOARD MATCH: arburst passthrough expected = 1, actual =1
[1245000] SCOREBOARD MATCH: rdata size check expected = 2, actual =2
[1245000] SCOREBOARD MATCH: rdata passthrough beat=0 expected = baadf00d12345678, actual =baadf00d12345678
[1245000] SCOREBOARD MATCH: rdata passthrough beat=1 expected = baadf00d12345678, actual =baadf00d12345678
[1245000] SCOREBOARD MATCH: rresp size check expected = 2, actual =2
[1245000] SCOREBOARD MATCH: rresp passthrough beat=0 expected = 0, actual =0
[1245000] SCOREBOARD MATCH: rresp passthrough beat=1 expected = 0, actual =0
[1245000] SCOREBOARD MATCH: response routed to correct master (read beat 0) expected = 0, actual =0
[1245000] SCOREBOARD MATCH: response routed to correct master (read beat 1) expected = 0, actual =0
[1245000] [SCOREBOARD-M] READ mst_id=0 s_id=0 araddr=7f46600 arid=1 arlen=1 arsize=3 arburst=1 rid=[11] rresp=[00] rdata=[baadf00d12345678baadf00d12345678]
[1245000] [SCOREBOARD-S] READ mst_id=0 s_id=0 araddr=7f46600 arid=1 arlen=1 arsize=3 arburst=1 rid=[11] rresp=[00] rdata=[baadf00d12345678baadf00d12345678]
[1245000] SCOREBOARD: Transaction 3 received. pass=410 fail=0
[1245000] ALL PASS. Total transactions: 3
[1255000] MASTER 0 W_VALID_RDY Handshake beat=0 wlast=0
[1265000] MASTER 0 W_VALID_RDY Handshake beat=1 wlast=0
[1265000] MASTER 0 R_VALID_RDY Handshake beat=0 rlast=0
[1265000] S1 MEMORY WRITE beat=0 addr=1908e530 data=8c5d6ff12cc037d1 id=0c
[1275000] S1 MEMORY WRITE beat=1 addr=1908e530 data=db480cc5c13186ef id=0c
[1275000] MASTER 0 R_VALID_RDY Handshake beat=1 rlast=1
[1275000] [MASTER MONITOR] READ mst_id=0 s_id=1 araddr=18031b28 arid=2 arlen=1 arsize=3 arburst=1 rid=[22] rresp=[00] rdata=[baadf00d12345678baadf00d12345678]
[1275000] MASTER 0 W_VALID_RDY Handshake beat=2 wlast=0
[1275000] [MASTER DRIVER] READ mst_id=0 s_id=0 araddr=18031b28 arid=2 arlen=1 arsize=3 arburst=1 rid=[22] rresp=[00] rdata=[baadf00d12345678baadf00d12345678]
[1275000] SCOREBOARD MATCH: decode_err expected = 0, actual =0
[1275000] SCOREBOARD MATCH: slave_id expected = 1, actual =1
[1275000] SCOREBOARD MATCH: araddr passthrough expected = 18031b28, actual =18031b28
[1275000] SCOREBOARD MATCH: arlen passthrough expected = 1, actual =1
[1275000] SCOREBOARD MATCH: arsize passthrough expected = 3, actual =3
[1275000] SCOREBOARD MATCH: arburst passthrough expected = 1, actual =1
[1275000] SCOREBOARD MATCH: rdata size check expected = 2, actual =2
[1275000] SCOREBOARD MATCH: rdata passthrough beat=0 expected = baadf00d12345678, actual =baadf00d12345678
[1275000] SCOREBOARD MATCH: rdata passthrough beat=1 expected = baadf00d12345678, actual =baadf00d12345678
[1275000] SCOREBOARD MATCH: rresp size check expected = 2, actual =2
[1275000] SCOREBOARD MATCH: rresp passthrough beat=0 expected = 0, actual =0
[1275000] SCOREBOARD MATCH: rresp passthrough beat=1 expected = 0, actual =0
[1275000] SCOREBOARD MATCH: response routed to correct master (read beat 0) expected = 0, actual =0
[1275000] SCOREBOARD MATCH: response routed to correct master (read beat 1) expected = 0, actual =0
[1275000] [SCOREBOARD-M] READ mst_id=0 s_id=1 araddr=18031b28 arid=2 arlen=1 arsize=3 arburst=1 rid=[22] rresp=[00] rdata=[baadf00d12345678baadf00d12345678]
[1275000] [SCOREBOARD-S] READ mst_id=0 s_id=1 araddr=18031b28 arid=2 arlen=1 arsize=3 arburst=1 rid=[22] rresp=[00] rdata=[baadf00d12345678baadf00d12345678]
[1275000] SCOREBOARD: Transaction 4 received. pass=424 fail=0
[1275000] ALL PASS. Total transactions: 4
[1285000] MASTER 0 W_VALID_RDY Handshake beat=3 wlast=0
[1285000] S1 MEMORY WRITE beat=2 addr=1908e530 data=11264818c90b076f id=0c
[1295000] S1 MEMORY WRITE beat=3 addr=1908e530 data=f5cb3f4081942c63 id=0c
[1295000] MASTER 0 W_VALID_RDY Handshake beat=4 wlast=0
[1305000] MASTER 0 W_VALID_RDY Handshake beat=5 wlast=0
[1305000] S1 MEMORY WRITE beat=4 addr=1908e530 data=c2c5b3539d83b809 id=0c
[1315000] S1 MEMORY WRITE beat=5 addr=1908e530 data=e68ebf78d1134c05 id=0c
[1315000] MASTER 0 W_VALID_RDY Handshake beat=6 wlast=0
[1325000] MASTER 0 W_VALID_RDY Handshake beat=7 wlast=0
[1325000] S1 MEMORY WRITE beat=6 addr=1908e530 data=d2a77868d3ebfb6b id=0c
[1335000] S1 MEMORY WRITE beat=7 addr=1908e530 data=f16fb374dc59feb8 id=0c
[1335000] MASTER 0 W_VALID_RDY Handshake beat=8 wlast=1
[1345000] S1 MEMORY WRITE beat=8 addr=1908e530 data=ad6d4abd956d2bbb id=0c
[1355000] SLAVE1 sent B resp, id=12
[1355000] [SLAVE MONITOR] mst_id=0 s_id=1 awaddr=1908e530 awid=1100 awlen=8 awsize=1 awburst=0 wdata=[8c5d6ff12cc037d1 db480cc5c13186ef 11264818c90b076f f5cb3f4081942c63 c2c5b3539d83b809 e68ebf78d1134c05 d2a77868d3ebfb6b f16fb374dc59feb8 ad6d4abd956d2bbb ] wstrb=[ed 26 26 a5 9b e1 63 88 8 ] bresp=0 bid=1100
[1375000] MASTER 0 B_VALID_RDY Handshake
[1375000] [MASTER MONITOR] mst_id=0 s_id=1 awaddr=1908e530 awid=1100 awlen=8 awsize=1 awburst=0 wdata=[8c5d6ff12cc037d1 db480cc5c13186ef 11264818c90b076f f5cb3f4081942c63 c2c5b3539d83b809 e68ebf78d1134c05 d2a77868d3ebfb6b f16fb374dc59feb8 ad6d4abd956d2bbb ] wstrb=[ed 26 26 a5 9b e1 63 88 8 ] bresp=0 bid=1100
[1375000] MASTER 0 RECEIVED BRESP. BRESP=0
[1375000] [MASTER DRIVER] mst_id=0 s_id=0 awaddr=1908e530 awid=1100 awlen=8 awsize=1 awburst=0 wdata=[8c5d6ff12cc037d1 db480cc5c13186ef 11264818c90b076f f5cb3f4081942c63 c2c5b3539d83b809 e68ebf78d1134c05 d2a77868d3ebfb6b f16fb374dc59feb8 ad6d4abd956d2bbb ] wstrb=[ed 26 26 a5 9b e1 63 88 8 ] bresp=0 bid=1100
[1375000] SCOREBOARD MATCH: decode_err expected = 0, actual =0
[1375000] SCOREBOARD MATCH: slave_id expected = 1, actual =1
