#-----------------------------------------------------------
# xsim v2025.2 (64-bit)
# SW Build 6299465 on Fri Nov 14 12:34:56 MST 2025
# IP Build 6300035 on Fri Nov 14 10:48:45 MST 2025
# SharedData Build 6298862 on Thu Nov 13 04:50:51 MST 2025
# Start of session at: Thu Sep 10 18:27:40 2026
# Process ID         : 3625945
# Current directory  : /home/nashita/Desktop/practice/axi_xbar/sim
# Command line       : xsim -log regress_results/BT_run223.log -mode tcl -source {xsim.dir/tb_top_snap/xsim_script.tcl}
# Log file           : /home/nashita/Desktop/practice/axi_xbar/sim/regress_results/BT_run223.log
# Journal file       : /home/nashita/Desktop/practice/axi_xbar/sim/xsim.jou
# Running On         : vlsi-vivado
# Platform           : Ubuntu
# Operating System   : Ubuntu 24.04.4 LTS
# Processor Detail   : Intel(R) Core(TM) i5-10400 CPU @ 2.90GHz
# CPU Frequency      : 4000.025 MHz
# CPU Physical cores : 6
# CPU Logical cores  : 12
# Host memory        : 41875 MB
# Swap memory        : 27648 MB
# Total Virtual      : 69524 MB
# Available Virtual  : 62745 MB
#-----------------------------------------------------------
source xsim.dir/tb_top_snap/xsim_script.tcl
# xsim {tb_top_snap} -testplusarg BT -autoloadwcfg -runall -sv_seed 224
Time resolution is 1 ps
run -all
[0] RUNNING BASE TEST
[0] INSIDE THE BASE TEST CONSTRUCTOR
[0] ENV: before agent
[0] SLAVE CONSTRUCTED
[0] MASTER MONITOR CONSTRUCTED
[0] MASTER MONITOR CONSTRUCTED
[0] SLAVE MONITOR CONSTRUCTED
[0] SLAVE MONITOR CONSTRUCTED
[0] ARB MONITOR CONSTRUCTED
GENERATOR CONSTRUCTED
[0] ENV: after agent
[0] ENV: before scoreboard
[0] ENV: after scoreboard
[15000] [SEQUENCER] mst_id=1 s_id=0 awaddr=1842a1c8 awid=1111 awlen=7 awsize=2 awburst=2 wdata=[c67a537aaf3aafbf c89d107bef60fe8c 3633623cc360fb3 fb70bf73e907c56f d868c3fbc9dd899d 16139951c40dcfee ad15955ddbcbfa1e 25a983bc118458c4 ] wstrb=[59 b2 d 77 f d1 33 68 ] bresp=0 bid=0
[15000] [SEQUENCER] mst_id=1 s_id=0 awaddr=932d50 awid=111 awlen=11 awsize=1 awburst=0 wdata=[fa998013297a57e0 bab8488bbc2048b f38f5090a29d9063 cc17e843cdef16da 89b11b65ee28d0a3 90c66106d7c36ccb a5b283a5fd406bf5 eb693c98dcde494a b4a1b6152f639f0b aca40b00fc2f9d9f d90de6e9da5439bb 9b7d8c6180d4799 ] wstrb=[fe 38 c6 b9 21 5f 7f 1f 97 46 d9 b8 ] bresp=0 bid=0
[15000] [SEQUENCER] READ mst_id=1 s_id=0 araddr=19e6d520 arid=2 arlen=1 arsize=3 arburst=1 rid=[] rresp=[] rdata=[]
[15000] [SEQUENCER] READ mst_id=1 s_id=0 araddr=12731708 arid=3 arlen=1 arsize=3 arburst=1 rid=[] rresp=[] rdata=[]
[15000] [SEQUENCER] mst_id=1 s_id=0 awaddr=169935c8 awid=10 awlen=89 awsize=0 awburst=1 wdata=[e62e0a1e87ffb7cb 159170d2d088bd3c af728902aca4af77 34a46743fdc997df ce52551b95a09320 c2454298ca35d815 c7ff6ff4fdc4de1d 1365713ef6e9a9db c11f81f01651c50f 9416a32cd5aab3d6 cc945db1091ef1e4 1f70b6f3a77c146a fd26c8400db3dfa1 16d2d185b3875a1f db036e8ac9bb25f1 d76f059236438878 e9cae297d82a36ca 21e55cbcee41d717 a4855f8fc4ce5121 1cf887ecf954624e e79639660e504227 d31e93483edde4a8 b83246f68c1b98f5 9a6bdb1cf0171b34 aef4ffdc9fc8805c 2be41952ed8a6e65 dda18999e72746d3 86efc72fc64ff46e b3da62d30c968976 f3bdd049b2d3e081 f923d4f0117bec6d 1e1275e3faad9778 2d8177faacfe37c3 be7a243011d0462c 8c7ddda426a54cea d3a384addc8c9a13 ee5ce03fb9ff559e e0a4a288121da8de eeaa42f1fadabde4 b4da138234482736 c665d014dd072331 d7e1e115157eb60b c9c6dd41b5101305 921736368cbbf497 a23aaaa2102cad55 c53cc05ae9f9174b f6b50be3ec0187e3 fc2e3538d753f691 c14d0ddc98efb685 4f13e69c16af593 18beec24b80219bf d0f1d045811f73a1 c28a6934da0bfa00 120e13c0d5e30eae d702824fdb495558 35554f59e2ffe405 38e2f2b3198ceb84 f4d640dcc7636319 2a63471e8fe57502 a9726086aa2b9035 f18ef34ee34639d1 f32baed31e48a163 c87431989bf23a6c ff38743d1c9e0f5a 3ae6b0bd3a0324e7 d5f55f53f2642311 f02326b835ae255 bd5e073cd52dd391 c791f6a2c9e8e328 cd43c57d13536690 e8813a21d694290d 207d0c350aa1ccba 1df5334a301330c3 6a759d0edc0d1b2 f8629e6c06766d6b 36899e2e27246605 94e537b79657d1b6 9cce3f213d30f7fe e4555e030d47d624 a39fa7dad357dd4f 9088d54df93a95ba 86826bdec06de6fc 93c5c44bf4de3350 ee18c90b2a2213b9 ea8ffab5244e9999 992ccce9f49b34e9 9ebd48a2fe55bf00 a2a45899874595f4 fbe0cade894d4357 7a302583bd12583 ] wstrb=[80 77 f1 d8 55 74 30 d6 ec 21 ae 41 96 de 17 82 ff c5 c3 95 a3 db 17 a3 a0 db 38 44 b6 50 e7 56 2b 1f 9a e1 6f 81 37 9a a1 d2 7b 10 53 b3 ab f4 85 26 5 d8 d9 b0 cd 5e d6 d2 37 b0 82 4 e 58 d6 45 8 58 49 17 b0 1f 5c b9 77 a6 d0 28 c5 2c e1 3d d2 b1 65 98 dd 46 d5 b0 ] bresp=0 bid=0
[15000] MASTER_DRIVER1 received transaction, op=AXI_WRITE
[35000] MASTER 1 AW_VALID_RDY Handshake
[45000] ARB MONITOR: slave=1 m0_req=0 m1_req=1 winner=1
[45000] AXI S1_AWVALID_RDY HANDSHAKE
[55000] MASTER 1 W_VALID_RDY Handshake beat=0 wlast=0
[65000] MASTER 1 W_VALID_RDY Handshake beat=1 wlast=0
[65000] S1 MEMORY WRITE beat=0 addr=1842a1c8 data=c67a537aaf3aafbf id=1f
[75000] S1 MEMORY WRITE beat=1 addr=1842a1cc data=c89d107bef60fe8c id=1f
[75000] MASTER 1 W_VALID_RDY Handshake beat=2 wlast=0
[85000] MASTER 1 W_VALID_RDY Handshake beat=3 wlast=0
[85000] S1 MEMORY WRITE beat=2 addr=1842a1d0 data=03633623cc360fb3 id=1f
[95000] S1 MEMORY WRITE beat=3 addr=1842a1d4 data=fb70bf73e907c56f id=1f
[95000] MASTER 1 W_VALID_RDY Handshake beat=4 wlast=0
[105000] MASTER 1 W_VALID_RDY Handshake beat=5 wlast=0
[105000] S1 MEMORY WRITE beat=4 addr=1842a1d8 data=d868c3fbc9dd899d id=1f
[115000] S1 MEMORY WRITE beat=5 addr=1842a1dc data=16139951c40dcfee id=1f
[115000] MASTER 1 W_VALID_RDY Handshake beat=6 wlast=0
[125000] MASTER_DRIVER1 received transaction, op=AXI_WRITE
[125000] MASTER 1 W_VALID_RDY Handshake beat=7 wlast=1
[125000] S1 MEMORY WRITE beat=6 addr=1842a1c0 data=ad15955ddbcbfa1e id=1f
[135000] S1 MEMORY WRITE beat=7 addr=1842a1c4 data=25a983bc118458c4 id=1f
[145000] MASTER 1 AW_VALID_RDY Handshake
[145000] SLAVE1 sent B resp, id=15
[155000] AXI S0_AWVALID_RDY HANDSHAKE
[155000] [SLAVE MONITOR] mst_id=1 s_id=1 awaddr=1842a1c8 awid=1111 awlen=7 awsize=2 awburst=2 wdata=[c67a537aaf3aafbf c89d107bef60fe8c 3633623cc360fb3 fb70bf73e907c56f d868c3fbc9dd899d 16139951c40dcfee ad15955ddbcbfa1e 25a983bc118458c4 ] wstrb=[59 b2 d 77 f d1 33 68 ] bresp=0 bid=11111
[155000] ARB MONITOR: slave=0 m0_req=0 m1_req=1 winner=1
[165000] MASTER 1 RECEIVED BRESP. BRESP=0
[165000] [MASTER DRIVER] mst_id=1 s_id=0 awaddr=1842a1c8 awid=1111 awlen=7 awsize=2 awburst=2 wdata=[c67a537aaf3aafbf c89d107bef60fe8c 3633623cc360fb3 fb70bf73e907c56f d868c3fbc9dd899d 16139951c40dcfee ad15955ddbcbfa1e 25a983bc118458c4 ] wstrb=[59 b2 d 77 f d1 33 68 ] bresp=0 bid=1111
[165000] MASTER 1 W_VALID_RDY Handshake beat=0 wlast=0
[165000] MASTER 1 B_VALID_RDY Handshake
[165000] [MASTER MONITOR] mst_id=1 s_id=1 awaddr=1842a1c8 awid=1111 awlen=7 awsize=2 awburst=2 wdata=[c67a537aaf3aafbf c89d107bef60fe8c 3633623cc360fb3 fb70bf73e907c56f d868c3fbc9dd899d 16139951c40dcfee ad15955ddbcbfa1e 25a983bc118458c4 ] wstrb=[59 b2 d 77 f d1 33 68 ] bresp=0 bid=1111
[165000] SCOREBOARD MATCH: decode_err expected = 0, actual =0
[165000] SCOREBOARD MATCH: slave_id expected = 1, actual =1
[165000] SCOREBOARD MATCH: awaddr passthrough expected = 1842a1c8, actual =1842a1c8
[165000] SCOREBOARD MATCH: awlen passthrough expected = 7, actual =7
[165000] SCOREBOARD MATCH: awsize passthrough expected = 2, actual =2
[165000] SCOREBOARD MATCH: awburst passthrough expected = 2, actual =2
[165000] SCOREBOARD MATCH: wdata size check expected = 8, actual =8
[165000] SCOREBOARD MATCH: wdata passthrough beat=0 expected = c67a537aaf3aafbf, actual =c67a537aaf3aafbf
[165000] SCOREBOARD MATCH: wdata passthrough beat=1 expected = c89d107bef60fe8c, actual =c89d107bef60fe8c
[165000] SCOREBOARD MATCH: wdata passthrough beat=2 expected = 3633623cc360fb3, actual =3633623cc360fb3
[165000] SCOREBOARD MATCH: wdata passthrough beat=3 expected = fb70bf73e907c56f, actual =fb70bf73e907c56f
[165000] SCOREBOARD MATCH: wdata passthrough beat=4 expected = d868c3fbc9dd899d, actual =d868c3fbc9dd899d
[165000] SCOREBOARD MATCH: wdata passthrough beat=5 expected = 16139951c40dcfee, actual =16139951c40dcfee
[165000] SCOREBOARD MATCH: wdata passthrough beat=6 expected = ad15955ddbcbfa1e, actual =ad15955ddbcbfa1e
[165000] SCOREBOARD MATCH: wdata passthrough beat=7 expected = 25a983bc118458c4, actual =25a983bc118458c4
[165000] SCOREBOARD MATCH: wstrb size check expected = 8, actual =8
[165000] SCOREBOARD MATCH: wstrb passthrough beat=0 expected = 59, actual =59
[165000] SCOREBOARD MATCH: wstrb passthrough beat=1 expected = b2, actual =b2
[165000] SCOREBOARD MATCH: wstrb passthrough beat=2 expected = d, actual =d
[165000] SCOREBOARD MATCH: wstrb passthrough beat=3 expected = 77, actual =77
[165000] SCOREBOARD MATCH: wstrb passthrough beat=4 expected = f, actual =f
[165000] SCOREBOARD MATCH: wstrb passthrough beat=5 expected = d1, actual =d1
[165000] SCOREBOARD MATCH: wstrb passthrough beat=6 expected = 33, actual =33
[165000] SCOREBOARD MATCH: wstrb passthrough beat=7 expected = 68, actual =68
[165000] SCOREBOARD MATCH: bresp passthrough expected = 0, actual =0
[165000] SCOREBOARD MATCH: response routed to correct master (write) expected = 1, actual =1
[165000] [SCOREBOARD-M] mst_id=1 s_id=1 awaddr=1842a1c8 awid=1111 awlen=7 awsize=2 awburst=2 wdata=[c67a537aaf3aafbf c89d107bef60fe8c 3633623cc360fb3 fb70bf73e907c56f d868c3fbc9dd899d 16139951c40dcfee ad15955ddbcbfa1e 25a983bc118458c4 ] wstrb=[59 b2 d 77 f d1 33 68 ] bresp=0 bid=1111
[165000] [SCOREBOARD-S] mst_id=1 s_id=1 awaddr=1842a1c8 awid=1111 awlen=7 awsize=2 awburst=2 wdata=[c67a537aaf3aafbf c89d107bef60fe8c 3633623cc360fb3 fb70bf73e907c56f d868c3fbc9dd899d 16139951c40dcfee ad15955ddbcbfa1e 25a983bc118458c4 ] wstrb=[59 b2 d 77 f d1 33 68 ] bresp=0 bid=11111
[165000] SCOREBOARD: Transaction 1 received. pass=26 fail=0
[165000] ALL PASS. Total transactions: 1
[175000] AXI S0_WVALID_RDY HANDSHAKE
[175000] S0 MEMORY WRITE beat=0 addr=00932d50 data=fa998013297a57e0 id=17
[175000] MASTER 1 W_VALID_RDY Handshake beat=1 wlast=0
[185000] MASTER 1 W_VALID_RDY Handshake beat=2 wlast=0
[185000] AXI S0_WVALID_RDY HANDSHAKE
[185000] S0 MEMORY WRITE beat=1 addr=00932d50 data=0bab8488bbc2048b id=17
[195000] AXI S0_WVALID_RDY HANDSHAKE
[195000] S0 MEMORY WRITE beat=2 addr=00932d50 data=f38f5090a29d9063 id=17
[195000] MASTER 1 W_VALID_RDY Handshake beat=3 wlast=0
[205000] MASTER 1 W_VALID_RDY Handshake beat=4 wlast=0
[205000] AXI S0_WVALID_RDY HANDSHAKE
[205000] S0 MEMORY WRITE beat=3 addr=00932d50 data=cc17e843cdef16da id=17
[215000] AXI S0_WVALID_RDY HANDSHAKE
[215000] S0 MEMORY WRITE beat=4 addr=00932d50 data=89b11b65ee28d0a3 id=17
[215000] MASTER 1 W_VALID_RDY Handshake beat=5 wlast=0
[225000] MASTER 1 W_VALID_RDY Handshake beat=6 wlast=0
[225000] AXI S0_WVALID_RDY HANDSHAKE
[225000] S0 MEMORY WRITE beat=5 addr=00932d50 data=90c66106d7c36ccb id=17
[235000] AXI S0_WVALID_RDY HANDSHAKE
[235000] S0 MEMORY WRITE beat=6 addr=00932d50 data=a5b283a5fd406bf5 id=17
[235000] MASTER 1 W_VALID_RDY Handshake beat=7 wlast=0
[245000] MASTER 1 W_VALID_RDY Handshake beat=8 wlast=0
[245000] AXI S0_WVALID_RDY HANDSHAKE
[245000] S0 MEMORY WRITE beat=7 addr=00932d50 data=eb693c98dcde494a id=17
[255000] AXI S0_WVALID_RDY HANDSHAKE
[255000] S0 MEMORY WRITE beat=8 addr=00932d50 data=b4a1b6152f639f0b id=17
[255000] MASTER 1 W_VALID_RDY Handshake beat=9 wlast=0
[265000] MASTER 1 W_VALID_RDY Handshake beat=10 wlast=0
[265000] AXI S0_WVALID_RDY HANDSHAKE
[265000] S0 MEMORY WRITE beat=9 addr=00932d50 data=aca40b00fc2f9d9f id=17
[275000] AXI S0_WVALID_RDY HANDSHAKE
[275000] S0 MEMORY WRITE beat=10 addr=00932d50 data=d90de6e9da5439bb id=17
[275000] MASTER 1 W_VALID_RDY Handshake beat=11 wlast=1
[275000] MASTER_DRIVER1 received transaction, op=AXI_READ
[285000] AXI S0_WVALID_RDY HANDSHAKE
[285000] S0 MEMORY WRITE beat=11 addr=00932d50 data=09b7d8c6180d4799 id=17
[295000] SLAVE0 sent B resp, id=7
[295000] [SLAVE MONITOR] mst_id=1 s_id=0 awaddr=932d50 awid=111 awlen=11 awsize=1 awburst=0 wdata=[fa998013297a57e0 bab8488bbc2048b f38f5090a29d9063 cc17e843cdef16da 89b11b65ee28d0a3 90c66106d7c36ccb a5b283a5fd406bf5 eb693c98dcde494a b4a1b6152f639f0b aca40b00fc2f9d9f d90de6e9da5439bb 9b7d8c6180d4799 ] wstrb=[fe 38 c6 b9 21 5f 7f 1f 97 46 d9 b8 ] bresp=0 bid=10111
[295000] MASTER_DRIVER1 received transaction, op=AXI_READ
[305000] ARB MONITOR: slave=1 m0_req=0 m1_req=1 winner=1
[305000] AXI S0_ARVALID_RDY HANDSHAKE
[305000] MEMORY READ MISS beat=0 addr=19e6d520 -> default data id=18
[315000] MEMORY READ MISS beat=1 addr=19e6d528 -> default data id=18
[315000] SLAVE 1 R_VALID_RDY Handshake beat=0 rlast=0
[315000] MASTER 1 B_VALID_RDY Handshake
[315000] [MASTER MONITOR] mst_id=1 s_id=0 awaddr=932d50 awid=111 awlen=11 awsize=1 awburst=0 wdata=[fa998013297a57e0 bab8488bbc2048b f38f5090a29d9063 cc17e843cdef16da 89b11b65ee28d0a3 90c66106d7c36ccb a5b283a5fd406bf5 eb693c98dcde494a b4a1b6152f639f0b aca40b00fc2f9d9f d90de6e9da5439bb 9b7d8c6180d4799 ] wstrb=[fe 38 c6 b9 21 5f 7f 1f 97 46 d9 b8 ] bresp=0 bid=111
[315000] MASTER_DRIVER1 received transaction, op=AXI_WRITE
[315000] MASTER 1 RECEIVED BRESP. BRESP=0
[315000] [MASTER DRIVER] mst_id=1 s_id=0 awaddr=932d50 awid=111 awlen=11 awsize=1 awburst=0 wdata=[fa998013297a57e0 bab8488bbc2048b f38f5090a29d9063 cc17e843cdef16da 89b11b65ee28d0a3 90c66106d7c36ccb a5b283a5fd406bf5 eb693c98dcde494a b4a1b6152f639f0b aca40b00fc2f9d9f d90de6e9da5439bb 9b7d8c6180d4799 ] wstrb=[fe 38 c6 b9 21 5f 7f 1f 97 46 d9 b8 ] bresp=0 bid=111
[315000] SCOREBOARD MATCH: decode_err expected = 0, actual =0
[315000] SCOREBOARD MATCH: slave_id expected = 0, actual =0
[315000] SCOREBOARD MATCH: awaddr passthrough expected = 932d50, actual =932d50
[315000] SCOREBOARD MATCH: awlen passthrough expected = 11, actual =11
[315000] SCOREBOARD MATCH: awsize passthrough expected = 1, actual =1
[315000] SCOREBOARD MATCH: awburst passthrough expected = 0, actual =0
[315000] SCOREBOARD MATCH: wdata size check expected = c, actual =c
[315000] SCOREBOARD MATCH: wdata passthrough beat=0 expected = fa998013297a57e0, actual =fa998013297a57e0
[315000] SCOREBOARD MATCH: wdata passthrough beat=1 expected = bab8488bbc2048b, actual =bab8488bbc2048b
[315000] SCOREBOARD MATCH: wdata passthrough beat=2 expected = f38f5090a29d9063, actual =f38f5090a29d9063
[315000] SCOREBOARD MATCH: wdata passthrough beat=3 expected = cc17e843cdef16da, actual =cc17e843cdef16da
[315000] SCOREBOARD MATCH: wdata passthrough beat=4 expected = 89b11b65ee28d0a3, actual =89b11b65ee28d0a3
[315000] SCOREBOARD MATCH: wdata passthrough beat=5 expected = 90c66106d7c36ccb, actual =90c66106d7c36ccb
[315000] SCOREBOARD MATCH: wdata passthrough beat=6 expected = a5b283a5fd406bf5, actual =a5b283a5fd406bf5
[315000] SCOREBOARD MATCH: wdata passthrough beat=7 expected = eb693c98dcde494a, actual =eb693c98dcde494a
[315000] SCOREBOARD MATCH: wdata passthrough beat=8 expected = b4a1b6152f639f0b, actual =b4a1b6152f639f0b
[315000] SCOREBOARD MATCH: wdata passthrough beat=9 expected = aca40b00fc2f9d9f, actual =aca40b00fc2f9d9f
[315000] SCOREBOARD MATCH: wdata passthrough beat=10 expected = d90de6e9da5439bb, actual =d90de6e9da5439bb
[315000] SCOREBOARD MATCH: wdata passthrough beat=11 expected = 9b7d8c6180d4799, actual =9b7d8c6180d4799
[315000] SCOREBOARD MATCH: wstrb size check expected = c, actual =c
[315000] SCOREBOARD MATCH: wstrb passthrough beat=0 expected = fe, actual =fe
[315000] SCOREBOARD MATCH: wstrb passthrough beat=1 expected = 38, actual =38
[315000] SCOREBOARD MATCH: wstrb passthrough beat=2 expected = c6, actual =c6
[315000] SCOREBOARD MATCH: wstrb passthrough beat=3 expected = b9, actual =b9
[315000] SCOREBOARD MATCH: wstrb passthrough beat=4 expected = 21, actual =21
[315000] SCOREBOARD MATCH: wstrb passthrough beat=5 expected = 5f, actual =5f
[315000] SCOREBOARD MATCH: wstrb passthrough beat=6 expected = 7f, actual =7f
[315000] SCOREBOARD MATCH: wstrb passthrough beat=7 expected = 1f, actual =1f
[315000] SCOREBOARD MATCH: wstrb passthrough beat=8 expected = 97, actual =97
[315000] SCOREBOARD MATCH: wstrb passthrough beat=9 expected = 46, actual =46
[315000] SCOREBOARD MATCH: wstrb passthrough beat=10 expected = d9, actual =d9
[315000] SCOREBOARD MATCH: wstrb passthrough beat=11 expected = b8, actual =b8
[315000] SCOREBOARD MATCH: bresp passthrough expected = 0, actual =0
[315000] SCOREBOARD MATCH: response routed to correct master (write) expected = 1, actual =1
[315000] [SCOREBOARD-M] mst_id=1 s_id=0 awaddr=932d50 awid=111 awlen=11 awsize=1 awburst=0 wdata=[fa998013297a57e0 bab8488bbc2048b f38f5090a29d9063 cc17e843cdef16da 89b11b65ee28d0a3 90c66106d7c36ccb a5b283a5fd406bf5 eb693c98dcde494a b4a1b6152f639f0b aca40b00fc2f9d9f d90de6e9da5439bb 9b7d8c6180d4799 ] wstrb=[fe 38 c6 b9 21 5f 7f 1f 97 46 d9 b8 ] bresp=0 bid=111
[315000] [SCOREBOARD-S] mst_id=1 s_id=0 awaddr=932d50 awid=111 awlen=11 awsize=1 awburst=0 wdata=[fa998013297a57e0 bab8488bbc2048b f38f5090a29d9063 cc17e843cdef16da 89b11b65ee28d0a3 90c66106d7c36ccb a5b283a5fd406bf5 eb693c98dcde494a b4a1b6152f639f0b aca40b00fc2f9d9f d90de6e9da5439bb 9b7d8c6180d4799 ] wstrb=[fe 38 c6 b9 21 5f 7f 1f 97 46 d9 b8 ] bresp=0 bid=10111
[315000] SCOREBOARD: Transaction 2 received. pass=60 fail=0
[315000] ALL PASS. Total transactions: 2
[325000] SLAVE 1 R_VALID_RDY Handshake beat=1 rlast=1
[325000] [SLAVE MONITOR] READ mst_id=1 s_id=1 araddr=19e6d520 arid=2 arlen=1 arsize=3 arburst=1 rid=[1212] rresp=[00] rdata=[baadf00d12345678baadf00d12345678]
[335000] AXI S0_ARVALID_RDY HANDSHAKE
[335000] MEMORY READ MISS beat=0 addr=12731708 -> default data id=19
[335000] ARB MONITOR: slave=1 m0_req=0 m1_req=1 winner=1
[335000] MASTER 1 R_VALID_RDY Handshake beat=0 rlast=0
[335000] MASTER 1 AW_VALID_RDY Handshake
[345000] [MASTER DRIVER] READ mst_id=1 s_id=0 araddr=19e6d520 arid=2 arlen=1 arsize=3 arburst=1 rid=[22] rresp=[00] rdata=[baadf00d12345678baadf00d12345678]
[345000] MASTER 1 R_VALID_RDY Handshake beat=1 rlast=1
[345000] [MASTER MONITOR] READ mst_id=1 s_id=1 araddr=19e6d520 arid=2 arlen=1 arsize=3 arburst=1 rid=[22] rresp=[00] rdata=[baadf00d12345678baadf00d12345678]
[345000] ARB MONITOR: slave=1 m0_req=0 m1_req=1 winner=1
[345000] SLAVE 1 R_VALID_RDY Handshake beat=0 rlast=0
[345000] MEMORY READ MISS beat=1 addr=12731710 -> default data id=19
[345000] AXI S1_AWVALID_RDY HANDSHAKE
[345000] SCOREBOARD MATCH: decode_err expected = 0, actual =0
[345000] SCOREBOARD MATCH: slave_id expected = 1, actual =1
[345000] SCOREBOARD MATCH: araddr passthrough expected = 19e6d520, actual =19e6d520
[345000] SCOREBOARD MATCH: arlen passthrough expected = 1, actual =1
[345000] SCOREBOARD MATCH: arsize passthrough expected = 3, actual =3
[345000] SCOREBOARD MATCH: arburst passthrough expected = 1, actual =1
[345000] SCOREBOARD MATCH: rdata size check expected = 2, actual =2
[345000] SCOREBOARD MATCH: rdata passthrough beat=0 expected = baadf00d12345678, actual =baadf00d12345678
[345000] SCOREBOARD MATCH: rdata passthrough beat=1 expected = baadf00d12345678, actual =baadf00d12345678
[345000] SCOREBOARD MATCH: rresp size check expected = 2, actual =2
[345000] SCOREBOARD MATCH: rresp passthrough beat=0 expected = 0, actual =0
[345000] SCOREBOARD MATCH: rresp passthrough beat=1 expected = 0, actual =0
[345000] SCOREBOARD MATCH: response routed to correct master (read beat 0) expected = 1, actual =1
[345000] SCOREBOARD MATCH: response routed to correct master (read beat 1) expected = 1, actual =1
[345000] [SCOREBOARD-M] READ mst_id=1 s_id=1 araddr=19e6d520 arid=2 arlen=1 arsize=3 arburst=1 rid=[22] rresp=[00] rdata=[baadf00d12345678baadf00d12345678]
[345000] [SCOREBOARD-S] READ mst_id=1 s_id=1 araddr=19e6d520 arid=2 arlen=1 arsize=3 arburst=1 rid=[1212] rresp=[00] rdata=[baadf00d12345678baadf00d12345678]
[345000] SCOREBOARD: Transaction 3 received. pass=74 fail=0
[345000] ALL PASS. Total transactions: 3
[355000] SLAVE 1 R_VALID_RDY Handshake beat=1 rlast=1
[355000] [SLAVE MONITOR] READ mst_id=1 s_id=1 araddr=12731708 arid=3 arlen=1 arsize=3 arburst=1 rid=[1313] rresp=[00] rdata=[baadf00d12345678baadf00d12345678]
[355000] MASTER 1 W_VALID_RDY Handshake beat=0 wlast=0
[365000] MASTER 1 W_VALID_RDY Handshake beat=1 wlast=0
[365000] MASTER 1 R_VALID_RDY Handshake beat=0 rlast=0
[365000] S1 MEMORY WRITE beat=0 addr=169935c8 data=e62e0a1e87ffb7cb id=12
[375000] S1 MEMORY WRITE beat=1 addr=169935c9 data=159170d2d088bd3c id=12
[375000] MASTER 1 R_VALID_RDY Handshake beat=1 rlast=1
[375000] [MASTER MONITOR] READ mst_id=1 s_id=1 araddr=12731708 arid=3 arlen=1 arsize=3 arburst=1 rid=[33] rresp=[00] rdata=[baadf00d12345678baadf00d12345678]
[375000] MASTER 1 W_VALID_RDY Handshake beat=2 wlast=0
[375000] [MASTER DRIVER] READ mst_id=1 s_id=0 araddr=12731708 arid=3 arlen=1 arsize=3 arburst=1 rid=[33] rresp=[00] rdata=[baadf00d12345678baadf00d12345678]
[375000] SCOREBOARD MATCH: decode_err expected = 0, actual =0
[375000] SCOREBOARD MATCH: slave_id expected = 1, actual =1
[375000] SCOREBOARD MATCH: araddr passthrough expected = 12731708, actual =12731708
[375000] SCOREBOARD MATCH: arlen passthrough expected = 1, actual =1
[375000] SCOREBOARD MATCH: arsize passthrough expected = 3, actual =3
[375000] SCOREBOARD MATCH: arburst passthrough expected = 1, actual =1
[375000] SCOREBOARD MATCH: rdata size check expected = 2, actual =2
[375000] SCOREBOARD MATCH: rdata passthrough beat=0 expected = baadf00d12345678, actual =baadf00d12345678
[375000] SCOREBOARD MATCH: rdata passthrough beat=1 expected = baadf00d12345678, actual =baadf00d12345678
[375000] SCOREBOARD MATCH: rresp size check expected = 2, actual =2
[375000] SCOREBOARD MATCH: rresp passthrough beat=0 expected = 0, actual =0
[375000] SCOREBOARD MATCH: rresp passthrough beat=1 expected = 0, actual =0
[375000] SCOREBOARD MATCH: response routed to correct master (read beat 0) expected = 1, actual =1
[375000] SCOREBOARD MATCH: response routed to correct master (read beat 1) expected = 1, actual =1
[375000] [SCOREBOARD-M] READ mst_id=1 s_id=1 araddr=12731708 arid=3 arlen=1 arsize=3 arburst=1 rid=[33] rresp=[00] rdata=[baadf00d12345678baadf00d12345678]
[375000] [SCOREBOARD-S] READ mst_id=1 s_id=1 araddr=12731708 arid=3 arlen=1 arsize=3 arburst=1 rid=[1313] rresp=[00] rdata=[baadf00d12345678baadf00d12345678]
[375000] SCOREBOARD: Transaction 4 received. pass=88 fail=0
[375000] ALL PASS. Total transactions: 4
[385000] MASTER 1 W_VALID_RDY Handshake beat=3 wlast=0
[385000] S1 MEMORY WRITE beat=2 addr=169935ca data=af728902aca4af77 id=12
[395000] S1 MEMORY WRITE beat=3 addr=169935cb data=34a46743fdc997df id=12
[395000] MASTER 1 W_VALID_RDY Handshake beat=4 wlast=0
[405000] MASTER 1 W_VALID_RDY Handshake beat=5 wlast=0
[405000] S1 MEMORY WRITE beat=4 addr=169935cc data=ce52551b95a09320 id=12
[415000] S1 MEMORY WRITE beat=5 addr=169935cd data=c2454298ca35d815 id=12
[415000] MASTER 1 W_VALID_RDY Handshake beat=6 wlast=0
[425000] MASTER 1 W_VALID_RDY Handshake beat=7 wlast=0
[425000] S1 MEMORY WRITE beat=6 addr=169935ce data=c7ff6ff4fdc4de1d id=12
[435000] S1 MEMORY WRITE beat=7 addr=169935cf data=1365713ef6e9a9db id=12
[435000] MASTER 1 W_VALID_RDY Handshake beat=8 wlast=0
[445000] MASTER 1 W_VALID_RDY Handshake beat=9 wlast=0
[445000] S1 MEMORY WRITE beat=8 addr=169935d0 data=c11f81f01651c50f id=12
[455000] S1 MEMORY WRITE beat=9 addr=169935d1 data=9416a32cd5aab3d6 id=12
[455000] MASTER 1 W_VALID_RDY Handshake beat=10 wlast=0
[465000] MASTER 1 W_VALID_RDY Handshake beat=11 wlast=0
[465000] S1 MEMORY WRITE beat=10 addr=169935d2 data=cc945db1091ef1e4 id=12
[475000] S1 MEMORY WRITE beat=11 addr=169935d3 data=1f70b6f3a77c146a id=12
[475000] MASTER 1 W_VALID_RDY Handshake beat=12 wlast=0
[485000] MASTER 1 W_VALID_RDY Handshake beat=13 wlast=0
[485000] S1 MEMORY WRITE beat=12 addr=169935d4 data=fd26c8400db3dfa1 id=12
[495000] S1 MEMORY WRITE beat=13 addr=169935d5 data=16d2d185b3875a1f id=12
[495000] MASTER 1 W_VALID_RDY Handshake beat=14 wlast=0
[505000] MASTER 1 W_VALID_RDY Handshake beat=15 wlast=0
[505000] S1 MEMORY WRITE beat=14 addr=169935d6 data=db036e8ac9bb25f1 id=12
[515000] S1 MEMORY WRITE beat=15 addr=169935d7 data=d76f059236438878 id=12
[515000] MASTER 1 W_VALID_RDY Handshake beat=16 wlast=0
[525000] MASTER 1 W_VALID_RDY Handshake beat=17 wlast=0
[525000] S1 MEMORY WRITE beat=16 addr=169935d8 data=e9cae297d82a36ca id=12
[535000] S1 MEMORY WRITE beat=17 addr=169935d9 data=21e55cbcee41d717 id=12
[535000] MASTER 1 W_VALID_RDY Handshake beat=18 wlast=0
[545000] MASTER 1 W_VALID_RDY Handshake beat=19 wlast=0
[545000] S1 MEMORY WRITE beat=18 addr=169935da data=a4855f8fc4ce5121 id=12
[555000] S1 MEMORY WRITE beat=19 addr=169935db data=1cf887ecf954624e id=12
[555000] MASTER 1 W_VALID_RDY Handshake beat=20 wlast=0
[565000] MASTER 1 W_VALID_RDY Handshake beat=21 wlast=0
[565000] S1 MEMORY WRITE beat=20 addr=169935dc data=e79639660e504227 id=12
[575000] S1 MEMORY WRITE beat=21 addr=169935dd data=d31e93483edde4a8 id=12
[575000] MASTER 1 W_VALID_RDY Handshake beat=22 wlast=0
[585000] MASTER 1 W_VALID_RDY Handshake beat=23 wlast=0
[585000] S1 MEMORY WRITE beat=22 addr=169935de data=b83246f68c1b98f5 id=12
[595000] S1 MEMORY WRITE beat=23 addr=169935df data=9a6bdb1cf0171b34 id=12
[595000] MASTER 1 W_VALID_RDY Handshake beat=24 wlast=0
[605000] MASTER 1 W_VALID_RDY Handshake beat=25 wlast=0
[605000] S1 MEMORY WRITE beat=24 addr=169935e0 data=aef4ffdc9fc8805c id=12
[615000] S1 MEMORY WRITE beat=25 addr=169935e1 data=2be41952ed8a6e65 id=12
[615000] MASTER 1 W_VALID_RDY Handshake beat=26 wlast=0
[625000] MASTER 1 W_VALID_RDY Handshake beat=27 wlast=0
[625000] S1 MEMORY WRITE beat=26 addr=169935e2 data=dda18999e72746d3 id=12
[635000] S1 MEMORY WRITE beat=27 addr=169935e3 data=86efc72fc64ff46e id=12
[635000] MASTER 1 W_VALID_RDY Handshake beat=28 wlast=0
[645000] MASTER 1 W_VALID_RDY Handshake beat=29 wlast=0
[645000] S1 MEMORY WRITE beat=28 addr=169935e4 data=b3da62d30c968976 id=12
[655000] S1 MEMORY WRITE beat=29 addr=169935e5 data=f3bdd049b2d3e081 id=12
[655000] MASTER 1 W_VALID_RDY Handshake beat=30 wlast=0
[665000] MASTER 1 W_VALID_RDY Handshake beat=31 wlast=0
[665000] S1 MEMORY WRITE beat=30 addr=169935e6 data=f923d4f0117bec6d id=12
[675000] S1 MEMORY WRITE beat=31 addr=169935e7 data=1e1275e3faad9778 id=12
[675000] MASTER 1 W_VALID_RDY Handshake beat=32 wlast=0
[685000] MASTER 1 W_VALID_RDY Handshake beat=33 wlast=0
[685000] S1 MEMORY WRITE beat=32 addr=169935e8 data=2d8177faacfe37c3 id=12
[695000] S1 MEMORY WRITE beat=33 addr=169935e9 data=be7a243011d0462c id=12
[695000] MASTER 1 W_VALID_RDY Handshake beat=34 wlast=0
[705000] MASTER 1 W_VALID_RDY Handshake beat=35 wlast=0
[705000] S1 MEMORY WRITE beat=34 addr=169935ea data=8c7ddda426a54cea id=12
[715000] S1 MEMORY WRITE beat=35 addr=169935eb data=d3a384addc8c9a13 id=12
[715000] MASTER 1 W_VALID_RDY Handshake beat=36 wlast=0
[725000] MASTER 1 W_VALID_RDY Handshake beat=37 wlast=0
[725000] S1 MEMORY WRITE beat=36 addr=169935ec data=ee5ce03fb9ff559e id=12
[735000] S1 MEMORY WRITE beat=37 addr=169935ed data=e0a4a288121da8de id=12
[735000] MASTER 1 W_VALID_RDY Handshake beat=38 wlast=0
[745000] MASTER 1 W_VALID_RDY Handshake beat=39 wlast=0
[745000] S1 MEMORY WRITE beat=38 addr=169935ee data=eeaa42f1fadabde4 id=12
[755000] S1 MEMORY WRITE beat=39 addr=169935ef data=b4da138234482736 id=12
[755000] MASTER 1 W_VALID_RDY Handshake beat=40 wlast=0
[765000] MASTER 1 W_VALID_RDY Handshake beat=41 wlast=0
[765000] S1 MEMORY WRITE beat=40 addr=169935f0 data=c665d014dd072331 id=12
[775000] S1 MEMORY WRITE beat=41 addr=169935f1 data=d7e1e115157eb60b id=12
[775000] MASTER 1 W_VALID_RDY Handshake beat=42 wlast=0
[785000] MASTER 1 W_VALID_RDY Handshake beat=43 wlast=0
[785000] S1 MEMORY WRITE beat=42 addr=169935f2 data=c9c6dd41b5101305 id=12
[795000] S1 MEMORY WRITE beat=43 addr=169935f3 data=921736368cbbf497 id=12
[795000] MASTER 1 W_VALID_RDY Handshake beat=44 wlast=0
[805000] MASTER 1 W_VALID_RDY Handshake beat=45 wlast=0
[805000] S1 MEMORY WRITE beat=44 addr=169935f4 data=a23aaaa2102cad55 id=12
[815000] S1 MEMORY WRITE beat=45 addr=169935f5 data=c53cc05ae9f9174b id=12
[815000] MASTER 1 W_VALID_RDY Handshake beat=46 wlast=0
[825000] MASTER 1 W_VALID_RDY Handshake beat=47 wlast=0
[825000] S1 MEMORY WRITE beat=46 addr=169935f6 data=f6b50be3ec0187e3 id=12
[835000] S1 MEMORY WRITE beat=47 addr=169935f7 data=fc2e3538d753f691 id=12
[835000] MASTER 1 W_VALID_RDY Handshake beat=48 wlast=0
[845000] MASTER 1 W_VALID_RDY Handshake beat=49 wlast=0
[845000] S1 MEMORY WRITE beat=48 addr=169935f8 data=c14d0ddc98efb685 id=12
[855000] S1 MEMORY WRITE beat=49 addr=169935f9 data=04f13e69c16af593 id=12
[855000] MASTER 1 W_VALID_RDY Handshake beat=50 wlast=0
[865000] MASTER 1 W_VALID_RDY Handshake beat=51 wlast=0
[865000] S1 MEMORY WRITE beat=50 addr=169935fa data=18beec24b80219bf id=12
[875000] S1 MEMORY WRITE beat=51 addr=169935fb data=d0f1d045811f73a1 id=12
[875000] MASTER 1 W_VALID_RDY Handshake beat=52 wlast=0
[885000] MASTER 1 W_VALID_RDY Handshake beat=53 wlast=0
[885000] S1 MEMORY WRITE beat=52 addr=169935fc data=c28a6934da0bfa00 id=12
[895000] S1 MEMORY WRITE beat=53 addr=169935fd data=120e13c0d5e30eae id=12
[895000] MASTER 1 W_VALID_RDY Handshake beat=54 wlast=0
[905000] MASTER 1 W_VALID_RDY Handshake beat=55 wlast=0
[905000] S1 MEMORY WRITE beat=54 addr=169935fe data=d702824fdb495558 id=12
[915000] S1 MEMORY WRITE beat=55 addr=169935ff data=35554f59e2ffe405 id=12
[915000] MASTER 1 W_VALID_RDY Handshake beat=56 wlast=0
[925000] MASTER 1 W_VALID_RDY Handshake beat=57 wlast=0
[925000] S1 MEMORY WRITE beat=56 addr=16993600 data=38e2f2b3198ceb84 id=12
[935000] S1 MEMORY WRITE beat=57 addr=16993601 data=f4d640dcc7636319 id=12
[935000] MASTER 1 W_VALID_RDY Handshake beat=58 wlast=0
[945000] MASTER 1 W_VALID_RDY Handshake beat=59 wlast=0
[945000] S1 MEMORY WRITE beat=58 addr=16993602 data=2a63471e8fe57502 id=12
[955000] S1 MEMORY WRITE beat=59 addr=16993603 data=a9726086aa2b9035 id=12
[955000] MASTER 1 W_VALID_RDY Handshake beat=60 wlast=0
[965000] MASTER 1 W_VALID_RDY Handshake beat=61 wlast=0
[965000] S1 MEMORY WRITE beat=60 addr=16993604 data=f18ef34ee34639d1 id=12
[975000] S1 MEMORY WRITE beat=61 addr=16993605 data=f32baed31e48a163 id=12
[975000] MASTER 1 W_VALID_RDY Handshake beat=62 wlast=0
[985000] MASTER 1 W_VALID_RDY Handshake beat=63 wlast=0
[985000] S1 MEMORY WRITE beat=62 addr=16993606 data=c87431989bf23a6c id=12
[995000] S1 MEMORY WRITE beat=63 addr=16993607 data=ff38743d1c9e0f5a id=12
[995000] MASTER 1 W_VALID_RDY Handshake beat=64 wlast=0
[1005000] MASTER 1 W_VALID_RDY Handshake beat=65 wlast=0
[1005000] S1 MEMORY WRITE beat=64 addr=16993608 data=3ae6b0bd3a0324e7 id=12
[1015000] S1 MEMORY WRITE beat=65 addr=16993609 data=d5f55f53f2642311 id=12
[1015000] MASTER 1 W_VALID_RDY Handshake beat=66 wlast=0
[1025000] MASTER 1 W_VALID_RDY Handshake beat=67 wlast=0
[1025000] S1 MEMORY WRITE beat=66 addr=1699360a data=0f02326b835ae255 id=12
[1035000] S1 MEMORY WRITE beat=67 addr=1699360b data=bd5e073cd52dd391 id=12
[1035000] MASTER 1 W_VALID_RDY Handshake beat=68 wlast=0
[1045000] MASTER 1 W_VALID_RDY Handshake beat=69 wlast=0
[1045000] S1 MEMORY WRITE beat=68 addr=1699360c data=c791f6a2c9e8e328 id=12
[1055000] S1 MEMORY WRITE beat=69 addr=1699360d data=cd43c57d13536690 id=12
[1055000] MASTER 1 W_VALID_RDY Handshake beat=70 wlast=0
[1065000] MASTER 1 W_VALID_RDY Handshake beat=71 wlast=0
[1065000] S1 MEMORY WRITE beat=70 addr=1699360e data=e8813a21d694290d id=12
[1075000] S1 MEMORY WRITE beat=71 addr=1699360f data=207d0c350aa1ccba id=12
[1075000] MASTER 1 W_VALID_RDY Handshake beat=72 wlast=0
[1085000] MASTER 1 W_VALID_RDY Handshake beat=73 wlast=0
[1085000] S1 MEMORY WRITE beat=72 addr=16993610 data=1df5334a301330c3 id=12
[1095000] S1 MEMORY WRITE beat=73 addr=16993611 data=06a759d0edc0d1b2 id=12
[1095000] MASTER 1 W_VALID_RDY Handshake beat=74 wlast=0
[1105000] MASTER 1 W_VALID_RDY Handshake beat=75 wlast=0
[1105000] S1 MEMORY WRITE beat=74 addr=16993612 data=f8629e6c06766d6b id=12
[1115000] S1 MEMORY WRITE beat=75 addr=16993613 data=36899e2e27246605 id=12
[1115000] MASTER 1 W_VALID_RDY Handshake beat=76 wlast=0
[1125000] MASTER 1 W_VALID_RDY Handshake beat=77 wlast=0
[1125000] S1 MEMORY WRITE beat=76 addr=16993614 data=94e537b79657d1b6 id=12
[1135000] S1 MEMORY WRITE beat=77 addr=16993615 data=9cce3f213d30f7fe id=12
[1135000] MASTER 1 W_VALID_RDY Handshake beat=78 wlast=0
[1145000] MASTER 1 W_VALID_RDY Handshake beat=79 wlast=0
[1145000] S1 MEMORY WRITE beat=78 addr=16993616 data=e4555e030d47d624 id=12
[1155000] S1 MEMORY WRITE beat=79 addr=16993617 data=a39fa7dad357dd4f id=12
[1155000] MASTER 1 W_VALID_RDY Handshake beat=80 wlast=0
[1165000] MASTER 1 W_VALID_RDY Handshake beat=81 wlast=0
[1165000] S1 MEMORY WRITE beat=80 addr=16993618 data=9088d54df93a95ba id=12
[1175000] S1 MEMORY WRITE beat=81 addr=16993619 data=86826bdec06de6fc id=12
[1175000] MASTER 1 W_VALID_RDY Handshake beat=82 wlast=0
[1185000] MASTER 1 W_VALID_RDY Handshake beat=83 wlast=0
[1185000] S1 MEMORY WRITE beat=82 addr=1699361a data=93c5c44bf4de3350 id=12
[1195000] S1 MEMORY WRITE beat=83 addr=1699361b data=ee18c90b2a2213b9 id=12
[1195000] MASTER 1 W_VALID_RDY Handshake beat=84 wlast=0
[1205000] MASTER 1 W_VALID_RDY Handshake beat=85 wlast=0
[1205000] S1 MEMORY WRITE beat=84 addr=1699361c data=ea8ffab5244e9999 id=12
[1215000] S1 MEMORY WRITE beat=85 addr=1699361d data=992ccce9f49b34e9 id=12
[1215000] MASTER 1 W_VALID_RDY Handshake beat=86 wlast=0
[1225000] MASTER 1 W_VALID_RDY Handshake beat=87 wlast=0
[1225000] S1 MEMORY WRITE beat=86 addr=1699361e data=9ebd48a2fe55bf00 id=12
[1235000] S1 MEMORY WRITE beat=87 addr=1699361f data=a2a45899874595f4 id=12
[1235000] MASTER 1 W_VALID_RDY Handshake beat=88 wlast=0
[1245000] MASTER 1 W_VALID_RDY Handshake beat=89 wlast=1
[1245000] S1 MEMORY WRITE beat=88 addr=16993620 data=fbe0cade894d4357 id=12
[1255000] S1 MEMORY WRITE beat=89 addr=16993621 data=07a302583bd12583 id=12
[1265000] SLAVE1 sent B resp, id=2
[1275000] [SLAVE MONITOR] mst_id=1 s_id=1 awaddr=169935c8 awid=10 awlen=89 awsize=0 awburst=1 wdata=[e62e0a1e87ffb7cb 159170d2d088bd3c af728902aca4af77 34a46743fdc997df ce52551b95a09320 c2454298ca35d815 c7ff6ff4fdc4de1d 1365713ef6e9a9db c11f81f01651c50f 9416a32cd5aab3d6 cc945db1091ef1e4 1f70b6f3a77c146a fd26c8400db3dfa1 16d2d185b3875a1f db036e8ac9bb25f1 d76f059236438878 e9cae297d82a36ca 21e55cbcee41d717 a4855f8fc4ce5121 1cf887ecf954624e e79639660e504227 d31e93483edde4a8 b83246f68c1b98f5 9a6bdb1cf0171b34 aef4ffdc9fc8805c 2be41952ed8a6e65 dda18999e72746d3 86efc72fc64ff46e b3da62d30c968976 f3bdd049b2d3e081 f923d4f0117bec6d 1e1275e3faad9778 2d8177faacfe37c3 be7a243011d0462c 8c7ddda426a54cea d3a384addc8c9a13 ee5ce03fb9ff559e e0a4a288121da8de eeaa42f1fadabde4 b4da138234482736 c665d014dd072331 d7e1e115157eb60b c9c6dd41b5101305 921736368cbbf497 a23aaaa2102cad55 c53cc05ae9f9174b f6b50be3ec0187e3 fc2e3538d753f691 c14d0ddc98efb685 4f13e69c16af593 18beec24b80219bf d0f1d045811f73a1 c28a6934da0bfa00 120e13c0d5e30eae d702824fdb495558 35554f59e2ffe405 38e2f2b3198ceb84 f4d640dcc7636319 2a63471e8fe57502 a9726086aa2b9035 f18ef34ee34639d1 f32baed31e48a163 c87431989bf23a6c ff38743d1c9e0f5a 3ae6b0bd3a0324e7 d5f55f53f2642311 f02326b835ae255 bd5e073cd52dd391 c791f6a2c9e8e328 cd43c57d13536690 e8813a21d694290d 207d0c350aa1ccba 1df5334a301330c3 6a759d0edc0d1b2 f8629e6c06766d6b 36899e2e27246605 94e537b79657d1b6 9cce3f213d30f7fe e4555e030d47d624 a39fa7dad357dd4f 9088d54df93a95ba 86826bdec06de6fc 93c5c44bf4de3350 ee18c90b2a2213b9 ea8ffab5244e9999 992ccce9f49b34e9 9ebd48a2fe55bf00 a2a45899874595f4 fbe0cade894d4357 7a302583bd12583 ] wstrb=[80 77 f1 d8 55 74 30 d6 ec 21 ae 41 96 de 17 82 ff c5 c3 95 a3 db 17 a3 a0 db 38 44 b6 50 e7 56 2b 1f 9a e1 6f 81 37 9a a1 d2 7b 10 53 b3 ab f4 85 26 5 d8 d9 b0 cd 5e d6 d2 37 b0 82 4 e 58 d6 45 8 58 49 17 b0 1f 5c b9 77 a6 d0 28 c5 2c e1 3d d2 b1 65 98 dd 46 d5 b0 ] bresp=0 bid=10010
[1285000] MASTER 1 RECEIVED BRESP. BRESP=0
[1285000] [MASTER DRIVER] mst_id=1 s_id=0 awaddr=169935c8 awid=10 awlen=89 awsize=0 awburst=1 wdata=[e62e0a1e87ffb7cb 159170d2d088bd3c af728902aca4af77 34a46743fdc997df ce52551b95a09320 c2454298ca35d815 c7ff6ff4fdc4de1d 1365713ef6e9a9db c11f81f01651c50f 9416a32cd5aab3d6 cc945db1091ef1e4 1f70b6f3a77c146a fd26c8400db3dfa1 16d2d185b3875a1f db036e8ac9bb25f1 d76f059236438878 e9cae297d82a36ca 21e55cbcee41d717 a4855f8fc4ce5121 1cf887ecf954624e e79639660e504227 d31e93483edde4a8 b83246f68c1b98f5 9a6bdb1cf0171b34 aef4ffdc9fc8805c 2be41952ed8a6e65 dda18999e72746d3 86efc72fc64ff46e b3da62d30c968976 f3bdd049b2d3e081 f923d4f0117bec6d 1e1275e3faad9778 2d8177faacfe37c3 be7a243011d0462c 8c7ddda426a54cea d3a384addc8c9a13 ee5ce03fb9ff559e e0a4a288121da8de eeaa42f1fadabde4 b4da138234482736 c665d014dd072331 d7e1e115157eb60b c9c6dd41b5101305 921736368cbbf497 a23aaaa2102cad55 c53cc05ae9f9174b f6b50be3ec0187e3 fc2e3538d753f691 c14d0ddc98efb685 4f13e69c16af593 18beec24b80219bf d0f1d045811f73a1 c28a6934da0bfa00 120e13c0d5e30eae d702824fdb495558 35554f59e2ffe405 38e2f2b3198ceb84 f4d640dcc7636319 2a63471e8fe57502 a9726086aa2b9035 f18ef34ee34639d1 f32baed31e48a163 c87431989bf23a6c ff38743d1c9e0f5a 3ae6b0bd3a0324e7 d5f55f53f2642311 f02326b835ae255 bd5e073cd52dd391 c791f6a2c9e8e328 cd43c57d13536690 e8813a21d694290d 207d0c350aa1ccba 1df5334a301330c3 6a759d0edc0d1b2 f8629e6c06766d6b 36899e2e27246605 94e537b79657d1b6 9cce3f213d30f7fe e4555e030d47d624 a39fa7dad357dd4f 9088d54df93a95ba 86826bdec06de6fc 93c5c44bf4de3350 ee18c90b2a2213b9 ea8ffab5244e9999 992ccce9f49b34e9 9ebd48a2fe55bf00 a2a45899874595f4 fbe0cade894d4357 7a302583bd12583 ] wstrb=[80 77 f1 d8 55 74 30 d6 ec 21 ae 41 96 de 17 82 ff c5 c3 95 a3 db 17 a3 a0 db 38 44 b6 50 e7 56 2b 1f 9a e1 6f 81 37 9a a1 d2 7b 10 53 b3 ab f4 85 26 5 d8 d9 b0 cd 5e d6 d2 37 b0 82 4 e 58 d6 45 8 58 49 17 b0 1f 5c b9 77 a6 d0 28 c5 2c e1 3d d2 b1 65 98 dd 46 d5 b0 ] bresp=0 bid=10
[1285000] MASTER 1 B_VALID_RDY Handshake
[1285000] [MASTER MONITOR] mst_id=1 s_id=1 awaddr=169935c8 awid=10 awlen=89 awsize=0 awburst=1 wdata=[e62e0a1e87ffb7cb 159170d2d088bd3c af728902aca4af77 34a46743fdc997df ce52551b95a09320 c2454298ca35d815 c7ff6ff4fdc4de1d 1365713ef6e9a9db c11f81f01651c50f 9416a32cd5aab3d6 cc945db1091ef1e4 1f70b6f3a77c146a fd26c8400db3dfa1 16d2d185b3875a1f db036e8ac9bb25f1 d76f059236438878 e9cae297d82a36ca 21e55cbcee41d717 a4855f8fc4ce5121 1cf887ecf954624e e79639660e504227 d31e93483edde4a8 b83246f68c1b98f5 9a6bdb1cf0171b34 aef4ffdc9fc8805c 2be41952ed8a6e65 dda18999e72746d3 86efc72fc64ff46e b3da62d30c968976 f3bdd049b2d3e081 f923d4f0117bec6d 1e1275e3faad9778 2d8177faacfe37c3 be7a243011d0462c 8c7ddda426a54cea d3a384addc8c9a13 ee5ce03fb9ff559e e0a4a288121da8de eeaa42f1fadabde4 b4da138234482736 c665d014dd072331 d7e1e115157eb60b c9c6dd41b5101305 921736368cbbf497 a23aaaa2102cad55 c53cc05ae9f9174b f6b50be3ec0187e3 fc2e3538d753f691 c14d0ddc98efb685 4f13e69c16af593 18beec24b80219bf d0f1d045811f73a1 c28a6934da0bfa00 120e13c0d5e30eae d702824fdb495558 35554f59e2ffe405 38e2f2b3198ceb84 f4d640dcc7636319 2a63471e8fe57502 a9726086aa2b9035 f18ef34ee34639d1 f32baed31e48a163 c87431989bf23a6c ff38743d1c9e0f5a 3ae6b0bd3a0324e7 d5f55f53f2642311 f02326b835ae255 bd5e073cd52dd391 c791f6a2c9e8e328 cd43c57d13536690 e8813a21d694290d 207d0c350aa1ccba 1df5334a301330c3 6a759d0edc0d1b2 f8629e6c06766d6b 36899e2e27246605 94e537b79657d1b6 9cce3f213d30f7fe e4555e030d47d624 a39fa7dad357dd4f 9088d54df93a95ba 86826bdec06de6fc 93c5c44bf4de3350 ee18c90b2a2213b9 ea8ffab5244e9999 992ccce9f49b34e9 9ebd48a2fe55bf00 a2a45899874595f4 fbe0cade894d4357 7a302583bd12583 ] wstrb=[80 77 f1 d8 55 74 30 d6 ec 21 ae 41 96 de 17 82 ff c5 c3 95 a3 db 17 a3 a0 db 38 44 b6 50 e7 56 2b 1f 9a e1 6f 81 37 9a a1 d2 7b 10 53 b3 ab f4 85 26 5 d8 d9 b0 cd 5e d6 d2 37 b0 82 4 e 58 d6 45 8 58 49 17 b0 1f 5c b9 77 a6 d0 28 c5 2c e1 3d d2 b1 65 98 dd 46 d5 b0 ] bresp=0 bid=10
[1285000] SCOREBOARD MATCH: decode_err expected = 0, actual =0
[1285000] SCOREBOARD MATCH: slave_id expected = 1, actual =1
[1285000] SCOREBOARD MATCH: awaddr passthrough expected = 169935c8, actual =169935c8
[1285000] SCOREBOARD MATCH: awlen passthrough expected = 89, actual =89
[1285000] SCOREBOARD MATCH: awsize passthrough expected = 0, actual =0
[1285000] SCOREBOARD MATCH: awburst passthrough expected = 1, actual =1
[1285000] SCOREBOARD MATCH: wdata size check expected = 5a, actual =5a
[1285000] SCOREBOARD MATCH: wdata passthrough beat=0 expected = e62e0a1e87ffb7cb, actual =e62e0a1e87ffb7cb
[1285000] SCOREBOARD MATCH: wdata passthrough beat=1 expected = 159170d2d088bd3c, actual =159170d2d088bd3c
[1285000] SCOREBOARD MATCH: wdata passthrough beat=2 expected = af728902aca4af77, actual =af728902aca4af77
[1285000] SCOREBOARD MATCH: wdata passthrough beat=3 expected = 34a46743fdc997df, actual =34a46743fdc997df
[1285000] SCOREBOARD MATCH: wdata passthrough beat=4 expected = ce52551b95a09320, actual =ce52551b95a09320
[1285000] SCOREBOARD MATCH: wdata passthrough beat=5 expected = c2454298ca35d815, actual =c2454298ca35d815
[1285000] SCOREBOARD MATCH: wdata passthrough beat=6 expected = c7ff6ff4fdc4de1d, actual =c7ff6ff4fdc4de1d
[1285000] SCOREBOARD MATCH: wdata passthrough beat=7 expected = 1365713ef6e9a9db, actual =1365713ef6e9a9db
[1285000] SCOREBOARD MATCH: wdata passthrough beat=8 expected = c11f81f01651c50f, actual =c11f81f01651c50f
[1285000] SCOREBOARD MATCH: wdata passthrough beat=9 expected = 9416a32cd5aab3d6, actual =9416a32cd5aab3d6
[1285000] SCOREBOARD MATCH: wdata passthrough beat=10 expected = cc945db1091ef1e4, actual =cc945db1091ef1e4
[1285000] SCOREBOARD MATCH: wdata passthrough beat=11 expected = 1f70b6f3a77c146a, actual =1f70b6f3a77c146a
[1285000] SCOREBOARD MATCH: wdata passthrough beat=12 expected = fd26c8400db3dfa1, actual =fd26c8400db3dfa1
[1285000] SCOREBOARD MATCH: wdata passthrough beat=13 expected = 16d2d185b3875a1f, actual =16d2d185b3875a1f
[1285000] SCOREBOARD MATCH: wdata passthrough beat=14 expected = db036e8ac9bb25f1, actual =db036e8ac9bb25f1
[1285000] SCOREBOARD MATCH: wdata passthrough beat=15 expected = d76f059236438878, actual =d76f059236438878
[1285000] SCOREBOARD MATCH: wdata passthrough beat=16 expected = e9cae297d82a36ca, actual =e9cae297d82a36ca
[1285000] SCOREBOARD MATCH: wdata passthrough beat=17 expected = 21e55cbcee41d717, actual =21e55cbcee41d717
[1285000] SCOREBOARD MATCH: wdata passthrough beat=18 expected = a4855f8fc4ce5121, actual =a4855f8fc4ce5121
[1285000] SCOREBOARD MATCH: wdata passthrough beat=19 expected = 1cf887ecf954624e, actual =1cf887ecf954624e
[1285000] SCOREBOARD MATCH: wdata passthrough beat=20 expected = e79639660e504227, actual =e79639660e504227
[1285000] SCOREBOARD MATCH: wdata passthrough beat=21 expected = d31e93483edde4a8, actual =d31e93483edde4a8
[1285000] SCOREBOARD MATCH: wdata passthrough beat=22 expected = b83246f68c1b98f5, actual =b83246f68c1b98f5
[1285000] SCOREBOARD MATCH: wdata passthrough beat=23 expected = 9a6bdb1cf0171b34, actual =9a6bdb1cf0171b34
[1285000] SCOREBOARD MATCH: wdata passthrough beat=24 expected = aef4ffdc9fc8805c, actual =aef4ffdc9fc8805c
[1285000] SCOREBOARD MATCH: wdata passthrough beat=25 expected = 2be41952ed8a6e65, actual =2be41952ed8a6e65
[1285000] SCOREBOARD MATCH: wdata passthrough beat=26 expected = dda18999e72746d3, actual =dda18999e72746d3
[1285000] SCOREBOARD MATCH: wdata passthrough beat=27 expected = 86efc72fc64ff46e, actual =86efc72fc64ff46e
[1285000] SCOREBOARD MATCH: wdata passthrough beat=28 expected = b3da62d30c968976, actual =b3da62d30c968976
[1285000] SCOREBOARD MATCH: wdata passthrough beat=29 expected = f3bdd049b2d3e081, actual =f3bdd049b2d3e081
[1285000] SCOREBOARD MATCH: wdata passthrough beat=30 expected = f923d4f0117bec6d, actual =f923d4f0117bec6d
[1285000] SCOREBOARD MATCH: wdata passthrough beat=31 expected = 1e1275e3faad9778, actual =1e1275e3faad9778
[1285000] SCOREBOARD MATCH: wdata passthrough beat=32 expected = 2d8177faacfe37c3, actual =2d8177faacfe37c3
[1285000] SCOREBOARD MATCH: wdata passthrough beat=33 expected = be7a243011d0462c, actual =be7a243011d0462c
[1285000] SCOREBOARD MATCH: wdata passthrough beat=34 expected = 8c7ddda426a54cea, actual =8c7ddda426a54cea
[1285000] SCOREBOARD MATCH: wdata passthrough beat=35 expected = d3a384addc8c9a13, actual =d3a384addc8c9a13
[1285000] SCOREBOARD MATCH: wdata passthrough beat=36 expected = ee5ce03fb9ff559e, actual =ee5ce03fb9ff559e
[1285000] SCOREBOARD MATCH: wdata passthrough beat=37 expected = e0a4a288121da8de, actual =e0a4a288121da8de
[1285000] SCOREBOARD MATCH: wdata passthrough beat=38 expected = eeaa42f1fadabde4, actual =eeaa42f1fadabde4
[1285000] SCOREBOARD MATCH: wdata passthrough beat=39 expected = b4da138234482736, actual =b4da138234482736
[1285000] SCOREBOARD MATCH: wdata passthrough beat=40 expected = c665d014dd072331, actual =c665d014dd072331
[1285000] SCOREBOARD MATCH: wdata passthrough beat=41 expected = d7e1e115157eb60b, actual =d7e1e115157eb60b
[1285000] SCOREBOARD MATCH: wdata passthrough beat=42 expected = c9c6dd41b5101305, actual =c9c6dd41b5101305
[1285000] SCOREBOARD MATCH: wdata passthrough beat=43 expected = 921736368cbbf497, actual =921736368cbbf497
[1285000] SCOREBOARD MATCH: wdata passthrough beat=44 expected = a23aaaa2102cad55, actual =a23aaaa2102cad55
[1285000] SCOREBOARD MATCH: wdata passthrough beat=45 expected = c53cc05ae9f9174b, actual =c53cc05ae9f9174b
[1285000] SCOREBOARD MATCH: wdata passthrough beat=46 expected = f6b50be3ec0187e3, actual =f6b50be3ec0187e3
[1285000] SCOREBOARD MATCH: wdata passthrough beat=47 expected = fc2e3538d753f691, actual =fc2e3538d753f691
[1285000] SCOREBOARD MATCH: wdata passthrough beat=48 expected = c14d0ddc98efb685, actual =c14d0ddc98efb685
[1285000] SCOREBOARD MATCH: wdata passthrough beat=49 expected = 4f13e69c16af593, actual =4f13e69c16af593
[1285000] SCOREBOARD MATCH: wdata passthrough beat=50 expected = 18beec24b80219bf, actual =18beec24b80219bf
[1285000] SCOREBOARD MATCH: wdata passthrough beat=51 expected = d0f1d045811f73a1, actual =d0f1d045811f73a1
[1285000] SCOREBOARD MATCH: wdata passthrough beat=52 expected = c28a6934da0bfa00, actual =c28a6934da0bfa00
[1285000] SCOREBOARD MATCH: wdata passthrough beat=53 expected = 120e13c0d5e30eae, actual =120e13c0d5e30eae
[1285000] SCOREBOARD MATCH: wdata passthrough beat=54 expected = d702824fdb495558, actual =d702824fdb495558
[1285000] SCOREBOARD MATCH: wdata passthrough beat=55 expected = 35554f59e2ffe405, actual =35554f59e2ffe405
[1285000] SCOREBOARD MATCH: wdata passthrough beat=56 expected = 38e2f2b3198ceb84, actual =38e2f2b3198ceb84
[1285000] SCOREBOARD MATCH: wdata passthrough beat=57 expected = f4d640dcc7636319, actual =f4d640dcc7636319
[1285000] SCOREBOARD MATCH: wdata passthrough beat=58 expected = 2a63471e8fe57502, actual =2a63471e8fe57502
[1285000] SCOREBOARD MATCH: wdata passthrough beat=59 expected = a9726086aa2b9035, actual =a9726086aa2b9035
[1285000] SCOREBOARD MATCH: wdata passthrough beat=60 expected = f18ef34ee34639d1, actual =f18ef34ee34639d1
[1285000] SCOREBOARD MATCH: wdata passthrough beat=61 expected = f32baed31e48a163, actual =f32baed31e48a163
[1285000] SCOREBOARD MATCH: wdata passthrough beat=62 expected = c87431989bf23a6c, actual =c87431989bf23a6c
[1285000] SCOREBOARD MATCH: wdata passthrough beat=63 expected = ff38743d1c9e0f5a, actual =ff38743d1c9e0f5a
[1285000] SCOREBOARD MATCH: wdata passthrough beat=64 expected = 3ae6b0bd3a0324e7, actual =3ae6b0bd3a0324e7
[1285000] SCOREBOARD MATCH: wdata passthrough beat=65 expected = d5f55f53f2642311, actual =d5f55f53f2642311
[1285000] SCOREBOARD MATCH: wdata passthrough beat=66 expected = f02326b835ae255, actual =f02326b835ae255
[1285000] SCOREBOARD MATCH: wdata passthrough beat=67 expected = bd5e073cd52dd391, actual =bd5e073cd52dd391
[1285000] SCOREBOARD MATCH: wdata passthrough beat=68 expected = c791f6a2c9e8e328, actual =c791f6a2c9e8e328
[1285000] SCOREBOARD MATCH: wdata passthrough beat=69 expected = cd43c57d13536690, actual =cd43c57d13536690
[1285000] SCOREBOARD MATCH: wdata passthrough beat=70 expected = e8813a21d694290d, actual =e8813a21d694290d
[1285000] SCOREBOARD MATCH: wdata passthrough beat=71 expected = 207d0c350aa1ccba, actual =207d0c350aa1ccba
[1285000] SCOREBOARD MATCH: wdata passthrough beat=72 expected = 1df5334a301330c3, actual =1df5334a301330c3
[1285000] SCOREBOARD MATCH: wdata passthrough beat=73 expected = 6a759d0edc0d1b2, actual =6a759d0edc0d1b2
[1285000] SCOREBOARD MATCH: wdata passthrough beat=74 expected = f8629e6c06766d6b, actual =f8629e6c06766d6b
[1285000] SCOREBOARD MATCH: wdata passthrough beat=75 expected = 36899e2e27246605, actual =36899e2e27246605
[1285000] SCOREBOARD MATCH: wdata passthrough beat=76 expected = 94e537b79657d1b6, actual =94e537b79657d1b6
[1285000] SCOREBOARD MATCH: wdata passthrough beat=77 expected = 9cce3f213d30f7fe, actual =9cce3f213d30f7fe
[1285000] SCOREBOARD MATCH: wdata passthrough beat=78 expected = e4555e030d47d624, actual =e4555e030d47d624
[1285000] SCOREBOARD MATCH: wdata passthrough beat=79 expected = a39fa7dad357dd4f, actual =a39fa7dad357dd4f
[1285000] SCOREBOARD MATCH: wdata passthrough beat=80 expected = 9088d54df93a95ba, actual =9088d54df93a95ba
[1285000] SCOREBOARD MATCH: wdata passthrough beat=81 expected = 86826bdec06de6fc, actual =86826bdec06de6fc
[1285000] SCOREBOARD MATCH: wdata passthrough beat=82 expected = 93c5c44bf4de3350, actual =93c5c44bf4de3350
[1285000] SCOREBOARD MATCH: wdata passthrough beat=83 expected = ee18c90b2a2213b9, actual =ee18c90b2a2213b9
[1285000] SCOREBOARD MATCH: wdata passthrough beat=84 expected = ea8ffab5244e9999, actual =ea8ffab5244e9999
[1285000] SCOREBOARD MATCH: wdata passthrough beat=85 expected = 992ccce9f49b34e9, actual =992ccce9f49b34e9
[1285000] SCOREBOARD MATCH: wdata passthrough beat=86 expected = 9ebd48a2fe55bf00, actual =9ebd48a2fe55bf00
[1285000] SCOREBOARD MATCH: wdata passthrough beat=87 expected = a2a45899874595f4, actual =a2a45899874595f4
[1285000] SCOREBOARD MATCH: wdata passthrough beat=88 expected = fbe0cade894d4357, actual =fbe0cade894d4357
[1285000] SCOREBOARD MATCH: wdata passthrough beat=89 expected = 7a302583bd12583, actual =7a302583bd12583
[1285000] SCOREBOARD MATCH: wstrb size check expected = 5a, actual =5a
[1285000] SCOREBOARD MATCH: wstrb passthrough beat=0 expected = 80, actual =80
[1285000] SCOREBOARD MATCH: wstrb passthrough beat=1 expected = 77, actual =77
[1285000] SCOREBOARD MATCH: wstrb passthrough beat=2 expected = f1, actual =f1
[1285000] SCOREBOARD MATCH: wstrb passthrough beat=3 expected = d8, actual =d8
[1285000] SCOREBOARD MATCH: wstrb passthrough beat=4 expected = 55, actual =55
[1285000] SCOREBOARD MATCH: wstrb passthrough beat=5 expected = 74, actual =74
[1285000] SCOREBOARD MATCH: wstrb passthrough beat=6 expected = 30, actual =30
[1285000] SCOREBOARD MATCH: wstrb passthrough beat=7 expected = d6, actual =d6
[1285000] SCOREBOARD MATCH: wstrb passthrough beat=8 expected = ec, actual =ec
[1285000] SCOREBOARD MATCH: wstrb passthrough beat=9 expected = 21, actual =21
[1285000] SCOREBOARD MATCH: wstrb passthrough beat=10 expected = ae, actual =ae
[1285000] SCOREBOARD MATCH: wstrb passthrough beat=11 expected = 41, actual =41
[1285000] SCOREBOARD MATCH: wstrb passthrough beat=12 expected = 96, actual =96
[1285000] SCOREBOARD MATCH: wstrb passthrough beat=13 expected = de, actual =de
[1285000] SCOREBOARD MATCH: wstrb passthrough beat=14 expected = 17, actual =17
[1285000] SCOREBOARD MATCH: wstrb passthrough beat=15 expected = 82, actual =82
[1285000] SCOREBOARD MATCH: wstrb passthrough beat=16 expected = ff, actual =ff
[1285000] SCOREBOARD MATCH: wstrb passthrough beat=17 expected = c5, actual =c5
[1285000] SCOREBOARD MATCH: wstrb passthrough beat=18 expected = c3, actual =c3
[1285000] SCOREBOARD MATCH: wstrb passthrough beat=19 expected = 95, actual =95
[1285000] SCOREBOARD MATCH: wstrb passthrough beat=20 expected = a3, actual =a3
[1285000] SCOREBOARD MATCH: wstrb passthrough beat=21 expected = db, actual =db
[1285000] SCOREBOARD MATCH: wstrb passthrough beat=22 expected = 17, actual =17
[1285000] SCOREBOARD MATCH: wstrb passthrough beat=23 expected = a3, actual =a3
[1285000] SCOREBOARD MATCH: wstrb passthrough beat=24 expected = a0, actual =a0
[1285000] SCOREBOARD MATCH: wstrb passthrough beat=25 expected = db, actual =db
[1285000] SCOREBOARD MATCH: wstrb passthrough beat=26 expected = 38, actual =38
[1285000] SCOREBOARD MATCH: wstrb passthrough beat=27 expected = 44, actual =44
[1285000] SCOREBOARD MATCH: wstrb passthrough beat=28 expected = b6, actual =b6
[1285000] SCOREBOARD MATCH: wstrb passthrough beat=29 expected = 50, actual =50
[1285000] SCOREBOARD MATCH: wstrb passthrough beat=30 expected = e7, actual =e7
[1285000] SCOREBOARD MATCH: wstrb passthrough beat=31 expected = 56, actual =56
[1285000] SCOREBOARD MATCH: wstrb passthrough beat=32 expected = 2b, actual =2b
[1285000] SCOREBOARD MATCH: wstrb passthrough beat=33 expected = 1f, actual =1f
[1285000] SCOREBOARD MATCH: wstrb passthrough beat=34 expected = 9a, actual =9a
[1285000] SCOREBOARD MATCH: wstrb passthrough beat=35 expected = e1, actual =e1
[1285000] SCOREBOARD MATCH: wstrb passthrough beat=36 expected = 6f, actual =6f
[1285000] SCOREBOARD MATCH: wstrb passthrough beat=37 expected = 81, actual =81
[1285000] SCOREBOARD MATCH: wstrb passthrough beat=38 expected = 37, actual =37
[1285000] SCOREBOARD MATCH: wstrb passthrough beat=39 expected = 9a, actual =9a
[1285000] SCOREBOARD MATCH: wstrb passthrough beat=40 expected = a1, actual =a1
[1285000] SCOREBOARD MATCH: wstrb passthrough beat=41 expected = d2, actual =d2
[1285000] SCOREBOARD MATCH: wstrb passthrough beat=42 expected = 7b, actual =7b
[1285000] SCOREBOARD MATCH: wstrb passthrough beat=43 expected = 10, actual =10
[1285000] SCOREBOARD MATCH: wstrb passthrough beat=44 expected = 53, actual =53
[1285000] SCOREBOARD MATCH: wstrb passthrough beat=45 expected = b3, actual =b3
[1285000] SCOREBOARD MATCH: wstrb passthrough beat=46 expected = ab, actual =ab
[1285000] SCOREBOARD MATCH: wstrb passthrough beat=47 expected = f4, actual =f4
[1285000] SCOREBOARD MATCH: wstrb passthrough beat=48 expected = 85, actual =85
[1285000] SCOREBOARD MATCH: wstrb passthrough beat=49 expected = 26, actual =26
[1285000] SCOREBOARD MATCH: wstrb passthrough beat=50 expected = 5, actual =5
[1285000] SCOREBOARD MATCH: wstrb passthrough beat=51 expected = d8, actual =d8
[1285000] SCOREBOARD MATCH: wstrb passthrough beat=52 expected = d9, actual =d9
[1285000] SCOREBOARD MATCH: wstrb passthrough beat=53 expected = b0, actual =b0
[1285000] SCOREBOARD MATCH: wstrb passthrough beat=54 expected = cd, actual =cd
[1285000] SCOREBOARD MATCH: wstrb passthrough beat=55 expected = 5e, actual =5e
[1285000] SCOREBOARD MATCH: wstrb passthrough beat=56 expected = d6, actual =d6
[1285000] SCOREBOARD MATCH: wstrb passthrough beat=57 expected = d2, actual =d2
[1285000] SCOREBOARD MATCH: wstrb passthrough beat=58 expected = 37, actual =37
[1285000] SCOREBOARD MATCH: wstrb passthrough beat=59 expected = b0, actual =b0
[1285000] SCOREBOARD MATCH: wstrb passthrough beat=60 expected = 82, actual =82
[1285000] SCOREBOARD MATCH: wstrb passthrough beat=61 expected = 4, actual =4
[1285000] SCOREBOARD MATCH: wstrb passthrough beat=62 expected = e, actual =e
[1285000] SCOREBOARD MATCH: wstrb passthrough beat=63 expected = 58, actual =58
[1285000] SCOREBOARD MATCH: wstrb passthrough beat=64 expected = d6, actual =d6
[1285000] SCOREBOARD MATCH: wstrb passthrough beat=65 expected = 45, actual =45
[1285000] SCOREBOARD MATCH: wstrb passthrough beat=66 expected = 8, actual =8
[1285000] SCOREBOARD MATCH: wstrb passthrough beat=67 expected = 58, actual =58
[1285000] SCOREBOARD MATCH: wstrb passthrough beat=68 expected = 49, actual =49
[1285000] SCOREBOARD MATCH: wstrb passthrough beat=69 expected = 17, actual =17
[1285000] SCOREBOARD MATCH: wstrb passthrough beat=70 expected = b0, actual =b0
[1285000] SCOREBOARD MATCH: wstrb passthrough beat=71 expected = 1f, actual =1f
[1285000] SCOREBOARD MATCH: wstrb passthrough beat=72 expected = 5c, actual =5c
[1285000] SCOREBOARD MATCH: wstrb passthrough beat=73 expected = b9, actual =b9
[1285000] SCOREBOARD MATCH: wstrb passthrough beat=74 expected = 77, actual =77
[1285000] SCOREBOARD MATCH: wstrb passthrough beat=75 expected = a6, actual =a6
[1285000] SCOREBOARD MATCH: wstrb passthrough beat=76 expected = d0, actual =d0
[1285000] SCOREBOARD MATCH: wstrb passthrough beat=77 expected = 28, actual =28
[1285000] SCOREBOARD MATCH: wstrb passthrough beat=78 expected = c5, actual =c5
[1285000] SCOREBOARD MATCH: wstrb passthrough beat=79 expected = 2c, actual =2c
[1285000] SCOREBOARD MATCH: wstrb passthrough beat=80 expected = e1, actual =e1
[1285000] SCOREBOARD MATCH: wstrb passthrough beat=81 expected = 3d, actual =3d
[1285000] SCOREBOARD MATCH: wstrb passthrough beat=82 expected = d2, actual =d2
[1285000] SCOREBOARD MATCH: wstrb passthrough beat=83 expected = b1, actual =b1
[1285000] SCOREBOARD MATCH: wstrb passthrough beat=84 expected = 65, actual =65
[1285000] SCOREBOARD MATCH: wstrb passthrough beat=85 expected = 98, actual =98
[1285000] SCOREBOARD MATCH: wstrb passthrough beat=86 expected = dd, actual =dd
[1285000] SCOREBOARD MATCH: wstrb passthrough beat=87 expected = 46, actual =46
[1285000] SCOREBOARD MATCH: wstrb passthrough beat=88 expected = d5, actual =d5
[1285000] SCOREBOARD MATCH: wstrb passthrough beat=89 expected = b0, actual =b0
[1285000] SCOREBOARD MATCH: bresp passthrough expected = 0, actual =0
[1285000] SCOREBOARD MATCH: response routed to correct master (write) expected = 1, actual =1
[1285000] [SCOREBOARD-M] mst_id=1 s_id=1 awaddr=169935c8 awid=10 awlen=89 awsize=0 awburst=1 wdata=[e62e0a1e87ffb7cb 159170d2d088bd3c af728902aca4af77 34a46743fdc997df ce52551b95a09320 c2454298ca35d815 c7ff6ff4fdc4de1d 1365713ef6e9a9db c11f81f01651c50f 9416a32cd5aab3d6 cc945db1091ef1e4 1f70b6f3a77c146a fd26c8400db3dfa1 16d2d185b3875a1f db036e8ac9bb25f1 d76f059236438878 e9cae297d82a36ca 21e55cbcee41d717 a4855f8fc4ce5121 1cf887ecf954624e e79639660e504227 d31e93483edde4a8 b83246f68c1b98f5 9a6bdb1cf0171b34 aef4ffdc9fc8805c 2be41952ed8a6e65 dda18999e72746d3 86efc72fc64ff46e b3da62d30c968976 f3bdd049b2d3e081 f923d4f0117bec6d 1e1275e3faad9778 2d8177faacfe37c3 be7a243011d0462c 8c7ddda426a54cea d3a384addc8c9a13 ee5ce03fb9ff559e e0a4a288121da8de eeaa42f1fadabde4 b4da138234482736 c665d014dd072331 d7e1e115157eb60b c9c6dd41b5101305 921736368cbbf497 a23aaaa2102cad55 c53cc05ae9f9174b f6b50be3ec0187e3 fc2e3538d753f691 c14d0ddc98efb685 4f13e69c16af593 18beec24b80219bf d0f1d045811f73a1 c28a6934da0bfa00 120e13c0d5e30eae d702824fdb495558 35554f59e2ffe405 38e2f2b3198ceb84 f4d640dcc7636319 2a63471e8fe57502 a9726086aa2b9035 f18ef34ee34639d1 f32baed31e48a163 c87431989bf23a6c ff38743d1c9e0f5a 3ae6b0bd3a0324e7 d5f55f53f2642311 f02326b835ae255 bd5e073cd52dd391 c791f6a2c9e8e328 cd43c57d13536690 e8813a21d694290d 207d0c350aa1ccba 1df5334a301330c3 6a759d0edc0d1b2 f8629e6c06766d6b 36899e2e27246605 94e537b79657d1b6 9cce3f213d30f7fe e4555e030d47d624 a39fa7dad357dd4f 9088d54df93a95ba 86826bdec06de6fc 93c5c44bf4de3350 ee18c90b2a2213b9 ea8ffab5244e9999 992ccce9f49b34e9 9ebd48a2fe55bf00 a2a45899874595f4 fbe0cade894d4357 7a302583bd12583 ] wstrb=[80 77 f1 d8 55 74 30 d6 ec 21 ae 41 96 de 17 82 ff c5 c3 95 a3 db 17 a3 a0 db 38 44 b6 50 e7 56 2b 1f 9a e1 6f 81 37 9a a1 d2 7b 10 53 b3 ab f4 85 26 5 d8 d9 b0 cd 5e d6 d2 37 b0 82 4 e 58 d6 45 8 58 49 17 b0 1f 5c b9 77 a6 d0 28 c5 2c e1 3d d2 b1 65 98 dd 46 d5 b0 ] bresp=0 bid=10
[1285000] [SCOREBOARD-S] mst_id=1 s_id=1 awaddr=169935c8 awid=10 awlen=89 awsize=0 awburst=1 wdata=[e62e0a1e87ffb7cb 159170d2d088bd3c af728902aca4af77 34a46743fdc997df ce52551b95a09320 c2454298ca35d815 c7ff6ff4fdc4de1d 1365713ef6e9a9db c11f81f01651c50f 9416a32cd5aab3d6 cc945db1091ef1e4 1f70b6f3a77c146a fd26c8400db3dfa1 16d2d185b3875a1f db036e8ac9bb25f1 d76f059236438878 e9cae297d82a36ca 21e55cbcee41d717 a4855f8fc4ce5121 1cf887ecf954624e e79639660e504227 d31e93483edde4a8 b83246f68c1b98f5 9a6bdb1cf0171b34 aef4ffdc9fc8805c 2be41952ed8a6e65 dda18999e72746d3 86efc72fc64ff46e b3da62d30c968976 f3bdd049b2d3e081 f923d4f0117bec6d 1e1275e3faad9778 2d8177faacfe37c3 be7a243011d0462c 8c7ddda426a54cea d3a384addc8c9a13 ee5ce03fb9ff559e e0a4a288121da8de eeaa42f1fadabde4 b4da138234482736 c665d014dd072331 d7e1e115157eb60b c9c6dd41b5101305 921736368cbbf497 a23aaaa2102cad55 c53cc05ae9f9174b f6b50be3ec0187e3 fc2e3538d753f691 c14d0ddc98efb685 4f13e69c16af593 18beec24b80219bf d0f1d045811f73a1 c28a6934da0bfa00 120e13c0d5e30eae d702824fdb495558 35554f59e2ffe405 38e2f2b3198ceb84 f4d640dcc7636319 2a63471e8fe57502 a9726086aa2b9035 f18ef34ee34639d1 f32baed31e48a163 c87431989bf23a6c ff38743d1c9e0f5a 3ae6b0bd3a0324e7 d5f55f53f2642311 f02326b835ae255 bd5e073cd52dd391 c791f6a2c9e8e328 cd43c57d13536690 e8813a21d694290d 207d0c350aa1ccba 1df5334a301330c3 6a759d0edc0d1b2 f8629e6c06766d6b 36899e2e27246605 94e537b79657d1b6 9cce3f213d30f7fe e4555e030d47d624 a39fa7dad357dd4f 9088d54df93a95ba 86826bdec06de6fc 93c5c44bf4de3350 ee18c90b2a2213b9 ea8ffab5244e9999 992ccce9f49b34e9 9ebd48a2fe55bf00 a2a45899874595f4 fbe0cade894d4357 7a302583bd12583 ] wstrb=[80 77 f1 d8 55 74 30 d6 ec 21 ae 41 96 de 17 82 ff c5 c3 95 a3 db 17 a3 a0 db 38 44 b6 50 e7 56 2b 1f 9a e1 6f 81 37 9a a1 d2 7b 10 53 b3 ab f4 85 26 5 d8 d9 b0 cd 5e d6 d2 37 b0 82 4 e 58 d6 45 8 58 49 17 b0 1f 5c b9 77 a6 d0 28 c5 2c e1 3d d2 b1 65 98 dd 46 d5 b0 ] bresp=0 bid=10010
[1285000] SCOREBOARD: Transaction 5 received. pass=278 fail=0
[1285000] SCOREBOARD: Expected 5 transactions completed, PASS=278 FAIL=0
[1285000] ALL PASS. Total transactions: 5
[1285000] ALL TRANSACTIONS MONITORED
$finish called at time : 1305 ns : File "/home/nashita/Desktop/practice/axi_xbar/tb/top/axi_tb_top.sv" Line 220
exit
INFO: xsimkernel Simulation Memory Usage: 289464 KB (Peak: 337864 KB), Simulation CPU Usage: 1180 ms
INFO: [Common 17-206] Exiting xsim at Thu Sep 10 18:27:43 2026...
