#-----------------------------------------------------------
# xsim v2025.2 (64-bit)
# SW Build 6299465 on Fri Nov 14 12:34:56 MST 2025
# IP Build 6300035 on Fri Nov 14 10:48:45 MST 2025
# SharedData Build 6298862 on Thu Nov 13 04:50:51 MST 2025
# Start of session at: Fri Sep 11 11:41:02 2026
# Process ID         : 696669
# Current directory  : /home/nashita/Desktop/practice/axi_xbar/sim
# Command line       : xsim -log regress_results/BT_run38.log -mode tcl -source {xsim.dir/tb_top_snap/xsim_script.tcl}
# Log file           : /home/nashita/Desktop/practice/axi_xbar/sim/regress_results/BT_run38.log
# Journal file       : /home/nashita/Desktop/practice/axi_xbar/sim/xsim.jou
# Running On         : vlsi-vivado
# Platform           : Ubuntu
# Operating System   : Ubuntu 24.04.4 LTS
# Processor Detail   : Intel(R) Core(TM) i5-10400 CPU @ 2.90GHz
# CPU Frequency      : 4002.070 MHz
# CPU Physical cores : 6
# CPU Logical cores  : 12
# Host memory        : 41875 MB
# Swap memory        : 27648 MB
# Total Virtual      : 69524 MB
# Available Virtual  : 62820 MB
#-----------------------------------------------------------
source xsim.dir/tb_top_snap/xsim_script.tcl
# xsim {tb_top_snap} -testplusarg BT -autoloadwcfg -runall -sv_seed 39
Time resolution is 1 ps
run -all
[0] RUNNING BASE TEST
[0] INSIDE THE BASE TEST CONSTRUCTOR
[0] ENV: before agent
[0] SLAVE CONSTRUCTED
[0] MASTER MONITOR CONSTRUCTED
[0] MASTER MONITOR CONSTRUCTED
[0] SLAVE MONITOR CONSTRUCTED
[0] SLAVE MONITOR CONSTRUCTED
[0] ARB MONITOR CONSTRUCTED
GENERATOR CONSTRUCTED
[0] ENV: after agent
[0] ENV: before scoreboard
[0] ENV: after scoreboard
[15000] [SEQUENCER] READ mst_id=0 s_id=0 araddr=181d2388 arid=0 arlen=1 arsize=3 arburst=1 rid=[] rresp=[] rdata=[]
[15000] [SEQUENCER] mst_id=0 s_id=0 awaddr=66119e0 awid=110 awlen=15 awsize=6 awburst=2 wdata=[2f6887f2a1737eaa fd3d2717e35207b1 f3ba125fecffb325 e7331d0a7c30b8c 8b15133da3229a51 10224d778bb058e7 33736474fecf259d a1f1bfee1e957f47 aa45d82ebe8877b1 bd579d4eb2140d65 d0a98cacddb93ca2 1c41b454df495d3d 915d6aa2faef64db d8a8a17dd99951a2 b8e2aedfe206f74f dcf65c2af4ea55d1 ] wstrb=[82 74 a7 d1 53 79 fb d5 ed a2 a6 40 1b a1 16 8 ] bresp=0 bid=0
[15000] [SEQUENCER] mst_id=1 s_id=0 awaddr=f32d418 awid=110 awlen=0 awsize=1 awburst=2 wdata=[a9a0de5886507a1b ] wstrb=[e2 ] bresp=0 bid=0
[15000] [SEQUENCER] mst_id=0 s_id=0 awaddr=19e48bf8 awid=101 awlen=219 awsize=1 awburst=1 wdata=[14491618ffdc585a f243f34b9b9a2ebb a448680dc8e8dcf3 c8c5354ee9dbbe23 575ecdfb8917e25 17a5b19bb092899 24e4e6bda9be54ec e24fd312ca3f9067 8548b9002a5ad39c d4192888e3ca2e2b 2e09be92aa2d9fbd d4887359b668fb9a 9a3329c5b3527792 dd80175028a19be2 df0a977cc83ce857 fb8f5feab2088aa9 daaa268bf93dc142 c17aa999d90f773a 8b1801e339b4be08 32f27f4abd0a0983 961980bde5c2286f 1f76e677f46d28e3 31773267213182a1 6f3ab10d26965c1 c6d68ea4c790b324 e8c235c5266a9187 f8d3f748f84dc10b 3fde7430efb5e0d5 9620725cbfaa85ec 37f846f8a8a0a9f5 18568acb8ef469a4 ce9eef91f7d6bb28 a077651dae76fd27 3d6b66cc06973689 fe6df1b1b8cdefe8 e744ed100c0a565d 12a18ce69ee556ce d7b346b724b053dc 30baaa39110f7e97 aff4d5653ef833c7 e3a887a3c35c371f d46bb5b687a81c1c c6a04fe3146331dc d7bf68fb84608b1b c08a738aa48d786 beac09622c2b1eb1 b08ba9ccd2a8f71b fcf1cea2966b725d c296910ebc945104 f3d4820bb9dd804 d2094a62f3223adb afb68bdf0c2f16c2 c7cceec6949fdb70 87c2164bbef3d3ff cb22eac199d63928 2e7614993778a22b f66c762a12efd988 acc612b0b6382ae4 edb0cd0fc18f60ec d47f3a74db3c2749 1174522ee41d433a 25aca42681454d24 dc81746eff251f3d e3426277fa2bde9a fb712bbeedf5c69c ed1ae5d988ef069d 831ae537d7f2a02c c5e866c8d05d4851 d94c4eeefe8c10f6 d67eb12233034ca2 36094f3dc673426 daf3451c1c6717eb cf6a648ddcace3e1 b9141807b171f63e cdd90e29d2caf980 af77dd6194075d23 c57953629d4372b6 f00e6c36e88bf569 fc93528c9352618b 3095d4421f864998 8123f01c20ca5ee d55f077aa0a44078 c02a8a1084a5918d c6b2377c05f4dbbc a6991c34c83cc911 cce25a9f1c113ef6 22061ab2e6c3a645 af006f561394921b 2fa5d111c89f36e6 af62dd2bfbe2c9f5 8f775c10d1abebc3 9a4b22a9de634c82 da461677bf1d2d21 90c918e4c9adffd5 28114c57e9bd7288 a8da9fa92b143b8e f4c23b63825762ce ec14d55639a3b88e e4b7f41c1cd387ba 9f2aea8814ef7500 ce932d8ed97a2f7f f64db7390b3fbfdf 202f34df334b21aa cc551299578a1c1 a0b861a0eec2626d 220d841703130862 988baa23c0e7967f afa9f8ec2ed2d540 31e5dda239440bc4 fa2ba243d1b77d03 808a5243ca7187c5 83b5938929d59b30 fb8d1833b2702fe5 fce1b7abfde135cd 27b6d0fdfc176a77 ae879a5c80974b34 fe788101a343e930 9f5b53a7ab695207 2c009d3ca62f51fe c9733b2fcde2ee04 f94c400baa791e3d d0a8703ce8ce8ed6 b6b17cdaa54cdd47 cfc5fb851a1bab6b 82ea3a412ffdbce6 d54a9a2d206e6bc1 3a8a172c399bb71c e9997402a51095b2 c57f0173bd74516d f7100889bee40e2f e3f4a3e28009189f 3d7d6a0de0a97c8b 1f8d8abba973a555 297cbdf5b48d7296 1536ef2203822e9d acf5d3f2e6fa2802 9b879a9834c479dd 3846a87ad67291e7 bd6cb9e9b0be89ba e5830397e53c7c6c 3baf0e54d8f45482 89b2de3c9dc9ac11 306287ef91bc83d d2101cbfef35e1d4 8cff8de53eb536d2 b7d0ff0fdbc2fafc caf8dcd09005b663 cebaed3509e11bcf e5a416cbd7f86ab5 e7fe2119068bec45 106d0814309cf39b 88955e50b6b90e4e bd44fa93f6111edf 26ae127af0937f69 274c8db8cdb202a7 c3c32186af4370ca 1fd6f034e491884b 32438af3ea713400 19b4a4cbc7237dec abb50637f606ac79 e077e07a398b94ff af12ebddf8912a d3ff3da4fa2c8545 33b81a44ac641922 a5caa4d34771e1e 2ea3a36334672d2f e0cb4651de5be7f1 12d3060fe25bbda7 16c2ead6eb27f09e c983d88fc176a972 23d26719f78e3127 e2b621c6dc56de9e 9dcd88103a9551ef b2238316ac39fa55 890d8f4c19fef29 fc35411894d9a4dc c1139f32a65e6104 e7fe502e2e58c42f c332690bc9a47826 f002d92ae4339146 928c55758446083d cdea8063d8012958 3c34ba9fd5bebe81 da04c6be3ded598e 95ee82e6cec11014 a47fce9527ef4722 e5dca0b0d2233d85 20e44d9afe849554 2673dc76fbcb2396 cdee611cc5641c2f c3e8b1830c507d26 881ba0bceed2aeb6 b436cae5ea5c8df9 f6ad0b1fd60a01d8 c4dcb08ef81f7c69 e27c0a62fec8abdc d4d2adb4f9137b74 f132f7ddd9291582 d7f1c15e19af5e43 12c2d9b7d3af023f acd817c1acc46f12 c673cd5503f5d194 d7a4d3d384c9d91f 318e4832d936a70c dd2c78a0047ceb95 8946c4b4f8021587 d138bc9434d14c74 394e3809bad50ce6 32d7226eae653534 e33681a8c294fcbd fd6a09a4040fdf02 b27514369c84b9b1 df19b66f30412c12 34510b1415ab95df b2304f90dc83c013 cc4ec25e6c61f4a fc71b529914a05ff edcdc612c115f739 a7dc16832ea204ba bfec0ab9fa92b237 ] wstrb=[ad 70 cc 67 f4 3 20 a1 74 ec 8 68 f0 28 9 64 15 11 cc 5 39 d5 69 4e e6 35 53 1f a bc 6e f0 f1 c1 f fb 7e 7d eb 6f 3f fb 6b bd 78 56 2c b7 51 97 74 ca ee a1 81 3f 38 f6 9 26 97 8b 66 cf 81 6f f6 18 fa 5c e7 7b cb dd 93 c6 39 7b 41 5 58 d5 cb 92 50 c 97 a8 e1 62 3a 31 6e d1 da 50 33 14 81 a2 e6 5b f2 19 70 73 bb 56 cf ad 6f 3f 21 2b 95 f0 d8 4 2f f9 2f c4 e9 8 c8 18 1 f8 dc eb 0 a5 3 1 9d e0 ec 9d 85 f0 9e 22 d0 8b bf 55 7b 5d 77 4b e8 36 a0 63 93 17 ae 7c 4d 4e df e0 65 8e 5c b2 dc 3c 93 42 ca ef f4 a6 2b 87 e8 f5 77 dd 9c a2 64 84 98 db 61 34 7e c6 b8 16 a1 1a 4a 1f e0 2 35 81 1c 7f a1 fc 82 d6 7e 9e 56 1f 9b d8 f5 19 76 4b 38 11 23 2d ] bresp=0 bid=0
[15000] [SEQUENCER] READ mst_id=0 s_id=0 araddr=1c0d1dc8 arid=3 arlen=1 arsize=3 arburst=1 rid=[] rresp=[] rdata=[]
[15000] MASTER_DRIVER0 received transaction, op=AXI_READ
[15000] MASTER_DRIVER1 received transaction, op=AXI_WRITE
[35000] MASTER 1 AW_VALID_RDY Handshake
[35000] MASTER_DRIVER0 received transaction, op=AXI_WRITE
[45000] ARB MONITOR: slave=0 m0_req=0 m1_req=1 winner=1
[45000] ARB MONITOR: slave=1 m0_req=1 m1_req=0 winner=0
[45000] AXI S0_ARVALID_RDY HANDSHAKE
[45000] MEMORY READ MISS beat=0 addr=181d2388 -> default data id=0
[45000] AXI S0_AWVALID_RDY HANDSHAKE
[55000] MEMORY READ MISS beat=1 addr=181d2390 -> default data id=0
[55000] SLAVE 1 R_VALID_RDY Handshake beat=0 rlast=0
[55000] MASTER 1 W_VALID_RDY Handshake beat=0 wlast=1
[55000] MASTER 0 AW_VALID_RDY Handshake
[65000] SLAVE 1 R_VALID_RDY Handshake beat=1 rlast=1
[65000] [SLAVE MONITOR] READ mst_id=0 s_id=1 araddr=181d2388 arid=0 arlen=1 arsize=3 arburst=1 rid=[00] rresp=[00] rdata=[baadf00d12345678baadf00d12345678]
[65000] AXI S0_WVALID_RDY HANDSHAKE
[65000] S0 MEMORY WRITE beat=0 addr=0f32d418 data=a9a0de5886507a1b id=16
[75000] SLAVE0 sent B resp, id=6
[75000] [SLAVE MONITOR] mst_id=1 s_id=0 awaddr=f32d418 awid=110 awlen=0 awsize=1 awburst=2 wdata=[a9a0de5886507a1b ] wstrb=[e2 ] bresp=0 bid=10110
[75000] MASTER 0 R_VALID_RDY Handshake beat=0 rlast=0
[75000] MASTER 0 W_VALID_RDY Handshake beat=0 wlast=0
[85000] [MASTER DRIVER] READ mst_id=0 s_id=0 araddr=181d2388 arid=0 arlen=1 arsize=3 arburst=1 rid=[00] rresp=[00] rdata=[baadf00d12345678baadf00d12345678]
[85000] MASTER 0 W_VALID_RDY Handshake beat=1 wlast=0
[85000] MASTER 0 R_VALID_RDY Handshake beat=1 rlast=1
[85000] [MASTER MONITOR] READ mst_id=0 s_id=1 araddr=181d2388 arid=0 arlen=1 arsize=3 arburst=1 rid=[00] rresp=[00] rdata=[baadf00d12345678baadf00d12345678]
[85000] ARB MONITOR: slave=0 m0_req=1 m1_req=0 winner=0
[85000] AXI S0_AWVALID_RDY HANDSHAKE
[85000] SCOREBOARD MATCH: decode_err expected = 0, actual =0
[85000] SCOREBOARD MATCH: slave_id expected = 1, actual =1
[85000] SCOREBOARD MATCH: araddr passthrough expected = 181d2388, actual =181d2388
[85000] SCOREBOARD MATCH: arlen passthrough expected = 1, actual =1
[85000] SCOREBOARD MATCH: arsize passthrough expected = 3, actual =3
[85000] SCOREBOARD MATCH: arburst passthrough expected = 1, actual =1
[85000] SCOREBOARD MATCH: rdata size check expected = 2, actual =2
[85000] SCOREBOARD MATCH: rdata passthrough beat=0 expected = baadf00d12345678, actual =baadf00d12345678
[85000] SCOREBOARD MATCH: rdata passthrough beat=1 expected = baadf00d12345678, actual =baadf00d12345678
[85000] SCOREBOARD MATCH: rresp size check expected = 2, actual =2
[85000] SCOREBOARD MATCH: rresp passthrough beat=0 expected = 0, actual =0
[85000] SCOREBOARD MATCH: rresp passthrough beat=1 expected = 0, actual =0
[85000] SCOREBOARD MATCH: response routed to correct master (read beat 0) expected = 0, actual =0
[85000] SCOREBOARD MATCH: response routed to correct master (read beat 1) expected = 0, actual =0
[85000] [SCOREBOARD-M] READ mst_id=0 s_id=1 araddr=181d2388 arid=0 arlen=1 arsize=3 arburst=1 rid=[00] rresp=[00] rdata=[baadf00d12345678baadf00d12345678]
[85000] [SCOREBOARD-S] READ mst_id=0 s_id=1 araddr=181d2388 arid=0 arlen=1 arsize=3 arburst=1 rid=[00] rresp=[00] rdata=[baadf00d12345678baadf00d12345678]
[85000] SCOREBOARD: Transaction 1 received. pass=14 fail=0
[85000] ALL PASS. Total transactions: 1
[95000] AXI S0_WVALID_RDY HANDSHAKE
[95000] S0 MEMORY WRITE beat=0 addr=066119e0 data=2f6887f2a1737eaa id=06
[95000] MASTER 1 B_VALID_RDY Handshake
[95000] [MASTER MONITOR] mst_id=1 s_id=0 awaddr=f32d418 awid=110 awlen=0 awsize=1 awburst=2 wdata=[a9a0de5886507a1b ] wstrb=[e2 ] bresp=0 bid=110
[95000] MASTER 0 W_VALID_RDY Handshake beat=2 wlast=0
[95000] MASTER 1 RECEIVED BRESP. BRESP=0
[95000] [MASTER DRIVER] mst_id=1 s_id=0 awaddr=f32d418 awid=110 awlen=0 awsize=1 awburst=2 wdata=[a9a0de5886507a1b ] wstrb=[e2 ] bresp=0 bid=110
[95000] SCOREBOARD MATCH: decode_err expected = 0, actual =0
[95000] SCOREBOARD MATCH: slave_id expected = 0, actual =0
[95000] SCOREBOARD MATCH: awaddr passthrough expected = f32d418, actual =f32d418
[95000] SCOREBOARD MATCH: awlen passthrough expected = 0, actual =0
[95000] SCOREBOARD MATCH: awsize passthrough expected = 1, actual =1
[95000] SCOREBOARD MATCH: awburst passthrough expected = 2, actual =2
[95000] SCOREBOARD MATCH: wdata size check expected = 1, actual =1
[95000] SCOREBOARD MATCH: wdata passthrough beat=0 expected = a9a0de5886507a1b, actual =a9a0de5886507a1b
[95000] SCOREBOARD MATCH: wstrb size check expected = 1, actual =1
[95000] SCOREBOARD MATCH: wstrb passthrough beat=0 expected = e2, actual =e2
[95000] SCOREBOARD MATCH: bresp passthrough expected = 0, actual =0
[95000] SCOREBOARD MATCH: response routed to correct master (write) expected = 1, actual =1
[95000] [SCOREBOARD-M] mst_id=1 s_id=0 awaddr=f32d418 awid=110 awlen=0 awsize=1 awburst=2 wdata=[a9a0de5886507a1b ] wstrb=[e2 ] bresp=0 bid=110
[95000] [SCOREBOARD-S] mst_id=1 s_id=0 awaddr=f32d418 awid=110 awlen=0 awsize=1 awburst=2 wdata=[a9a0de5886507a1b ] wstrb=[e2 ] bresp=0 bid=10110
[95000] SCOREBOARD: Transaction 2 received. pass=26 fail=0
[95000] ALL PASS. Total transactions: 2
[105000] MASTER 0 W_VALID_RDY Handshake beat=3 wlast=0
[105000] AXI S0_WVALID_RDY HANDSHAKE
[105000] S0 MEMORY WRITE beat=1 addr=06611a20 data=fd3d2717e35207b1 id=06
[115000] AXI S0_WVALID_RDY HANDSHAKE
[115000] S0 MEMORY WRITE beat=2 addr=06611a60 data=f3ba125fecffb325 id=06
[115000] MASTER 0 W_VALID_RDY Handshake beat=4 wlast=0
[125000] MASTER 0 W_VALID_RDY Handshake beat=5 wlast=0
[125000] AXI S0_WVALID_RDY HANDSHAKE
[125000] S0 MEMORY WRITE beat=3 addr=06611aa0 data=0e7331d0a7c30b8c id=06
[135000] AXI S0_WVALID_RDY HANDSHAKE
[135000] S0 MEMORY WRITE beat=4 addr=06611ae0 data=8b15133da3229a51 id=06
[135000] MASTER 0 W_VALID_RDY Handshake beat=6 wlast=0
[145000] MASTER 0 W_VALID_RDY Handshake beat=7 wlast=0
[145000] AXI S0_WVALID_RDY HANDSHAKE
[145000] S0 MEMORY WRITE beat=5 addr=06611b20 data=10224d778bb058e7 id=06
[155000] AXI S0_WVALID_RDY HANDSHAKE
[155000] S0 MEMORY WRITE beat=6 addr=06611b60 data=33736474fecf259d id=06
[155000] MASTER 0 W_VALID_RDY Handshake beat=8 wlast=0
[165000] MASTER 0 W_VALID_RDY Handshake beat=9 wlast=0
[165000] AXI S0_WVALID_RDY HANDSHAKE
[165000] S0 MEMORY WRITE beat=7 addr=06611ba0 data=a1f1bfee1e957f47 id=06
[175000] AXI S0_WVALID_RDY HANDSHAKE
[175000] S0 MEMORY WRITE beat=8 addr=06611be0 data=aa45d82ebe8877b1 id=06
[175000] MASTER 0 W_VALID_RDY Handshake beat=10 wlast=0
[185000] MASTER 0 W_VALID_RDY Handshake beat=11 wlast=0
[185000] AXI S0_WVALID_RDY HANDSHAKE
[185000] S0 MEMORY WRITE beat=9 addr=06611800 data=bd579d4eb2140d65 id=06
[195000] AXI S0_WVALID_RDY HANDSHAKE
[195000] S0 MEMORY WRITE beat=10 addr=06611840 data=d0a98cacddb93ca2 id=06
[195000] MASTER 0 W_VALID_RDY Handshake beat=12 wlast=0
[205000] MASTER 0 W_VALID_RDY Handshake beat=13 wlast=0
[205000] AXI S0_WVALID_RDY HANDSHAKE
[205000] S0 MEMORY WRITE beat=11 addr=06611880 data=1c41b454df495d3d id=06
[215000] AXI S0_WVALID_RDY HANDSHAKE
[215000] S0 MEMORY WRITE beat=12 addr=066118c0 data=915d6aa2faef64db id=06
[215000] MASTER 0 W_VALID_RDY Handshake beat=14 wlast=0
[225000] MASTER_DRIVER0 received transaction, op=AXI_WRITE
[225000] MASTER 0 W_VALID_RDY Handshake beat=15 wlast=1
[225000] AXI S0_WVALID_RDY HANDSHAKE
[225000] S0 MEMORY WRITE beat=13 addr=06611900 data=d8a8a17dd99951a2 id=06
[235000] AXI S0_WVALID_RDY HANDSHAKE
[235000] S0 MEMORY WRITE beat=14 addr=06611940 data=b8e2aedfe206f74f id=06
[245000] MASTER 0 AW_VALID_RDY Handshake
[245000] AXI S0_WVALID_RDY HANDSHAKE
[245000] S0 MEMORY WRITE beat=15 addr=06611980 data=dcf65c2af4ea55d1 id=06
[255000] SLAVE0 sent B resp, id=6
[255000] AXI S1_AWVALID_RDY HANDSHAKE
[255000] [SLAVE MONITOR] mst_id=0 s_id=0 awaddr=66119e0 awid=110 awlen=15 awsize=6 awburst=2 wdata=[2f6887f2a1737eaa fd3d2717e35207b1 f3ba125fecffb325 e7331d0a7c30b8c 8b15133da3229a51 10224d778bb058e7 33736474fecf259d a1f1bfee1e957f47 aa45d82ebe8877b1 bd579d4eb2140d65 d0a98cacddb93ca2 1c41b454df495d3d 915d6aa2faef64db d8a8a17dd99951a2 b8e2aedfe206f74f dcf65c2af4ea55d1 ] wstrb=[82 74 a7 d1 53 79 fb d5 ed a2 a6 40 1b a1 16 8 ] bresp=0 bid=110
[255000] ARB MONITOR: slave=1 m0_req=1 m1_req=0 winner=0
[265000] MASTER 0 W_VALID_RDY Handshake beat=0 wlast=0
[275000] S1 MEMORY WRITE beat=0 addr=19e48bf8 data=14491618ffdc585a id=05
[275000] MASTER 0 B_VALID_RDY Handshake
[275000] [MASTER MONITOR] mst_id=0 s_id=0 awaddr=66119e0 awid=110 awlen=15 awsize=6 awburst=2 wdata=[2f6887f2a1737eaa fd3d2717e35207b1 f3ba125fecffb325 e7331d0a7c30b8c 8b15133da3229a51 10224d778bb058e7 33736474fecf259d a1f1bfee1e957f47 aa45d82ebe8877b1 bd579d4eb2140d65 d0a98cacddb93ca2 1c41b454df495d3d 915d6aa2faef64db d8a8a17dd99951a2 b8e2aedfe206f74f dcf65c2af4ea55d1 ] wstrb=[82 74 a7 d1 53 79 fb d5 ed a2 a6 40 1b a1 16 8 ] bresp=0 bid=110
[275000] MASTER 0 W_VALID_RDY Handshake beat=1 wlast=0
[275000] MASTER 0 RECEIVED BRESP. BRESP=0
[275000] [MASTER DRIVER] mst_id=0 s_id=0 awaddr=66119e0 awid=110 awlen=15 awsize=6 awburst=2 wdata=[2f6887f2a1737eaa fd3d2717e35207b1 f3ba125fecffb325 e7331d0a7c30b8c 8b15133da3229a51 10224d778bb058e7 33736474fecf259d a1f1bfee1e957f47 aa45d82ebe8877b1 bd579d4eb2140d65 d0a98cacddb93ca2 1c41b454df495d3d 915d6aa2faef64db d8a8a17dd99951a2 b8e2aedfe206f74f dcf65c2af4ea55d1 ] wstrb=[82 74 a7 d1 53 79 fb d5 ed a2 a6 40 1b a1 16 8 ] bresp=0 bid=110
[275000] SCOREBOARD MATCH: decode_err expected = 0, actual =0
[275000] SCOREBOARD MATCH: slave_id expected = 0, actual =0
[275000] SCOREBOARD MATCH: awaddr passthrough expected = 66119e0, actual =66119e0
[275000] SCOREBOARD MATCH: awlen passthrough expected = 15, actual =15
[275000] SCOREBOARD MATCH: awsize passthrough expected = 6, actual =6
[275000] SCOREBOARD MATCH: awburst passthrough expected = 2, actual =2
[275000] SCOREBOARD MATCH: wdata size check expected = 10, actual =10
[275000] SCOREBOARD MATCH: wdata passthrough beat=0 expected = 2f6887f2a1737eaa, actual =2f6887f2a1737eaa
[275000] SCOREBOARD MATCH: wdata passthrough beat=1 expected = fd3d2717e35207b1, actual =fd3d2717e35207b1
[275000] SCOREBOARD MATCH: wdata passthrough beat=2 expected = f3ba125fecffb325, actual =f3ba125fecffb325
[275000] SCOREBOARD MATCH: wdata passthrough beat=3 expected = e7331d0a7c30b8c, actual =e7331d0a7c30b8c
[275000] SCOREBOARD MATCH: wdata passthrough beat=4 expected = 8b15133da3229a51, actual =8b15133da3229a51
[275000] SCOREBOARD MATCH: wdata passthrough beat=5 expected = 10224d778bb058e7, actual =10224d778bb058e7
[275000] SCOREBOARD MATCH: wdata passthrough beat=6 expected = 33736474fecf259d, actual =33736474fecf259d
[275000] SCOREBOARD MATCH: wdata passthrough beat=7 expected = a1f1bfee1e957f47, actual =a1f1bfee1e957f47
[275000] SCOREBOARD MATCH: wdata passthrough beat=8 expected = aa45d82ebe8877b1, actual =aa45d82ebe8877b1
[275000] SCOREBOARD MATCH: wdata passthrough beat=9 expected = bd579d4eb2140d65, actual =bd579d4eb2140d65
[275000] SCOREBOARD MATCH: wdata passthrough beat=10 expected = d0a98cacddb93ca2, actual =d0a98cacddb93ca2
[275000] SCOREBOARD MATCH: wdata passthrough beat=11 expected = 1c41b454df495d3d, actual =1c41b454df495d3d
[275000] SCOREBOARD MATCH: wdata passthrough beat=12 expected = 915d6aa2faef64db, actual =915d6aa2faef64db
[275000] SCOREBOARD MATCH: wdata passthrough beat=13 expected = d8a8a17dd99951a2, actual =d8a8a17dd99951a2
[275000] SCOREBOARD MATCH: wdata passthrough beat=14 expected = b8e2aedfe206f74f, actual =b8e2aedfe206f74f
[275000] SCOREBOARD MATCH: wdata passthrough beat=15 expected = dcf65c2af4ea55d1, actual =dcf65c2af4ea55d1
[275000] SCOREBOARD MATCH: wstrb size check expected = 10, actual =10
[275000] SCOREBOARD MATCH: wstrb passthrough beat=0 expected = 82, actual =82
[275000] SCOREBOARD MATCH: wstrb passthrough beat=1 expected = 74, actual =74
[275000] SCOREBOARD MATCH: wstrb passthrough beat=2 expected = a7, actual =a7
[275000] SCOREBOARD MATCH: wstrb passthrough beat=3 expected = d1, actual =d1
[275000] SCOREBOARD MATCH: wstrb passthrough beat=4 expected = 53, actual =53
[275000] SCOREBOARD MATCH: wstrb passthrough beat=5 expected = 79, actual =79
[275000] SCOREBOARD MATCH: wstrb passthrough beat=6 expected = fb, actual =fb
[275000] SCOREBOARD MATCH: wstrb passthrough beat=7 expected = d5, actual =d5
[275000] SCOREBOARD MATCH: wstrb passthrough beat=8 expected = ed, actual =ed
[275000] SCOREBOARD MATCH: wstrb passthrough beat=9 expected = a2, actual =a2
[275000] SCOREBOARD MATCH: wstrb passthrough beat=10 expected = a6, actual =a6
[275000] SCOREBOARD MATCH: wstrb passthrough beat=11 expected = 40, actual =40
[275000] SCOREBOARD MATCH: wstrb passthrough beat=12 expected = 1b, actual =1b
[275000] SCOREBOARD MATCH: wstrb passthrough beat=13 expected = a1, actual =a1
[275000] SCOREBOARD MATCH: wstrb passthrough beat=14 expected = 16, actual =16
[275000] SCOREBOARD MATCH: wstrb passthrough beat=15 expected = 8, actual =8
[275000] SCOREBOARD MATCH: bresp passthrough expected = 0, actual =0
[275000] SCOREBOARD MATCH: response routed to correct master (write) expected = 0, actual =0
[275000] [SCOREBOARD-M] mst_id=0 s_id=0 awaddr=66119e0 awid=110 awlen=15 awsize=6 awburst=2 wdata=[2f6887f2a1737eaa fd3d2717e35207b1 f3ba125fecffb325 e7331d0a7c30b8c 8b15133da3229a51 10224d778bb058e7 33736474fecf259d a1f1bfee1e957f47 aa45d82ebe8877b1 bd579d4eb2140d65 d0a98cacddb93ca2 1c41b454df495d3d 915d6aa2faef64db d8a8a17dd99951a2 b8e2aedfe206f74f dcf65c2af4ea55d1 ] wstrb=[82 74 a7 d1 53 79 fb d5 ed a2 a6 40 1b a1 16 8 ] bresp=0 bid=110
[275000] [SCOREBOARD-S] mst_id=0 s_id=0 awaddr=66119e0 awid=110 awlen=15 awsize=6 awburst=2 wdata=[2f6887f2a1737eaa fd3d2717e35207b1 f3ba125fecffb325 e7331d0a7c30b8c 8b15133da3229a51 10224d778bb058e7 33736474fecf259d a1f1bfee1e957f47 aa45d82ebe8877b1 bd579d4eb2140d65 d0a98cacddb93ca2 1c41b454df495d3d 915d6aa2faef64db d8a8a17dd99951a2 b8e2aedfe206f74f dcf65c2af4ea55d1 ] wstrb=[82 74 a7 d1 53 79 fb d5 ed a2 a6 40 1b a1 16 8 ] bresp=0 bid=110
[275000] SCOREBOARD: Transaction 3 received. pass=68 fail=0
[275000] ALL PASS. Total transactions: 3
[285000] MASTER 0 W_VALID_RDY Handshake beat=2 wlast=0
[285000] S1 MEMORY WRITE beat=1 addr=19e48bfa data=f243f34b9b9a2ebb id=05
[295000] S1 MEMORY WRITE beat=2 addr=19e48bfc data=a448680dc8e8dcf3 id=05
[295000] MASTER 0 W_VALID_RDY Handshake beat=3 wlast=0
[305000] MASTER 0 W_VALID_RDY Handshake beat=4 wlast=0
[305000] S1 MEMORY WRITE beat=3 addr=19e48bfe data=c8c5354ee9dbbe23 id=05
[315000] S1 MEMORY WRITE beat=4 addr=19e48c00 data=0575ecdfb8917e25 id=05
[315000] MASTER 0 W_VALID_RDY Handshake beat=5 wlast=0
[325000] MASTER 0 W_VALID_RDY Handshake beat=6 wlast=0
[325000] S1 MEMORY WRITE beat=5 addr=19e48c02 data=017a5b19bb092899 id=05
[335000] S1 MEMORY WRITE beat=6 addr=19e48c04 data=24e4e6bda9be54ec id=05
[335000] MASTER 0 W_VALID_RDY Handshake beat=7 wlast=0
[345000] MASTER 0 W_VALID_RDY Handshake beat=8 wlast=0
[345000] S1 MEMORY WRITE beat=7 addr=19e48c06 data=e24fd312ca3f9067 id=05
[355000] S1 MEMORY WRITE beat=8 addr=19e48c08 data=8548b9002a5ad39c id=05
[355000] MASTER 0 W_VALID_RDY Handshake beat=9 wlast=0
[365000] MASTER 0 W_VALID_RDY Handshake beat=10 wlast=0
[365000] S1 MEMORY WRITE beat=9 addr=19e48c0a data=d4192888e3ca2e2b id=05
[375000] S1 MEMORY WRITE beat=10 addr=19e48c0c data=2e09be92aa2d9fbd id=05
[375000] MASTER 0 W_VALID_RDY Handshake beat=11 wlast=0
[385000] MASTER 0 W_VALID_RDY Handshake beat=12 wlast=0
[385000] S1 MEMORY WRITE beat=11 addr=19e48c0e data=d4887359b668fb9a id=05
[395000] S1 MEMORY WRITE beat=12 addr=19e48c10 data=9a3329c5b3527792 id=05
[395000] MASTER 0 W_VALID_RDY Handshake beat=13 wlast=0
[405000] MASTER 0 W_VALID_RDY Handshake beat=14 wlast=0
[405000] S1 MEMORY WRITE beat=13 addr=19e48c12 data=dd80175028a19be2 id=05
[415000] S1 MEMORY WRITE beat=14 addr=19e48c14 data=df0a977cc83ce857 id=05
[415000] MASTER 0 W_VALID_RDY Handshake beat=15 wlast=0
[425000] MASTER 0 W_VALID_RDY Handshake beat=16 wlast=0
[425000] S1 MEMORY WRITE beat=15 addr=19e48c16 data=fb8f5feab2088aa9 id=05
[435000] S1 MEMORY WRITE beat=16 addr=19e48c18 data=daaa268bf93dc142 id=05
[435000] MASTER 0 W_VALID_RDY Handshake beat=17 wlast=0
[445000] MASTER 0 W_VALID_RDY Handshake beat=18 wlast=0
[445000] S1 MEMORY WRITE beat=17 addr=19e48c1a data=c17aa999d90f773a id=05
[455000] S1 MEMORY WRITE beat=18 addr=19e48c1c data=8b1801e339b4be08 id=05
[455000] MASTER 0 W_VALID_RDY Handshake beat=19 wlast=0
[465000] MASTER 0 W_VALID_RDY Handshake beat=20 wlast=0
[465000] S1 MEMORY WRITE beat=19 addr=19e48c1e data=32f27f4abd0a0983 id=05
[475000] S1 MEMORY WRITE beat=20 addr=19e48c20 data=961980bde5c2286f id=05
[475000] MASTER 0 W_VALID_RDY Handshake beat=21 wlast=0
[485000] MASTER 0 W_VALID_RDY Handshake beat=22 wlast=0
[485000] S1 MEMORY WRITE beat=21 addr=19e48c22 data=1f76e677f46d28e3 id=05
[495000] S1 MEMORY WRITE beat=22 addr=19e48c24 data=31773267213182a1 id=05
[495000] MASTER 0 W_VALID_RDY Handshake beat=23 wlast=0
[505000] MASTER 0 W_VALID_RDY Handshake beat=24 wlast=0
[505000] S1 MEMORY WRITE beat=23 addr=19e48c26 data=06f3ab10d26965c1 id=05
[515000] S1 MEMORY WRITE beat=24 addr=19e48c28 data=c6d68ea4c790b324 id=05
[515000] MASTER 0 W_VALID_RDY Handshake beat=25 wlast=0
[525000] MASTER 0 W_VALID_RDY Handshake beat=26 wlast=0
[525000] S1 MEMORY WRITE beat=25 addr=19e48c2a data=e8c235c5266a9187 id=05
[535000] S1 MEMORY WRITE beat=26 addr=19e48c2c data=f8d3f748f84dc10b id=05
[535000] MASTER 0 W_VALID_RDY Handshake beat=27 wlast=0
[545000] MASTER 0 W_VALID_RDY Handshake beat=28 wlast=0
[545000] S1 MEMORY WRITE beat=27 addr=19e48c2e data=3fde7430efb5e0d5 id=05
[555000] S1 MEMORY WRITE beat=28 addr=19e48c30 data=9620725cbfaa85ec id=05
[555000] MASTER 0 W_VALID_RDY Handshake beat=29 wlast=0
[565000] MASTER 0 W_VALID_RDY Handshake beat=30 wlast=0
[565000] S1 MEMORY WRITE beat=29 addr=19e48c32 data=37f846f8a8a0a9f5 id=05
[575000] S1 MEMORY WRITE beat=30 addr=19e48c34 data=18568acb8ef469a4 id=05
[575000] MASTER 0 W_VALID_RDY Handshake beat=31 wlast=0
[585000] MASTER 0 W_VALID_RDY Handshake beat=32 wlast=0
[585000] S1 MEMORY WRITE beat=31 addr=19e48c36 data=ce9eef91f7d6bb28 id=05
[595000] S1 MEMORY WRITE beat=32 addr=19e48c38 data=a077651dae76fd27 id=05
[595000] MASTER 0 W_VALID_RDY Handshake beat=33 wlast=0
[605000] MASTER 0 W_VALID_RDY Handshake beat=34 wlast=0
[605000] S1 MEMORY WRITE beat=33 addr=19e48c3a data=3d6b66cc06973689 id=05
[615000] S1 MEMORY WRITE beat=34 addr=19e48c3c data=fe6df1b1b8cdefe8 id=05
[615000] MASTER 0 W_VALID_RDY Handshake beat=35 wlast=0
[625000] MASTER 0 W_VALID_RDY Handshake beat=36 wlast=0
[625000] S1 MEMORY WRITE beat=35 addr=19e48c3e data=e744ed100c0a565d id=05
[635000] S1 MEMORY WRITE beat=36 addr=19e48c40 data=12a18ce69ee556ce id=05
[635000] MASTER 0 W_VALID_RDY Handshake beat=37 wlast=0
[645000] MASTER 0 W_VALID_RDY Handshake beat=38 wlast=0
[645000] S1 MEMORY WRITE beat=37 addr=19e48c42 data=d7b346b724b053dc id=05
[655000] S1 MEMORY WRITE beat=38 addr=19e48c44 data=30baaa39110f7e97 id=05
[655000] MASTER 0 W_VALID_RDY Handshake beat=39 wlast=0
[665000] MASTER 0 W_VALID_RDY Handshake beat=40 wlast=0
[665000] S1 MEMORY WRITE beat=39 addr=19e48c46 data=aff4d5653ef833c7 id=05
[675000] S1 MEMORY WRITE beat=40 addr=19e48c48 data=e3a887a3c35c371f id=05
[675000] MASTER 0 W_VALID_RDY Handshake beat=41 wlast=0
[685000] MASTER 0 W_VALID_RDY Handshake beat=42 wlast=0
[685000] S1 MEMORY WRITE beat=41 addr=19e48c4a data=d46bb5b687a81c1c id=05
[695000] S1 MEMORY WRITE beat=42 addr=19e48c4c data=c6a04fe3146331dc id=05
[695000] MASTER 0 W_VALID_RDY Handshake beat=43 wlast=0
[705000] MASTER 0 W_VALID_RDY Handshake beat=44 wlast=0
[705000] S1 MEMORY WRITE beat=43 addr=19e48c4e data=d7bf68fb84608b1b id=05
[715000] S1 MEMORY WRITE beat=44 addr=19e48c50 data=0c08a738aa48d786 id=05
[715000] MASTER 0 W_VALID_RDY Handshake beat=45 wlast=0
[725000] MASTER 0 W_VALID_RDY Handshake beat=46 wlast=0
[725000] S1 MEMORY WRITE beat=45 addr=19e48c52 data=beac09622c2b1eb1 id=05
[735000] S1 MEMORY WRITE beat=46 addr=19e48c54 data=b08ba9ccd2a8f71b id=05
[735000] MASTER 0 W_VALID_RDY Handshake beat=47 wlast=0
[745000] MASTER 0 W_VALID_RDY Handshake beat=48 wlast=0
[745000] S1 MEMORY WRITE beat=47 addr=19e48c56 data=fcf1cea2966b725d id=05
[755000] S1 MEMORY WRITE beat=48 addr=19e48c58 data=c296910ebc945104 id=05
[755000] MASTER 0 W_VALID_RDY Handshake beat=49 wlast=0
[765000] MASTER 0 W_VALID_RDY Handshake beat=50 wlast=0
[765000] S1 MEMORY WRITE beat=49 addr=19e48c5a data=0f3d4820bb9dd804 id=05
[775000] S1 MEMORY WRITE beat=50 addr=19e48c5c data=d2094a62f3223adb id=05
[775000] MASTER 0 W_VALID_RDY Handshake beat=51 wlast=0
[785000] MASTER 0 W_VALID_RDY Handshake beat=52 wlast=0
[785000] S1 MEMORY WRITE beat=51 addr=19e48c5e data=afb68bdf0c2f16c2 id=05
[795000] S1 MEMORY WRITE beat=52 addr=19e48c60 data=c7cceec6949fdb70 id=05
[795000] MASTER 0 W_VALID_RDY Handshake beat=53 wlast=0
[805000] MASTER 0 W_VALID_RDY Handshake beat=54 wlast=0
[805000] S1 MEMORY WRITE beat=53 addr=19e48c62 data=87c2164bbef3d3ff id=05
[815000] S1 MEMORY WRITE beat=54 addr=19e48c64 data=cb22eac199d63928 id=05
[815000] MASTER 0 W_VALID_RDY Handshake beat=55 wlast=0
[825000] MASTER 0 W_VALID_RDY Handshake beat=56 wlast=0
[825000] S1 MEMORY WRITE beat=55 addr=19e48c66 data=2e7614993778a22b id=05
[835000] S1 MEMORY WRITE beat=56 addr=19e48c68 data=f66c762a12efd988 id=05
[835000] MASTER 0 W_VALID_RDY Handshake beat=57 wlast=0
[845000] MASTER 0 W_VALID_RDY Handshake beat=58 wlast=0
[845000] S1 MEMORY WRITE beat=57 addr=19e48c6a data=acc612b0b6382ae4 id=05
[855000] S1 MEMORY WRITE beat=58 addr=19e48c6c data=edb0cd0fc18f60ec id=05
[855000] MASTER 0 W_VALID_RDY Handshake beat=59 wlast=0
[865000] MASTER 0 W_VALID_RDY Handshake beat=60 wlast=0
[865000] S1 MEMORY WRITE beat=59 addr=19e48c6e data=d47f3a74db3c2749 id=05
[875000] S1 MEMORY WRITE beat=60 addr=19e48c70 data=1174522ee41d433a id=05
[875000] MASTER 0 W_VALID_RDY Handshake beat=61 wlast=0
[885000] MASTER 0 W_VALID_RDY Handshake beat=62 wlast=0
[885000] S1 MEMORY WRITE beat=61 addr=19e48c72 data=25aca42681454d24 id=05
[895000] S1 MEMORY WRITE beat=62 addr=19e48c74 data=dc81746eff251f3d id=05
[895000] MASTER 0 W_VALID_RDY Handshake beat=63 wlast=0
[905000] MASTER 0 W_VALID_RDY Handshake beat=64 wlast=0
[905000] S1 MEMORY WRITE beat=63 addr=19e48c76 data=e3426277fa2bde9a id=05
[915000] S1 MEMORY WRITE beat=64 addr=19e48c78 data=fb712bbeedf5c69c id=05
[915000] MASTER 0 W_VALID_RDY Handshake beat=65 wlast=0
[925000] MASTER 0 W_VALID_RDY Handshake beat=66 wlast=0
[925000] S1 MEMORY WRITE beat=65 addr=19e48c7a data=ed1ae5d988ef069d id=05
[935000] S1 MEMORY WRITE beat=66 addr=19e48c7c data=831ae537d7f2a02c id=05
[935000] MASTER 0 W_VALID_RDY Handshake beat=67 wlast=0
[945000] MASTER 0 W_VALID_RDY Handshake beat=68 wlast=0
[945000] S1 MEMORY WRITE beat=67 addr=19e48c7e data=c5e866c8d05d4851 id=05
[955000] S1 MEMORY WRITE beat=68 addr=19e48c80 data=d94c4eeefe8c10f6 id=05
[955000] MASTER 0 W_VALID_RDY Handshake beat=69 wlast=0
[965000] MASTER 0 W_VALID_RDY Handshake beat=70 wlast=0
[965000] S1 MEMORY WRITE beat=69 addr=19e48c82 data=d67eb12233034ca2 id=05
[975000] S1 MEMORY WRITE beat=70 addr=19e48c84 data=036094f3dc673426 id=05
[975000] MASTER 0 W_VALID_RDY Handshake beat=71 wlast=0
[985000] MASTER 0 W_VALID_RDY Handshake beat=72 wlast=0
[985000] S1 MEMORY WRITE beat=71 addr=19e48c86 data=daf3451c1c6717eb id=05
[995000] S1 MEMORY WRITE beat=72 addr=19e48c88 data=cf6a648ddcace3e1 id=05
[995000] MASTER 0 W_VALID_RDY Handshake beat=73 wlast=0
[1005000] MASTER 0 W_VALID_RDY Handshake beat=74 wlast=0
[1005000] S1 MEMORY WRITE beat=73 addr=19e48c8a data=b9141807b171f63e id=05
[1015000] S1 MEMORY WRITE beat=74 addr=19e48c8c data=cdd90e29d2caf980 id=05
[1015000] MASTER 0 W_VALID_RDY Handshake beat=75 wlast=0
[1025000] MASTER 0 W_VALID_RDY Handshake beat=76 wlast=0
[1025000] S1 MEMORY WRITE beat=75 addr=19e48c8e data=af77dd6194075d23 id=05
[1035000] S1 MEMORY WRITE beat=76 addr=19e48c90 data=c57953629d4372b6 id=05
[1035000] MASTER 0 W_VALID_RDY Handshake beat=77 wlast=0
[1045000] MASTER 0 W_VALID_RDY Handshake beat=78 wlast=0
[1045000] S1 MEMORY WRITE beat=77 addr=19e48c92 data=f00e6c36e88bf569 id=05
[1055000] S1 MEMORY WRITE beat=78 addr=19e48c94 data=fc93528c9352618b id=05
[1055000] MASTER 0 W_VALID_RDY Handshake beat=79 wlast=0
[1065000] MASTER 0 W_VALID_RDY Handshake beat=80 wlast=0
[1065000] S1 MEMORY WRITE beat=79 addr=19e48c96 data=3095d4421f864998 id=05
[1075000] S1 MEMORY WRITE beat=80 addr=19e48c98 data=08123f01c20ca5ee id=05
[1075000] MASTER 0 W_VALID_RDY Handshake beat=81 wlast=0
[1085000] MASTER 0 W_VALID_RDY Handshake beat=82 wlast=0
[1085000] S1 MEMORY WRITE beat=81 addr=19e48c9a data=d55f077aa0a44078 id=05
[1095000] S1 MEMORY WRITE beat=82 addr=19e48c9c data=c02a8a1084a5918d id=05
[1095000] MASTER 0 W_VALID_RDY Handshake beat=83 wlast=0
[1105000] MASTER 0 W_VALID_RDY Handshake beat=84 wlast=0
[1105000] S1 MEMORY WRITE beat=83 addr=19e48c9e data=c6b2377c05f4dbbc id=05
[1115000] S1 MEMORY WRITE beat=84 addr=19e48ca0 data=a6991c34c83cc911 id=05
[1115000] MASTER 0 W_VALID_RDY Handshake beat=85 wlast=0
[1125000] MASTER 0 W_VALID_RDY Handshake beat=86 wlast=0
[1125000] S1 MEMORY WRITE beat=85 addr=19e48ca2 data=cce25a9f1c113ef6 id=05
[1135000] S1 MEMORY WRITE beat=86 addr=19e48ca4 data=22061ab2e6c3a645 id=05
[1135000] MASTER 0 W_VALID_RDY Handshake beat=87 wlast=0
[1145000] MASTER 0 W_VALID_RDY Handshake beat=88 wlast=0
[1145000] S1 MEMORY WRITE beat=87 addr=19e48ca6 data=af006f561394921b id=05
[1155000] S1 MEMORY WRITE beat=88 addr=19e48ca8 data=2fa5d111c89f36e6 id=05
[1155000] MASTER 0 W_VALID_RDY Handshake beat=89 wlast=0
[1165000] MASTER 0 W_VALID_RDY Handshake beat=90 wlast=0
[1165000] S1 MEMORY WRITE beat=89 addr=19e48caa data=af62dd2bfbe2c9f5 id=05
[1175000] S1 MEMORY WRITE beat=90 addr=19e48cac data=8f775c10d1abebc3 id=05
[1175000] MASTER 0 W_VALID_RDY Handshake beat=91 wlast=0
[1185000] MASTER 0 W_VALID_RDY Handshake beat=92 wlast=0
[1185000] S1 MEMORY WRITE beat=91 addr=19e48cae data=9a4b22a9de634c82 id=05
[1195000] S1 MEMORY WRITE beat=92 addr=19e48cb0 data=da461677bf1d2d21 id=05
[1195000] MASTER 0 W_VALID_RDY Handshake beat=93 wlast=0
[1205000] MASTER 0 W_VALID_RDY Handshake beat=94 wlast=0
[1205000] S1 MEMORY WRITE beat=93 addr=19e48cb2 data=90c918e4c9adffd5 id=05
[1215000] S1 MEMORY WRITE beat=94 addr=19e48cb4 data=28114c57e9bd7288 id=05
[1215000] MASTER 0 W_VALID_RDY Handshake beat=95 wlast=0
[1225000] MASTER 0 W_VALID_RDY Handshake beat=96 wlast=0
[1225000] S1 MEMORY WRITE beat=95 addr=19e48cb6 data=a8da9fa92b143b8e id=05
[1235000] S1 MEMORY WRITE beat=96 addr=19e48cb8 data=f4c23b63825762ce id=05
[1235000] MASTER 0 W_VALID_RDY Handshake beat=97 wlast=0
[1245000] MASTER 0 W_VALID_RDY Handshake beat=98 wlast=0
[1245000] S1 MEMORY WRITE beat=97 addr=19e48cba data=ec14d55639a3b88e id=05
[1255000] S1 MEMORY WRITE beat=98 addr=19e48cbc data=e4b7f41c1cd387ba id=05
[1255000] MASTER 0 W_VALID_RDY Handshake beat=99 wlast=0
[1265000] MASTER 0 W_VALID_RDY Handshake beat=100 wlast=0
[1265000] S1 MEMORY WRITE beat=99 addr=19e48cbe data=9f2aea8814ef7500 id=05
[1275000] S1 MEMORY WRITE beat=100 addr=19e48cc0 data=ce932d8ed97a2f7f id=05
[1275000] MASTER 0 W_VALID_RDY Handshake beat=101 wlast=0
[1285000] MASTER 0 W_VALID_RDY Handshake beat=102 wlast=0
[1285000] S1 MEMORY WRITE beat=101 addr=19e48cc2 data=f64db7390b3fbfdf id=05
[1295000] S1 MEMORY WRITE beat=102 addr=19e48cc4 data=202f34df334b21aa id=05
[1295000] MASTER 0 W_VALID_RDY Handshake beat=103 wlast=0
[1305000] MASTER 0 W_VALID_RDY Handshake beat=104 wlast=0
[1305000] S1 MEMORY WRITE beat=103 addr=19e48cc6 data=0cc551299578a1c1 id=05
[1315000] S1 MEMORY WRITE beat=104 addr=19e48cc8 data=a0b861a0eec2626d id=05
[1315000] MASTER 0 W_VALID_RDY Handshake beat=105 wlast=0
[1325000] MASTER 0 W_VALID_RDY Handshake beat=106 wlast=0
[1325000] S1 MEMORY WRITE beat=105 addr=19e48cca data=220d841703130862 id=05
[1335000] S1 MEMORY WRITE beat=106 addr=19e48ccc data=988baa23c0e7967f id=05
[1335000] MASTER 0 W_VALID_RDY Handshake beat=107 wlast=0
[1345000] MASTER 0 W_VALID_RDY Handshake beat=108 wlast=0
[1345000] S1 MEMORY WRITE beat=107 addr=19e48cce data=afa9f8ec2ed2d540 id=05
[1355000] S1 MEMORY WRITE beat=108 addr=19e48cd0 data=31e5dda239440bc4 id=05
[1355000] MASTER 0 W_VALID_RDY Handshake beat=109 wlast=0
[1365000] MASTER 0 W_VALID_RDY Handshake beat=110 wlast=0
[1365000] S1 MEMORY WRITE beat=109 addr=19e48cd2 data=fa2ba243d1b77d03 id=05
[1375000] S1 MEMORY WRITE beat=110 addr=19e48cd4 data=808a5243ca7187c5 id=05
[1375000] MASTER 0 W_VALID_RDY Handshake beat=111 wlast=0
[1385000] MASTER 0 W_VALID_RDY Handshake beat=112 wlast=0
[1385000] S1 MEMORY WRITE beat=111 addr=19e48cd6 data=83b5938929d59b30 id=05
[1395000] S1 MEMORY WRITE beat=112 addr=19e48cd8 data=fb8d1833b2702fe5 id=05
[1395000] MASTER 0 W_VALID_RDY Handshake beat=113 wlast=0
[1405000] MASTER 0 W_VALID_RDY Handshake beat=114 wlast=0
[1405000] S1 MEMORY WRITE beat=113 addr=19e48cda data=fce1b7abfde135cd id=05
[1415000] S1 MEMORY WRITE beat=114 addr=19e48cdc data=27b6d0fdfc176a77 id=05
[1415000] MASTER 0 W_VALID_RDY Handshake beat=115 wlast=0
[1425000] MASTER 0 W_VALID_RDY Handshake beat=116 wlast=0
[1425000] S1 MEMORY WRITE beat=115 addr=19e48cde data=ae879a5c80974b34 id=05
[1435000] S1 MEMORY WRITE beat=116 addr=19e48ce0 data=fe788101a343e930 id=05
[1435000] MASTER 0 W_VALID_RDY Handshake beat=117 wlast=0
[1445000] MASTER 0 W_VALID_RDY Handshake beat=118 wlast=0
[1445000] S1 MEMORY WRITE beat=117 addr=19e48ce2 data=9f5b53a7ab695207 id=05
[1455000] S1 MEMORY WRITE beat=118 addr=19e48ce4 data=2c009d3ca62f51fe id=05
[1455000] MASTER 0 W_VALID_RDY Handshake beat=119 wlast=0
[1465000] MASTER 0 W_VALID_RDY Handshake beat=120 wlast=0
[1465000] S1 MEMORY WRITE beat=119 addr=19e48ce6 data=c9733b2fcde2ee04 id=05
[1475000] S1 MEMORY WRITE beat=120 addr=19e48ce8 data=f94c400baa791e3d id=05
[1475000] MASTER 0 W_VALID_RDY Handshake beat=121 wlast=0
[1485000] MASTER 0 W_VALID_RDY Handshake beat=122 wlast=0
[1485000] S1 MEMORY WRITE beat=121 addr=19e48cea data=d0a8703ce8ce8ed6 id=05
[1495000] S1 MEMORY WRITE beat=122 addr=19e48cec data=b6b17cdaa54cdd47 id=05
[1495000] MASTER 0 W_VALID_RDY Handshake beat=123 wlast=0
[1505000] MASTER 0 W_VALID_RDY Handshake beat=124 wlast=0
[1505000] S1 MEMORY WRITE beat=123 addr=19e48cee data=cfc5fb851a1bab6b id=05
[1515000] S1 MEMORY WRITE beat=124 addr=19e48cf0 data=82ea3a412ffdbce6 id=05
[1515000] MASTER 0 W_VALID_RDY Handshake beat=125 wlast=0
[1525000] MASTER 0 W_VALID_RDY Handshake beat=126 wlast=0
[1525000] S1 MEMORY WRITE beat=125 addr=19e48cf2 data=d54a9a2d206e6bc1 id=05
[1535000] S1 MEMORY WRITE beat=126 addr=19e48cf4 data=3a8a172c399bb71c id=05
[1535000] MASTER 0 W_VALID_RDY Handshake beat=127 wlast=0
[1545000] MASTER 0 W_VALID_RDY Handshake beat=128 wlast=0
[1545000] S1 MEMORY WRITE beat=127 addr=19e48cf6 data=e9997402a51095b2 id=05
[1555000] S1 MEMORY WRITE beat=128 addr=19e48cf8 data=c57f0173bd74516d id=05
[1555000] MASTER 0 W_VALID_RDY Handshake beat=129 wlast=0
[1565000] MASTER 0 W_VALID_RDY Handshake beat=130 wlast=0
[1565000] S1 MEMORY WRITE beat=129 addr=19e48cfa data=f7100889bee40e2f id=05
[1575000] S1 MEMORY WRITE beat=130 addr=19e48cfc data=e3f4a3e28009189f id=05
[1575000] MASTER 0 W_VALID_RDY Handshake beat=131 wlast=0
[1585000] MASTER 0 W_VALID_RDY Handshake beat=132 wlast=0
[1585000] S1 MEMORY WRITE beat=131 addr=19e48cfe data=3d7d6a0de0a97c8b id=05
[1595000] S1 MEMORY WRITE beat=132 addr=19e48d00 data=1f8d8abba973a555 id=05
[1595000] MASTER 0 W_VALID_RDY Handshake beat=133 wlast=0
[1605000] MASTER 0 W_VALID_RDY Handshake beat=134 wlast=0
[1605000] S1 MEMORY WRITE beat=133 addr=19e48d02 data=297cbdf5b48d7296 id=05
[1615000] S1 MEMORY WRITE beat=134 addr=19e48d04 data=1536ef2203822e9d id=05
[1615000] MASTER 0 W_VALID_RDY Handshake beat=135 wlast=0
[1625000] MASTER 0 W_VALID_RDY Handshake beat=136 wlast=0
[1625000] S1 MEMORY WRITE beat=135 addr=19e48d06 data=acf5d3f2e6fa2802 id=05
[1635000] S1 MEMORY WRITE beat=136 addr=19e48d08 data=9b879a9834c479dd id=05
[1635000] MASTER 0 W_VALID_RDY Handshake beat=137 wlast=0
[1645000] MASTER 0 W_VALID_RDY Handshake beat=138 wlast=0
[1645000] S1 MEMORY WRITE beat=137 addr=19e48d0a data=3846a87ad67291e7 id=05
[1655000] S1 MEMORY WRITE beat=138 addr=19e48d0c data=bd6cb9e9b0be89ba id=05
[1655000] MASTER 0 W_VALID_RDY Handshake beat=139 wlast=0
[1665000] MASTER 0 W_VALID_RDY Handshake beat=140 wlast=0
[1665000] S1 MEMORY WRITE beat=139 addr=19e48d0e data=e5830397e53c7c6c id=05
[1675000] S1 MEMORY WRITE beat=140 addr=19e48d10 data=3baf0e54d8f45482 id=05
[1675000] MASTER 0 W_VALID_RDY Handshake beat=141 wlast=0
[1685000] MASTER 0 W_VALID_RDY Handshake beat=142 wlast=0
[1685000] S1 MEMORY WRITE beat=141 addr=19e48d12 data=89b2de3c9dc9ac11 id=05
[1695000] S1 MEMORY WRITE beat=142 addr=19e48d14 data=0306287ef91bc83d id=05
[1695000] MASTER 0 W_VALID_RDY Handshake beat=143 wlast=0
[1705000] MASTER 0 W_VALID_RDY Handshake beat=144 wlast=0
[1705000] S1 MEMORY WRITE beat=143 addr=19e48d16 data=d2101cbfef35e1d4 id=05
[1715000] S1 MEMORY WRITE beat=144 addr=19e48d18 data=8cff8de53eb536d2 id=05
[1715000] MASTER 0 W_VALID_RDY Handshake beat=145 wlast=0
[1725000] MASTER 0 W_VALID_RDY Handshake beat=146 wlast=0
[1725000] S1 MEMORY WRITE beat=145 addr=19e48d1a data=b7d0ff0fdbc2fafc id=05
[1735000] S1 MEMORY WRITE beat=146 addr=19e48d1c data=caf8dcd09005b663 id=05
[1735000] MASTER 0 W_VALID_RDY Handshake beat=147 wlast=0
[1745000] MASTER 0 W_VALID_RDY Handshake beat=148 wlast=0
[1745000] S1 MEMORY WRITE beat=147 addr=19e48d1e data=cebaed3509e11bcf id=05
[1755000] S1 MEMORY WRITE beat=148 addr=19e48d20 data=e5a416cbd7f86ab5 id=05
[1755000] MASTER 0 W_VALID_RDY Handshake beat=149 wlast=0
[1765000] MASTER 0 W_VALID_RDY Handshake beat=150 wlast=0
[1765000] S1 MEMORY WRITE beat=149 addr=19e48d22 data=e7fe2119068bec45 id=05
[1775000] S1 MEMORY WRITE beat=150 addr=19e48d24 data=106d0814309cf39b id=05
[1775000] MASTER 0 W_VALID_RDY Handshake beat=151 wlast=0
[1785000] MASTER 0 W_VALID_RDY Handshake beat=152 wlast=0
[1785000] S1 MEMORY WRITE beat=151 addr=19e48d26 data=88955e50b6b90e4e id=05
[1795000] S1 MEMORY WRITE beat=152 addr=19e48d28 data=bd44fa93f6111edf id=05
[1795000] MASTER 0 W_VALID_RDY Handshake beat=153 wlast=0
[1805000] MASTER 0 W_VALID_RDY Handshake beat=154 wlast=0
[1805000] S1 MEMORY WRITE beat=153 addr=19e48d2a data=26ae127af0937f69 id=05
[1815000] S1 MEMORY WRITE beat=154 addr=19e48d2c data=274c8db8cdb202a7 id=05
[1815000] MASTER 0 W_VALID_RDY Handshake beat=155 wlast=0
[1825000] MASTER 0 W_VALID_RDY Handshake beat=156 wlast=0
[1825000] S1 MEMORY WRITE beat=155 addr=19e48d2e data=c3c32186af4370ca id=05
[1835000] S1 MEMORY WRITE beat=156 addr=19e48d30 data=1fd6f034e491884b id=05
[1835000] MASTER 0 W_VALID_RDY Handshake beat=157 wlast=0
[1845000] MASTER 0 W_VALID_RDY Handshake beat=158 wlast=0
[1845000] S1 MEMORY WRITE beat=157 addr=19e48d32 data=32438af3ea713400 id=05
[1855000] S1 MEMORY WRITE beat=158 addr=19e48d34 data=19b4a4cbc7237dec id=05
[1855000] MASTER 0 W_VALID_RDY Handshake beat=159 wlast=0
[1865000] MASTER 0 W_VALID_RDY Handshake beat=160 wlast=0
[1865000] S1 MEMORY WRITE beat=159 addr=19e48d36 data=abb50637f606ac79 id=05
[1875000] S1 MEMORY WRITE beat=160 addr=19e48d38 data=e077e07a398b94ff id=05
[1875000] MASTER 0 W_VALID_RDY Handshake beat=161 wlast=0
[1885000] MASTER 0 W_VALID_RDY Handshake beat=162 wlast=0
[1885000] S1 MEMORY WRITE beat=161 addr=19e48d3a data=00af12ebddf8912a id=05
[1895000] S1 MEMORY WRITE beat=162 addr=19e48d3c data=d3ff3da4fa2c8545 id=05
[1895000] MASTER 0 W_VALID_RDY Handshake beat=163 wlast=0
[1905000] MASTER 0 W_VALID_RDY Handshake beat=164 wlast=0
[1905000] S1 MEMORY WRITE beat=163 addr=19e48d3e data=33b81a44ac641922 id=05
[1915000] S1 MEMORY WRITE beat=164 addr=19e48d40 data=0a5caa4d34771e1e id=05
[1915000] MASTER 0 W_VALID_RDY Handshake beat=165 wlast=0
[1925000] MASTER 0 W_VALID_RDY Handshake beat=166 wlast=0
[1925000] S1 MEMORY WRITE beat=165 addr=19e48d42 data=2ea3a36334672d2f id=05
[1935000] S1 MEMORY WRITE beat=166 addr=19e48d44 data=e0cb4651de5be7f1 id=05
[1935000] MASTER 0 W_VALID_RDY Handshake beat=167 wlast=0
[1945000] MASTER 0 W_VALID_RDY Handshake beat=168 wlast=0
[1945000] S1 MEMORY WRITE beat=167 addr=19e48d46 data=12d3060fe25bbda7 id=05
[1955000] S1 MEMORY WRITE beat=168 addr=19e48d48 data=16c2ead6eb27f09e id=05
[1955000] MASTER 0 W_VALID_RDY Handshake beat=169 wlast=0
[1965000] MASTER 0 W_VALID_RDY Handshake beat=170 wlast=0
[1965000] S1 MEMORY WRITE beat=169 addr=19e48d4a data=c983d88fc176a972 id=05
[1975000] S1 MEMORY WRITE beat=170 addr=19e48d4c data=23d26719f78e3127 id=05
[1975000] MASTER 0 W_VALID_RDY Handshake beat=171 wlast=0
[1985000] MASTER 0 W_VALID_RDY Handshake beat=172 wlast=0
[1985000] S1 MEMORY WRITE beat=171 addr=19e48d4e data=e2b621c6dc56de9e id=05
[1995000] S1 MEMORY WRITE beat=172 addr=19e48d50 data=9dcd88103a9551ef id=05
[1995000] MASTER 0 W_VALID_RDY Handshake beat=173 wlast=0
[2005000] MASTER 0 W_VALID_RDY Handshake beat=174 wlast=0
[2005000] S1 MEMORY WRITE beat=173 addr=19e48d52 data=b2238316ac39fa55 id=05
[2015000] S1 MEMORY WRITE beat=174 addr=19e48d54 data=0890d8f4c19fef29 id=05
[2015000] MASTER 0 W_VALID_RDY Handshake beat=175 wlast=0
[2025000] MASTER 0 W_VALID_RDY Handshake beat=176 wlast=0
[2025000] S1 MEMORY WRITE beat=175 addr=19e48d56 data=fc35411894d9a4dc id=05
[2035000] S1 MEMORY WRITE beat=176 addr=19e48d58 data=c1139f32a65e6104 id=05
[2035000] MASTER 0 W_VALID_RDY Handshake beat=177 wlast=0
[2045000] MASTER 0 W_VALID_RDY Handshake beat=178 wlast=0
[2045000] S1 MEMORY WRITE beat=177 addr=19e48d5a data=e7fe502e2e58c42f id=05
[2055000] S1 MEMORY WRITE beat=178 addr=19e48d5c data=c332690bc9a47826 id=05
[2055000] MASTER 0 W_VALID_RDY Handshake beat=179 wlast=0
[2065000] MASTER 0 W_VALID_RDY Handshake beat=180 wlast=0
[2065000] S1 MEMORY WRITE beat=179 addr=19e48d5e data=f002d92ae4339146 id=05
[2075000] S1 MEMORY WRITE beat=180 addr=19e48d60 data=928c55758446083d id=05
[2075000] MASTER 0 W_VALID_RDY Handshake beat=181 wlast=0
[2085000] MASTER 0 W_VALID_RDY Handshake beat=182 wlast=0
[2085000] S1 MEMORY WRITE beat=181 addr=19e48d62 data=cdea8063d8012958 id=05
[2095000] S1 MEMORY WRITE beat=182 addr=19e48d64 data=3c34ba9fd5bebe81 id=05
[2095000] MASTER 0 W_VALID_RDY Handshake beat=183 wlast=0
[2105000] MASTER 0 W_VALID_RDY Handshake beat=184 wlast=0
[2105000] S1 MEMORY WRITE beat=183 addr=19e48d66 data=da04c6be3ded598e id=05
[2115000] S1 MEMORY WRITE beat=184 addr=19e48d68 data=95ee82e6cec11014 id=05
[2115000] MASTER 0 W_VALID_RDY Handshake beat=185 wlast=0
[2125000] MASTER 0 W_VALID_RDY Handshake beat=186 wlast=0
[2125000] S1 MEMORY WRITE beat=185 addr=19e48d6a data=a47fce9527ef4722 id=05
[2135000] S1 MEMORY WRITE beat=186 addr=19e48d6c data=e5dca0b0d2233d85 id=05
[2135000] MASTER 0 W_VALID_RDY Handshake beat=187 wlast=0
[2145000] MASTER 0 W_VALID_RDY Handshake beat=188 wlast=0
[2145000] S1 MEMORY WRITE beat=187 addr=19e48d6e data=20e44d9afe849554 id=05
[2155000] S1 MEMORY WRITE beat=188 addr=19e48d70 data=2673dc76fbcb2396 id=05
[2155000] MASTER 0 W_VALID_RDY Handshake beat=189 wlast=0
[2165000] MASTER 0 W_VALID_RDY Handshake beat=190 wlast=0
[2165000] S1 MEMORY WRITE beat=189 addr=19e48d72 data=cdee611cc5641c2f id=05
[2175000] S1 MEMORY WRITE beat=190 addr=19e48d74 data=c3e8b1830c507d26 id=05
[2175000] MASTER 0 W_VALID_RDY Handshake beat=191 wlast=0
[2185000] MASTER 0 W_VALID_RDY Handshake beat=192 wlast=0
[2185000] S1 MEMORY WRITE beat=191 addr=19e48d76 data=881ba0bceed2aeb6 id=05
[2195000] S1 MEMORY WRITE beat=192 addr=19e48d78 data=b436cae5ea5c8df9 id=05
[2195000] MASTER 0 W_VALID_RDY Handshake beat=193 wlast=0
[2205000] MASTER 0 W_VALID_RDY Handshake beat=194 wlast=0
[2205000] S1 MEMORY WRITE beat=193 addr=19e48d7a data=f6ad0b1fd60a01d8 id=05
[2215000] S1 MEMORY WRITE beat=194 addr=19e48d7c data=c4dcb08ef81f7c69 id=05
[2215000] MASTER 0 W_VALID_RDY Handshake beat=195 wlast=0
[2225000] MASTER 0 W_VALID_RDY Handshake beat=196 wlast=0
[2225000] S1 MEMORY WRITE beat=195 addr=19e48d7e data=e27c0a62fec8abdc id=05
[2235000] S1 MEMORY WRITE beat=196 addr=19e48d80 data=d4d2adb4f9137b74 id=05
[2235000] MASTER 0 W_VALID_RDY Handshake beat=197 wlast=0
[2245000] MASTER 0 W_VALID_RDY Handshake beat=198 wlast=0
[2245000] S1 MEMORY WRITE beat=197 addr=19e48d82 data=f132f7ddd9291582 id=05
[2255000] S1 MEMORY WRITE beat=198 addr=19e48d84 data=d7f1c15e19af5e43 id=05
[2255000] MASTER 0 W_VALID_RDY Handshake beat=199 wlast=0
[2265000] MASTER 0 W_VALID_RDY Handshake beat=200 wlast=0
[2265000] S1 MEMORY WRITE beat=199 addr=19e48d86 data=12c2d9b7d3af023f id=05
[2275000] S1 MEMORY WRITE beat=200 addr=19e48d88 data=acd817c1acc46f12 id=05
[2275000] MASTER 0 W_VALID_RDY Handshake beat=201 wlast=0
[2285000] MASTER 0 W_VALID_RDY Handshake beat=202 wlast=0
[2285000] S1 MEMORY WRITE beat=201 addr=19e48d8a data=c673cd5503f5d194 id=05
[2295000] S1 MEMORY WRITE beat=202 addr=19e48d8c data=d7a4d3d384c9d91f id=05
[2295000] MASTER 0 W_VALID_RDY Handshake beat=203 wlast=0
[2305000] MASTER 0 W_VALID_RDY Handshake beat=204 wlast=0
[2305000] S1 MEMORY WRITE beat=203 addr=19e48d8e data=318e4832d936a70c id=05
[2315000] S1 MEMORY WRITE beat=204 addr=19e48d90 data=dd2c78a0047ceb95 id=05
[2315000] MASTER 0 W_VALID_RDY Handshake beat=205 wlast=0
[2325000] MASTER 0 W_VALID_RDY Handshake beat=206 wlast=0
[2325000] S1 MEMORY WRITE beat=205 addr=19e48d92 data=8946c4b4f8021587 id=05
[2335000] S1 MEMORY WRITE beat=206 addr=19e48d94 data=d138bc9434d14c74 id=05
[2335000] MASTER 0 W_VALID_RDY Handshake beat=207 wlast=0
[2345000] MASTER 0 W_VALID_RDY Handshake beat=208 wlast=0
[2345000] S1 MEMORY WRITE beat=207 addr=19e48d96 data=394e3809bad50ce6 id=05
[2355000] S1 MEMORY WRITE beat=208 addr=19e48d98 data=32d7226eae653534 id=05
[2355000] MASTER 0 W_VALID_RDY Handshake beat=209 wlast=0
[2365000] MASTER 0 W_VALID_RDY Handshake beat=210 wlast=0
[2365000] S1 MEMORY WRITE beat=209 addr=19e48d9a data=e33681a8c294fcbd id=05
[2375000] S1 MEMORY WRITE beat=210 addr=19e48d9c data=fd6a09a4040fdf02 id=05
[2375000] MASTER 0 W_VALID_RDY Handshake beat=211 wlast=0
[2385000] MASTER 0 W_VALID_RDY Handshake beat=212 wlast=0
[2385000] S1 MEMORY WRITE beat=211 addr=19e48d9e data=b27514369c84b9b1 id=05
[2395000] S1 MEMORY WRITE beat=212 addr=19e48da0 data=df19b66f30412c12 id=05
[2395000] MASTER 0 W_VALID_RDY Handshake beat=213 wlast=0
[2405000] MASTER 0 W_VALID_RDY Handshake beat=214 wlast=0
[2405000] S1 MEMORY WRITE beat=213 addr=19e48da2 data=34510b1415ab95df id=05
[2415000] S1 MEMORY WRITE beat=214 addr=19e48da4 data=b2304f90dc83c013 id=05
[2415000] MASTER 0 W_VALID_RDY Handshake beat=215 wlast=0
[2425000] MASTER 0 W_VALID_RDY Handshake beat=216 wlast=0
[2425000] S1 MEMORY WRITE beat=215 addr=19e48da6 data=0cc4ec25e6c61f4a id=05
[2435000] S1 MEMORY WRITE beat=216 addr=19e48da8 data=fc71b529914a05ff id=05
[2435000] MASTER 0 W_VALID_RDY Handshake beat=217 wlast=0
[2445000] MASTER 0 W_VALID_RDY Handshake beat=218 wlast=0
[2445000] S1 MEMORY WRITE beat=217 addr=19e48daa data=edcdc612c115f739 id=05
[2455000] S1 MEMORY WRITE beat=218 addr=19e48dac data=a7dc16832ea204ba id=05
[2455000] MASTER 0 W_VALID_RDY Handshake beat=219 wlast=1
[2455000] MASTER_DRIVER0 received transaction, op=AXI_READ
[2465000] S1 MEMORY WRITE beat=219 addr=19e48dae data=bfec0ab9fa92b237 id=05
[2475000] SLAVE1 sent B resp, id=5
[2475000] [SLAVE MONITOR] mst_id=0 s_id=1 awaddr=19e48bf8 awid=101 awlen=219 awsize=1 awburst=1 wdata=[14491618ffdc585a f243f34b9b9a2ebb a448680dc8e8dcf3 c8c5354ee9dbbe23 575ecdfb8917e25 17a5b19bb092899 24e4e6bda9be54ec e24fd312ca3f9067 8548b9002a5ad39c d4192888e3ca2e2b 2e09be92aa2d9fbd d4887359b668fb9a 9a3329c5b3527792 dd80175028a19be2 df0a977cc83ce857 fb8f5feab2088aa9 daaa268bf93dc142 c17aa999d90f773a 8b1801e339b4be08 32f27f4abd0a0983 961980bde5c2286f 1f76e677f46d28e3 31773267213182a1 6f3ab10d26965c1 c6d68ea4c790b324 e8c235c5266a9187 f8d3f748f84dc10b 3fde7430efb5e0d5 9620725cbfaa85ec 37f846f8a8a0a9f5 18568acb8ef469a4 ce9eef91f7d6bb28 a077651dae76fd27 3d6b66cc06973689 fe6df1b1b8cdefe8 e744ed100c0a565d 12a18ce69ee556ce d7b346b724b053dc 30baaa39110f7e97 aff4d5653ef833c7 e3a887a3c35c371f d46bb5b687a81c1c c6a04fe3146331dc d7bf68fb84608b1b c08a738aa48d786 beac09622c2b1eb1 b08ba9ccd2a8f71b fcf1cea2966b725d c296910ebc945104 f3d4820bb9dd804 d2094a62f3223adb afb68bdf0c2f16c2 c7cceec6949fdb70 87c2164bbef3d3ff cb22eac199d63928 2e7614993778a22b f66c762a12efd988 acc612b0b6382ae4 edb0cd0fc18f60ec d47f3a74db3c2749 1174522ee41d433a 25aca42681454d24 dc81746eff251f3d e3426277fa2bde9a fb712bbeedf5c69c ed1ae5d988ef069d 831ae537d7f2a02c c5e866c8d05d4851 d94c4eeefe8c10f6 d67eb12233034ca2 36094f3dc673426 daf3451c1c6717eb cf6a648ddcace3e1 b9141807b171f63e cdd90e29d2caf980 af77dd6194075d23 c57953629d4372b6 f00e6c36e88bf569 fc93528c9352618b 3095d4421f864998 8123f01c20ca5ee d55f077aa0a44078 c02a8a1084a5918d c6b2377c05f4dbbc a6991c34c83cc911 cce25a9f1c113ef6 22061ab2e6c3a645 af006f561394921b 2fa5d111c89f36e6 af62dd2bfbe2c9f5 8f775c10d1abebc3 9a4b22a9de634c82 da461677bf1d2d21 90c918e4c9adffd5 28114c57e9bd7288 a8da9fa92b143b8e f4c23b63825762ce ec14d55639a3b88e e4b7f41c1cd387ba 9f2aea8814ef7500 ce932d8ed97a2f7f f64db7390b3fbfdf 202f34df334b21aa cc551299578a1c1 a0b861a0eec2626d 220d841703130862 988baa23c0e7967f afa9f8ec2ed2d540 31e5dda239440bc4 fa2ba243d1b77d03 808a5243ca7187c5 83b5938929d59b30 fb8d1833b2702fe5 fce1b7abfde135cd 27b6d0fdfc176a77 ae879a5c80974b34 fe788101a343e930 9f5b53a7ab695207 2c009d3ca62f51fe c9733b2fcde2ee04 f94c400baa791e3d d0a8703ce8ce8ed6 b6b17cdaa54cdd47 cfc5fb851a1bab6b 82ea3a412ffdbce6 d54a9a2d206e6bc1 3a8a172c399bb71c e9997402a51095b2 c57f0173bd74516d f7100889bee40e2f e3f4a3e28009189f 3d7d6a0de0a97c8b 1f8d8abba973a555 297cbdf5b48d7296 1536ef2203822e9d acf5d3f2e6fa2802 9b879a9834c479dd 3846a87ad67291e7 bd6cb9e9b0be89ba e5830397e53c7c6c 3baf0e54d8f45482 89b2de3c9dc9ac11 306287ef91bc83d d2101cbfef35e1d4 8cff8de53eb536d2 b7d0ff0fdbc2fafc caf8dcd09005b663 cebaed3509e11bcf e5a416cbd7f86ab5 e7fe2119068bec45 106d0814309cf39b 88955e50b6b90e4e bd44fa93f6111edf 26ae127af0937f69 274c8db8cdb202a7 c3c32186af4370ca 1fd6f034e491884b 32438af3ea713400 19b4a4cbc7237dec abb50637f606ac79 e077e07a398b94ff af12ebddf8912a d3ff3da4fa2c8545 33b81a44ac641922 a5caa4d34771e1e 2ea3a36334672d2f e0cb4651de5be7f1 12d3060fe25bbda7 16c2ead6eb27f09e c983d88fc176a972 23d26719f78e3127 e2b621c6dc56de9e 9dcd88103a9551ef b2238316ac39fa55 890d8f4c19fef29 fc35411894d9a4dc c1139f32a65e6104 e7fe502e2e58c42f c332690bc9a47826 f002d92ae4339146 928c55758446083d cdea8063d8012958 3c34ba9fd5bebe81 da04c6be3ded598e 95ee82e6cec11014 a47fce9527ef4722 e5dca0b0d2233d85 20e44d9afe849554 2673dc76fbcb2396 cdee611cc5641c2f c3e8b1830c507d26 881ba0bceed2aeb6 b436cae5ea5c8df9 f6ad0b1fd60a01d8 c4dcb08ef81f7c69 e27c0a62fec8abdc d4d2adb4f9137b74 f132f7ddd9291582 d7f1c15e19af5e43 12c2d9b7d3af023f acd817c1acc46f12 c673cd5503f5d194 d7a4d3d384c9d91f 318e4832d936a70c dd2c78a0047ceb95 8946c4b4f8021587 d138bc9434d14c74 394e3809bad50ce6 32d7226eae653534 e33681a8c294fcbd fd6a09a4040fdf02 b27514369c84b9b1 df19b66f30412c12 34510b1415ab95df b2304f90dc83c013 cc4ec25e6c61f4a fc71b529914a05ff edcdc612c115f739 a7dc16832ea204ba bfec0ab9fa92b237 ] wstrb=[ad 70 cc 67 f4 3 20 a1 74 ec 8 68 f0 28 9 64 15 11 cc 5 39 d5 69 4e e6 35 53 1f a bc 6e f0 f1 c1 f fb 7e 7d eb 6f 3f fb 6b bd 78 56 2c b7 51 97 74 ca ee a1 81 3f 38 f6 9 26 97 8b 66 cf 81 6f f6 18 fa 5c e7 7b cb dd 93 c6 39 7b 41 5 58 d5 cb 92 50 c 97 a8 e1 62 3a 31 6e d1 da 50 33 14 81 a2 e6 5b f2 19 70 73 bb 56 cf ad 6f 3f 21 2b 95 f0 d8 4 2f f9 2f c4 e9 8 c8 18 1 f8 dc eb 0 a5 3 1 9d e0 ec 9d 85 f0 9e 22 d0 8b bf 55 7b 5d 77 4b e8 36 a0 63 93 17 ae 7c 4d 4e df e0 65 8e 5c b2 dc 3c 93 42 ca ef f4 a6 2b 87 e8 f5 77 dd 9c a2 64 84 98 db 61 34 7e c6 b8 16 a1 1a 4a 1f e0 2 35 81 1c 7f a1 fc 82 d6 7e 9e 56 1f 9b d8 f5 19 76 4b 38 11 23 2d ] bresp=0 bid=101
[2485000] ARB MONITOR: slave=1 m0_req=1 m1_req=0 winner=0
[2485000] AXI S0_ARVALID_RDY HANDSHAKE
[2485000] MEMORY READ MISS beat=0 addr=1c0d1dc8 -> default data id=3
[2495000] MEMORY READ MISS beat=1 addr=1c0d1dd0 -> default data id=3
[2495000] SLAVE 1 R_VALID_RDY Handshake beat=0 rlast=0
[2495000] MASTER 0 B_VALID_RDY Handshake
[2495000] [MASTER MONITOR] mst_id=0 s_id=1 awaddr=19e48bf8 awid=101 awlen=219 awsize=1 awburst=1 wdata=[14491618ffdc585a f243f34b9b9a2ebb a448680dc8e8dcf3 c8c5354ee9dbbe23 575ecdfb8917e25 17a5b19bb092899 24e4e6bda9be54ec e24fd312ca3f9067 8548b9002a5ad39c d4192888e3ca2e2b 2e09be92aa2d9fbd d4887359b668fb9a 9a3329c5b3527792 dd80175028a19be2 df0a977cc83ce857 fb8f5feab2088aa9 daaa268bf93dc142 c17aa999d90f773a 8b1801e339b4be08 32f27f4abd0a0983 961980bde5c2286f 1f76e677f46d28e3 31773267213182a1 6f3ab10d26965c1 c6d68ea4c790b324 e8c235c5266a9187 f8d3f748f84dc10b 3fde7430efb5e0d5 9620725cbfaa85ec 37f846f8a8a0a9f5 18568acb8ef469a4 ce9eef91f7d6bb28 a077651dae76fd27 3d6b66cc06973689 fe6df1b1b8cdefe8 e744ed100c0a565d 12a18ce69ee556ce d7b346b724b053dc 30baaa39110f7e97 aff4d5653ef833c7 e3a887a3c35c371f d46bb5b687a81c1c c6a04fe3146331dc d7bf68fb84608b1b c08a738aa48d786 beac09622c2b1eb1 b08ba9ccd2a8f71b fcf1cea2966b725d c296910ebc945104 f3d4820bb9dd804 d2094a62f3223adb afb68bdf0c2f16c2 c7cceec6949fdb70 87c2164bbef3d3ff cb22eac199d63928 2e7614993778a22b f66c762a12efd988 acc612b0b6382ae4 edb0cd0fc18f60ec d47f3a74db3c2749 1174522ee41d433a 25aca42681454d24 dc81746eff251f3d e3426277fa2bde9a fb712bbeedf5c69c ed1ae5d988ef069d 831ae537d7f2a02c c5e866c8d05d4851 d94c4eeefe8c10f6 d67eb12233034ca2 36094f3dc673426 daf3451c1c6717eb cf6a648ddcace3e1 b9141807b171f63e cdd90e29d2caf980 af77dd6194075d23 c57953629d4372b6 f00e6c36e88bf569 fc93528c9352618b 3095d4421f864998 8123f01c20ca5ee d55f077aa0a44078 c02a8a1084a5918d c6b2377c05f4dbbc a6991c34c83cc911 cce25a9f1c113ef6 22061ab2e6c3a645 af006f561394921b 2fa5d111c89f36e6 af62dd2bfbe2c9f5 8f775c10d1abebc3 9a4b22a9de634c82 da461677bf1d2d21 90c918e4c9adffd5 28114c57e9bd7288 a8da9fa92b143b8e f4c23b63825762ce ec14d55639a3b88e e4b7f41c1cd387ba 9f2aea8814ef7500 ce932d8ed97a2f7f f64db7390b3fbfdf 202f34df334b21aa cc551299578a1c1 a0b861a0eec2626d 220d841703130862 988baa23c0e7967f afa9f8ec2ed2d540 31e5dda239440bc4 fa2ba243d1b77d03 808a5243ca7187c5 83b5938929d59b30 fb8d1833b2702fe5 fce1b7abfde135cd 27b6d0fdfc176a77 ae879a5c80974b34 fe788101a343e930 9f5b53a7ab695207 2c009d3ca62f51fe c9733b2fcde2ee04 f94c400baa791e3d d0a8703ce8ce8ed6 b6b17cdaa54cdd47 cfc5fb851a1bab6b 82ea3a412ffdbce6 d54a9a2d206e6bc1 3a8a172c399bb71c e9997402a51095b2 c57f0173bd74516d f7100889bee40e2f e3f4a3e28009189f 3d7d6a0de0a97c8b 1f8d8abba973a555 297cbdf5b48d7296 1536ef2203822e9d acf5d3f2e6fa2802 9b879a9834c479dd 3846a87ad67291e7 bd6cb9e9b0be89ba e5830397e53c7c6c 3baf0e54d8f45482 89b2de3c9dc9ac11 306287ef91bc83d d2101cbfef35e1d4 8cff8de53eb536d2 b7d0ff0fdbc2fafc caf8dcd09005b663 cebaed3509e11bcf e5a416cbd7f86ab5 e7fe2119068bec45 106d0814309cf39b 88955e50b6b90e4e bd44fa93f6111edf 26ae127af0937f69 274c8db8cdb202a7 c3c32186af4370ca 1fd6f034e491884b 32438af3ea713400 19b4a4cbc7237dec abb50637f606ac79 e077e07a398b94ff af12ebddf8912a d3ff3da4fa2c8545 33b81a44ac641922 a5caa4d34771e1e 2ea3a36334672d2f e0cb4651de5be7f1 12d3060fe25bbda7 16c2ead6eb27f09e c983d88fc176a972 23d26719f78e3127 e2b621c6dc56de9e 9dcd88103a9551ef b2238316ac39fa55 890d8f4c19fef29 fc35411894d9a4dc c1139f32a65e6104 e7fe502e2e58c42f c332690bc9a47826 f002d92ae4339146 928c55758446083d cdea8063d8012958 3c34ba9fd5bebe81 da04c6be3ded598e 95ee82e6cec11014 a47fce9527ef4722 e5dca0b0d2233d85 20e44d9afe849554 2673dc76fbcb2396 cdee611cc5641c2f c3e8b1830c507d26 881ba0bceed2aeb6 b436cae5ea5c8df9 f6ad0b1fd60a01d8 c4dcb08ef81f7c69 e27c0a62fec8abdc d4d2adb4f9137b74 f132f7ddd9291582 d7f1c15e19af5e43 12c2d9b7d3af023f acd817c1acc46f12 c673cd5503f5d194 d7a4d3d384c9d91f 318e4832d936a70c dd2c78a0047ceb95 8946c4b4f8021587 d138bc9434d14c74 394e3809bad50ce6 32d7226eae653534 e33681a8c294fcbd fd6a09a4040fdf02 b27514369c84b9b1 df19b66f30412c12 34510b1415ab95df b2304f90dc83c013 cc4ec25e6c61f4a fc71b529914a05ff edcdc612c115f739 a7dc16832ea204ba bfec0ab9fa92b237 ] wstrb=[ad 70 cc 67 f4 3 20 a1 74 ec 8 68 f0 28 9 64 15 11 cc 5 39 d5 69 4e e6 35 53 1f a bc 6e f0 f1 c1 f fb 7e 7d eb 6f 3f fb 6b bd 78 56 2c b7 51 97 74 ca ee a1 81 3f 38 f6 9 26 97 8b 66 cf 81 6f f6 18 fa 5c e7 7b cb dd 93 c6 39 7b 41 5 58 d5 cb 92 50 c 97 a8 e1 62 3a 31 6e d1 da 50 33 14 81 a2 e6 5b f2 19 70 73 bb 56 cf ad 6f 3f 21 2b 95 f0 d8 4 2f f9 2f c4 e9 8 c8 18 1 f8 dc eb 0 a5 3 1 9d e0 ec 9d 85 f0 9e 22 d0 8b bf 55 7b 5d 77 4b e8 36 a0 63 93 17 ae 7c 4d 4e df e0 65 8e 5c b2 dc 3c 93 42 ca ef f4 a6 2b 87 e8 f5 77 dd 9c a2 64 84 98 db 61 34 7e c6 b8 16 a1 1a 4a 1f e0 2 35 81 1c 7f a1 fc 82 d6 7e 9e 56 1f 9b d8 f5 19 76 4b 38 11 23 2d ] bresp=0 bid=101
[2495000] MASTER 0 RECEIVED BRESP. BRESP=0
[2495000] [MASTER DRIVER] mst_id=0 s_id=0 awaddr=19e48bf8 awid=101 awlen=219 awsize=1 awburst=1 wdata=[14491618ffdc585a f243f34b9b9a2ebb a448680dc8e8dcf3 c8c5354ee9dbbe23 575ecdfb8917e25 17a5b19bb092899 24e4e6bda9be54ec e24fd312ca3f9067 8548b9002a5ad39c d4192888e3ca2e2b 2e09be92aa2d9fbd d4887359b668fb9a 9a3329c5b3527792 dd80175028a19be2 df0a977cc83ce857 fb8f5feab2088aa9 daaa268bf93dc142 c17aa999d90f773a 8b1801e339b4be08 32f27f4abd0a0983 961980bde5c2286f 1f76e677f46d28e3 31773267213182a1 6f3ab10d26965c1 c6d68ea4c790b324 e8c235c5266a9187 f8d3f748f84dc10b 3fde7430efb5e0d5 9620725cbfaa85ec 37f846f8a8a0a9f5 18568acb8ef469a4 ce9eef91f7d6bb28 a077651dae76fd27 3d6b66cc06973689 fe6df1b1b8cdefe8 e744ed100c0a565d 12a18ce69ee556ce d7b346b724b053dc 30baaa39110f7e97 aff4d5653ef833c7 e3a887a3c35c371f d46bb5b687a81c1c c6a04fe3146331dc d7bf68fb84608b1b c08a738aa48d786 beac09622c2b1eb1 b08ba9ccd2a8f71b fcf1cea2966b725d c296910ebc945104 f3d4820bb9dd804 d2094a62f3223adb afb68bdf0c2f16c2 c7cceec6949fdb70 87c2164bbef3d3ff cb22eac199d63928 2e7614993778a22b f66c762a12efd988 acc612b0b6382ae4 edb0cd0fc18f60ec d47f3a74db3c2749 1174522ee41d433a 25aca42681454d24 dc81746eff251f3d e3426277fa2bde9a fb712bbeedf5c69c ed1ae5d988ef069d 831ae537d7f2a02c c5e866c8d05d4851 d94c4eeefe8c10f6 d67eb12233034ca2 36094f3dc673426 daf3451c1c6717eb cf6a648ddcace3e1 b9141807b171f63e cdd90e29d2caf980 af77dd6194075d23 c57953629d4372b6 f00e6c36e88bf569 fc93528c9352618b 3095d4421f864998 8123f01c20ca5ee d55f077aa0a44078 c02a8a1084a5918d c6b2377c05f4dbbc a6991c34c83cc911 cce25a9f1c113ef6 22061ab2e6c3a645 af006f561394921b 2fa5d111c89f36e6 af62dd2bfbe2c9f5 8f775c10d1abebc3 9a4b22a9de634c82 da461677bf1d2d21 90c918e4c9adffd5 28114c57e9bd7288 a8da9fa92b143b8e f4c23b63825762ce ec14d55639a3b88e e4b7f41c1cd387ba 9f2aea8814ef7500 ce932d8ed97a2f7f f64db7390b3fbfdf 202f34df334b21aa cc551299578a1c1 a0b861a0eec2626d 220d841703130862 988baa23c0e7967f afa9f8ec2ed2d540 31e5dda239440bc4 fa2ba243d1b77d03 808a5243ca7187c5 83b5938929d59b30 fb8d1833b2702fe5 fce1b7abfde135cd 27b6d0fdfc176a77 ae879a5c80974b34 fe788101a343e930 9f5b53a7ab695207 2c009d3ca62f51fe c9733b2fcde2ee04 f94c400baa791e3d d0a8703ce8ce8ed6 b6b17cdaa54cdd47 cfc5fb851a1bab6b 82ea3a412ffdbce6 d54a9a2d206e6bc1 3a8a172c399bb71c e9997402a51095b2 c57f0173bd74516d f7100889bee40e2f e3f4a3e28009189f 3d7d6a0de0a97c8b 1f8d8abba973a555 297cbdf5b48d7296 1536ef2203822e9d acf5d3f2e6fa2802 9b879a9834c479dd 3846a87ad67291e7 bd6cb9e9b0be89ba e5830397e53c7c6c 3baf0e54d8f45482 89b2de3c9dc9ac11 306287ef91bc83d d2101cbfef35e1d4 8cff8de53eb536d2 b7d0ff0fdbc2fafc caf8dcd09005b663 cebaed3509e11bcf e5a416cbd7f86ab5 e7fe2119068bec45 106d0814309cf39b 88955e50b6b90e4e bd44fa93f6111edf 26ae127af0937f69 274c8db8cdb202a7 c3c32186af4370ca 1fd6f034e491884b 32438af3ea713400 19b4a4cbc7237dec abb50637f606ac79 e077e07a398b94ff af12ebddf8912a d3ff3da4fa2c8545 33b81a44ac641922 a5caa4d34771e1e 2ea3a36334672d2f e0cb4651de5be7f1 12d3060fe25bbda7 16c2ead6eb27f09e c983d88fc176a972 23d26719f78e3127 e2b621c6dc56de9e 9dcd88103a9551ef b2238316ac39fa55 890d8f4c19fef29 fc35411894d9a4dc c1139f32a65e6104 e7fe502e2e58c42f c332690bc9a47826 f002d92ae4339146 928c55758446083d cdea8063d8012958 3c34ba9fd5bebe81 da04c6be3ded598e 95ee82e6cec11014 a47fce9527ef4722 e5dca0b0d2233d85 20e44d9afe849554 2673dc76fbcb2396 cdee611cc5641c2f c3e8b1830c507d26 881ba0bceed2aeb6 b436cae5ea5c8df9 f6ad0b1fd60a01d8 c4dcb08ef81f7c69 e27c0a62fec8abdc d4d2adb4f9137b74 f132f7ddd9291582 d7f1c15e19af5e43 12c2d9b7d3af023f acd817c1acc46f12 c673cd5503f5d194 d7a4d3d384c9d91f 318e4832d936a70c dd2c78a0047ceb95 8946c4b4f8021587 d138bc9434d14c74 394e3809bad50ce6 32d7226eae653534 e33681a8c294fcbd fd6a09a4040fdf02 b27514369c84b9b1 df19b66f30412c12 34510b1415ab95df b2304f90dc83c013 cc4ec25e6c61f4a fc71b529914a05ff edcdc612c115f739 a7dc16832ea204ba bfec0ab9fa92b237 ] wstrb=[ad 70 cc 67 f4 3 20 a1 74 ec 8 68 f0 28 9 64 15 11 cc 5 39 d5 69 4e e6 35 53 1f a bc 6e f0 f1 c1 f fb 7e 7d eb 6f 3f fb 6b bd 78 56 2c b7 51 97 74 ca ee a1 81 3f 38 f6 9 26 97 8b 66 cf 81 6f f6 18 fa 5c e7 7b cb dd 93 c6 39 7b 41 5 58 d5 cb 92 50 c 97 a8 e1 62 3a 31 6e d1 da 50 33 14 81 a2 e6 5b f2 19 70 73 bb 56 cf ad 6f 3f 21 2b 95 f0 d8 4 2f f9 2f c4 e9 8 c8 18 1 f8 dc eb 0 a5 3 1 9d e0 ec 9d 85 f0 9e 22 d0 8b bf 55 7b 5d 77 4b e8 36 a0 63 93 17 ae 7c 4d 4e df e0 65 8e 5c b2 dc 3c 93 42 ca ef f4 a6 2b 87 e8 f5 77 dd 9c a2 64 84 98 db 61 34 7e c6 b8 16 a1 1a 4a 1f e0 2 35 81 1c 7f a1 fc 82 d6 7e 9e 56 1f 9b d8 f5 19 76 4b 38 11 23 2d ] bresp=0 bid=101
[2495000] SCOREBOARD MATCH: decode_err expected = 0, actual =0
[2495000] SCOREBOARD MATCH: slave_id expected = 1, actual =1
[2495000] SCOREBOARD MATCH: awaddr passthrough expected = 19e48bf8, actual =19e48bf8
[2495000] SCOREBOARD MATCH: awlen passthrough expected = 219, actual =219
[2495000] SCOREBOARD MATCH: awsize passthrough expected = 1, actual =1
[2495000] SCOREBOARD MATCH: awburst passthrough expected = 1, actual =1
[2495000] SCOREBOARD MATCH: wdata size check expected = dc, actual =dc
[2495000] SCOREBOARD MATCH: wdata passthrough beat=0 expected = 14491618ffdc585a, actual =14491618ffdc585a
[2495000] SCOREBOARD MATCH: wdata passthrough beat=1 expected = f243f34b9b9a2ebb, actual =f243f34b9b9a2ebb
[2495000] SCOREBOARD MATCH: wdata passthrough beat=2 expected = a448680dc8e8dcf3, actual =a448680dc8e8dcf3
[2495000] SCOREBOARD MATCH: wdata passthrough beat=3 expected = c8c5354ee9dbbe23, actual =c8c5354ee9dbbe23
[2495000] SCOREBOARD MATCH: wdata passthrough beat=4 expected = 575ecdfb8917e25, actual =575ecdfb8917e25
[2495000] SCOREBOARD MATCH: wdata passthrough beat=5 expected = 17a5b19bb092899, actual =17a5b19bb092899
[2495000] SCOREBOARD MATCH: wdata passthrough beat=6 expected = 24e4e6bda9be54ec, actual =24e4e6bda9be54ec
[2495000] SCOREBOARD MATCH: wdata passthrough beat=7 expected = e24fd312ca3f9067, actual =e24fd312ca3f9067
[2495000] SCOREBOARD MATCH: wdata passthrough beat=8 expected = 8548b9002a5ad39c, actual =8548b9002a5ad39c
[2495000] SCOREBOARD MATCH: wdata passthrough beat=9 expected = d4192888e3ca2e2b, actual =d4192888e3ca2e2b
[2495000] SCOREBOARD MATCH: wdata passthrough beat=10 expected = 2e09be92aa2d9fbd, actual =2e09be92aa2d9fbd
[2495000] SCOREBOARD MATCH: wdata passthrough beat=11 expected = d4887359b668fb9a, actual =d4887359b668fb9a
[2495000] SCOREBOARD MATCH: wdata passthrough beat=12 expected = 9a3329c5b3527792, actual =9a3329c5b3527792
[2495000] SCOREBOARD MATCH: wdata passthrough beat=13 expected = dd80175028a19be2, actual =dd80175028a19be2
[2495000] SCOREBOARD MATCH: wdata passthrough beat=14 expected = df0a977cc83ce857, actual =df0a977cc83ce857
[2495000] SCOREBOARD MATCH: wdata passthrough beat=15 expected = fb8f5feab2088aa9, actual =fb8f5feab2088aa9
[2495000] SCOREBOARD MATCH: wdata passthrough beat=16 expected = daaa268bf93dc142, actual =daaa268bf93dc142
[2495000] SCOREBOARD MATCH: wdata passthrough beat=17 expected = c17aa999d90f773a, actual =c17aa999d90f773a
[2495000] SCOREBOARD MATCH: wdata passthrough beat=18 expected = 8b1801e339b4be08, actual =8b1801e339b4be08
[2495000] SCOREBOARD MATCH: wdata passthrough beat=19 expected = 32f27f4abd0a0983, actual =32f27f4abd0a0983
[2495000] SCOREBOARD MATCH: wdata passthrough beat=20 expected = 961980bde5c2286f, actual =961980bde5c2286f
[2495000] SCOREBOARD MATCH: wdata passthrough beat=21 expected = 1f76e677f46d28e3, actual =1f76e677f46d28e3
[2495000] SCOREBOARD MATCH: wdata passthrough beat=22 expected = 31773267213182a1, actual =31773267213182a1
[2495000] SCOREBOARD MATCH: wdata passthrough beat=23 expected = 6f3ab10d26965c1, actual =6f3ab10d26965c1
[2495000] SCOREBOARD MATCH: wdata passthrough beat=24 expected = c6d68ea4c790b324, actual =c6d68ea4c790b324
[2495000] SCOREBOARD MATCH: wdata passthrough beat=25 expected = e8c235c5266a9187, actual =e8c235c5266a9187
[2495000] SCOREBOARD MATCH: wdata passthrough beat=26 expected = f8d3f748f84dc10b, actual =f8d3f748f84dc10b
[2495000] SCOREBOARD MATCH: wdata passthrough beat=27 expected = 3fde7430efb5e0d5, actual =3fde7430efb5e0d5
[2495000] SCOREBOARD MATCH: wdata passthrough beat=28 expected = 9620725cbfaa85ec, actual =9620725cbfaa85ec
[2495000] SCOREBOARD MATCH: wdata passthrough beat=29 expected = 37f846f8a8a0a9f5, actual =37f846f8a8a0a9f5
[2495000] SCOREBOARD MATCH: wdata passthrough beat=30 expected = 18568acb8ef469a4, actual =18568acb8ef469a4
[2495000] SCOREBOARD MATCH: wdata passthrough beat=31 expected = ce9eef91f7d6bb28, actual =ce9eef91f7d6bb28
[2495000] SCOREBOARD MATCH: wdata passthrough beat=32 expected = a077651dae76fd27, actual =a077651dae76fd27
[2495000] SCOREBOARD MATCH: wdata passthrough beat=33 expected = 3d6b66cc06973689, actual =3d6b66cc06973689
[2495000] SCOREBOARD MATCH: wdata passthrough beat=34 expected = fe6df1b1b8cdefe8, actual =fe6df1b1b8cdefe8
[2495000] SCOREBOARD MATCH: wdata passthrough beat=35 expected = e744ed100c0a565d, actual =e744ed100c0a565d
[2495000] SCOREBOARD MATCH: wdata passthrough beat=36 expected = 12a18ce69ee556ce, actual =12a18ce69ee556ce
[2495000] SCOREBOARD MATCH: wdata passthrough beat=37 expected = d7b346b724b053dc, actual =d7b346b724b053dc
[2495000] SCOREBOARD MATCH: wdata passthrough beat=38 expected = 30baaa39110f7e97, actual =30baaa39110f7e97
[2495000] SCOREBOARD MATCH: wdata passthrough beat=39 expected = aff4d5653ef833c7, actual =aff4d5653ef833c7
[2495000] SCOREBOARD MATCH: wdata passthrough beat=40 expected = e3a887a3c35c371f, actual =e3a887a3c35c371f
[2495000] SCOREBOARD MATCH: wdata passthrough beat=41 expected = d46bb5b687a81c1c, actual =d46bb5b687a81c1c
[2495000] SCOREBOARD MATCH: wdata passthrough beat=42 expected = c6a04fe3146331dc, actual =c6a04fe3146331dc
[2495000] SCOREBOARD MATCH: wdata passthrough beat=43 expected = d7bf68fb84608b1b, actual =d7bf68fb84608b1b
[2495000] SCOREBOARD MATCH: wdata passthrough beat=44 expected = c08a738aa48d786, actual =c08a738aa48d786
[2495000] SCOREBOARD MATCH: wdata passthrough beat=45 expected = beac09622c2b1eb1, actual =beac09622c2b1eb1
[2495000] SCOREBOARD MATCH: wdata passthrough beat=46 expected = b08ba9ccd2a8f71b, actual =b08ba9ccd2a8f71b
[2495000] SCOREBOARD MATCH: wdata passthrough beat=47 expected = fcf1cea2966b725d, actual =fcf1cea2966b725d
[2495000] SCOREBOARD MATCH: wdata passthrough beat=48 expected = c296910ebc945104, actual =c296910ebc945104
[2495000] SCOREBOARD MATCH: wdata passthrough beat=49 expected = f3d4820bb9dd804, actual =f3d4820bb9dd804
[2495000] SCOREBOARD MATCH: wdata passthrough beat=50 expected = d2094a62f3223adb, actual =d2094a62f3223adb
[2495000] SCOREBOARD MATCH: wdata passthrough beat=51 expected = afb68bdf0c2f16c2, actual =afb68bdf0c2f16c2
[2495000] SCOREBOARD MATCH: wdata passthrough beat=52 expected = c7cceec6949fdb70, actual =c7cceec6949fdb70
[2495000] SCOREBOARD MATCH: wdata passthrough beat=53 expected = 87c2164bbef3d3ff, actual =87c2164bbef3d3ff
[2495000] SCOREBOARD MATCH: wdata passthrough beat=54 expected = cb22eac199d63928, actual =cb22eac199d63928
[2495000] SCOREBOARD MATCH: wdata passthrough beat=55 expected = 2e7614993778a22b, actual =2e7614993778a22b
[2495000] SCOREBOARD MATCH: wdata passthrough beat=56 expected = f66c762a12efd988, actual =f66c762a12efd988
[2495000] SCOREBOARD MATCH: wdata passthrough beat=57 expected = acc612b0b6382ae4, actual =acc612b0b6382ae4
[2495000] SCOREBOARD MATCH: wdata passthrough beat=58 expected = edb0cd0fc18f60ec, actual =edb0cd0fc18f60ec
[2495000] SCOREBOARD MATCH: wdata passthrough beat=59 expected = d47f3a74db3c2749, actual =d47f3a74db3c2749
[2495000] SCOREBOARD MATCH: wdata passthrough beat=60 expected = 1174522ee41d433a, actual =1174522ee41d433a
[2495000] SCOREBOARD MATCH: wdata passthrough beat=61 expected = 25aca42681454d24, actual =25aca42681454d24
[2495000] SCOREBOARD MATCH: wdata passthrough beat=62 expected = dc81746eff251f3d, actual =dc81746eff251f3d
[2495000] SCOREBOARD MATCH: wdata passthrough beat=63 expected = e3426277fa2bde9a, actual =e3426277fa2bde9a
[2495000] SCOREBOARD MATCH: wdata passthrough beat=64 expected = fb712bbeedf5c69c, actual =fb712bbeedf5c69c
[2495000] SCOREBOARD MATCH: wdata passthrough beat=65 expected = ed1ae5d988ef069d, actual =ed1ae5d988ef069d
[2495000] SCOREBOARD MATCH: wdata passthrough beat=66 expected = 831ae537d7f2a02c, actual =831ae537d7f2a02c
[2495000] SCOREBOARD MATCH: wdata passthrough beat=67 expected = c5e866c8d05d4851, actual =c5e866c8d05d4851
[2495000] SCOREBOARD MATCH: wdata passthrough beat=68 expected = d94c4eeefe8c10f6, actual =d94c4eeefe8c10f6
[2495000] SCOREBOARD MATCH: wdata passthrough beat=69 expected = d67eb12233034ca2, actual =d67eb12233034ca2
[2495000] SCOREBOARD MATCH: wdata passthrough beat=70 expected = 36094f3dc673426, actual =36094f3dc673426
[2495000] SCOREBOARD MATCH: wdata passthrough beat=71 expected = daf3451c1c6717eb, actual =daf3451c1c6717eb
[2495000] SCOREBOARD MATCH: wdata passthrough beat=72 expected = cf6a648ddcace3e1, actual =cf6a648ddcace3e1
[2495000] SCOREBOARD MATCH: wdata passthrough beat=73 expected = b9141807b171f63e, actual =b9141807b171f63e
[2495000] SCOREBOARD MATCH: wdata passthrough beat=74 expected = cdd90e29d2caf980, actual =cdd90e29d2caf980
[2495000] SCOREBOARD MATCH: wdata passthrough beat=75 expected = af77dd6194075d23, actual =af77dd6194075d23
[2495000] SCOREBOARD MATCH: wdata passthrough beat=76 expected = c57953629d4372b6, actual =c57953629d4372b6
[2495000] SCOREBOARD MATCH: wdata passthrough beat=77 expected = f00e6c36e88bf569, actual =f00e6c36e88bf569
[2495000] SCOREBOARD MATCH: wdata passthrough beat=78 expected = fc93528c9352618b, actual =fc93528c9352618b
[2495000] SCOREBOARD MATCH: wdata passthrough beat=79 expected = 3095d4421f864998, actual =3095d4421f864998
[2495000] SCOREBOARD MATCH: wdata passthrough beat=80 expected = 8123f01c20ca5ee, actual =8123f01c20ca5ee
[2495000] SCOREBOARD MATCH: wdata passthrough beat=81 expected = d55f077aa0a44078, actual =d55f077aa0a44078
[2495000] SCOREBOARD MATCH: wdata passthrough beat=82 expected = c02a8a1084a5918d, actual =c02a8a1084a5918d
[2495000] SCOREBOARD MATCH: wdata passthrough beat=83 expected = c6b2377c05f4dbbc, actual =c6b2377c05f4dbbc
[2495000] SCOREBOARD MATCH: wdata passthrough beat=84 expected = a6991c34c83cc911, actual =a6991c34c83cc911
[2495000] SCOREBOARD MATCH: wdata passthrough beat=85 expected = cce25a9f1c113ef6, actual =cce25a9f1c113ef6
[2495000] SCOREBOARD MATCH: wdata passthrough beat=86 expected = 22061ab2e6c3a645, actual =22061ab2e6c3a645
[2495000] SCOREBOARD MATCH: wdata passthrough beat=87 expected = af006f561394921b, actual =af006f561394921b
[2495000] SCOREBOARD MATCH: wdata passthrough beat=88 expected = 2fa5d111c89f36e6, actual =2fa5d111c89f36e6
[2495000] SCOREBOARD MATCH: wdata passthrough beat=89 expected = af62dd2bfbe2c9f5, actual =af62dd2bfbe2c9f5
[2495000] SCOREBOARD MATCH: wdata passthrough beat=90 expected = 8f775c10d1abebc3, actual =8f775c10d1abebc3
[2495000] SCOREBOARD MATCH: wdata passthrough beat=91 expected = 9a4b22a9de634c82, actual =9a4b22a9de634c82
[2495000] SCOREBOARD MATCH: wdata passthrough beat=92 expected = da461677bf1d2d21, actual =da461677bf1d2d21
[2495000] SCOREBOARD MATCH: wdata passthrough beat=93 expected = 90c918e4c9adffd5, actual =90c918e4c9adffd5
[2495000] SCOREBOARD MATCH: wdata passthrough beat=94 expected = 28114c57e9bd7288, actual =28114c57e9bd7288
[2495000] SCOREBOARD MATCH: wdata passthrough beat=95 expected = a8da9fa92b143b8e, actual =a8da9fa92b143b8e
[2495000] SCOREBOARD MATCH: wdata passthrough beat=96 expected = f4c23b63825762ce, actual =f4c23b63825762ce
[2495000] SCOREBOARD MATCH: wdata passthrough beat=97 expected = ec14d55639a3b88e, actual =ec14d55639a3b88e
[2495000] SCOREBOARD MATCH: wdata passthrough beat=98 expected = e4b7f41c1cd387ba, actual =e4b7f41c1cd387ba
[2495000] SCOREBOARD MATCH: wdata passthrough beat=99 expected = 9f2aea8814ef7500, actual =9f2aea8814ef7500
[2495000] SCOREBOARD MATCH: wdata passthrough beat=100 expected = ce932d8ed97a2f7f, actual =ce932d8ed97a2f7f
[2495000] SCOREBOARD MATCH: wdata passthrough beat=101 expected = f64db7390b3fbfdf, actual =f64db7390b3fbfdf
[2495000] SCOREBOARD MATCH: wdata passthrough beat=102 expected = 202f34df334b21aa, actual =202f34df334b21aa
[2495000] SCOREBOARD MATCH: wdata passthrough beat=103 expected = cc551299578a1c1, actual =cc551299578a1c1
[2495000] SCOREBOARD MATCH: wdata passthrough beat=104 expected = a0b861a0eec2626d, actual =a0b861a0eec2626d
[2495000] SCOREBOARD MATCH: wdata passthrough beat=105 expected = 220d841703130862, actual =220d841703130862
[2495000] SCOREBOARD MATCH: wdata passthrough beat=106 expected = 988baa23c0e7967f, actual =988baa23c0e7967f
[2495000] SCOREBOARD MATCH: wdata passthrough beat=107 expected = afa9f8ec2ed2d540, actual =afa9f8ec2ed2d540
[2495000] SCOREBOARD MATCH: wdata passthrough beat=108 expected = 31e5dda239440bc4, actual =31e5dda239440bc4
[2495000] SCOREBOARD MATCH: wdata passthrough beat=109 expected = fa2ba243d1b77d03, actual =fa2ba243d1b77d03
[2495000] SCOREBOARD MATCH: wdata passthrough beat=110 expected = 808a5243ca7187c5, actual =808a5243ca7187c5
[2495000] SCOREBOARD MATCH: wdata passthrough beat=111 expected = 83b5938929d59b30, actual =83b5938929d59b30
[2495000] SCOREBOARD MATCH: wdata passthrough beat=112 expected = fb8d1833b2702fe5, actual =fb8d1833b2702fe5
[2495000] SCOREBOARD MATCH: wdata passthrough beat=113 expected = fce1b7abfde135cd, actual =fce1b7abfde135cd
[2495000] SCOREBOARD MATCH: wdata passthrough beat=114 expected = 27b6d0fdfc176a77, actual =27b6d0fdfc176a77
[2495000] SCOREBOARD MATCH: wdata passthrough beat=115 expected = ae879a5c80974b34, actual =ae879a5c80974b34
[2495000] SCOREBOARD MATCH: wdata passthrough beat=116 expected = fe788101a343e930, actual =fe788101a343e930
[2495000] SCOREBOARD MATCH: wdata passthrough beat=117 expected = 9f5b53a7ab695207, actual =9f5b53a7ab695207
[2495000] SCOREBOARD MATCH: wdata passthrough beat=118 expected = 2c009d3ca62f51fe, actual =2c009d3ca62f51fe
[2495000] SCOREBOARD MATCH: wdata passthrough beat=119 expected = c9733b2fcde2ee04, actual =c9733b2fcde2ee04
[2495000] SCOREBOARD MATCH: wdata passthrough beat=120 expected = f94c400baa791e3d, actual =f94c400baa791e3d
[2495000] SCOREBOARD MATCH: wdata passthrough beat=121 expected = d0a8703ce8ce8ed6, actual =d0a8703ce8ce8ed6
[2495000] SCOREBOARD MATCH: wdata passthrough beat=122 expected = b6b17cdaa54cdd47, actual =b6b17cdaa54cdd47
[2495000] SCOREBOARD MATCH: wdata passthrough beat=123 expected = cfc5fb851a1bab6b, actual =cfc5fb851a1bab6b
[2495000] SCOREBOARD MATCH: wdata passthrough beat=124 expected = 82ea3a412ffdbce6, actual =82ea3a412ffdbce6
[2495000] SCOREBOARD MATCH: wdata passthrough beat=125 expected = d54a9a2d206e6bc1, actual =d54a9a2d206e6bc1
[2495000] SCOREBOARD MATCH: wdata passthrough beat=126 expected = 3a8a172c399bb71c, actual =3a8a172c399bb71c
[2495000] SCOREBOARD MATCH: wdata passthrough beat=127 expected = e9997402a51095b2, actual =e9997402a51095b2
[2495000] SCOREBOARD MATCH: wdata passthrough beat=128 expected = c57f0173bd74516d, actual =c57f0173bd74516d
[2495000] SCOREBOARD MATCH: wdata passthrough beat=129 expected = f7100889bee40e2f, actual =f7100889bee40e2f
[2495000] SCOREBOARD MATCH: wdata passthrough beat=130 expected = e3f4a3e28009189f, actual =e3f4a3e28009189f
[2495000] SCOREBOARD MATCH: wdata passthrough beat=131 expected = 3d7d6a0de0a97c8b, actual =3d7d6a0de0a97c8b
[2495000] SCOREBOARD MATCH: wdata passthrough beat=132 expected = 1f8d8abba973a555, actual =1f8d8abba973a555
[2495000] SCOREBOARD MATCH: wdata passthrough beat=133 expected = 297cbdf5b48d7296, actual =297cbdf5b48d7296
[2495000] SCOREBOARD MATCH: wdata passthrough beat=134 expected = 1536ef2203822e9d, actual =1536ef2203822e9d
[2495000] SCOREBOARD MATCH: wdata passthrough beat=135 expected = acf5d3f2e6fa2802, actual =acf5d3f2e6fa2802
[2495000] SCOREBOARD MATCH: wdata passthrough beat=136 expected = 9b879a9834c479dd, actual =9b879a9834c479dd
[2495000] SCOREBOARD MATCH: wdata passthrough beat=137 expected = 3846a87ad67291e7, actual =3846a87ad67291e7
[2495000] SCOREBOARD MATCH: wdata passthrough beat=138 expected = bd6cb9e9b0be89ba, actual =bd6cb9e9b0be89ba
[2495000] SCOREBOARD MATCH: wdata passthrough beat=139 expected = e5830397e53c7c6c, actual =e5830397e53c7c6c
[2495000] SCOREBOARD MATCH: wdata passthrough beat=140 expected = 3baf0e54d8f45482, actual =3baf0e54d8f45482
[2495000] SCOREBOARD MATCH: wdata passthrough beat=141 expected = 89b2de3c9dc9ac11, actual =89b2de3c9dc9ac11
[2495000] SCOREBOARD MATCH: wdata passthrough beat=142 expected = 306287ef91bc83d, actual =306287ef91bc83d
[2495000] SCOREBOARD MATCH: wdata passthrough beat=143 expected = d2101cbfef35e1d4, actual =d2101cbfef35e1d4
[2495000] SCOREBOARD MATCH: wdata passthrough beat=144 expected = 8cff8de53eb536d2, actual =8cff8de53eb536d2
[2495000] SCOREBOARD MATCH: wdata passthrough beat=145 expected = b7d0ff0fdbc2fafc, actual =b7d0ff0fdbc2fafc
[2495000] SCOREBOARD MATCH: wdata passthrough beat=146 expected = caf8dcd09005b663, actual =caf8dcd09005b663
[2495000] SCOREBOARD MATCH: wdata passthrough beat=147 expected = cebaed3509e11bcf, actual =cebaed3509e11bcf
[2495000] SCOREBOARD MATCH: wdata passthrough beat=148 expected = e5a416cbd7f86ab5, actual =e5a416cbd7f86ab5
[2495000] SCOREBOARD MATCH: wdata passthrough beat=149 expected = e7fe2119068bec45, actual =e7fe2119068bec45
[2495000] SCOREBOARD MATCH: wdata passthrough beat=150 expected = 106d0814309cf39b, actual =106d0814309cf39b
[2495000] SCOREBOARD MATCH: wdata passthrough beat=151 expected = 88955e50b6b90e4e, actual =88955e50b6b90e4e
[2495000] SCOREBOARD MATCH: wdata passthrough beat=152 expected = bd44fa93f6111edf, actual =bd44fa93f6111edf
[2495000] SCOREBOARD MATCH: wdata passthrough beat=153 expected = 26ae127af0937f69, actual =26ae127af0937f69
[2495000] SCOREBOARD MATCH: wdata passthrough beat=154 expected = 274c8db8cdb202a7, actual =274c8db8cdb202a7
[2495000] SCOREBOARD MATCH: wdata passthrough beat=155 expected = c3c32186af4370ca, actual =c3c32186af4370ca
[2495000] SCOREBOARD MATCH: wdata passthrough beat=156 expected = 1fd6f034e491884b, actual =1fd6f034e491884b
[2495000] SCOREBOARD MATCH: wdata passthrough beat=157 expected = 32438af3ea713400, actual =32438af3ea713400
[2495000] SCOREBOARD MATCH: wdata passthrough beat=158 expected = 19b4a4cbc7237dec, actual =19b4a4cbc7237dec
[2495000] SCOREBOARD MATCH: wdata passthrough beat=159 expected = abb50637f606ac79, actual =abb50637f606ac79
[2495000] SCOREBOARD MATCH: wdata passthrough beat=160 expected = e077e07a398b94ff, actual =e077e07a398b94ff
[2495000] SCOREBOARD MATCH: wdata passthrough beat=161 expected = af12ebddf8912a, actual =af12ebddf8912a
[2495000] SCOREBOARD MATCH: wdata passthrough beat=162 expected = d3ff3da4fa2c8545, actual =d3ff3da4fa2c8545
[2495000] SCOREBOARD MATCH: wdata passthrough beat=163 expected = 33b81a44ac641922, actual =33b81a44ac641922
[2495000] SCOREBOARD MATCH: wdata passthrough beat=164 expected = a5caa4d34771e1e, actual =a5caa4d34771e1e
[2495000] SCOREBOARD MATCH: wdata passthrough beat=165 expected = 2ea3a36334672d2f, actual =2ea3a36334672d2f
[2495000] SCOREBOARD MATCH: wdata passthrough beat=166 expected = e0cb4651de5be7f1, actual =e0cb4651de5be7f1
[2495000] SCOREBOARD MATCH: wdata passthrough beat=167 expected = 12d3060fe25bbda7, actual =12d3060fe25bbda7
[2495000] SCOREBOARD MATCH: wdata passthrough beat=168 expected = 16c2ead6eb27f09e, actual =16c2ead6eb27f09e
[2495000] SCOREBOARD MATCH: wdata passthrough beat=169 expected = c983d88fc176a972, actual =c983d88fc176a972
[2495000] SCOREBOARD MATCH: wdata passthrough beat=170 expected = 23d26719f78e3127, actual =23d26719f78e3127
[2495000] SCOREBOARD MATCH: wdata passthrough beat=171 expected = e2b621c6dc56de9e, actual =e2b621c6dc56de9e
[2495000] SCOREBOARD MATCH: wdata passthrough beat=172 expected = 9dcd88103a9551ef, actual =9dcd88103a9551ef
[2495000] SCOREBOARD MATCH: wdata passthrough beat=173 expected = b2238316ac39fa55, actual =b2238316ac39fa55
[2495000] SCOREBOARD MATCH: wdata passthrough beat=174 expected = 890d8f4c19fef29, actual =890d8f4c19fef29
[2495000] SCOREBOARD MATCH: wdata passthrough beat=175 expected = fc35411894d9a4dc, actual =fc35411894d9a4dc
[2495000] SCOREBOARD MATCH: wdata passthrough beat=176 expected = c1139f32a65e6104, actual =c1139f32a65e6104
[2495000] SCOREBOARD MATCH: wdata passthrough beat=177 expected = e7fe502e2e58c42f, actual =e7fe502e2e58c42f
[2495000] SCOREBOARD MATCH: wdata passthrough beat=178 expected = c332690bc9a47826, actual =c332690bc9a47826
[2495000] SCOREBOARD MATCH: wdata passthrough beat=179 expected = f002d92ae4339146, actual =f002d92ae4339146
[2495000] SCOREBOARD MATCH: wdata passthrough beat=180 expected = 928c55758446083d, actual =928c55758446083d
[2495000] SCOREBOARD MATCH: wdata passthrough beat=181 expected = cdea8063d8012958, actual =cdea8063d8012958
[2495000] SCOREBOARD MATCH: wdata passthrough beat=182 expected = 3c34ba9fd5bebe81, actual =3c34ba9fd5bebe81
[2495000] SCOREBOARD MATCH: wdata passthrough beat=183 expected = da04c6be3ded598e, actual =da04c6be3ded598e
[2495000] SCOREBOARD MATCH: wdata passthrough beat=184 expected = 95ee82e6cec11014, actual =95ee82e6cec11014
[2495000] SCOREBOARD MATCH: wdata passthrough beat=185 expected = a47fce9527ef4722, actual =a47fce9527ef4722
[2495000] SCOREBOARD MATCH: wdata passthrough beat=186 expected = e5dca0b0d2233d85, actual =e5dca0b0d2233d85
[2495000] SCOREBOARD MATCH: wdata passthrough beat=187 expected = 20e44d9afe849554, actual =20e44d9afe849554
[2495000] SCOREBOARD MATCH: wdata passthrough beat=188 expected = 2673dc76fbcb2396, actual =2673dc76fbcb2396
[2495000] SCOREBOARD MATCH: wdata passthrough beat=189 expected = cdee611cc5641c2f, actual =cdee611cc5641c2f
[2495000] SCOREBOARD MATCH: wdata passthrough beat=190 expected = c3e8b1830c507d26, actual =c3e8b1830c507d26
[2495000] SCOREBOARD MATCH: wdata passthrough beat=191 expected = 881ba0bceed2aeb6, actual =881ba0bceed2aeb6
[2495000] SCOREBOARD MATCH: wdata passthrough beat=192 expected = b436cae5ea5c8df9, actual =b436cae5ea5c8df9
[2495000] SCOREBOARD MATCH: wdata passthrough beat=193 expected = f6ad0b1fd60a01d8, actual =f6ad0b1fd60a01d8
[2495000] SCOREBOARD MATCH: wdata passthrough beat=194 expected = c4dcb08ef81f7c69, actual =c4dcb08ef81f7c69
[2495000] SCOREBOARD MATCH: wdata passthrough beat=195 expected = e27c0a62fec8abdc, actual =e27c0a62fec8abdc
[2495000] SCOREBOARD MATCH: wdata passthrough beat=196 expected = d4d2adb4f9137b74, actual =d4d2adb4f9137b74
[2495000] SCOREBOARD MATCH: wdata passthrough beat=197 expected = f132f7ddd9291582, actual =f132f7ddd9291582
[2495000] SCOREBOARD MATCH: wdata passthrough beat=198 expected = d7f1c15e19af5e43, actual =d7f1c15e19af5e43
[2495000] SCOREBOARD MATCH: wdata passthrough beat=199 expected = 12c2d9b7d3af023f, actual =12c2d9b7d3af023f
[2495000] SCOREBOARD MATCH: wdata passthrough beat=200 expected = acd817c1acc46f12, actual =acd817c1acc46f12
[2495000] SCOREBOARD MATCH: wdata passthrough beat=201 expected = c673cd5503f5d194, actual =c673cd5503f5d194
[2495000] SCOREBOARD MATCH: wdata passthrough beat=202 expected = d7a4d3d384c9d91f, actual =d7a4d3d384c9d91f
[2495000] SCOREBOARD MATCH: wdata passthrough beat=203 expected = 318e4832d936a70c, actual =318e4832d936a70c
[2495000] SCOREBOARD MATCH: wdata passthrough beat=204 expected = dd2c78a0047ceb95, actual =dd2c78a0047ceb95
[2495000] SCOREBOARD MATCH: wdata passthrough beat=205 expected = 8946c4b4f8021587, actual =8946c4b4f8021587
[2495000] SCOREBOARD MATCH: wdata passthrough beat=206 expected = d138bc9434d14c74, actual =d138bc9434d14c74
[2495000] SCOREBOARD MATCH: wdata passthrough beat=207 expected = 394e3809bad50ce6, actual =394e3809bad50ce6
[2495000] SCOREBOARD MATCH: wdata passthrough beat=208 expected = 32d7226eae653534, actual =32d7226eae653534
[2495000] SCOREBOARD MATCH: wdata passthrough beat=209 expected = e33681a8c294fcbd, actual =e33681a8c294fcbd
[2495000] SCOREBOARD MATCH: wdata passthrough beat=210 expected = fd6a09a4040fdf02, actual =fd6a09a4040fdf02
[2495000] SCOREBOARD MATCH: wdata passthrough beat=211 expected = b27514369c84b9b1, actual =b27514369c84b9b1
[2495000] SCOREBOARD MATCH: wdata passthrough beat=212 expected = df19b66f30412c12, actual =df19b66f30412c12
[2495000] SCOREBOARD MATCH: wdata passthrough beat=213 expected = 34510b1415ab95df, actual =34510b1415ab95df
[2495000] SCOREBOARD MATCH: wdata passthrough beat=214 expected = b2304f90dc83c013, actual =b2304f90dc83c013
[2495000] SCOREBOARD MATCH: wdata passthrough beat=215 expected = cc4ec25e6c61f4a, actual =cc4ec25e6c61f4a
[2495000] SCOREBOARD MATCH: wdata passthrough beat=216 expected = fc71b529914a05ff, actual =fc71b529914a05ff
[2495000] SCOREBOARD MATCH: wdata passthrough beat=217 expected = edcdc612c115f739, actual =edcdc612c115f739
[2495000] SCOREBOARD MATCH: wdata passthrough beat=218 expected = a7dc16832ea204ba, actual =a7dc16832ea204ba
[2495000] SCOREBOARD MATCH: wdata passthrough beat=219 expected = bfec0ab9fa92b237, actual =bfec0ab9fa92b237
[2495000] SCOREBOARD MATCH: wstrb size check expected = dc, actual =dc
[2495000] SCOREBOARD MATCH: wstrb passthrough beat=0 expected = ad, actual =ad
[2495000] SCOREBOARD MATCH: wstrb passthrough beat=1 expected = 70, actual =70
[2495000] SCOREBOARD MATCH: wstrb passthrough beat=2 expected = cc, actual =cc
[2495000] SCOREBOARD MATCH: wstrb passthrough beat=3 expected = 67, actual =67
[2495000] SCOREBOARD MATCH: wstrb passthrough beat=4 expected = f4, actual =f4
[2495000] SCOREBOARD MATCH: wstrb passthrough beat=5 expected = 3, actual =3
[2495000] SCOREBOARD MATCH: wstrb passthrough beat=6 expected = 20, actual =20
[2495000] SCOREBOARD MATCH: wstrb passthrough beat=7 expected = a1, actual =a1
[2495000] SCOREBOARD MATCH: wstrb passthrough beat=8 expected = 74, actual =74
[2495000] SCOREBOARD MATCH: wstrb passthrough beat=9 expected = ec, actual =ec
[2495000] SCOREBOARD MATCH: wstrb passthrough beat=10 expected = 8, actual =8
[2495000] SCOREBOARD MATCH: wstrb passthrough beat=11 expected = 68, actual =68
[2495000] SCOREBOARD MATCH: wstrb passthrough beat=12 expected = f0, actual =f0
[2495000] SCOREBOARD MATCH: wstrb passthrough beat=13 expected = 28, actual =28
[2495000] SCOREBOARD MATCH: wstrb passthrough beat=14 expected = 9, actual =9
[2495000] SCOREBOARD MATCH: wstrb passthrough beat=15 expected = 64, actual =64
[2495000] SCOREBOARD MATCH: wstrb passthrough beat=16 expected = 15, actual =15
[2495000] SCOREBOARD MATCH: wstrb passthrough beat=17 expected = 11, actual =11
[2495000] SCOREBOARD MATCH: wstrb passthrough beat=18 expected = cc, actual =cc
[2495000] SCOREBOARD MATCH: wstrb passthrough beat=19 expected = 5, actual =5
[2495000] SCOREBOARD MATCH: wstrb passthrough beat=20 expected = 39, actual =39
[2495000] SCOREBOARD MATCH: wstrb passthrough beat=21 expected = d5, actual =d5
[2495000] SCOREBOARD MATCH: wstrb passthrough beat=22 expected = 69, actual =69
[2495000] SCOREBOARD MATCH: wstrb passthrough beat=23 expected = 4e, actual =4e
[2495000] SCOREBOARD MATCH: wstrb passthrough beat=24 expected = e6, actual =e6
[2495000] SCOREBOARD MATCH: wstrb passthrough beat=25 expected = 35, actual =35
[2495000] SCOREBOARD MATCH: wstrb passthrough beat=26 expected = 53, actual =53
[2495000] SCOREBOARD MATCH: wstrb passthrough beat=27 expected = 1f, actual =1f
[2495000] SCOREBOARD MATCH: wstrb passthrough beat=28 expected = a, actual =a
[2495000] SCOREBOARD MATCH: wstrb passthrough beat=29 expected = bc, actual =bc
[2495000] SCOREBOARD MATCH: wstrb passthrough beat=30 expected = 6e, actual =6e
[2495000] SCOREBOARD MATCH: wstrb passthrough beat=31 expected = f0, actual =f0
[2495000] SCOREBOARD MATCH: wstrb passthrough beat=32 expected = f1, actual =f1
[2495000] SCOREBOARD MATCH: wstrb passthrough beat=33 expected = c1, actual =c1
[2495000] SCOREBOARD MATCH: wstrb passthrough beat=34 expected = f, actual =f
[2495000] SCOREBOARD MATCH: wstrb passthrough beat=35 expected = fb, actual =fb
[2495000] SCOREBOARD MATCH: wstrb passthrough beat=36 expected = 7e, actual =7e
[2495000] SCOREBOARD MATCH: wstrb passthrough beat=37 expected = 7d, actual =7d
[2495000] SCOREBOARD MATCH: wstrb passthrough beat=38 expected = eb, actual =eb
[2495000] SCOREBOARD MATCH: wstrb passthrough beat=39 expected = 6f, actual =6f
[2495000] SCOREBOARD MATCH: wstrb passthrough beat=40 expected = 3f, actual =3f
[2495000] SCOREBOARD MATCH: wstrb passthrough beat=41 expected = fb, actual =fb
[2495000] SCOREBOARD MATCH: wstrb passthrough beat=42 expected = 6b, actual =6b
[2495000] SCOREBOARD MATCH: wstrb passthrough beat=43 expected = bd, actual =bd
[2495000] SCOREBOARD MATCH: wstrb passthrough beat=44 expected = 78, actual =78
[2495000] SCOREBOARD MATCH: wstrb passthrough beat=45 expected = 56, actual =56
[2495000] SCOREBOARD MATCH: wstrb passthrough beat=46 expected = 2c, actual =2c
[2495000] SCOREBOARD MATCH: wstrb passthrough beat=47 expected = b7, actual =b7
[2495000] SCOREBOARD MATCH: wstrb passthrough beat=48 expected = 51, actual =51
[2495000] SCOREBOARD MATCH: wstrb passthrough beat=49 expected = 97, actual =97
[2495000] SCOREBOARD MATCH: wstrb passthrough beat=50 expected = 74, actual =74
[2495000] SCOREBOARD MATCH: wstrb passthrough beat=51 expected = ca, actual =ca
[2495000] SCOREBOARD MATCH: wstrb passthrough beat=52 expected = ee, actual =ee
[2495000] SCOREBOARD MATCH: wstrb passthrough beat=53 expected = a1, actual =a1
[2495000] SCOREBOARD MATCH: wstrb passthrough beat=54 expected = 81, actual =81
[2495000] SCOREBOARD MATCH: wstrb passthrough beat=55 expected = 3f, actual =3f
[2495000] SCOREBOARD MATCH: wstrb passthrough beat=56 expected = 38, actual =38
[2495000] SCOREBOARD MATCH: wstrb passthrough beat=57 expected = f6, actual =f6
[2495000] SCOREBOARD MATCH: wstrb passthrough beat=58 expected = 9, actual =9
[2495000] SCOREBOARD MATCH: wstrb passthrough beat=59 expected = 26, actual =26
[2495000] SCOREBOARD MATCH: wstrb passthrough beat=60 expected = 97, actual =97
[2495000] SCOREBOARD MATCH: wstrb passthrough beat=61 expected = 8b, actual =8b
[2495000] SCOREBOARD MATCH: wstrb passthrough beat=62 expected = 66, actual =66
[2495000] SCOREBOARD MATCH: wstrb passthrough beat=63 expected = cf, actual =cf
[2495000] SCOREBOARD MATCH: wstrb passthrough beat=64 expected = 81, actual =81
[2495000] SCOREBOARD MATCH: wstrb passthrough beat=65 expected = 6f, actual =6f
[2495000] SCOREBOARD MATCH: wstrb passthrough beat=66 expected = f6, actual =f6
[2495000] SCOREBOARD MATCH: wstrb passthrough beat=67 expected = 18, actual =18
[2495000] SCOREBOARD MATCH: wstrb passthrough beat=68 expected = fa, actual =fa
[2495000] SCOREBOARD MATCH: wstrb passthrough beat=69 expected = 5c, actual =5c
[2495000] SCOREBOARD MATCH: wstrb passthrough beat=70 expected = e7, actual =e7
[2495000] SCOREBOARD MATCH: wstrb passthrough beat=71 expected = 7b, actual =7b
[2495000] SCOREBOARD MATCH: wstrb passthrough beat=72 expected = cb, actual =cb
[2495000] SCOREBOARD MATCH: wstrb passthrough beat=73 expected = dd, actual =dd
[2495000] SCOREBOARD MATCH: wstrb passthrough beat=74 expected = 93, actual =93
[2495000] SCOREBOARD MATCH: wstrb passthrough beat=75 expected = c6, actual =c6
[2495000] SCOREBOARD MATCH: wstrb passthrough beat=76 expected = 39, actual =39
[2495000] SCOREBOARD MATCH: wstrb passthrough beat=77 expected = 7b, actual =7b
[2495000] SCOREBOARD MATCH: wstrb passthrough beat=78 expected = 41, actual =41
[2495000] SCOREBOARD MATCH: wstrb passthrough beat=79 expected = 5, actual =5
[2495000] SCOREBOARD MATCH: wstrb passthrough beat=80 expected = 58, actual =58
[2495000] SCOREBOARD MATCH: wstrb passthrough beat=81 expected = d5, actual =d5
[2495000] SCOREBOARD MATCH: wstrb passthrough beat=82 expected = cb, actual =cb
[2495000] SCOREBOARD MATCH: wstrb passthrough beat=83 expected = 92, actual =92
[2495000] SCOREBOARD MATCH: wstrb passthrough beat=84 expected = 50, actual =50
[2495000] SCOREBOARD MATCH: wstrb passthrough beat=85 expected = c, actual =c
[2495000] SCOREBOARD MATCH: wstrb passthrough beat=86 expected = 97, actual =97
[2495000] SCOREBOARD MATCH: wstrb passthrough beat=87 expected = a8, actual =a8
[2495000] SCOREBOARD MATCH: wstrb passthrough beat=88 expected = e1, actual =e1
[2495000] SCOREBOARD MATCH: wstrb passthrough beat=89 expected = 62, actual =62
[2495000] SCOREBOARD MATCH: wstrb passthrough beat=90 expected = 3a, actual =3a
[2495000] SCOREBOARD MATCH: wstrb passthrough beat=91 expected = 31, actual =31
[2495000] SCOREBOARD MATCH: wstrb passthrough beat=92 expected = 6e, actual =6e
[2495000] SCOREBOARD MATCH: wstrb passthrough beat=93 expected = d1, actual =d1
[2495000] SCOREBOARD MATCH: wstrb passthrough beat=94 expected = da, actual =da
[2495000] SCOREBOARD MATCH: wstrb passthrough beat=95 expected = 50, actual =50
[2495000] SCOREBOARD MATCH: wstrb passthrough beat=96 expected = 33, actual =33
[2495000] SCOREBOARD MATCH: wstrb passthrough beat=97 expected = 14, actual =14
[2495000] SCOREBOARD MATCH: wstrb passthrough beat=98 expected = 81, actual =81
[2495000] SCOREBOARD MATCH: wstrb passthrough beat=99 expected = a2, actual =a2
[2495000] SCOREBOARD MATCH: wstrb passthrough beat=100 expected = e6, actual =e6
[2495000] SCOREBOARD MATCH: wstrb passthrough beat=101 expected = 5b, actual =5b
[2495000] SCOREBOARD MATCH: wstrb passthrough beat=102 expected = f2, actual =f2
[2495000] SCOREBOARD MATCH: wstrb passthrough beat=103 expected = 19, actual =19
[2495000] SCOREBOARD MATCH: wstrb passthrough beat=104 expected = 70, actual =70
[2495000] SCOREBOARD MATCH: wstrb passthrough beat=105 expected = 73, actual =73
[2495000] SCOREBOARD MATCH: wstrb passthrough beat=106 expected = bb, actual =bb
[2495000] SCOREBOARD MATCH: wstrb passthrough beat=107 expected = 56, actual =56
[2495000] SCOREBOARD MATCH: wstrb passthrough beat=108 expected = cf, actual =cf
[2495000] SCOREBOARD MATCH: wstrb passthrough beat=109 expected = ad, actual =ad
[2495000] SCOREBOARD MATCH: wstrb passthrough beat=110 expected = 6f, actual =6f
[2495000] SCOREBOARD MATCH: wstrb passthrough beat=111 expected = 3f, actual =3f
[2495000] SCOREBOARD MATCH: wstrb passthrough beat=112 expected = 21, actual =21
[2495000] SCOREBOARD MATCH: wstrb passthrough beat=113 expected = 2b, actual =2b
[2495000] SCOREBOARD MATCH: wstrb passthrough beat=114 expected = 95, actual =95
[2495000] SCOREBOARD MATCH: wstrb passthrough beat=115 expected = f0, actual =f0
[2495000] SCOREBOARD MATCH: wstrb passthrough beat=116 expected = d8, actual =d8
[2495000] SCOREBOARD MATCH: wstrb passthrough beat=117 expected = 4, actual =4
[2495000] SCOREBOARD MATCH: wstrb passthrough beat=118 expected = 2f, actual =2f
[2495000] SCOREBOARD MATCH: wstrb passthrough beat=119 expected = f9, actual =f9
[2495000] SCOREBOARD MATCH: wstrb passthrough beat=120 expected = 2f, actual =2f
[2495000] SCOREBOARD MATCH: wstrb passthrough beat=121 expected = c4, actual =c4
[2495000] SCOREBOARD MATCH: wstrb passthrough beat=122 expected = e9, actual =e9
[2495000] SCOREBOARD MATCH: wstrb passthrough beat=123 expected = 8, actual =8
[2495000] SCOREBOARD MATCH: wstrb passthrough beat=124 expected = c8, actual =c8
[2495000] SCOREBOARD MATCH: wstrb passthrough beat=125 expected = 18, actual =18
[2495000] SCOREBOARD MATCH: wstrb passthrough beat=126 expected = 1, actual =1
[2495000] SCOREBOARD MATCH: wstrb passthrough beat=127 expected = f8, actual =f8
[2495000] SCOREBOARD MATCH: wstrb passthrough beat=128 expected = dc, actual =dc
[2495000] SCOREBOARD MATCH: wstrb passthrough beat=129 expected = eb, actual =eb
[2495000] SCOREBOARD MATCH: wstrb passthrough beat=130 expected = 0, actual =0
[2495000] SCOREBOARD MATCH: wstrb passthrough beat=131 expected = a5, actual =a5
[2495000] SCOREBOARD MATCH: wstrb passthrough beat=132 expected = 3, actual =3
[2495000] SCOREBOARD MATCH: wstrb passthrough beat=133 expected = 1, actual =1
[2495000] SCOREBOARD MATCH: wstrb passthrough beat=134 expected = 9d, actual =9d
[2495000] SCOREBOARD MATCH: wstrb passthrough beat=135 expected = e0, actual =e0
[2495000] SCOREBOARD MATCH: wstrb passthrough beat=136 expected = ec, actual =ec
[2495000] SCOREBOARD MATCH: wstrb passthrough beat=137 expected = 9d, actual =9d
[2495000] SCOREBOARD MATCH: wstrb passthrough beat=138 expected = 85, actual =85
[2495000] SCOREBOARD MATCH: wstrb passthrough beat=139 expected = f0, actual =f0
[2495000] SCOREBOARD MATCH: wstrb passthrough beat=140 expected = 9e, actual =9e
[2495000] SCOREBOARD MATCH: wstrb passthrough beat=141 expected = 22, actual =22
[2495000] SCOREBOARD MATCH: wstrb passthrough beat=142 expected = d0, actual =d0
[2495000] SCOREBOARD MATCH: wstrb passthrough beat=143 expected = 8b, actual =8b
