#-----------------------------------------------------------
# xsim v2025.2 (64-bit)
# SW Build 6299465 on Fri Nov 14 12:34:56 MST 2025
# IP Build 6300035 on Fri Nov 14 10:48:45 MST 2025
# SharedData Build 6298862 on Thu Nov 13 04:50:51 MST 2025
# Start of session at: Thu Sep 10 18:12:58 2026
# Process ID         : 3586439
# Current directory  : /home/nashita/Desktop/practice/axi_xbar/sim
# Command line       : xsim -log regress_results/BT_run34.log -mode tcl -source {xsim.dir/tb_top_snap/xsim_script.tcl}
# Log file           : /home/nashita/Desktop/practice/axi_xbar/sim/regress_results/BT_run34.log
# Journal file       : /home/nashita/Desktop/practice/axi_xbar/sim/xsim.jou
# Running On         : vlsi-vivado
# Platform           : Ubuntu
# Operating System   : Ubuntu 24.04.4 LTS
# Processor Detail   : Intel(R) Core(TM) i5-10400 CPU @ 2.90GHz
# CPU Frequency      : 4100.411 MHz
# CPU Physical cores : 6
# CPU Logical cores  : 12
# Host memory        : 41875 MB
# Swap memory        : 27648 MB
# Total Virtual      : 69524 MB
# Available Virtual  : 62779 MB
#-----------------------------------------------------------
source xsim.dir/tb_top_snap/xsim_script.tcl
# xsim {tb_top_snap} -testplusarg BT -autoloadwcfg -runall -sv_seed 35
Time resolution is 1 ps
run -all
[0] RUNNING BASE TEST
[0] INSIDE THE BASE TEST CONSTRUCTOR
[0] ENV: before agent
[0] SLAVE CONSTRUCTED
[0] MASTER MONITOR CONSTRUCTED
[0] MASTER MONITOR CONSTRUCTED
[0] SLAVE MONITOR CONSTRUCTED
[0] SLAVE MONITOR CONSTRUCTED
[0] ARB MONITOR CONSTRUCTED
GENERATOR CONSTRUCTED
[0] ENV: after agent
[0] ENV: before scoreboard
[0] ENV: after scoreboard
[15000] [SEQUENCER] mst_id=0 s_id=0 awaddr=1d548328 awid=1101 awlen=11 awsize=1 awburst=1 wdata=[e7bbab3bf31e9079 122cde39d947e60a 996c1f39b8902cce abaebd47d5d76e9e 2f1f54a88127ca74 39b7f743bddb9b80 93b30a1ec88b73e1 c9b33e56e566b48a 2342500bc2d25ec6 b5dd2a8036b3599 e8d1ea23b6f55a29 f9c7b8f0d51110fe ] wstrb=[2e 97 98 58 ba 96 48 e9 2d e0 41 e7 ] bresp=0 bid=0
[15000] [SEQUENCER] READ mst_id=1 s_id=0 araddr=1bf69988 arid=0 arlen=1 arsize=3 arburst=1 rid=[] rresp=[] rdata=[]
[15000] [SEQUENCER] READ mst_id=1 s_id=0 araddr=163ad8f8 arid=1 arlen=1 arsize=3 arburst=1 rid=[] rresp=[] rdata=[]
[15000] [SEQUENCER] mst_id=0 s_id=0 awaddr=5e73d88 awid=1 awlen=81 awsize=4 awburst=1 wdata=[174f0fdef1f702ca 9356f1ce154e83b be71068d8cca2df cac3a5aa86ef8768 e8446fa323362046 fc02c325d3f914c6 dae89c2ef42b800b 9761a051c6c668cf 9abf7d95c32d0bd2 b7588bdd13646377 da2acc46f5a819c4 38d52596ceba2c2f e21e8fa6f4ea49dc ea9263a0f02db173 bee7dda2bc495bec b133a5c823678936 93953aa9a1066d48 dd4fc9359bc60968 bf2d929ed27d184c f38385948e836efd 2a497866d2c2cd48 253fe594d0d34ec9 df56bdc7e9770b04 bc39d84c98c36b28 e996b9f209a0362d f3174131e179bde0 fa3d2909c8ed77b9 d28dade62f51197e 90cad75ee3d3e2fb 2cc15ab4c5a4ef17 f4f608958b080067 eedbe362ff4f089a c4f3f7b105c0dff4 90c8e05b9b9d3e16 9aec46b039ea0047 3faae03bffa4c3be 9b4201d4dfe03e62 19ca3ea9d073c096 d0188454362e4885 160e86e7d9751ee4 a9e8df7aeb5a8629 2188ceae2fd8c590 94de474fa0163cf e55be9f837975595 e7701b25b336c3ee ad3827bd06e4b8a6 3e7c0e3bf0bdff99 a3f4c387929411b5 9978ca5b25ec2960 16aa28f9d12ceb45 e3c0fcfad7f4d896 fde101f6ba9eec80 8bcbd7c5fd39c756 d52e9fec948b2aef cf2a1770ef8cd4c0 ecc69c16d30fa1e3 e79accd2daf5ef35 ca82c3f5c1f53c02 9504dde5b6c4e442 11bad378b749600b f93e9c0efc9faab8 b3648efadc3d976d 1386f7798e4379f3 8ae324abc51f6272 215cf9e00cc59387 9b090d7a3e47b3a6 8367161834e3f159 c1a984e025ec3226 e433e5cca4c40ff8 d9a80151dcb2925a 829ec480e79afbe4 c5f0bdd9b518631 f804188ce6d2aa4c ce6da631e6070d2e 1589360faa2dd0c e1758759daccb20e c0d3bf3cf95cabec f3ff88f82fe32d8a aafdf98c22c529c bb88fe88d5751051 85583ddbcb839ed4 daff1712f888781 ] wstrb=[73 d2 f9 48 ae 7a b9 21 4d b2 69 fb 2d 22 1c 7a d5 86 75 2 a8 91 7c 7d 17 f1 7f c0 82 fb 3d 9a ec bd 5a 6f b8 97 9 a5 54 63 14 d fa 1d b2 4f 80 c6 5c 7a e3 e c9 63 d4 25 dd b7 33 a7 1a 7 cc f7 be 0 9e d8 7 6b d0 c6 6b 6e 9e 72 d9 6e 38 44 ] bresp=0 bid=0
[15000] [SEQUENCER] READ mst_id=0 s_id=0 araddr=d1c7c30 arid=2 arlen=1 arsize=3 arburst=1 rid=[] rresp=[] rdata=[]
[15000] MASTER_DRIVER0 received transaction, op=AXI_WRITE
[15000] MASTER_DRIVER1 received transaction, op=AXI_READ
[35000] MASTER 0 AW_VALID_RDY Handshake
[35000] MASTER_DRIVER1 received transaction, op=AXI_READ
[45000] ARB MONITOR: slave=1 m0_req=1 m1_req=0 winner=0
[45000] ARB MONITOR: slave=1 m0_req=0 m1_req=1 winner=1
[45000] AXI S0_ARVALID_RDY HANDSHAKE
[45000] MEMORY READ MISS beat=0 addr=1bf69988 -> default data id=16
[45000] AXI S1_AWVALID_RDY HANDSHAKE
[55000] MEMORY READ MISS beat=1 addr=1bf69990 -> default data id=16
[55000] SLAVE 1 R_VALID_RDY Handshake beat=0 rlast=0
[55000] MASTER 0 W_VALID_RDY Handshake beat=0 wlast=0
[65000] MASTER 0 W_VALID_RDY Handshake beat=1 wlast=0
[65000] SLAVE 1 R_VALID_RDY Handshake beat=1 rlast=1
[65000] [SLAVE MONITOR] READ mst_id=1 s_id=1 araddr=1bf69988 arid=0 arlen=1 arsize=3 arburst=1 rid=[1010] rresp=[00] rdata=[baadf00d12345678baadf00d12345678]
[65000] S1 MEMORY WRITE beat=0 addr=1d548328 data=e7bbab3bf31e9079 id=0d
[75000] S1 MEMORY WRITE beat=1 addr=1d54832a data=122cde39d947e60a id=0d
[75000] AXI S0_ARVALID_RDY HANDSHAKE
[75000] MEMORY READ MISS beat=0 addr=163ad8f8 -> default data id=17
[75000] ARB MONITOR: slave=1 m0_req=0 m1_req=1 winner=1
[75000] MASTER 1 R_VALID_RDY Handshake beat=0 rlast=0
[75000] MASTER 0 W_VALID_RDY Handshake beat=2 wlast=0
[85000] [MASTER DRIVER] READ mst_id=1 s_id=0 araddr=1bf69988 arid=0 arlen=1 arsize=3 arburst=1 rid=[00] rresp=[00] rdata=[baadf00d12345678baadf00d12345678]
[85000] MASTER 0 W_VALID_RDY Handshake beat=3 wlast=0
[85000] MASTER 1 R_VALID_RDY Handshake beat=1 rlast=1
[85000] [MASTER MONITOR] READ mst_id=1 s_id=1 araddr=1bf69988 arid=0 arlen=1 arsize=3 arburst=1 rid=[00] rresp=[00] rdata=[baadf00d12345678baadf00d12345678]
[85000] SLAVE 1 R_VALID_RDY Handshake beat=0 rlast=0
[85000] MEMORY READ MISS beat=1 addr=163ad900 -> default data id=17
[85000] S1 MEMORY WRITE beat=2 addr=1d54832c data=996c1f39b8902cce id=0d
[85000] SCOREBOARD MATCH: decode_err expected = 0, actual =0
[85000] SCOREBOARD MATCH: slave_id expected = 1, actual =1
[85000] SCOREBOARD MATCH: araddr passthrough expected = 1bf69988, actual =1bf69988
[85000] SCOREBOARD MATCH: arlen passthrough expected = 1, actual =1
[85000] SCOREBOARD MATCH: arsize passthrough expected = 3, actual =3
[85000] SCOREBOARD MATCH: arburst passthrough expected = 1, actual =1
[85000] SCOREBOARD MATCH: rdata size check expected = 2, actual =2
[85000] SCOREBOARD MATCH: rdata passthrough beat=0 expected = baadf00d12345678, actual =baadf00d12345678
[85000] SCOREBOARD MATCH: rdata passthrough beat=1 expected = baadf00d12345678, actual =baadf00d12345678
[85000] SCOREBOARD MATCH: rresp size check expected = 2, actual =2
[85000] SCOREBOARD MATCH: rresp passthrough beat=0 expected = 0, actual =0
[85000] SCOREBOARD MATCH: rresp passthrough beat=1 expected = 0, actual =0
[85000] SCOREBOARD MATCH: response routed to correct master (read beat 0) expected = 1, actual =1
[85000] SCOREBOARD MATCH: response routed to correct master (read beat 1) expected = 1, actual =1
[85000] [SCOREBOARD-M] READ mst_id=1 s_id=1 araddr=1bf69988 arid=0 arlen=1 arsize=3 arburst=1 rid=[00] rresp=[00] rdata=[baadf00d12345678baadf00d12345678]
[85000] [SCOREBOARD-S] READ mst_id=1 s_id=1 araddr=1bf69988 arid=0 arlen=1 arsize=3 arburst=1 rid=[1010] rresp=[00] rdata=[baadf00d12345678baadf00d12345678]
[85000] SCOREBOARD: Transaction 1 received. pass=14 fail=0
[85000] ALL PASS. Total transactions: 1
[95000] S1 MEMORY WRITE beat=3 addr=1d54832e data=abaebd47d5d76e9e id=0d
[95000] SLAVE 1 R_VALID_RDY Handshake beat=1 rlast=1
[95000] [SLAVE MONITOR] READ mst_id=1 s_id=1 araddr=163ad8f8 arid=1 arlen=1 arsize=3 arburst=1 rid=[1111] rresp=[00] rdata=[baadf00d12345678baadf00d12345678]
[95000] MASTER 0 W_VALID_RDY Handshake beat=4 wlast=0
[105000] MASTER 0 W_VALID_RDY Handshake beat=5 wlast=0
[105000] MASTER 1 R_VALID_RDY Handshake beat=0 rlast=0
[105000] S1 MEMORY WRITE beat=4 addr=1d548330 data=2f1f54a88127ca74 id=0d
[115000] S1 MEMORY WRITE beat=5 addr=1d548332 data=39b7f743bddb9b80 id=0d
[115000] MASTER 1 R_VALID_RDY Handshake beat=1 rlast=1
[115000] [MASTER MONITOR] READ mst_id=1 s_id=1 araddr=163ad8f8 arid=1 arlen=1 arsize=3 arburst=1 rid=[11] rresp=[00] rdata=[baadf00d12345678baadf00d12345678]
[115000] MASTER 0 W_VALID_RDY Handshake beat=6 wlast=0
[115000] [MASTER DRIVER] READ mst_id=1 s_id=0 araddr=163ad8f8 arid=1 arlen=1 arsize=3 arburst=1 rid=[11] rresp=[00] rdata=[baadf00d12345678baadf00d12345678]
[115000] SCOREBOARD MATCH: decode_err expected = 0, actual =0
[115000] SCOREBOARD MATCH: slave_id expected = 1, actual =1
[115000] SCOREBOARD MATCH: araddr passthrough expected = 163ad8f8, actual =163ad8f8
[115000] SCOREBOARD MATCH: arlen passthrough expected = 1, actual =1
[115000] SCOREBOARD MATCH: arsize passthrough expected = 3, actual =3
[115000] SCOREBOARD MATCH: arburst passthrough expected = 1, actual =1
[115000] SCOREBOARD MATCH: rdata size check expected = 2, actual =2
[115000] SCOREBOARD MATCH: rdata passthrough beat=0 expected = baadf00d12345678, actual =baadf00d12345678
[115000] SCOREBOARD MATCH: rdata passthrough beat=1 expected = baadf00d12345678, actual =baadf00d12345678
[115000] SCOREBOARD MATCH: rresp size check expected = 2, actual =2
[115000] SCOREBOARD MATCH: rresp passthrough beat=0 expected = 0, actual =0
[115000] SCOREBOARD MATCH: rresp passthrough beat=1 expected = 0, actual =0
[115000] SCOREBOARD MATCH: response routed to correct master (read beat 0) expected = 1, actual =1
[115000] SCOREBOARD MATCH: response routed to correct master (read beat 1) expected = 1, actual =1
[115000] [SCOREBOARD-M] READ mst_id=1 s_id=1 araddr=163ad8f8 arid=1 arlen=1 arsize=3 arburst=1 rid=[11] rresp=[00] rdata=[baadf00d12345678baadf00d12345678]
[115000] [SCOREBOARD-S] READ mst_id=1 s_id=1 araddr=163ad8f8 arid=1 arlen=1 arsize=3 arburst=1 rid=[1111] rresp=[00] rdata=[baadf00d12345678baadf00d12345678]
[115000] SCOREBOARD: Transaction 2 received. pass=28 fail=0
[115000] ALL PASS. Total transactions: 2
[125000] MASTER 0 W_VALID_RDY Handshake beat=7 wlast=0
[125000] S1 MEMORY WRITE beat=6 addr=1d548334 data=93b30a1ec88b73e1 id=0d
[135000] S1 MEMORY WRITE beat=7 addr=1d548336 data=c9b33e56e566b48a id=0d
[135000] MASTER 0 W_VALID_RDY Handshake beat=8 wlast=0
[145000] MASTER 0 W_VALID_RDY Handshake beat=9 wlast=0
[145000] S1 MEMORY WRITE beat=8 addr=1d548338 data=2342500bc2d25ec6 id=0d
[155000] S1 MEMORY WRITE beat=9 addr=1d54833a data=0b5dd2a8036b3599 id=0d
[155000] MASTER 0 W_VALID_RDY Handshake beat=10 wlast=0
[165000] MASTER_DRIVER0 received transaction, op=AXI_WRITE
[165000] MASTER 0 W_VALID_RDY Handshake beat=11 wlast=1
[165000] S1 MEMORY WRITE beat=10 addr=1d54833c data=e8d1ea23b6f55a29 id=0d
[175000] S1 MEMORY WRITE beat=11 addr=1d54833e data=f9c7b8f0d51110fe id=0d
[185000] MASTER 0 AW_VALID_RDY Handshake
[185000] SLAVE1 sent B resp, id=13
[195000] AXI S0_AWVALID_RDY HANDSHAKE
[195000] [SLAVE MONITOR] mst_id=0 s_id=1 awaddr=1d548328 awid=1101 awlen=11 awsize=1 awburst=1 wdata=[e7bbab3bf31e9079 122cde39d947e60a 996c1f39b8902cce abaebd47d5d76e9e 2f1f54a88127ca74 39b7f743bddb9b80 93b30a1ec88b73e1 c9b33e56e566b48a 2342500bc2d25ec6 b5dd2a8036b3599 e8d1ea23b6f55a29 f9c7b8f0d51110fe ] wstrb=[2e 97 98 58 ba 96 48 e9 2d e0 41 e7 ] bresp=0 bid=1101
[195000] ARB MONITOR: slave=0 m0_req=1 m1_req=0 winner=0
[205000] MASTER 0 RECEIVED BRESP. BRESP=0
[205000] [MASTER DRIVER] mst_id=0 s_id=0 awaddr=1d548328 awid=1101 awlen=11 awsize=1 awburst=1 wdata=[e7bbab3bf31e9079 122cde39d947e60a 996c1f39b8902cce abaebd47d5d76e9e 2f1f54a88127ca74 39b7f743bddb9b80 93b30a1ec88b73e1 c9b33e56e566b48a 2342500bc2d25ec6 b5dd2a8036b3599 e8d1ea23b6f55a29 f9c7b8f0d51110fe ] wstrb=[2e 97 98 58 ba 96 48 e9 2d e0 41 e7 ] bresp=0 bid=1101
[205000] MASTER 0 W_VALID_RDY Handshake beat=0 wlast=0
[205000] MASTER 0 B_VALID_RDY Handshake
[205000] [MASTER MONITOR] mst_id=0 s_id=1 awaddr=1d548328 awid=1101 awlen=11 awsize=1 awburst=1 wdata=[e7bbab3bf31e9079 122cde39d947e60a 996c1f39b8902cce abaebd47d5d76e9e 2f1f54a88127ca74 39b7f743bddb9b80 93b30a1ec88b73e1 c9b33e56e566b48a 2342500bc2d25ec6 b5dd2a8036b3599 e8d1ea23b6f55a29 f9c7b8f0d51110fe ] wstrb=[2e 97 98 58 ba 96 48 e9 2d e0 41 e7 ] bresp=0 bid=1101
[205000] SCOREBOARD MATCH: decode_err expected = 0, actual =0
[205000] SCOREBOARD MATCH: slave_id expected = 1, actual =1
[205000] SCOREBOARD MATCH: awaddr passthrough expected = 1d548328, actual =1d548328
[205000] SCOREBOARD MATCH: awlen passthrough expected = 11, actual =11
[205000] SCOREBOARD MATCH: awsize passthrough expected = 1, actual =1
[205000] SCOREBOARD MATCH: awburst passthrough expected = 1, actual =1
[205000] SCOREBOARD MATCH: wdata size check expected = c, actual =c
[205000] SCOREBOARD MATCH: wdata passthrough beat=0 expected = e7bbab3bf31e9079, actual =e7bbab3bf31e9079
[205000] SCOREBOARD MATCH: wdata passthrough beat=1 expected = 122cde39d947e60a, actual =122cde39d947e60a
[205000] SCOREBOARD MATCH: wdata passthrough beat=2 expected = 996c1f39b8902cce, actual =996c1f39b8902cce
[205000] SCOREBOARD MATCH: wdata passthrough beat=3 expected = abaebd47d5d76e9e, actual =abaebd47d5d76e9e
[205000] SCOREBOARD MATCH: wdata passthrough beat=4 expected = 2f1f54a88127ca74, actual =2f1f54a88127ca74
[205000] SCOREBOARD MATCH: wdata passthrough beat=5 expected = 39b7f743bddb9b80, actual =39b7f743bddb9b80
[205000] SCOREBOARD MATCH: wdata passthrough beat=6 expected = 93b30a1ec88b73e1, actual =93b30a1ec88b73e1
[205000] SCOREBOARD MATCH: wdata passthrough beat=7 expected = c9b33e56e566b48a, actual =c9b33e56e566b48a
[205000] SCOREBOARD MATCH: wdata passthrough beat=8 expected = 2342500bc2d25ec6, actual =2342500bc2d25ec6
[205000] SCOREBOARD MATCH: wdata passthrough beat=9 expected = b5dd2a8036b3599, actual =b5dd2a8036b3599
[205000] SCOREBOARD MATCH: wdata passthrough beat=10 expected = e8d1ea23b6f55a29, actual =e8d1ea23b6f55a29
[205000] SCOREBOARD MATCH: wdata passthrough beat=11 expected = f9c7b8f0d51110fe, actual =f9c7b8f0d51110fe
[205000] SCOREBOARD MATCH: wstrb size check expected = c, actual =c
[205000] SCOREBOARD MATCH: wstrb passthrough beat=0 expected = 2e, actual =2e
[205000] SCOREBOARD MATCH: wstrb passthrough beat=1 expected = 97, actual =97
[205000] SCOREBOARD MATCH: wstrb passthrough beat=2 expected = 98, actual =98
[205000] SCOREBOARD MATCH: wstrb passthrough beat=3 expected = 58, actual =58
[205000] SCOREBOARD MATCH: wstrb passthrough beat=4 expected = ba, actual =ba
[205000] SCOREBOARD MATCH: wstrb passthrough beat=5 expected = 96, actual =96
[205000] SCOREBOARD MATCH: wstrb passthrough beat=6 expected = 48, actual =48
[205000] SCOREBOARD MATCH: wstrb passthrough beat=7 expected = e9, actual =e9
[205000] SCOREBOARD MATCH: wstrb passthrough beat=8 expected = 2d, actual =2d
[205000] SCOREBOARD MATCH: wstrb passthrough beat=9 expected = e0, actual =e0
[205000] SCOREBOARD MATCH: wstrb passthrough beat=10 expected = 41, actual =41
[205000] SCOREBOARD MATCH: wstrb passthrough beat=11 expected = e7, actual =e7
[205000] SCOREBOARD MATCH: bresp passthrough expected = 0, actual =0
[205000] SCOREBOARD MATCH: response routed to correct master (write) expected = 0, actual =0
[205000] [SCOREBOARD-M] mst_id=0 s_id=1 awaddr=1d548328 awid=1101 awlen=11 awsize=1 awburst=1 wdata=[e7bbab3bf31e9079 122cde39d947e60a 996c1f39b8902cce abaebd47d5d76e9e 2f1f54a88127ca74 39b7f743bddb9b80 93b30a1ec88b73e1 c9b33e56e566b48a 2342500bc2d25ec6 b5dd2a8036b3599 e8d1ea23b6f55a29 f9c7b8f0d51110fe ] wstrb=[2e 97 98 58 ba 96 48 e9 2d e0 41 e7 ] bresp=0 bid=1101
[205000] [SCOREBOARD-S] mst_id=0 s_id=1 awaddr=1d548328 awid=1101 awlen=11 awsize=1 awburst=1 wdata=[e7bbab3bf31e9079 122cde39d947e60a 996c1f39b8902cce abaebd47d5d76e9e 2f1f54a88127ca74 39b7f743bddb9b80 93b30a1ec88b73e1 c9b33e56e566b48a 2342500bc2d25ec6 b5dd2a8036b3599 e8d1ea23b6f55a29 f9c7b8f0d51110fe ] wstrb=[2e 97 98 58 ba 96 48 e9 2d e0 41 e7 ] bresp=0 bid=1101
[205000] SCOREBOARD: Transaction 3 received. pass=62 fail=0
[205000] ALL PASS. Total transactions: 3
[215000] AXI S0_WVALID_RDY HANDSHAKE
[215000] S0 MEMORY WRITE beat=0 addr=05e73d88 data=174f0fdef1f702ca id=01
[215000] MASTER 0 W_VALID_RDY Handshake beat=1 wlast=0
[225000] MASTER 0 W_VALID_RDY Handshake beat=2 wlast=0
[225000] AXI S0_WVALID_RDY HANDSHAKE
[225000] S0 MEMORY WRITE beat=1 addr=05e73d98 data=09356f1ce154e83b id=01
[235000] AXI S0_WVALID_RDY HANDSHAKE
[235000] S0 MEMORY WRITE beat=2 addr=05e73da8 data=0be71068d8cca2df id=01
[235000] MASTER 0 W_VALID_RDY Handshake beat=3 wlast=0
[245000] MASTER 0 W_VALID_RDY Handshake beat=4 wlast=0
[245000] AXI S0_WVALID_RDY HANDSHAKE
[245000] S0 MEMORY WRITE beat=3 addr=05e73db8 data=cac3a5aa86ef8768 id=01
[255000] AXI S0_WVALID_RDY HANDSHAKE
[255000] S0 MEMORY WRITE beat=4 addr=05e73dc8 data=e8446fa323362046 id=01
[255000] MASTER 0 W_VALID_RDY Handshake beat=5 wlast=0
[265000] MASTER 0 W_VALID_RDY Handshake beat=6 wlast=0
[265000] AXI S0_WVALID_RDY HANDSHAKE
[265000] S0 MEMORY WRITE beat=5 addr=05e73dd8 data=fc02c325d3f914c6 id=01
[275000] AXI S0_WVALID_RDY HANDSHAKE
[275000] S0 MEMORY WRITE beat=6 addr=05e73de8 data=dae89c2ef42b800b id=01
[275000] MASTER 0 W_VALID_RDY Handshake beat=7 wlast=0
[285000] MASTER 0 W_VALID_RDY Handshake beat=8 wlast=0
[285000] AXI S0_WVALID_RDY HANDSHAKE
[285000] S0 MEMORY WRITE beat=7 addr=05e73df8 data=9761a051c6c668cf id=01
[295000] AXI S0_WVALID_RDY HANDSHAKE
[295000] S0 MEMORY WRITE beat=8 addr=05e73e08 data=9abf7d95c32d0bd2 id=01
[295000] MASTER 0 W_VALID_RDY Handshake beat=9 wlast=0
[305000] MASTER 0 W_VALID_RDY Handshake beat=10 wlast=0
[305000] AXI S0_WVALID_RDY HANDSHAKE
[305000] S0 MEMORY WRITE beat=9 addr=05e73e18 data=b7588bdd13646377 id=01
[315000] AXI S0_WVALID_RDY HANDSHAKE
[315000] S0 MEMORY WRITE beat=10 addr=05e73e28 data=da2acc46f5a819c4 id=01
[315000] MASTER 0 W_VALID_RDY Handshake beat=11 wlast=0
[325000] MASTER 0 W_VALID_RDY Handshake beat=12 wlast=0
[325000] AXI S0_WVALID_RDY HANDSHAKE
[325000] S0 MEMORY WRITE beat=11 addr=05e73e38 data=38d52596ceba2c2f id=01
[335000] AXI S0_WVALID_RDY HANDSHAKE
[335000] S0 MEMORY WRITE beat=12 addr=05e73e48 data=e21e8fa6f4ea49dc id=01
[335000] MASTER 0 W_VALID_RDY Handshake beat=13 wlast=0
[345000] MASTER 0 W_VALID_RDY Handshake beat=14 wlast=0
[345000] AXI S0_WVALID_RDY HANDSHAKE
[345000] S0 MEMORY WRITE beat=13 addr=05e73e58 data=ea9263a0f02db173 id=01
[355000] AXI S0_WVALID_RDY HANDSHAKE
[355000] S0 MEMORY WRITE beat=14 addr=05e73e68 data=bee7dda2bc495bec id=01
[355000] MASTER 0 W_VALID_RDY Handshake beat=15 wlast=0
[365000] MASTER 0 W_VALID_RDY Handshake beat=16 wlast=0
[365000] AXI S0_WVALID_RDY HANDSHAKE
[365000] S0 MEMORY WRITE beat=15 addr=05e73e78 data=b133a5c823678936 id=01
[375000] AXI S0_WVALID_RDY HANDSHAKE
[375000] S0 MEMORY WRITE beat=16 addr=05e73e88 data=93953aa9a1066d48 id=01
[375000] MASTER 0 W_VALID_RDY Handshake beat=17 wlast=0
[385000] MASTER 0 W_VALID_RDY Handshake beat=18 wlast=0
[385000] AXI S0_WVALID_RDY HANDSHAKE
[385000] S0 MEMORY WRITE beat=17 addr=05e73e98 data=dd4fc9359bc60968 id=01
[395000] AXI S0_WVALID_RDY HANDSHAKE
[395000] S0 MEMORY WRITE beat=18 addr=05e73ea8 data=bf2d929ed27d184c id=01
[395000] MASTER 0 W_VALID_RDY Handshake beat=19 wlast=0
[405000] MASTER 0 W_VALID_RDY Handshake beat=20 wlast=0
[405000] AXI S0_WVALID_RDY HANDSHAKE
[405000] S0 MEMORY WRITE beat=19 addr=05e73eb8 data=f38385948e836efd id=01
[415000] AXI S0_WVALID_RDY HANDSHAKE
[415000] S0 MEMORY WRITE beat=20 addr=05e73ec8 data=2a497866d2c2cd48 id=01
[415000] MASTER 0 W_VALID_RDY Handshake beat=21 wlast=0
[425000] MASTER 0 W_VALID_RDY Handshake beat=22 wlast=0
[425000] AXI S0_WVALID_RDY HANDSHAKE
[425000] S0 MEMORY WRITE beat=21 addr=05e73ed8 data=253fe594d0d34ec9 id=01
[435000] AXI S0_WVALID_RDY HANDSHAKE
[435000] S0 MEMORY WRITE beat=22 addr=05e73ee8 data=df56bdc7e9770b04 id=01
[435000] MASTER 0 W_VALID_RDY Handshake beat=23 wlast=0
[445000] MASTER 0 W_VALID_RDY Handshake beat=24 wlast=0
[445000] AXI S0_WVALID_RDY HANDSHAKE
[445000] S0 MEMORY WRITE beat=23 addr=05e73ef8 data=bc39d84c98c36b28 id=01
[455000] AXI S0_WVALID_RDY HANDSHAKE
[455000] S0 MEMORY WRITE beat=24 addr=05e73f08 data=e996b9f209a0362d id=01
[455000] MASTER 0 W_VALID_RDY Handshake beat=25 wlast=0
[465000] MASTER 0 W_VALID_RDY Handshake beat=26 wlast=0
[465000] AXI S0_WVALID_RDY HANDSHAKE
[465000] S0 MEMORY WRITE beat=25 addr=05e73f18 data=f3174131e179bde0 id=01
[475000] AXI S0_WVALID_RDY HANDSHAKE
[475000] S0 MEMORY WRITE beat=26 addr=05e73f28 data=fa3d2909c8ed77b9 id=01
[475000] MASTER 0 W_VALID_RDY Handshake beat=27 wlast=0
[485000] MASTER 0 W_VALID_RDY Handshake beat=28 wlast=0
[485000] AXI S0_WVALID_RDY HANDSHAKE
[485000] S0 MEMORY WRITE beat=27 addr=05e73f38 data=d28dade62f51197e id=01
[495000] AXI S0_WVALID_RDY HANDSHAKE
[495000] S0 MEMORY WRITE beat=28 addr=05e73f48 data=90cad75ee3d3e2fb id=01
[495000] MASTER 0 W_VALID_RDY Handshake beat=29 wlast=0
[505000] MASTER 0 W_VALID_RDY Handshake beat=30 wlast=0
[505000] AXI S0_WVALID_RDY HANDSHAKE
[505000] S0 MEMORY WRITE beat=29 addr=05e73f58 data=2cc15ab4c5a4ef17 id=01
[515000] AXI S0_WVALID_RDY HANDSHAKE
[515000] S0 MEMORY WRITE beat=30 addr=05e73f68 data=f4f608958b080067 id=01
[515000] MASTER 0 W_VALID_RDY Handshake beat=31 wlast=0
[525000] MASTER 0 W_VALID_RDY Handshake beat=32 wlast=0
[525000] AXI S0_WVALID_RDY HANDSHAKE
[525000] S0 MEMORY WRITE beat=31 addr=05e73f78 data=eedbe362ff4f089a id=01
[535000] AXI S0_WVALID_RDY HANDSHAKE
[535000] S0 MEMORY WRITE beat=32 addr=05e73f88 data=c4f3f7b105c0dff4 id=01
[535000] MASTER 0 W_VALID_RDY Handshake beat=33 wlast=0
[545000] MASTER 0 W_VALID_RDY Handshake beat=34 wlast=0
[545000] AXI S0_WVALID_RDY HANDSHAKE
[545000] S0 MEMORY WRITE beat=33 addr=05e73f98 data=90c8e05b9b9d3e16 id=01
[555000] AXI S0_WVALID_RDY HANDSHAKE
[555000] S0 MEMORY WRITE beat=34 addr=05e73fa8 data=9aec46b039ea0047 id=01
[555000] MASTER 0 W_VALID_RDY Handshake beat=35 wlast=0
[565000] MASTER 0 W_VALID_RDY Handshake beat=36 wlast=0
[565000] AXI S0_WVALID_RDY HANDSHAKE
[565000] S0 MEMORY WRITE beat=35 addr=05e73fb8 data=3faae03bffa4c3be id=01
[575000] AXI S0_WVALID_RDY HANDSHAKE
[575000] S0 MEMORY WRITE beat=36 addr=05e73fc8 data=9b4201d4dfe03e62 id=01
[575000] MASTER 0 W_VALID_RDY Handshake beat=37 wlast=0
[585000] MASTER 0 W_VALID_RDY Handshake beat=38 wlast=0
[585000] AXI S0_WVALID_RDY HANDSHAKE
[585000] S0 MEMORY WRITE beat=37 addr=05e73fd8 data=19ca3ea9d073c096 id=01
[595000] AXI S0_WVALID_RDY HANDSHAKE
[595000] S0 MEMORY WRITE beat=38 addr=05e73fe8 data=d0188454362e4885 id=01
[595000] MASTER 0 W_VALID_RDY Handshake beat=39 wlast=0
[605000] MASTER 0 W_VALID_RDY Handshake beat=40 wlast=0
[605000] AXI S0_WVALID_RDY HANDSHAKE
[605000] S0 MEMORY WRITE beat=39 addr=05e73ff8 data=160e86e7d9751ee4 id=01
[615000] AXI S0_WVALID_RDY HANDSHAKE
[615000] S0 MEMORY WRITE beat=40 addr=05e74008 data=a9e8df7aeb5a8629 id=01
[615000] MASTER 0 W_VALID_RDY Handshake beat=41 wlast=0
[625000] MASTER 0 W_VALID_RDY Handshake beat=42 wlast=0
[625000] AXI S0_WVALID_RDY HANDSHAKE
[625000] S0 MEMORY WRITE beat=41 addr=05e74018 data=2188ceae2fd8c590 id=01
[635000] AXI S0_WVALID_RDY HANDSHAKE
[635000] S0 MEMORY WRITE beat=42 addr=05e74028 data=094de474fa0163cf id=01
[635000] MASTER 0 W_VALID_RDY Handshake beat=43 wlast=0
[645000] MASTER 0 W_VALID_RDY Handshake beat=44 wlast=0
[645000] AXI S0_WVALID_RDY HANDSHAKE
[645000] S0 MEMORY WRITE beat=43 addr=05e74038 data=e55be9f837975595 id=01
[655000] AXI S0_WVALID_RDY HANDSHAKE
[655000] S0 MEMORY WRITE beat=44 addr=05e74048 data=e7701b25b336c3ee id=01
[655000] MASTER 0 W_VALID_RDY Handshake beat=45 wlast=0
[665000] MASTER 0 W_VALID_RDY Handshake beat=46 wlast=0
[665000] AXI S0_WVALID_RDY HANDSHAKE
[665000] S0 MEMORY WRITE beat=45 addr=05e74058 data=ad3827bd06e4b8a6 id=01
[675000] AXI S0_WVALID_RDY HANDSHAKE
[675000] S0 MEMORY WRITE beat=46 addr=05e74068 data=3e7c0e3bf0bdff99 id=01
[675000] MASTER 0 W_VALID_RDY Handshake beat=47 wlast=0
[685000] MASTER 0 W_VALID_RDY Handshake beat=48 wlast=0
[685000] AXI S0_WVALID_RDY HANDSHAKE
[685000] S0 MEMORY WRITE beat=47 addr=05e74078 data=a3f4c387929411b5 id=01
[695000] AXI S0_WVALID_RDY HANDSHAKE
[695000] S0 MEMORY WRITE beat=48 addr=05e74088 data=9978ca5b25ec2960 id=01
[695000] MASTER 0 W_VALID_RDY Handshake beat=49 wlast=0
[705000] MASTER 0 W_VALID_RDY Handshake beat=50 wlast=0
[705000] AXI S0_WVALID_RDY HANDSHAKE
[705000] S0 MEMORY WRITE beat=49 addr=05e74098 data=16aa28f9d12ceb45 id=01
[715000] AXI S0_WVALID_RDY HANDSHAKE
[715000] S0 MEMORY WRITE beat=50 addr=05e740a8 data=e3c0fcfad7f4d896 id=01
[715000] MASTER 0 W_VALID_RDY Handshake beat=51 wlast=0
[725000] MASTER 0 W_VALID_RDY Handshake beat=52 wlast=0
[725000] AXI S0_WVALID_RDY HANDSHAKE
[725000] S0 MEMORY WRITE beat=51 addr=05e740b8 data=fde101f6ba9eec80 id=01
[735000] AXI S0_WVALID_RDY HANDSHAKE
[735000] S0 MEMORY WRITE beat=52 addr=05e740c8 data=8bcbd7c5fd39c756 id=01
[735000] MASTER 0 W_VALID_RDY Handshake beat=53 wlast=0
[745000] MASTER 0 W_VALID_RDY Handshake beat=54 wlast=0
[745000] AXI S0_WVALID_RDY HANDSHAKE
[745000] S0 MEMORY WRITE beat=53 addr=05e740d8 data=d52e9fec948b2aef id=01
[755000] AXI S0_WVALID_RDY HANDSHAKE
[755000] S0 MEMORY WRITE beat=54 addr=05e740e8 data=cf2a1770ef8cd4c0 id=01
[755000] MASTER 0 W_VALID_RDY Handshake beat=55 wlast=0
[765000] MASTER 0 W_VALID_RDY Handshake beat=56 wlast=0
[765000] AXI S0_WVALID_RDY HANDSHAKE
[765000] S0 MEMORY WRITE beat=55 addr=05e740f8 data=ecc69c16d30fa1e3 id=01
[775000] AXI S0_WVALID_RDY HANDSHAKE
[775000] S0 MEMORY WRITE beat=56 addr=05e74108 data=e79accd2daf5ef35 id=01
[775000] MASTER 0 W_VALID_RDY Handshake beat=57 wlast=0
[785000] MASTER 0 W_VALID_RDY Handshake beat=58 wlast=0
[785000] AXI S0_WVALID_RDY HANDSHAKE
[785000] S0 MEMORY WRITE beat=57 addr=05e74118 data=ca82c3f5c1f53c02 id=01
[795000] AXI S0_WVALID_RDY HANDSHAKE
[795000] S0 MEMORY WRITE beat=58 addr=05e74128 data=9504dde5b6c4e442 id=01
[795000] MASTER 0 W_VALID_RDY Handshake beat=59 wlast=0
[805000] MASTER 0 W_VALID_RDY Handshake beat=60 wlast=0
[805000] AXI S0_WVALID_RDY HANDSHAKE
[805000] S0 MEMORY WRITE beat=59 addr=05e74138 data=11bad378b749600b id=01
[815000] AXI S0_WVALID_RDY HANDSHAKE
[815000] S0 MEMORY WRITE beat=60 addr=05e74148 data=f93e9c0efc9faab8 id=01
[815000] MASTER 0 W_VALID_RDY Handshake beat=61 wlast=0
[825000] MASTER 0 W_VALID_RDY Handshake beat=62 wlast=0
[825000] AXI S0_WVALID_RDY HANDSHAKE
[825000] S0 MEMORY WRITE beat=61 addr=05e74158 data=b3648efadc3d976d id=01
[835000] AXI S0_WVALID_RDY HANDSHAKE
[835000] S0 MEMORY WRITE beat=62 addr=05e74168 data=1386f7798e4379f3 id=01
[835000] MASTER 0 W_VALID_RDY Handshake beat=63 wlast=0
[845000] MASTER 0 W_VALID_RDY Handshake beat=64 wlast=0
[845000] AXI S0_WVALID_RDY HANDSHAKE
[845000] S0 MEMORY WRITE beat=63 addr=05e74178 data=8ae324abc51f6272 id=01
[855000] AXI S0_WVALID_RDY HANDSHAKE
[855000] S0 MEMORY WRITE beat=64 addr=05e74188 data=215cf9e00cc59387 id=01
[855000] MASTER 0 W_VALID_RDY Handshake beat=65 wlast=0
[865000] MASTER 0 W_VALID_RDY Handshake beat=66 wlast=0
[865000] AXI S0_WVALID_RDY HANDSHAKE
[865000] S0 MEMORY WRITE beat=65 addr=05e74198 data=9b090d7a3e47b3a6 id=01
[875000] AXI S0_WVALID_RDY HANDSHAKE
[875000] S0 MEMORY WRITE beat=66 addr=05e741a8 data=8367161834e3f159 id=01
[875000] MASTER 0 W_VALID_RDY Handshake beat=67 wlast=0
[885000] MASTER 0 W_VALID_RDY Handshake beat=68 wlast=0
[885000] AXI S0_WVALID_RDY HANDSHAKE
[885000] S0 MEMORY WRITE beat=67 addr=05e741b8 data=c1a984e025ec3226 id=01
[895000] AXI S0_WVALID_RDY HANDSHAKE
[895000] S0 MEMORY WRITE beat=68 addr=05e741c8 data=e433e5cca4c40ff8 id=01
[895000] MASTER 0 W_VALID_RDY Handshake beat=69 wlast=0
[905000] MASTER 0 W_VALID_RDY Handshake beat=70 wlast=0
[905000] AXI S0_WVALID_RDY HANDSHAKE
[905000] S0 MEMORY WRITE beat=69 addr=05e741d8 data=d9a80151dcb2925a id=01
[915000] AXI S0_WVALID_RDY HANDSHAKE
[915000] S0 MEMORY WRITE beat=70 addr=05e741e8 data=829ec480e79afbe4 id=01
[915000] MASTER 0 W_VALID_RDY Handshake beat=71 wlast=0
[925000] MASTER 0 W_VALID_RDY Handshake beat=72 wlast=0
[925000] AXI S0_WVALID_RDY HANDSHAKE
[925000] S0 MEMORY WRITE beat=71 addr=05e741f8 data=0c5f0bdd9b518631 id=01
[935000] AXI S0_WVALID_RDY HANDSHAKE
[935000] S0 MEMORY WRITE beat=72 addr=05e74208 data=f804188ce6d2aa4c id=01
[935000] MASTER 0 W_VALID_RDY Handshake beat=73 wlast=0
[945000] MASTER 0 W_VALID_RDY Handshake beat=74 wlast=0
[945000] AXI S0_WVALID_RDY HANDSHAKE
[945000] S0 MEMORY WRITE beat=73 addr=05e74218 data=ce6da631e6070d2e id=01
[955000] AXI S0_WVALID_RDY HANDSHAKE
[955000] S0 MEMORY WRITE beat=74 addr=05e74228 data=01589360faa2dd0c id=01
[955000] MASTER 0 W_VALID_RDY Handshake beat=75 wlast=0
[965000] MASTER 0 W_VALID_RDY Handshake beat=76 wlast=0
[965000] AXI S0_WVALID_RDY HANDSHAKE
[965000] S0 MEMORY WRITE beat=75 addr=05e74238 data=e1758759daccb20e id=01
[975000] AXI S0_WVALID_RDY HANDSHAKE
[975000] S0 MEMORY WRITE beat=76 addr=05e74248 data=c0d3bf3cf95cabec id=01
[975000] MASTER 0 W_VALID_RDY Handshake beat=77 wlast=0
[985000] MASTER 0 W_VALID_RDY Handshake beat=78 wlast=0
[985000] AXI S0_WVALID_RDY HANDSHAKE
[985000] S0 MEMORY WRITE beat=77 addr=05e74258 data=f3ff88f82fe32d8a id=01
[995000] AXI S0_WVALID_RDY HANDSHAKE
[995000] S0 MEMORY WRITE beat=78 addr=05e74268 data=0aafdf98c22c529c id=01
[995000] MASTER 0 W_VALID_RDY Handshake beat=79 wlast=0
[1005000] MASTER 0 W_VALID_RDY Handshake beat=80 wlast=0
[1005000] AXI S0_WVALID_RDY HANDSHAKE
[1005000] S0 MEMORY WRITE beat=79 addr=05e74278 data=bb88fe88d5751051 id=01
[1015000] AXI S0_WVALID_RDY HANDSHAKE
[1015000] S0 MEMORY WRITE beat=80 addr=05e74288 data=85583ddbcb839ed4 id=01
[1015000] MASTER 0 W_VALID_RDY Handshake beat=81 wlast=1
[1015000] MASTER_DRIVER0 received transaction, op=AXI_READ
[1025000] AXI S0_WVALID_RDY HANDSHAKE
[1025000] S0 MEMORY WRITE beat=81 addr=05e74298 data=0daff1712f888781 id=01
[1035000] SLAVE0 sent B resp, id=1
[1035000] [SLAVE MONITOR] mst_id=0 s_id=0 awaddr=5e73d88 awid=1 awlen=81 awsize=4 awburst=1 wdata=[174f0fdef1f702ca 9356f1ce154e83b be71068d8cca2df cac3a5aa86ef8768 e8446fa323362046 fc02c325d3f914c6 dae89c2ef42b800b 9761a051c6c668cf 9abf7d95c32d0bd2 b7588bdd13646377 da2acc46f5a819c4 38d52596ceba2c2f e21e8fa6f4ea49dc ea9263a0f02db173 bee7dda2bc495bec b133a5c823678936 93953aa9a1066d48 dd4fc9359bc60968 bf2d929ed27d184c f38385948e836efd 2a497866d2c2cd48 253fe594d0d34ec9 df56bdc7e9770b04 bc39d84c98c36b28 e996b9f209a0362d f3174131e179bde0 fa3d2909c8ed77b9 d28dade62f51197e 90cad75ee3d3e2fb 2cc15ab4c5a4ef17 f4f608958b080067 eedbe362ff4f089a c4f3f7b105c0dff4 90c8e05b9b9d3e16 9aec46b039ea0047 3faae03bffa4c3be 9b4201d4dfe03e62 19ca3ea9d073c096 d0188454362e4885 160e86e7d9751ee4 a9e8df7aeb5a8629 2188ceae2fd8c590 94de474fa0163cf e55be9f837975595 e7701b25b336c3ee ad3827bd06e4b8a6 3e7c0e3bf0bdff99 a3f4c387929411b5 9978ca5b25ec2960 16aa28f9d12ceb45 e3c0fcfad7f4d896 fde101f6ba9eec80 8bcbd7c5fd39c756 d52e9fec948b2aef cf2a1770ef8cd4c0 ecc69c16d30fa1e3 e79accd2daf5ef35 ca82c3f5c1f53c02 9504dde5b6c4e442 11bad378b749600b f93e9c0efc9faab8 b3648efadc3d976d 1386f7798e4379f3 8ae324abc51f6272 215cf9e00cc59387 9b090d7a3e47b3a6 8367161834e3f159 c1a984e025ec3226 e433e5cca4c40ff8 d9a80151dcb2925a 829ec480e79afbe4 c5f0bdd9b518631 f804188ce6d2aa4c ce6da631e6070d2e 1589360faa2dd0c e1758759daccb20e c0d3bf3cf95cabec f3ff88f82fe32d8a aafdf98c22c529c bb88fe88d5751051 85583ddbcb839ed4 daff1712f888781 ] wstrb=[73 d2 f9 48 ae 7a b9 21 4d b2 69 fb 2d 22 1c 7a d5 86 75 2 a8 91 7c 7d 17 f1 7f c0 82 fb 3d 9a ec bd 5a 6f b8 97 9 a5 54 63 14 d fa 1d b2 4f 80 c6 5c 7a e3 e c9 63 d4 25 dd b7 33 a7 1a 7 cc f7 be 0 9e d8 7 6b d0 c6 6b 6e 9e 72 d9 6e 38 44 ] bresp=0 bid=1
[1045000] ARB MONITOR: slave=0 m0_req=1 m1_req=0 winner=0
[1045000] AXI S0_ARVALID_RDY HANDSHAKE
[1045000] MEMORY READ MISS beat=0 addr=d1c7c30 -> default data id=2
[1055000] MEMORY READ MISS beat=1 addr=d1c7c38 -> default data id=2
[1055000] SLAVE 0 R_VALID_RDY Handshake beat=0 rlast=0
[1055000] MASTER 0 B_VALID_RDY Handshake
[1055000] [MASTER MONITOR] mst_id=0 s_id=0 awaddr=5e73d88 awid=1 awlen=81 awsize=4 awburst=1 wdata=[174f0fdef1f702ca 9356f1ce154e83b be71068d8cca2df cac3a5aa86ef8768 e8446fa323362046 fc02c325d3f914c6 dae89c2ef42b800b 9761a051c6c668cf 9abf7d95c32d0bd2 b7588bdd13646377 da2acc46f5a819c4 38d52596ceba2c2f e21e8fa6f4ea49dc ea9263a0f02db173 bee7dda2bc495bec b133a5c823678936 93953aa9a1066d48 dd4fc9359bc60968 bf2d929ed27d184c f38385948e836efd 2a497866d2c2cd48 253fe594d0d34ec9 df56bdc7e9770b04 bc39d84c98c36b28 e996b9f209a0362d f3174131e179bde0 fa3d2909c8ed77b9 d28dade62f51197e 90cad75ee3d3e2fb 2cc15ab4c5a4ef17 f4f608958b080067 eedbe362ff4f089a c4f3f7b105c0dff4 90c8e05b9b9d3e16 9aec46b039ea0047 3faae03bffa4c3be 9b4201d4dfe03e62 19ca3ea9d073c096 d0188454362e4885 160e86e7d9751ee4 a9e8df7aeb5a8629 2188ceae2fd8c590 94de474fa0163cf e55be9f837975595 e7701b25b336c3ee ad3827bd06e4b8a6 3e7c0e3bf0bdff99 a3f4c387929411b5 9978ca5b25ec2960 16aa28f9d12ceb45 e3c0fcfad7f4d896 fde101f6ba9eec80 8bcbd7c5fd39c756 d52e9fec948b2aef cf2a1770ef8cd4c0 ecc69c16d30fa1e3 e79accd2daf5ef35 ca82c3f5c1f53c02 9504dde5b6c4e442 11bad378b749600b f93e9c0efc9faab8 b3648efadc3d976d 1386f7798e4379f3 8ae324abc51f6272 215cf9e00cc59387 9b090d7a3e47b3a6 8367161834e3f159 c1a984e025ec3226 e433e5cca4c40ff8 d9a80151dcb2925a 829ec480e79afbe4 c5f0bdd9b518631 f804188ce6d2aa4c ce6da631e6070d2e 1589360faa2dd0c e1758759daccb20e c0d3bf3cf95cabec f3ff88f82fe32d8a aafdf98c22c529c bb88fe88d5751051 85583ddbcb839ed4 daff1712f888781 ] wstrb=[73 d2 f9 48 ae 7a b9 21 4d b2 69 fb 2d 22 1c 7a d5 86 75 2 a8 91 7c 7d 17 f1 7f c0 82 fb 3d 9a ec bd 5a 6f b8 97 9 a5 54 63 14 d fa 1d b2 4f 80 c6 5c 7a e3 e c9 63 d4 25 dd b7 33 a7 1a 7 cc f7 be 0 9e d8 7 6b d0 c6 6b 6e 9e 72 d9 6e 38 44 ] bresp=0 bid=1
[1055000] MASTER 0 RECEIVED BRESP. BRESP=0
[1055000] [MASTER DRIVER] mst_id=0 s_id=0 awaddr=5e73d88 awid=1 awlen=81 awsize=4 awburst=1 wdata=[174f0fdef1f702ca 9356f1ce154e83b be71068d8cca2df cac3a5aa86ef8768 e8446fa323362046 fc02c325d3f914c6 dae89c2ef42b800b 9761a051c6c668cf 9abf7d95c32d0bd2 b7588bdd13646377 da2acc46f5a819c4 38d52596ceba2c2f e21e8fa6f4ea49dc ea9263a0f02db173 bee7dda2bc495bec b133a5c823678936 93953aa9a1066d48 dd4fc9359bc60968 bf2d929ed27d184c f38385948e836efd 2a497866d2c2cd48 253fe594d0d34ec9 df56bdc7e9770b04 bc39d84c98c36b28 e996b9f209a0362d f3174131e179bde0 fa3d2909c8ed77b9 d28dade62f51197e 90cad75ee3d3e2fb 2cc15ab4c5a4ef17 f4f608958b080067 eedbe362ff4f089a c4f3f7b105c0dff4 90c8e05b9b9d3e16 9aec46b039ea0047 3faae03bffa4c3be 9b4201d4dfe03e62 19ca3ea9d073c096 d0188454362e4885 160e86e7d9751ee4 a9e8df7aeb5a8629 2188ceae2fd8c590 94de474fa0163cf e55be9f837975595 e7701b25b336c3ee ad3827bd06e4b8a6 3e7c0e3bf0bdff99 a3f4c387929411b5 9978ca5b25ec2960 16aa28f9d12ceb45 e3c0fcfad7f4d896 fde101f6ba9eec80 8bcbd7c5fd39c756 d52e9fec948b2aef cf2a1770ef8cd4c0 ecc69c16d30fa1e3 e79accd2daf5ef35 ca82c3f5c1f53c02 9504dde5b6c4e442 11bad378b749600b f93e9c0efc9faab8 b3648efadc3d976d 1386f7798e4379f3 8ae324abc51f6272 215cf9e00cc59387 9b090d7a3e47b3a6 8367161834e3f159 c1a984e025ec3226 e433e5cca4c40ff8 d9a80151dcb2925a 829ec480e79afbe4 c5f0bdd9b518631 f804188ce6d2aa4c ce6da631e6070d2e 1589360faa2dd0c e1758759daccb20e c0d3bf3cf95cabec f3ff88f82fe32d8a aafdf98c22c529c bb88fe88d5751051 85583ddbcb839ed4 daff1712f888781 ] wstrb=[73 d2 f9 48 ae 7a b9 21 4d b2 69 fb 2d 22 1c 7a d5 86 75 2 a8 91 7c 7d 17 f1 7f c0 82 fb 3d 9a ec bd 5a 6f b8 97 9 a5 54 63 14 d fa 1d b2 4f 80 c6 5c 7a e3 e c9 63 d4 25 dd b7 33 a7 1a 7 cc f7 be 0 9e d8 7 6b d0 c6 6b 6e 9e 72 d9 6e 38 44 ] bresp=0 bid=1
[1055000] SCOREBOARD MATCH: decode_err expected = 0, actual =0
[1055000] SCOREBOARD MATCH: slave_id expected = 0, actual =0
[1055000] SCOREBOARD MATCH: awaddr passthrough expected = 5e73d88, actual =5e73d88
[1055000] SCOREBOARD MATCH: awlen passthrough expected = 81, actual =81
[1055000] SCOREBOARD MATCH: awsize passthrough expected = 4, actual =4
[1055000] SCOREBOARD MATCH: awburst passthrough expected = 1, actual =1
[1055000] SCOREBOARD MATCH: wdata size check expected = 52, actual =52
[1055000] SCOREBOARD MATCH: wdata passthrough beat=0 expected = 174f0fdef1f702ca, actual =174f0fdef1f702ca
[1055000] SCOREBOARD MATCH: wdata passthrough beat=1 expected = 9356f1ce154e83b, actual =9356f1ce154e83b
[1055000] SCOREBOARD MATCH: wdata passthrough beat=2 expected = be71068d8cca2df, actual =be71068d8cca2df
[1055000] SCOREBOARD MATCH: wdata passthrough beat=3 expected = cac3a5aa86ef8768, actual =cac3a5aa86ef8768
[1055000] SCOREBOARD MATCH: wdata passthrough beat=4 expected = e8446fa323362046, actual =e8446fa323362046
[1055000] SCOREBOARD MATCH: wdata passthrough beat=5 expected = fc02c325d3f914c6, actual =fc02c325d3f914c6
[1055000] SCOREBOARD MATCH: wdata passthrough beat=6 expected = dae89c2ef42b800b, actual =dae89c2ef42b800b
[1055000] SCOREBOARD MATCH: wdata passthrough beat=7 expected = 9761a051c6c668cf, actual =9761a051c6c668cf
[1055000] SCOREBOARD MATCH: wdata passthrough beat=8 expected = 9abf7d95c32d0bd2, actual =9abf7d95c32d0bd2
[1055000] SCOREBOARD MATCH: wdata passthrough beat=9 expected = b7588bdd13646377, actual =b7588bdd13646377
[1055000] SCOREBOARD MATCH: wdata passthrough beat=10 expected = da2acc46f5a819c4, actual =da2acc46f5a819c4
[1055000] SCOREBOARD MATCH: wdata passthrough beat=11 expected = 38d52596ceba2c2f, actual =38d52596ceba2c2f
[1055000] SCOREBOARD MATCH: wdata passthrough beat=12 expected = e21e8fa6f4ea49dc, actual =e21e8fa6f4ea49dc
[1055000] SCOREBOARD MATCH: wdata passthrough beat=13 expected = ea9263a0f02db173, actual =ea9263a0f02db173
[1055000] SCOREBOARD MATCH: wdata passthrough beat=14 expected = bee7dda2bc495bec, actual =bee7dda2bc495bec
[1055000] SCOREBOARD MATCH: wdata passthrough beat=15 expected = b133a5c823678936, actual =b133a5c823678936
[1055000] SCOREBOARD MATCH: wdata passthrough beat=16 expected = 93953aa9a1066d48, actual =93953aa9a1066d48
[1055000] SCOREBOARD MATCH: wdata passthrough beat=17 expected = dd4fc9359bc60968, actual =dd4fc9359bc60968
[1055000] SCOREBOARD MATCH: wdata passthrough beat=18 expected = bf2d929ed27d184c, actual =bf2d929ed27d184c
[1055000] SCOREBOARD MATCH: wdata passthrough beat=19 expected = f38385948e836efd, actual =f38385948e836efd
[1055000] SCOREBOARD MATCH: wdata passthrough beat=20 expected = 2a497866d2c2cd48, actual =2a497866d2c2cd48
[1055000] SCOREBOARD MATCH: wdata passthrough beat=21 expected = 253fe594d0d34ec9, actual =253fe594d0d34ec9
[1055000] SCOREBOARD MATCH: wdata passthrough beat=22 expected = df56bdc7e9770b04, actual =df56bdc7e9770b04
[1055000] SCOREBOARD MATCH: wdata passthrough beat=23 expected = bc39d84c98c36b28, actual =bc39d84c98c36b28
[1055000] SCOREBOARD MATCH: wdata passthrough beat=24 expected = e996b9f209a0362d, actual =e996b9f209a0362d
[1055000] SCOREBOARD MATCH: wdata passthrough beat=25 expected = f3174131e179bde0, actual =f3174131e179bde0
[1055000] SCOREBOARD MATCH: wdata passthrough beat=26 expected = fa3d2909c8ed77b9, actual =fa3d2909c8ed77b9
[1055000] SCOREBOARD MATCH: wdata passthrough beat=27 expected = d28dade62f51197e, actual =d28dade62f51197e
[1055000] SCOREBOARD MATCH: wdata passthrough beat=28 expected = 90cad75ee3d3e2fb, actual =90cad75ee3d3e2fb
[1055000] SCOREBOARD MATCH: wdata passthrough beat=29 expected = 2cc15ab4c5a4ef17, actual =2cc15ab4c5a4ef17
[1055000] SCOREBOARD MATCH: wdata passthrough beat=30 expected = f4f608958b080067, actual =f4f608958b080067
[1055000] SCOREBOARD MATCH: wdata passthrough beat=31 expected = eedbe362ff4f089a, actual =eedbe362ff4f089a
[1055000] SCOREBOARD MATCH: wdata passthrough beat=32 expected = c4f3f7b105c0dff4, actual =c4f3f7b105c0dff4
[1055000] SCOREBOARD MATCH: wdata passthrough beat=33 expected = 90c8e05b9b9d3e16, actual =90c8e05b9b9d3e16
[1055000] SCOREBOARD MATCH: wdata passthrough beat=34 expected = 9aec46b039ea0047, actual =9aec46b039ea0047
[1055000] SCOREBOARD MATCH: wdata passthrough beat=35 expected = 3faae03bffa4c3be, actual =3faae03bffa4c3be
[1055000] SCOREBOARD MATCH: wdata passthrough beat=36 expected = 9b4201d4dfe03e62, actual =9b4201d4dfe03e62
[1055000] SCOREBOARD MATCH: wdata passthrough beat=37 expected = 19ca3ea9d073c096, actual =19ca3ea9d073c096
[1055000] SCOREBOARD MATCH: wdata passthrough beat=38 expected = d0188454362e4885, actual =d0188454362e4885
[1055000] SCOREBOARD MATCH: wdata passthrough beat=39 expected = 160e86e7d9751ee4, actual =160e86e7d9751ee4
[1055000] SCOREBOARD MATCH: wdata passthrough beat=40 expected = a9e8df7aeb5a8629, actual =a9e8df7aeb5a8629
[1055000] SCOREBOARD MATCH: wdata passthrough beat=41 expected = 2188ceae2fd8c590, actual =2188ceae2fd8c590
[1055000] SCOREBOARD MATCH: wdata passthrough beat=42 expected = 94de474fa0163cf, actual =94de474fa0163cf
[1055000] SCOREBOARD MATCH: wdata passthrough beat=43 expected = e55be9f837975595, actual =e55be9f837975595
[1055000] SCOREBOARD MATCH: wdata passthrough beat=44 expected = e7701b25b336c3ee, actual =e7701b25b336c3ee
[1055000] SCOREBOARD MATCH: wdata passthrough beat=45 expected = ad3827bd06e4b8a6, actual =ad3827bd06e4b8a6
[1055000] SCOREBOARD MATCH: wdata passthrough beat=46 expected = 3e7c0e3bf0bdff99, actual =3e7c0e3bf0bdff99
[1055000] SCOREBOARD MATCH: wdata passthrough beat=47 expected = a3f4c387929411b5, actual =a3f4c387929411b5
[1055000] SCOREBOARD MATCH: wdata passthrough beat=48 expected = 9978ca5b25ec2960, actual =9978ca5b25ec2960
[1055000] SCOREBOARD MATCH: wdata passthrough beat=49 expected = 16aa28f9d12ceb45, actual =16aa28f9d12ceb45
[1055000] SCOREBOARD MATCH: wdata passthrough beat=50 expected = e3c0fcfad7f4d896, actual =e3c0fcfad7f4d896
[1055000] SCOREBOARD MATCH: wdata passthrough beat=51 expected = fde101f6ba9eec80, actual =fde101f6ba9eec80
[1055000] SCOREBOARD MATCH: wdata passthrough beat=52 expected = 8bcbd7c5fd39c756, actual =8bcbd7c5fd39c756
[1055000] SCOREBOARD MATCH: wdata passthrough beat=53 expected = d52e9fec948b2aef, actual =d52e9fec948b2aef
[1055000] SCOREBOARD MATCH: wdata passthrough beat=54 expected = cf2a1770ef8cd4c0, actual =cf2a1770ef8cd4c0
[1055000] SCOREBOARD MATCH: wdata passthrough beat=55 expected = ecc69c16d30fa1e3, actual =ecc69c16d30fa1e3
[1055000] SCOREBOARD MATCH: wdata passthrough beat=56 expected = e79accd2daf5ef35, actual =e79accd2daf5ef35
[1055000] SCOREBOARD MATCH: wdata passthrough beat=57 expected = ca82c3f5c1f53c02, actual =ca82c3f5c1f53c02
[1055000] SCOREBOARD MATCH: wdata passthrough beat=58 expected = 9504dde5b6c4e442, actual =9504dde5b6c4e442
[1055000] SCOREBOARD MATCH: wdata passthrough beat=59 expected = 11bad378b749600b, actual =11bad378b749600b
[1055000] SCOREBOARD MATCH: wdata passthrough beat=60 expected = f93e9c0efc9faab8, actual =f93e9c0efc9faab8
[1055000] SCOREBOARD MATCH: wdata passthrough beat=61 expected = b3648efadc3d976d, actual =b3648efadc3d976d
[1055000] SCOREBOARD MATCH: wdata passthrough beat=62 expected = 1386f7798e4379f3, actual =1386f7798e4379f3
[1055000] SCOREBOARD MATCH: wdata passthrough beat=63 expected = 8ae324abc51f6272, actual =8ae324abc51f6272
[1055000] SCOREBOARD MATCH: wdata passthrough beat=64 expected = 215cf9e00cc59387, actual =215cf9e00cc59387
[1055000] SCOREBOARD MATCH: wdata passthrough beat=65 expected = 9b090d7a3e47b3a6, actual =9b090d7a3e47b3a6
[1055000] SCOREBOARD MATCH: wdata passthrough beat=66 expected = 8367161834e3f159, actual =8367161834e3f159
[1055000] SCOREBOARD MATCH: wdata passthrough beat=67 expected = c1a984e025ec3226, actual =c1a984e025ec3226
[1055000] SCOREBOARD MATCH: wdata passthrough beat=68 expected = e433e5cca4c40ff8, actual =e433e5cca4c40ff8
[1055000] SCOREBOARD MATCH: wdata passthrough beat=69 expected = d9a80151dcb2925a, actual =d9a80151dcb2925a
[1055000] SCOREBOARD MATCH: wdata passthrough beat=70 expected = 829ec480e79afbe4, actual =829ec480e79afbe4
[1055000] SCOREBOARD MATCH: wdata passthrough beat=71 expected = c5f0bdd9b518631, actual =c5f0bdd9b518631
[1055000] SCOREBOARD MATCH: wdata passthrough beat=72 expected = f804188ce6d2aa4c, actual =f804188ce6d2aa4c
[1055000] SCOREBOARD MATCH: wdata passthrough beat=73 expected = ce6da631e6070d2e, actual =ce6da631e6070d2e
[1055000] SCOREBOARD MATCH: wdata passthrough beat=74 expected = 1589360faa2dd0c, actual =1589360faa2dd0c
[1055000] SCOREBOARD MATCH: wdata passthrough beat=75 expected = e1758759daccb20e, actual =e1758759daccb20e
[1055000] SCOREBOARD MATCH: wdata passthrough beat=76 expected = c0d3bf3cf95cabec, actual =c0d3bf3cf95cabec
[1055000] SCOREBOARD MATCH: wdata passthrough beat=77 expected = f3ff88f82fe32d8a, actual =f3ff88f82fe32d8a
[1055000] SCOREBOARD MATCH: wdata passthrough beat=78 expected = aafdf98c22c529c, actual =aafdf98c22c529c
[1055000] SCOREBOARD MATCH: wdata passthrough beat=79 expected = bb88fe88d5751051, actual =bb88fe88d5751051
[1055000] SCOREBOARD MATCH: wdata passthrough beat=80 expected = 85583ddbcb839ed4, actual =85583ddbcb839ed4
[1055000] SCOREBOARD MATCH: wdata passthrough beat=81 expected = daff1712f888781, actual =daff1712f888781
[1055000] SCOREBOARD MATCH: wstrb size check expected = 52, actual =52
[1055000] SCOREBOARD MATCH: wstrb passthrough beat=0 expected = 73, actual =73
[1055000] SCOREBOARD MATCH: wstrb passthrough beat=1 expected = d2, actual =d2
[1055000] SCOREBOARD MATCH: wstrb passthrough beat=2 expected = f9, actual =f9
[1055000] SCOREBOARD MATCH: wstrb passthrough beat=3 expected = 48, actual =48
[1055000] SCOREBOARD MATCH: wstrb passthrough beat=4 expected = ae, actual =ae
[1055000] SCOREBOARD MATCH: wstrb passthrough beat=5 expected = 7a, actual =7a
[1055000] SCOREBOARD MATCH: wstrb passthrough beat=6 expected = b9, actual =b9
[1055000] SCOREBOARD MATCH: wstrb passthrough beat=7 expected = 21, actual =21
[1055000] SCOREBOARD MATCH: wstrb passthrough beat=8 expected = 4d, actual =4d
[1055000] SCOREBOARD MATCH: wstrb passthrough beat=9 expected = b2, actual =b2
[1055000] SCOREBOARD MATCH: wstrb passthrough beat=10 expected = 69, actual =69
[1055000] SCOREBOARD MATCH: wstrb passthrough beat=11 expected = fb, actual =fb
[1055000] SCOREBOARD MATCH: wstrb passthrough beat=12 expected = 2d, actual =2d
[1055000] SCOREBOARD MATCH: wstrb passthrough beat=13 expected = 22, actual =22
[1055000] SCOREBOARD MATCH: wstrb passthrough beat=14 expected = 1c, actual =1c
[1055000] SCOREBOARD MATCH: wstrb passthrough beat=15 expected = 7a, actual =7a
[1055000] SCOREBOARD MATCH: wstrb passthrough beat=16 expected = d5, actual =d5
[1055000] SCOREBOARD MATCH: wstrb passthrough beat=17 expected = 86, actual =86
[1055000] SCOREBOARD MATCH: wstrb passthrough beat=18 expected = 75, actual =75
[1055000] SCOREBOARD MATCH: wstrb passthrough beat=19 expected = 2, actual =2
[1055000] SCOREBOARD MATCH: wstrb passthrough beat=20 expected = a8, actual =a8
[1055000] SCOREBOARD MATCH: wstrb passthrough beat=21 expected = 91, actual =91
[1055000] SCOREBOARD MATCH: wstrb passthrough beat=22 expected = 7c, actual =7c
[1055000] SCOREBOARD MATCH: wstrb passthrough beat=23 expected = 7d, actual =7d
[1055000] SCOREBOARD MATCH: wstrb passthrough beat=24 expected = 17, actual =17
[1055000] SCOREBOARD MATCH: wstrb passthrough beat=25 expected = f1, actual =f1
[1055000] SCOREBOARD MATCH: wstrb passthrough beat=26 expected = 7f, actual =7f
[1055000] SCOREBOARD MATCH: wstrb passthrough beat=27 expected = c0, actual =c0
[1055000] SCOREBOARD MATCH: wstrb passthrough beat=28 expected = 82, actual =82
[1055000] SCOREBOARD MATCH: wstrb passthrough beat=29 expected = fb, actual =fb
[1055000] SCOREBOARD MATCH: wstrb passthrough beat=30 expected = 3d, actual =3d
[1055000] SCOREBOARD MATCH: wstrb passthrough beat=31 expected = 9a, actual =9a
[1055000] SCOREBOARD MATCH: wstrb passthrough beat=32 expected = ec, actual =ec
[1055000] SCOREBOARD MATCH: wstrb passthrough beat=33 expected = bd, actual =bd
[1055000] SCOREBOARD MATCH: wstrb passthrough beat=34 expected = 5a, actual =5a
[1055000] SCOREBOARD MATCH: wstrb passthrough beat=35 expected = 6f, actual =6f
[1055000] SCOREBOARD MATCH: wstrb passthrough beat=36 expected = b8, actual =b8
[1055000] SCOREBOARD MATCH: wstrb passthrough beat=37 expected = 97, actual =97
[1055000] SCOREBOARD MATCH: wstrb passthrough beat=38 expected = 9, actual =9
[1055000] SCOREBOARD MATCH: wstrb passthrough beat=39 expected = a5, actual =a5
[1055000] SCOREBOARD MATCH: wstrb passthrough beat=40 expected = 54, actual =54
[1055000] SCOREBOARD MATCH: wstrb passthrough beat=41 expected = 63, actual =63
[1055000] SCOREBOARD MATCH: wstrb passthrough beat=42 expected = 14, actual =14
[1055000] SCOREBOARD MATCH: wstrb passthrough beat=43 expected = d, actual =d
[1055000] SCOREBOARD MATCH: wstrb passthrough beat=44 expected = fa, actual =fa
[1055000] SCOREBOARD MATCH: wstrb passthrough beat=45 expected = 1d, actual =1d
[1055000] SCOREBOARD MATCH: wstrb passthrough beat=46 expected = b2, actual =b2
[1055000] SCOREBOARD MATCH: wstrb passthrough beat=47 expected = 4f, actual =4f
[1055000] SCOREBOARD MATCH: wstrb passthrough beat=48 expected = 80, actual =80
[1055000] SCOREBOARD MATCH: wstrb passthrough beat=49 expected = c6, actual =c6
[1055000] SCOREBOARD MATCH: wstrb passthrough beat=50 expected = 5c, actual =5c
[1055000] SCOREBOARD MATCH: wstrb passthrough beat=51 expected = 7a, actual =7a
[1055000] SCOREBOARD MATCH: wstrb passthrough beat=52 expected = e3, actual =e3
[1055000] SCOREBOARD MATCH: wstrb passthrough beat=53 expected = e, actual =e
[1055000] SCOREBOARD MATCH: wstrb passthrough beat=54 expected = c9, actual =c9
[1055000] SCOREBOARD MATCH: wstrb passthrough beat=55 expected = 63, actual =63
[1055000] SCOREBOARD MATCH: wstrb passthrough beat=56 expected = d4, actual =d4
[1055000] SCOREBOARD MATCH: wstrb passthrough beat=57 expected = 25, actual =25
[1055000] SCOREBOARD MATCH: wstrb passthrough beat=58 expected = dd, actual =dd
[1055000] SCOREBOARD MATCH: wstrb passthrough beat=59 expected = b7, actual =b7
[1055000] SCOREBOARD MATCH: wstrb passthrough beat=60 expected = 33, actual =33
[1055000] SCOREBOARD MATCH: wstrb passthrough beat=61 expected = a7, actual =a7
[1055000] SCOREBOARD MATCH: wstrb passthrough beat=62 expected = 1a, actual =1a
[1055000] SCOREBOARD MATCH: wstrb passthrough beat=63 expected = 7, actual =7
[1055000] SCOREBOARD MATCH: wstrb passthrough beat=64 expected = cc, actual =cc
[1055000] SCOREBOARD MATCH: wstrb passthrough beat=65 expected = f7, actual =f7
[1055000] SCOREBOARD MATCH: wstrb passthrough beat=66 expected = be, actual =be
[1055000] SCOREBOARD MATCH: wstrb passthrough beat=67 expected = 0, actual =0
[1055000] SCOREBOARD MATCH: wstrb passthrough beat=68 expected = 9e, actual =9e
[1055000] SCOREBOARD MATCH: wstrb passthrough beat=69 expected = d8, actual =d8
[1055000] SCOREBOARD MATCH: wstrb passthrough beat=70 expected = 7, actual =7
[1055000] SCOREBOARD MATCH: wstrb passthrough beat=71 expected = 6b, actual =6b
[1055000] SCOREBOARD MATCH: wstrb passthrough beat=72 expected = d0, actual =d0
[1055000] SCOREBOARD MATCH: wstrb passthrough beat=73 expected = c6, actual =c6
[1055000] SCOREBOARD MATCH: wstrb passthrough beat=74 expected = 6b, actual =6b
[1055000] SCOREBOARD MATCH: wstrb passthrough beat=75 expected = 6e, actual =6e
[1055000] SCOREBOARD MATCH: wstrb passthrough beat=76 expected = 9e, actual =9e
[1055000] SCOREBOARD MATCH: wstrb passthrough beat=77 expected = 72, actual =72
[1055000] SCOREBOARD MATCH: wstrb passthrough beat=78 expected = d9, actual =d9
[1055000] SCOREBOARD MATCH: wstrb passthrough beat=79 expected = 6e, actual =6e
[1055000] SCOREBOARD MATCH: wstrb passthrough beat=80 expected = 38, actual =38
[1055000] SCOREBOARD MATCH: wstrb passthrough beat=81 expected = 44, actual =44
[1055000] SCOREBOARD MATCH: bresp passthrough expected = 0, actual =0
[1055000] SCOREBOARD MATCH: response routed to correct master (write) expected = 0, actual =0
[1055000] [SCOREBOARD-M] mst_id=0 s_id=0 awaddr=5e73d88 awid=1 awlen=81 awsize=4 awburst=1 wdata=[174f0fdef1f702ca 9356f1ce154e83b be71068d8cca2df cac3a5aa86ef8768 e8446fa323362046 fc02c325d3f914c6 dae89c2ef42b800b 9761a051c6c668cf 9abf7d95c32d0bd2 b7588bdd13646377 da2acc46f5a819c4 38d52596ceba2c2f e21e8fa6f4ea49dc ea9263a0f02db173 bee7dda2bc495bec b133a5c823678936 93953aa9a1066d48 dd4fc9359bc60968 bf2d929ed27d184c f38385948e836efd 2a497866d2c2cd48 253fe594d0d34ec9 df56bdc7e9770b04 bc39d84c98c36b28 e996b9f209a0362d f3174131e179bde0 fa3d2909c8ed77b9 d28dade62f51197e 90cad75ee3d3e2fb 2cc15ab4c5a4ef17 f4f608958b080067 eedbe362ff4f089a c4f3f7b105c0dff4 90c8e05b9b9d3e16 9aec46b039ea0047 3faae03bffa4c3be 9b4201d4dfe03e62 19ca3ea9d073c096 d0188454362e4885 160e86e7d9751ee4 a9e8df7aeb5a8629 2188ceae2fd8c590 94de474fa0163cf e55be9f837975595 e7701b25b336c3ee ad3827bd06e4b8a6 3e7c0e3bf0bdff99 a3f4c387929411b5 9978ca5b25ec2960 16aa28f9d12ceb45 e3c0fcfad7f4d896 fde101f6ba9eec80 8bcbd7c5fd39c756 d52e9fec948b2aef cf2a1770ef8cd4c0 ecc69c16d30fa1e3 e79accd2daf5ef35 ca82c3f5c1f53c02 9504dde5b6c4e442 11bad378b749600b f93e9c0efc9faab8 b3648efadc3d976d 1386f7798e4379f3 8ae324abc51f6272 215cf9e00cc59387 9b090d7a3e47b3a6 8367161834e3f159 c1a984e025ec3226 e433e5cca4c40ff8 d9a80151dcb2925a 829ec480e79afbe4 c5f0bdd9b518631 f804188ce6d2aa4c ce6da631e6070d2e 1589360faa2dd0c e1758759daccb20e c0d3bf3cf95cabec f3ff88f82fe32d8a aafdf98c22c529c bb88fe88d5751051 85583ddbcb839ed4 daff1712f888781 ] wstrb=[73 d2 f9 48 ae 7a b9 21 4d b2 69 fb 2d 22 1c 7a d5 86 75 2 a8 91 7c 7d 17 f1 7f c0 82 fb 3d 9a ec bd 5a 6f b8 97 9 a5 54 63 14 d fa 1d b2 4f 80 c6 5c 7a e3 e c9 63 d4 25 dd b7 33 a7 1a 7 cc f7 be 0 9e d8 7 6b d0 c6 6b 6e 9e 72 d9 6e 38 44 ] bresp=0 bid=1
[1055000] [SCOREBOARD-S] mst_id=0 s_id=0 awaddr=5e73d88 awid=1 awlen=81 awsize=4 awburst=1 wdata=[174f0fdef1f702ca 9356f1ce154e83b be71068d8cca2df cac3a5aa86ef8768 e8446fa323362046 fc02c325d3f914c6 dae89c2ef42b800b 9761a051c6c668cf 9abf7d95c32d0bd2 b7588bdd13646377 da2acc46f5a819c4 38d52596ceba2c2f e21e8fa6f4ea49dc ea9263a0f02db173 bee7dda2bc495bec b133a5c823678936 93953aa9a1066d48 dd4fc9359bc60968 bf2d929ed27d184c f38385948e836efd 2a497866d2c2cd48 253fe594d0d34ec9 df56bdc7e9770b04 bc39d84c98c36b28 e996b9f209a0362d f3174131e179bde0 fa3d2909c8ed77b9 d28dade62f51197e 90cad75ee3d3e2fb 2cc15ab4c5a4ef17 f4f608958b080067 eedbe362ff4f089a c4f3f7b105c0dff4 90c8e05b9b9d3e16 9aec46b039ea0047 3faae03bffa4c3be 9b4201d4dfe03e62 19ca3ea9d073c096 d0188454362e4885 160e86e7d9751ee4 a9e8df7aeb5a8629 2188ceae2fd8c590 94de474fa0163cf e55be9f837975595 e7701b25b336c3ee ad3827bd06e4b8a6 3e7c0e3bf0bdff99 a3f4c387929411b5 9978ca5b25ec2960 16aa28f9d12ceb45 e3c0fcfad7f4d896 fde101f6ba9eec80 8bcbd7c5fd39c756 d52e9fec948b2aef cf2a1770ef8cd4c0 ecc69c16d30fa1e3 e79accd2daf5ef35 ca82c3f5c1f53c02 9504dde5b6c4e442 11bad378b749600b f93e9c0efc9faab8 b3648efadc3d976d 1386f7798e4379f3 8ae324abc51f6272 215cf9e00cc59387 9b090d7a3e47b3a6 8367161834e3f159 c1a984e025ec3226 e433e5cca4c40ff8 d9a80151dcb2925a 829ec480e79afbe4 c5f0bdd9b518631 f804188ce6d2aa4c ce6da631e6070d2e 1589360faa2dd0c e1758759daccb20e c0d3bf3cf95cabec f3ff88f82fe32d8a aafdf98c22c529c bb88fe88d5751051 85583ddbcb839ed4 daff1712f888781 ] wstrb=[73 d2 f9 48 ae 7a b9 21 4d b2 69 fb 2d 22 1c 7a d5 86 75 2 a8 91 7c 7d 17 f1 7f c0 82 fb 3d 9a ec bd 5a 6f b8 97 9 a5 54 63 14 d fa 1d b2 4f 80 c6 5c 7a e3 e c9 63 d4 25 dd b7 33 a7 1a 7 cc f7 be 0 9e d8 7 6b d0 c6 6b 6e 9e 72 d9 6e 38 44 ] bresp=0 bid=1
[1055000] SCOREBOARD: Transaction 4 received. pass=236 fail=0
[1055000] ALL PASS. Total transactions: 4
[1065000] SLAVE 0 R_VALID_RDY Handshake beat=1 rlast=1
[1065000] [SLAVE MONITOR] READ mst_id=0 s_id=0 araddr=d1c7c30 arid=2 arlen=1 arsize=3 arburst=1 rid=[22] rresp=[00] rdata=[baadf00d12345678baadf00d12345678]
[1075000] MASTER 0 R_VALID_RDY Handshake beat=0 rlast=0
[1085000] [MASTER DRIVER] READ mst_id=0 s_id=0 araddr=d1c7c30 arid=2 arlen=1 arsize=3 arburst=1 rid=[22] rresp=[00] rdata=[baadf00d12345678baadf00d12345678]
[1085000] MASTER 0 R_VALID_RDY Handshake beat=1 rlast=1
[1085000] [MASTER MONITOR] READ mst_id=0 s_id=0 araddr=d1c7c30 arid=2 arlen=1 arsize=3 arburst=1 rid=[22] rresp=[00] rdata=[baadf00d12345678baadf00d12345678]
[1085000] SCOREBOARD MATCH: decode_err expected = 0, actual =0
[1085000] SCOREBOARD MATCH: slave_id expected = 0, actual =0
[1085000] SCOREBOARD MATCH: araddr passthrough expected = d1c7c30, actual =d1c7c30
[1085000] SCOREBOARD MATCH: arlen passthrough expected = 1, actual =1
[1085000] SCOREBOARD MATCH: arsize passthrough expected = 3, actual =3
[1085000] SCOREBOARD MATCH: arburst passthrough expected = 1, actual =1
[1085000] SCOREBOARD MATCH: rdata size check expected = 2, actual =2
[1085000] SCOREBOARD MATCH: rdata passthrough beat=0 expected = baadf00d12345678, actual =baadf00d12345678
[1085000] SCOREBOARD MATCH: rdata passthrough beat=1 expected = baadf00d12345678, actual =baadf00d12345678
[1085000] SCOREBOARD MATCH: rresp size check expected = 2, actual =2
[1085000] SCOREBOARD MATCH: rresp passthrough beat=0 expected = 0, actual =0
[1085000] SCOREBOARD MATCH: rresp passthrough beat=1 expected = 0, actual =0
[1085000] SCOREBOARD MATCH: response routed to correct master (read beat 0) expected = 0, actual =0
[1085000] SCOREBOARD MATCH: response routed to correct master (read beat 1) expected = 0, actual =0
[1085000] [SCOREBOARD-M] READ mst_id=0 s_id=0 araddr=d1c7c30 arid=2 arlen=1 arsize=3 arburst=1 rid=[22] rresp=[00] rdata=[baadf00d12345678baadf00d12345678]
[1085000] [SCOREBOARD-S] READ mst_id=0 s_id=0 araddr=d1c7c30 arid=2 arlen=1 arsize=3 arburst=1 rid=[22] rresp=[00] rdata=[baadf00d12345678baadf00d12345678]
[1085000] SCOREBOARD: Transaction 5 received. pass=250 fail=0
[1085000] SCOREBOARD: Expected 5 transactions completed, PASS=250 FAIL=0
[1085000] ALL PASS. Total transactions: 5
[1085000] ALL TRANSACTIONS MONITORED
$finish called at time : 1105 ns : File "/home/nashita/Desktop/practice/axi_xbar/tb/top/axi_tb_top.sv" Line 220
exit
INFO: xsimkernel Simulation Memory Usage: 289464 KB (Peak: 337864 KB), Simulation CPU Usage: 1200 ms
INFO: [Common 17-206] Exiting xsim at Thu Sep 10 18:13:01 2026...
