#-----------------------------------------------------------
# xsim v2025.2 (64-bit)
# SW Build 6299465 on Fri Nov 14 12:34:56 MST 2025
# IP Build 6300035 on Fri Nov 14 10:48:45 MST 2025
# SharedData Build 6298862 on Thu Nov 13 04:50:51 MST 2025
# Start of session at: Wed Sep  9 12:43:03 2026
# Process ID         : 1287558
# Current directory  : /home/nashita/Desktop/practice/axi_xbar/sim
# Command line       : xsim -log regress_results/BT_run6.log -mode tcl -source {xsim.dir/tb_top_snap/xsim_script.tcl}
# Log file           : /home/nashita/Desktop/practice/axi_xbar/sim/regress_results/BT_run6.log
# Journal file       : /home/nashita/Desktop/practice/axi_xbar/sim/xsim.jou
# Running On         : vlsi-vivado
# Platform           : Ubuntu
# Operating System   : Ubuntu 24.04.4 LTS
# Processor Detail   : Intel(R) Core(TM) i5-10400 CPU @ 2.90GHz
# CPU Frequency      : 4000.078 MHz
# CPU Physical cores : 6
# CPU Logical cores  : 12
# Host memory        : 41875 MB
# Swap memory        : 27648 MB
# Total Virtual      : 69524 MB
# Available Virtual  : 62685 MB
#-----------------------------------------------------------
source xsim.dir/tb_top_snap/xsim_script.tcl
# xsim {tb_top_snap} -testplusarg BT -autoloadwcfg -runall -sv_seed 7
Time resolution is 1 ps
run -all
[0] RUNNING BASE TEST
[0] INSIDE THE BASE TEST CONSTRUCTOR
[0] ENV: before agent
[0] SLAVE CONSTRUCTED
[0] MASTER MONITOR CONSTRUCTED
[0] MASTER MONITOR CONSTRUCTED
[0] SLAVE MONITOR CONSTRUCTED
[0] SLAVE MONITOR CONSTRUCTED
[0] ARB MONITOR CONSTRUCTED
GENERATOR CONSTRUCTED
[0] ENV: after agent
[0] ENV: before scoreboard
[0] ENV: after scoreboard
[15000] [SEQUENCER] READ mst_id=0 s_id=0 araddr=10ec3140 arid=0 arlen=1 arsize=3 arburst=1 rid=[] rresp=[] rdata=[]
[15000] [SEQUENCER] READ mst_id=1 s_id=0 araddr=c0b28d8 arid=0 arlen=1 arsize=3 arburst=1 rid=[] rresp=[] rdata=[]
[15000] [SEQUENCER] mst_id=0 s_id=0 awaddr=13c319d8 awid=11 awlen=1 awsize=3 awburst=1 wdata=[] wstrb=[] bresp=0 bid=0
[15000] [SEQUENCER] mst_id=0 s_id=0 awaddr=1073eb10 awid=1100 awlen=1 awsize=3 awburst=1 wdata=[] wstrb=[] bresp=0 bid=0
[15000] [SEQUENCER] READ mst_id=0 s_id=0 araddr=166da1b0 arid=3 arlen=1 arsize=3 arburst=1 rid=[] rresp=[] rdata=[]
[15000] [SEQUENCER] mst_id=1 s_id=0 awaddr=97994a8 awid=0 awlen=1 awsize=3 awburst=1 wdata=[] wstrb=[] bresp=0 bid=0
[15000] [SEQUENCER] READ mst_id=0 s_id=0 araddr=1d2f1d8 arid=4 arlen=1 arsize=3 arburst=1 rid=[] rresp=[] rdata=[]
[15000] [SEQUENCER] READ mst_id=1 s_id=0 araddr=14f872b0 arid=2 arlen=1 arsize=3 arburst=1 rid=[] rresp=[] rdata=[]
[15000] [SEQUENCER] READ mst_id=1 s_id=0 araddr=1692328 arid=3 arlen=1 arsize=3 arburst=1 rid=[] rresp=[] rdata=[]
[15000] [SEQUENCER] mst_id=1 s_id=0 awaddr=fe22508 awid=1010 awlen=1 awsize=3 awburst=1 wdata=[] wstrb=[] bresp=0 bid=0
[15000] MASTER_DRIVER0 received transaction, op=AXI_READ
[15000] MASTER_DRIVER1 received transaction, op=AXI_READ
[35000] MASTER_DRIVER0 received transaction, op=AXI_WRITE
[35000] MASTER_DRIVER1 received transaction, op=AXI_WRITE
[45000] ARB MONITOR: slave=0 m0_req=0 m1_req=1 winner=1
[45000] ARB MONITOR: slave=1 m0_req=1 m1_req=0 winner=0
[45000] AXI S0_ARVALID_RDY HANDSHAKE
[45000] MEMORY READ MISS beat=0 addr=10ec3140 -> default data id=0
[45000] AXI S0_ARVALID_RDY HANDSHAKE
[45000] MEMORY READ MISS beat=0 addr=c0b28d8 -> default data id=16
[55000] MEMORY READ MISS beat=1 addr=c0b28e0 -> default data id=16
[55000] MEMORY READ MISS beat=1 addr=10ec3148 -> default data id=0
[55000] SLAVE 0 R_VALID_RDY Handshake beat=0 rlast=0
[55000] SLAVE 1 R_VALID_RDY Handshake beat=0 rlast=0
[55000] MASTER 1 AW_VALID_RDY Handshake
[55000] MASTER 0 AW_VALID_RDY Handshake
[65000] ARB MONITOR: slave=0 m0_req=0 m1_req=1 winner=1
[65000] ARB MONITOR: slave=1 m0_req=1 m1_req=0 winner=0
[65000] SLAVE 1 R_VALID_RDY Handshake beat=1 rlast=1
[65000] [SLAVE MONITOR] READ mst_id=0 s_id=1 araddr=10ec3140 arid=0 arlen=1 arsize=3 arburst=1 rid=[00] rresp=[00] rdata=[baadf00d12345678baadf00d12345678]
[65000] SLAVE 0 R_VALID_RDY Handshake beat=1 rlast=1
[65000] [SLAVE MONITOR] READ mst_id=1 s_id=0 araddr=c0b28d8 arid=0 arlen=1 arsize=3 arburst=1 rid=[1010] rresp=[00] rdata=[baadf00d12345678baadf00d12345678]
[65000] AXI S1_AWVALID_RDY HANDSHAKE
[65000] AXI S0_AWVALID_RDY HANDSHAKE
[75000] MASTER 1 R_VALID_RDY Handshake beat=0 rlast=0
[75000] MASTER 1 W_VALID_RDY Handshake beat=0 wlast=0
[75000] MASTER 0 R_VALID_RDY Handshake beat=0 rlast=0
[75000] MASTER 0 W_VALID_RDY Handshake beat=0 wlast=0
[85000] [MASTER DRIVER] READ mst_id=1 s_id=0 araddr=c0b28d8 arid=0 arlen=1 arsize=3 arburst=1 rid=[00] rresp=[00] rdata=[baadf00d12345678baadf00d12345678]
[85000] MASTER_DRIVER1 received transaction, op=AXI_READ
[85000] [MASTER DRIVER] READ mst_id=0 s_id=0 araddr=10ec3140 arid=0 arlen=1 arsize=3 arburst=1 rid=[00] rresp=[00] rdata=[baadf00d12345678baadf00d12345678]
[85000] MASTER_DRIVER0 received transaction, op=AXI_WRITE
[85000] MASTER 0 W_VALID_RDY Handshake beat=1 wlast=1
[85000] MASTER 0 R_VALID_RDY Handshake beat=1 rlast=1
[85000] [MASTER MONITOR] READ mst_id=0 s_id=1 araddr=10ec3140 arid=0 arlen=1 arsize=3 arburst=1 rid=[00] rresp=[00] rdata=[baadf00d12345678baadf00d12345678]
[85000] MASTER 1 W_VALID_RDY Handshake beat=1 wlast=1
[85000] MASTER 1 R_VALID_RDY Handshake beat=1 rlast=1
[85000] [MASTER MONITOR] READ mst_id=1 s_id=0 araddr=c0b28d8 arid=0 arlen=1 arsize=3 arburst=1 rid=[00] rresp=[00] rdata=[baadf00d12345678baadf00d12345678]
[85000] S1 MEMORY WRITE beat=0 addr=13c319d8 data=0000000000000000 id=03
[85000] AXI S0_WVALID_RDY HANDSHAKE
[85000] S0 MEMORY WRITE beat=0 addr=097994a8 data=0000000000000000 id=10
[85000] SCOREBOARD MATCH: decode_err expected = 0, actual =0
[85000] SCOREBOARD MATCH: slave_id expected = 1, actual =1
[85000] SCOREBOARD MATCH: araddr passthrough expected = 10ec3140, actual =10ec3140
[85000] SCOREBOARD MATCH: arlen passthrough expected = 1, actual =1
[85000] SCOREBOARD MATCH: arsize passthrough expected = 3, actual =3
[85000] SCOREBOARD MATCH: arburst passthrough expected = 1, actual =1
[85000] SCOREBOARD MATCH: rdata size check expected = 2, actual =2
[85000] SCOREBOARD MATCH: rdata passthrough beat=0 expected = baadf00d12345678, actual =baadf00d12345678
[85000] SCOREBOARD MATCH: rdata passthrough beat=1 expected = baadf00d12345678, actual =baadf00d12345678
[85000] SCOREBOARD MATCH: rresp size check expected = 2, actual =2
[85000] SCOREBOARD MATCH: rresp passthrough beat=0 expected = 0, actual =0
[85000] SCOREBOARD MATCH: rresp passthrough beat=1 expected = 0, actual =0
[85000] SCOREBOARD MATCH: response routed to correct master (read beat 0) expected = 0, actual =0
[85000] SCOREBOARD MATCH: response routed to correct master (read beat 1) expected = 0, actual =0
[85000] [SCOREBOARD-M] READ mst_id=0 s_id=1 araddr=10ec3140 arid=0 arlen=1 arsize=3 arburst=1 rid=[00] rresp=[00] rdata=[baadf00d12345678baadf00d12345678]
[85000] [SCOREBOARD-S] READ mst_id=0 s_id=1 araddr=10ec3140 arid=0 arlen=1 arsize=3 arburst=1 rid=[00] rresp=[00] rdata=[baadf00d12345678baadf00d12345678]
[85000] SCOREBOARD: Transaction 1 received. pass=14 fail=0
[85000] ALL PASS. Total transactions: 1
[85000] SCOREBOARD MATCH: decode_err expected = 0, actual =0
[85000] SCOREBOARD MATCH: slave_id expected = 0, actual =0
[85000] SCOREBOARD MATCH: araddr passthrough expected = c0b28d8, actual =c0b28d8
[85000] SCOREBOARD MATCH: arlen passthrough expected = 1, actual =1
[85000] SCOREBOARD MATCH: arsize passthrough expected = 3, actual =3
[85000] SCOREBOARD MATCH: arburst passthrough expected = 1, actual =1
[85000] SCOREBOARD MATCH: rdata size check expected = 2, actual =2
[85000] SCOREBOARD MATCH: rdata passthrough beat=0 expected = baadf00d12345678, actual =baadf00d12345678
[85000] SCOREBOARD MATCH: rdata passthrough beat=1 expected = baadf00d12345678, actual =baadf00d12345678
[85000] SCOREBOARD MATCH: rresp size check expected = 2, actual =2
[85000] SCOREBOARD MATCH: rresp passthrough beat=0 expected = 0, actual =0
[85000] SCOREBOARD MATCH: rresp passthrough beat=1 expected = 0, actual =0
[85000] SCOREBOARD MATCH: response routed to correct master (read beat 0) expected = 1, actual =1
[85000] SCOREBOARD MATCH: response routed to correct master (read beat 1) expected = 1, actual =1
[85000] [SCOREBOARD-M] READ mst_id=1 s_id=0 araddr=c0b28d8 arid=0 arlen=1 arsize=3 arburst=1 rid=[00] rresp=[00] rdata=[baadf00d12345678baadf00d12345678]
[85000] [SCOREBOARD-S] READ mst_id=1 s_id=0 araddr=c0b28d8 arid=0 arlen=1 arsize=3 arburst=1 rid=[1010] rresp=[00] rdata=[baadf00d12345678baadf00d12345678]
[85000] SCOREBOARD: Transaction 2 received. pass=28 fail=0
[85000] ALL PASS. Total transactions: 2
[95000] AXI S0_WVALID_RDY HANDSHAKE
[95000] S0 MEMORY WRITE beat=1 addr=097994b0 data=0000000000000000 id=10
[95000] S1 MEMORY WRITE beat=1 addr=13c319e0 data=0000000000000000 id=03
[105000] MASTER_DRIVER1 received transaction, op=AXI_READ
[105000] MASTER 0 AW_VALID_RDY Handshake
[105000] SLAVE1 sent B resp, id=3
[105000] SLAVE0 sent B resp, id=0
[115000] AXI S1_AWVALID_RDY HANDSHAKE
[115000] AXI S0_ARVALID_RDY HANDSHAKE
[115000] MEMORY READ MISS beat=0 addr=14f872b0 -> default data id=18
[115000] [SLAVE MONITOR] mst_id=1 s_id=0 awaddr=97994a8 awid=0 awlen=1 awsize=3 awburst=1 wdata=[0 0 ] wstrb=[0 0 ] bresp=0 bid=10000
[115000] [SLAVE MONITOR] mst_id=0 s_id=1 awaddr=13c319d8 awid=11 awlen=1 awsize=3 awburst=1 wdata=[0 0 ] wstrb=[0 0 ] bresp=0 bid=11
[115000] ARB MONITOR: slave=1 m0_req=1 m1_req=0 winner=0
[115000] ARB MONITOR: slave=1 m0_req=0 m1_req=1 winner=1
[125000] MASTER_DRIVER1 received transaction, op=AXI_WRITE
[125000] MASTER 1 RECEIVED BRESP. BRESP=0
[125000] [MASTER DRIVER] mst_id=1 s_id=0 awaddr=97994a8 awid=0 awlen=1 awsize=3 awburst=1 wdata=[] wstrb=[] bresp=0 bid=0
[125000] MASTER 0 RECEIVED BRESP. BRESP=0
[125000] [MASTER DRIVER] mst_id=0 s_id=0 awaddr=13c319d8 awid=11 awlen=1 awsize=3 awburst=1 wdata=[] wstrb=[] bresp=0 bid=11
[125000] MASTER 0 W_VALID_RDY Handshake beat=0 wlast=0
[125000] MASTER 0 B_VALID_RDY Handshake
[125000] [MASTER MONITOR] mst_id=0 s_id=1 awaddr=13c319d8 awid=11 awlen=1 awsize=3 awburst=1 wdata=[0 0 ] wstrb=[0 0 ] bresp=0 bid=11
[125000] MASTER 1 B_VALID_RDY Handshake
[125000] [MASTER MONITOR] mst_id=1 s_id=0 awaddr=97994a8 awid=0 awlen=1 awsize=3 awburst=1 wdata=[0 0 ] wstrb=[0 0 ] bresp=0 bid=0
[125000] SLAVE 1 R_VALID_RDY Handshake beat=0 rlast=0
[125000] MEMORY READ MISS beat=1 addr=14f872b8 -> default data id=18
[125000] SCOREBOARD MATCH: decode_err expected = 0, actual =0
[125000] SCOREBOARD MATCH: slave_id expected = 1, actual =1
[125000] SCOREBOARD MATCH: awaddr passthrough expected = 13c319d8, actual =13c319d8
[125000] SCOREBOARD MATCH: awlen passthrough expected = 1, actual =1
[125000] SCOREBOARD MATCH: awsize passthrough expected = 3, actual =3
[125000] SCOREBOARD MATCH: awburst passthrough expected = 1, actual =1
[125000] SCOREBOARD MATCH: wdata size check expected = 2, actual =2
[125000] SCOREBOARD MATCH: wdata passthrough beat=0 expected = 0, actual =0
[125000] SCOREBOARD MATCH: wdata passthrough beat=1 expected = 0, actual =0
[125000] SCOREBOARD MATCH: wstrb size check expected = 2, actual =2
[125000] SCOREBOARD MATCH: wstrb passthrough beat=0 expected = 0, actual =0
[125000] SCOREBOARD MATCH: wstrb passthrough beat=1 expected = 0, actual =0
[125000] SCOREBOARD MATCH: bresp passthrough expected = 0, actual =0
[125000] SCOREBOARD MATCH: response routed to correct master (write) expected = 0, actual =0
[125000] [SCOREBOARD-M] mst_id=0 s_id=1 awaddr=13c319d8 awid=11 awlen=1 awsize=3 awburst=1 wdata=[0 0 ] wstrb=[0 0 ] bresp=0 bid=11
[125000] [SCOREBOARD-S] mst_id=0 s_id=1 awaddr=13c319d8 awid=11 awlen=1 awsize=3 awburst=1 wdata=[0 0 ] wstrb=[0 0 ] bresp=0 bid=11
[125000] SCOREBOARD: Transaction 3 received. pass=42 fail=0
[125000] ALL PASS. Total transactions: 3
[125000] SCOREBOARD MATCH: decode_err expected = 0, actual =0
[125000] SCOREBOARD MATCH: slave_id expected = 0, actual =0
[125000] SCOREBOARD MATCH: awaddr passthrough expected = 97994a8, actual =97994a8
[125000] SCOREBOARD MATCH: awlen passthrough expected = 1, actual =1
[125000] SCOREBOARD MATCH: awsize passthrough expected = 3, actual =3
[125000] SCOREBOARD MATCH: awburst passthrough expected = 1, actual =1
[125000] SCOREBOARD MATCH: wdata size check expected = 2, actual =2
[125000] SCOREBOARD MATCH: wdata passthrough beat=0 expected = 0, actual =0
[125000] SCOREBOARD MATCH: wdata passthrough beat=1 expected = 0, actual =0
[125000] SCOREBOARD MATCH: wstrb size check expected = 2, actual =2
[125000] SCOREBOARD MATCH: wstrb passthrough beat=0 expected = 0, actual =0
[125000] SCOREBOARD MATCH: wstrb passthrough beat=1 expected = 0, actual =0
[125000] SCOREBOARD MATCH: bresp passthrough expected = 0, actual =0
[125000] SCOREBOARD MATCH: response routed to correct master (write) expected = 1, actual =1
[125000] [SCOREBOARD-M] mst_id=1 s_id=0 awaddr=97994a8 awid=0 awlen=1 awsize=3 awburst=1 wdata=[0 0 ] wstrb=[0 0 ] bresp=0 bid=0
[125000] [SCOREBOARD-S] mst_id=1 s_id=0 awaddr=97994a8 awid=0 awlen=1 awsize=3 awburst=1 wdata=[0 0 ] wstrb=[0 0 ] bresp=0 bid=10000
[125000] SCOREBOARD: Transaction 4 received. pass=56 fail=0
[125000] ALL PASS. Total transactions: 4
[135000] S1 MEMORY WRITE beat=0 addr=1073eb10 data=0000000000000000 id=0c
[135000] AXI S0_ARVALID_RDY HANDSHAKE
[135000] MEMORY READ MISS beat=0 addr=1692328 -> default data id=19
[135000] SLAVE 1 R_VALID_RDY Handshake beat=1 rlast=1
[135000] [SLAVE MONITOR] READ mst_id=1 s_id=1 araddr=14f872b0 arid=2 arlen=1 arsize=3 arburst=1 rid=[1212] rresp=[00] rdata=[baadf00d12345678baadf00d12345678]
[135000] ARB MONITOR: slave=0 m0_req=0 m1_req=1 winner=1
[135000] MASTER 0 W_VALID_RDY Handshake beat=1 wlast=1
[135000] MASTER_DRIVER0 received transaction, op=AXI_READ
[145000] MASTER 1 AW_VALID_RDY Handshake
[145000] MASTER 1 R_VALID_RDY Handshake beat=0 rlast=0
[145000] SLAVE 0 R_VALID_RDY Handshake beat=0 rlast=0
[145000] MEMORY READ MISS beat=1 addr=1692330 -> default data id=19
[145000] S1 MEMORY WRITE beat=1 addr=1073eb18 data=0000000000000000 id=0c
[155000] AXI S0_AWVALID_RDY HANDSHAKE
[155000] SLAVE1 sent B resp, id=12
[155000] SLAVE 0 R_VALID_RDY Handshake beat=1 rlast=1
[155000] [SLAVE MONITOR] READ mst_id=1 s_id=0 araddr=1692328 arid=3 arlen=1 arsize=3 arburst=1 rid=[1313] rresp=[00] rdata=[baadf00d12345678baadf00d12345678]
[155000] [SLAVE MONITOR] mst_id=0 s_id=1 awaddr=1073eb10 awid=1100 awlen=1 awsize=3 awburst=1 wdata=[0 0 ] wstrb=[0 0 ] bresp=0 bid=1100
[155000] ARB MONITOR: slave=0 m0_req=0 m1_req=1 winner=1
[155000] MASTER 1 R_VALID_RDY Handshake beat=1 rlast=1
[155000] [MASTER MONITOR] READ mst_id=1 s_id=1 araddr=14f872b0 arid=2 arlen=1 arsize=3 arburst=1 rid=[22] rresp=[00] rdata=[baadf00d12345678baadf00d12345678]
[155000] MASTER_DRIVER0 received transaction, op=AXI_READ
[155000] [MASTER DRIVER] READ mst_id=1 s_id=0 araddr=14f872b0 arid=2 arlen=1 arsize=3 arburst=1 rid=[22] rresp=[00] rdata=[baadf00d12345678baadf00d12345678]
[155000] SCOREBOARD MATCH: decode_err expected = 0, actual =0
[155000] SCOREBOARD MATCH: slave_id expected = 1, actual =1
[155000] SCOREBOARD MATCH: araddr passthrough expected = 14f872b0, actual =14f872b0
[155000] SCOREBOARD MATCH: arlen passthrough expected = 1, actual =1
[155000] SCOREBOARD MATCH: arsize passthrough expected = 3, actual =3
[155000] SCOREBOARD MATCH: arburst passthrough expected = 1, actual =1
[155000] SCOREBOARD MATCH: rdata size check expected = 2, actual =2
[155000] SCOREBOARD MATCH: rdata passthrough beat=0 expected = baadf00d12345678, actual =baadf00d12345678
[155000] SCOREBOARD MATCH: rdata passthrough beat=1 expected = baadf00d12345678, actual =baadf00d12345678
[155000] SCOREBOARD MATCH: rresp size check expected = 2, actual =2
[155000] SCOREBOARD MATCH: rresp passthrough beat=0 expected = 0, actual =0
[155000] SCOREBOARD MATCH: rresp passthrough beat=1 expected = 0, actual =0
[155000] SCOREBOARD MATCH: response routed to correct master (read beat 0) expected = 1, actual =1
[155000] SCOREBOARD MATCH: response routed to correct master (read beat 1) expected = 1, actual =1
[155000] [SCOREBOARD-M] READ mst_id=1 s_id=1 araddr=14f872b0 arid=2 arlen=1 arsize=3 arburst=1 rid=[22] rresp=[00] rdata=[baadf00d12345678baadf00d12345678]
[155000] [SCOREBOARD-S] READ mst_id=1 s_id=1 araddr=14f872b0 arid=2 arlen=1 arsize=3 arburst=1 rid=[1212] rresp=[00] rdata=[baadf00d12345678baadf00d12345678]
[155000] SCOREBOARD: Transaction 5 received. pass=70 fail=0
[155000] ALL PASS. Total transactions: 5
[165000] MASTER 1 W_VALID_RDY Handshake beat=0 wlast=0
[165000] ARB MONITOR: slave=1 m0_req=1 m1_req=0 winner=0
[165000] AXI S0_ARVALID_RDY HANDSHAKE
[165000] MEMORY READ MISS beat=0 addr=166da1b0 -> default data id=3
[175000] AXI S0_WVALID_RDY HANDSHAKE
[175000] S0 MEMORY WRITE beat=0 addr=0fe22508 data=0000000000000000 id=1a
[175000] MEMORY READ MISS beat=1 addr=166da1b8 -> default data id=3
[175000] SLAVE 1 R_VALID_RDY Handshake beat=0 rlast=0
[175000] MASTER 1 R_VALID_RDY Handshake beat=0 rlast=0
[175000] MASTER 1 W_VALID_RDY Handshake beat=1 wlast=1
[175000] MASTER 0 B_VALID_RDY Handshake
[175000] [MASTER MONITOR] mst_id=0 s_id=1 awaddr=1073eb10 awid=1100 awlen=1 awsize=3 awburst=1 wdata=[0 0 ] wstrb=[0 0 ] bresp=0 bid=1100
[175000] MASTER 0 RECEIVED BRESP. BRESP=0
[175000] [MASTER DRIVER] mst_id=0 s_id=0 awaddr=1073eb10 awid=1100 awlen=1 awsize=3 awburst=1 wdata=[] wstrb=[] bresp=0 bid=1100
[175000] SCOREBOARD MATCH: decode_err expected = 0, actual =0
[175000] SCOREBOARD MATCH: slave_id expected = 1, actual =1
[175000] SCOREBOARD MATCH: awaddr passthrough expected = 1073eb10, actual =1073eb10
[175000] SCOREBOARD MATCH: awlen passthrough expected = 1, actual =1
[175000] SCOREBOARD MATCH: awsize passthrough expected = 3, actual =3
[175000] SCOREBOARD MATCH: awburst passthrough expected = 1, actual =1
[175000] SCOREBOARD MATCH: wdata size check expected = 2, actual =2
[175000] SCOREBOARD MATCH: wdata passthrough beat=0 expected = 0, actual =0
[175000] SCOREBOARD MATCH: wdata passthrough beat=1 expected = 0, actual =0
[175000] SCOREBOARD MATCH: wstrb size check expected = 2, actual =2
[175000] SCOREBOARD MATCH: wstrb passthrough beat=0 expected = 0, actual =0
[175000] SCOREBOARD MATCH: wstrb passthrough beat=1 expected = 0, actual =0
[175000] SCOREBOARD MATCH: bresp passthrough expected = 0, actual =0
[175000] SCOREBOARD MATCH: response routed to correct master (write) expected = 0, actual =0
[175000] [SCOREBOARD-M] mst_id=0 s_id=1 awaddr=1073eb10 awid=1100 awlen=1 awsize=3 awburst=1 wdata=[0 0 ] wstrb=[0 0 ] bresp=0 bid=1100
[175000] [SCOREBOARD-S] mst_id=0 s_id=1 awaddr=1073eb10 awid=1100 awlen=1 awsize=3 awburst=1 wdata=[0 0 ] wstrb=[0 0 ] bresp=0 bid=1100
[175000] SCOREBOARD: Transaction 6 received. pass=84 fail=0
[175000] ALL PASS. Total transactions: 6
[185000] [MASTER DRIVER] READ mst_id=1 s_id=0 araddr=1692328 arid=3 arlen=1 arsize=3 arburst=1 rid=[33] rresp=[00] rdata=[baadf00d12345678baadf00d12345678]
[185000] MASTER 1 R_VALID_RDY Handshake beat=1 rlast=1
[185000] [MASTER MONITOR] READ mst_id=1 s_id=0 araddr=1692328 arid=3 arlen=1 arsize=3 arburst=1 rid=[33] rresp=[00] rdata=[baadf00d12345678baadf00d12345678]
[185000] ARB MONITOR: slave=0 m0_req=1 m1_req=0 winner=0
[185000] SLAVE 1 R_VALID_RDY Handshake beat=1 rlast=1
[185000] [SLAVE MONITOR] READ mst_id=0 s_id=1 araddr=166da1b0 arid=3 arlen=1 arsize=3 arburst=1 rid=[33] rresp=[00] rdata=[baadf00d12345678baadf00d12345678]
[185000] AXI S0_ARVALID_RDY HANDSHAKE
[185000] MEMORY READ MISS beat=0 addr=1d2f1d8 -> default data id=4
[185000] AXI S0_WVALID_RDY HANDSHAKE
[185000] S0 MEMORY WRITE beat=1 addr=0fe22510 data=0000000000000000 id=1a
[185000] SCOREBOARD MATCH: decode_err expected = 0, actual =0
[185000] SCOREBOARD MATCH: slave_id expected = 0, actual =0
[185000] SCOREBOARD MATCH: araddr passthrough expected = 1692328, actual =1692328
[185000] SCOREBOARD MATCH: arlen passthrough expected = 1, actual =1
[185000] SCOREBOARD MATCH: arsize passthrough expected = 3, actual =3
[185000] SCOREBOARD MATCH: arburst passthrough expected = 1, actual =1
[185000] SCOREBOARD MATCH: rdata size check expected = 2, actual =2
[185000] SCOREBOARD MATCH: rdata passthrough beat=0 expected = baadf00d12345678, actual =baadf00d12345678
[185000] SCOREBOARD MATCH: rdata passthrough beat=1 expected = baadf00d12345678, actual =baadf00d12345678
[185000] SCOREBOARD MATCH: rresp size check expected = 2, actual =2
[185000] SCOREBOARD MATCH: rresp passthrough beat=0 expected = 0, actual =0
[185000] SCOREBOARD MATCH: rresp passthrough beat=1 expected = 0, actual =0
[185000] SCOREBOARD MATCH: response routed to correct master (read beat 0) expected = 1, actual =1
[185000] SCOREBOARD MATCH: response routed to correct master (read beat 1) expected = 1, actual =1
[185000] [SCOREBOARD-M] READ mst_id=1 s_id=0 araddr=1692328 arid=3 arlen=1 arsize=3 arburst=1 rid=[33] rresp=[00] rdata=[baadf00d12345678baadf00d12345678]
[185000] [SCOREBOARD-S] READ mst_id=1 s_id=0 araddr=1692328 arid=3 arlen=1 arsize=3 arburst=1 rid=[1313] rresp=[00] rdata=[baadf00d12345678baadf00d12345678]
[185000] SCOREBOARD: Transaction 7 received. pass=98 fail=0
[185000] ALL PASS. Total transactions: 7
[195000] SLAVE0 sent B resp, id=10
[195000] MEMORY READ MISS beat=1 addr=1d2f1e0 -> default data id=4
[195000] [SLAVE MONITOR] mst_id=1 s_id=0 awaddr=fe22508 awid=1010 awlen=1 awsize=3 awburst=1 wdata=[0 0 ] wstrb=[0 0 ] bresp=0 bid=11010
[195000] SLAVE 0 R_VALID_RDY Handshake beat=0 rlast=0
[195000] MASTER 0 R_VALID_RDY Handshake beat=0 rlast=0
[205000] [MASTER DRIVER] READ mst_id=0 s_id=0 araddr=166da1b0 arid=3 arlen=1 arsize=3 arburst=1 rid=[33] rresp=[00] rdata=[baadf00d12345678baadf00d12345678]
[205000] MASTER 0 R_VALID_RDY Handshake beat=1 rlast=1
[205000] [MASTER MONITOR] READ mst_id=0 s_id=1 araddr=166da1b0 arid=3 arlen=1 arsize=3 arburst=1 rid=[33] rresp=[00] rdata=[baadf00d12345678baadf00d12345678]
[205000] SLAVE 0 R_VALID_RDY Handshake beat=1 rlast=1
[205000] [SLAVE MONITOR] READ mst_id=0 s_id=0 araddr=1d2f1d8 arid=4 arlen=1 arsize=3 arburst=1 rid=[44] rresp=[00] rdata=[baadf00d12345678baadf00d12345678]
[205000] SCOREBOARD MATCH: decode_err expected = 0, actual =0
[205000] SCOREBOARD MATCH: slave_id expected = 1, actual =1
[205000] SCOREBOARD MATCH: araddr passthrough expected = 166da1b0, actual =166da1b0
[205000] SCOREBOARD MATCH: arlen passthrough expected = 1, actual =1
[205000] SCOREBOARD MATCH: arsize passthrough expected = 3, actual =3
[205000] SCOREBOARD MATCH: arburst passthrough expected = 1, actual =1
[205000] SCOREBOARD MATCH: rdata size check expected = 2, actual =2
[205000] SCOREBOARD MATCH: rdata passthrough beat=0 expected = baadf00d12345678, actual =baadf00d12345678
[205000] SCOREBOARD MATCH: rdata passthrough beat=1 expected = baadf00d12345678, actual =baadf00d12345678
[205000] SCOREBOARD MATCH: rresp size check expected = 2, actual =2
[205000] SCOREBOARD MATCH: rresp passthrough beat=0 expected = 0, actual =0
[205000] SCOREBOARD MATCH: rresp passthrough beat=1 expected = 0, actual =0
[205000] SCOREBOARD MATCH: response routed to correct master (read beat 0) expected = 0, actual =0
[205000] SCOREBOARD MATCH: response routed to correct master (read beat 1) expected = 0, actual =0
[205000] [SCOREBOARD-M] READ mst_id=0 s_id=1 araddr=166da1b0 arid=3 arlen=1 arsize=3 arburst=1 rid=[33] rresp=[00] rdata=[baadf00d12345678baadf00d12345678]
[205000] [SCOREBOARD-S] READ mst_id=0 s_id=1 araddr=166da1b0 arid=3 arlen=1 arsize=3 arburst=1 rid=[33] rresp=[00] rdata=[baadf00d12345678baadf00d12345678]
[205000] SCOREBOARD: Transaction 8 received. pass=112 fail=0
[205000] ALL PASS. Total transactions: 8
[215000] MASTER 1 B_VALID_RDY Handshake
[215000] [MASTER MONITOR] mst_id=1 s_id=0 awaddr=fe22508 awid=1010 awlen=1 awsize=3 awburst=1 wdata=[0 0 ] wstrb=[0 0 ] bresp=0 bid=1010
[215000] MASTER 1 RECEIVED BRESP. BRESP=0
[215000] [MASTER DRIVER] mst_id=1 s_id=0 awaddr=fe22508 awid=1010 awlen=1 awsize=3 awburst=1 wdata=[] wstrb=[] bresp=0 bid=1010
[215000] SCOREBOARD MATCH: decode_err expected = 0, actual =0
[215000] SCOREBOARD MATCH: slave_id expected = 0, actual =0
[215000] SCOREBOARD MATCH: awaddr passthrough expected = fe22508, actual =fe22508
[215000] SCOREBOARD MATCH: awlen passthrough expected = 1, actual =1
[215000] SCOREBOARD MATCH: awsize passthrough expected = 3, actual =3
[215000] SCOREBOARD MATCH: awburst passthrough expected = 1, actual =1
[215000] SCOREBOARD MATCH: wdata size check expected = 2, actual =2
[215000] SCOREBOARD MATCH: wdata passthrough beat=0 expected = 0, actual =0
[215000] SCOREBOARD MATCH: wdata passthrough beat=1 expected = 0, actual =0
[215000] SCOREBOARD MATCH: wstrb size check expected = 2, actual =2
[215000] SCOREBOARD MATCH: wstrb passthrough beat=0 expected = 0, actual =0
[215000] SCOREBOARD MATCH: wstrb passthrough beat=1 expected = 0, actual =0
[215000] SCOREBOARD MATCH: bresp passthrough expected = 0, actual =0
[215000] SCOREBOARD MATCH: response routed to correct master (write) expected = 1, actual =1
[215000] [SCOREBOARD-M] mst_id=1 s_id=0 awaddr=fe22508 awid=1010 awlen=1 awsize=3 awburst=1 wdata=[0 0 ] wstrb=[0 0 ] bresp=0 bid=1010
[215000] [SCOREBOARD-S] mst_id=1 s_id=0 awaddr=fe22508 awid=1010 awlen=1 awsize=3 awburst=1 wdata=[0 0 ] wstrb=[0 0 ] bresp=0 bid=11010
[215000] SCOREBOARD: Transaction 9 received. pass=126 fail=0
[215000] ALL PASS. Total transactions: 9
[225000] MASTER 0 R_VALID_RDY Handshake beat=0 rlast=0
[235000] MASTER 0 R_VALID_RDY Handshake beat=1 rlast=1
[235000] [MASTER MONITOR] READ mst_id=0 s_id=0 araddr=1d2f1d8 arid=4 arlen=1 arsize=3 arburst=1 rid=[44] rresp=[00] rdata=[baadf00d12345678baadf00d12345678]
[235000] [MASTER DRIVER] READ mst_id=0 s_id=0 araddr=1d2f1d8 arid=4 arlen=1 arsize=3 arburst=1 rid=[44] rresp=[00] rdata=[baadf00d12345678baadf00d12345678]
[235000] SCOREBOARD MATCH: decode_err expected = 0, actual =0
[235000] SCOREBOARD MATCH: slave_id expected = 0, actual =0
[235000] SCOREBOARD MATCH: araddr passthrough expected = 1d2f1d8, actual =1d2f1d8
[235000] SCOREBOARD MATCH: arlen passthrough expected = 1, actual =1
[235000] SCOREBOARD MATCH: arsize passthrough expected = 3, actual =3
[235000] SCOREBOARD MATCH: arburst passthrough expected = 1, actual =1
[235000] SCOREBOARD MATCH: rdata size check expected = 2, actual =2
[235000] SCOREBOARD MATCH: rdata passthrough beat=0 expected = baadf00d12345678, actual =baadf00d12345678
[235000] SCOREBOARD MATCH: rdata passthrough beat=1 expected = baadf00d12345678, actual =baadf00d12345678
[235000] SCOREBOARD MATCH: rresp size check expected = 2, actual =2
[235000] SCOREBOARD MATCH: rresp passthrough beat=0 expected = 0, actual =0
[235000] SCOREBOARD MATCH: rresp passthrough beat=1 expected = 0, actual =0
[235000] SCOREBOARD MATCH: response routed to correct master (read beat 0) expected = 0, actual =0
[235000] SCOREBOARD MATCH: response routed to correct master (read beat 1) expected = 0, actual =0
[235000] [SCOREBOARD-M] READ mst_id=0 s_id=0 araddr=1d2f1d8 arid=4 arlen=1 arsize=3 arburst=1 rid=[44] rresp=[00] rdata=[baadf00d12345678baadf00d12345678]
[235000] [SCOREBOARD-S] READ mst_id=0 s_id=0 araddr=1d2f1d8 arid=4 arlen=1 arsize=3 arburst=1 rid=[44] rresp=[00] rdata=[baadf00d12345678baadf00d12345678]
[235000] SCOREBOARD: Transaction 10 received. pass=140 fail=0
[235000] SCOREBOARD: Expected 10 transactions completed, PASS=140 FAIL=0
[235000] ALL PASS. Total transactions: 10
[235000] ALL TRANSACTIONS MONITORED
$finish called at time : 255 ns : File "/home/nashita/Desktop/practice/axi_xbar/tb/top/axi_tb_top.sv" Line 220
exit
INFO: xsimkernel Simulation Memory Usage: 289460 KB (Peak: 337860 KB), Simulation CPU Usage: 1180 ms
INFO: [Common 17-206] Exiting xsim at Wed Sep  9 12:43:07 2026...
