#-----------------------------------------------------------
# xsim v2025.2 (64-bit)
# SW Build 6299465 on Fri Nov 14 12:34:56 MST 2025
# IP Build 6300035 on Fri Nov 14 10:48:45 MST 2025
# SharedData Build 6298862 on Thu Nov 13 04:50:51 MST 2025
# Start of session at: Thu Sep 10 18:39:01 2026
# Process ID         : 3656612
# Current directory  : /home/nashita/Desktop/practice/axi_xbar/sim
# Command line       : xsim -log regress_results/BT_run369.log -mode tcl -source {xsim.dir/tb_top_snap/xsim_script.tcl}
# Log file           : /home/nashita/Desktop/practice/axi_xbar/sim/regress_results/BT_run369.log
# Journal file       : /home/nashita/Desktop/practice/axi_xbar/sim/xsim.jou
# Running On         : vlsi-vivado
# Platform           : Ubuntu
# Operating System   : Ubuntu 24.04.4 LTS
# Processor Detail   : Intel(R) Core(TM) i5-10400 CPU @ 2.90GHz
# CPU Frequency      : 800.000 MHz
# CPU Physical cores : 6
# CPU Logical cores  : 12
# Host memory        : 41875 MB
# Swap memory        : 27648 MB
# Total Virtual      : 69524 MB
# Available Virtual  : 62762 MB
#-----------------------------------------------------------
source xsim.dir/tb_top_snap/xsim_script.tcl
# xsim {tb_top_snap} -testplusarg BT -autoloadwcfg -runall -sv_seed 370
Time resolution is 1 ps
run -all
[0] RUNNING BASE TEST
[0] INSIDE THE BASE TEST CONSTRUCTOR
[0] ENV: before agent
[0] SLAVE CONSTRUCTED
[0] MASTER MONITOR CONSTRUCTED
[0] MASTER MONITOR CONSTRUCTED
[0] SLAVE MONITOR CONSTRUCTED
[0] SLAVE MONITOR CONSTRUCTED
[0] ARB MONITOR CONSTRUCTED
GENERATOR CONSTRUCTED
[0] ENV: after agent
[0] ENV: before scoreboard
[0] ENV: after scoreboard
[15000] [SEQUENCER] mst_id=1 s_id=0 awaddr=b559aa8 awid=1000 awlen=3 awsize=7 awburst=0 wdata=[9f64374d18ea07ef e195a45cf17da5e7 ad96520fed0d5624 85f75e1396362dfe ] wstrb=[5d e6 70 81 ] bresp=0 bid=0
[15000] [SEQUENCER] mst_id=1 s_id=0 awaddr=1b4953a0 awid=1010 awlen=13 awsize=5 awburst=2 wdata=[33a11d0f2a0415a3 1651a564261aedaa d77d74e0cf053321 f90948c48e085f99 b4234d430b1e91ef da23c5108f5aee28 1d634dc28ba0c223 96bf5412d32d0dd5 e287fbfdd1869b05 dd275d29f0e31923 c41026f8ffeb49bf d171e4c5f3e6b13b e4c9ca5ea69822f5 26836cb52e9941ee ] wstrb=[56 29 7a 4c 88 68 1 de 91 7b 2a 19 e3 2b ] bresp=0 bid=0
[15000] [SEQUENCER] READ mst_id=1 s_id=0 araddr=5bf91b0 arid=2 arlen=1 arsize=3 arburst=1 rid=[] rresp=[] rdata=[]
[15000] [SEQUENCER] mst_id=1 s_id=0 awaddr=158ce238 awid=1011 awlen=93 awsize=1 awburst=1 wdata=[df23201cec0decd0 278e488ccf02f06d c9b48cb43a7689ff 268476cfb0b499a5 ffb78a13a8d7acd0 e34e36cfce12bf5b fec75900c96c16c7 f243c39889d2ad9e d7e56cf9fe7ee313 c7eaf9dbd591fa67 df64a806d6acc5fa d52ba90d3a2ebd73 8fc0b7dab74a14ff 8df6daf99d16a2e8 d745605bef255fe0 266f74e0e3228407 803926efe7061836 d62b7816b4664fd9 9788d3e0d77e874b 3e849f81fc9aecf6 31013cd017c1fad0 ef40821b94b01797 114b048ec88a10b0 e04c0b802dc5219c c2753933c24c415e 8ad6520ecf8c8d9b fd51af37d3c03dc1 960c7f1feb225d8f baaeeb2a3fc6e86b 9387262c20e2d12e c052ebd38009a62 f7c782cd2993a54c ca76767ac6b419e7 feb4b4498b4ea8f9 b4e24e45d67ba537 9d2fbf1ef67c3716 1cae010ff58c4bf d5d469f61be47368 9260aa7eb6ad2e55 3605f315f3042915 ee89c7d942b8a8e cad8b8e48bda5d0b fede8620a14946fb 3574d18a00deabf9 8cb909048dc7229d 2f106999004d8a6e 12c36670b978f25 995eb1c2e4853b23 e4d2c5918de53f6b 997cce90c86f1b5b acf4567ee5fefbf8 f3e43b6332db8053 fb4a9bae91c71c0f f7c618070d6109f4 c03c8a47283ef22d ba060e3cebaa536b f90b5d5fbb8725f5 e3c6182231cc2644 1d7679af3947e7a6 f4cf0d9b1dcc265f cf984ca31681d70e cfc9beb4d89525be f6614c1ded0ec652 3909d60c498cc4f 9d2df20dc5f998c0 33085f12d35a5c14 97f32863938f3e2a d988d6ea3698fc72 9f3588635211a71 c8b0589b8c9135fc c32a326ea1e680e9 d7079b5a22392f86 aeca6582cd1d8af4 ef040bde1fb7f3f6 c1f1237cf1f497f1 bf1222e5c60ba738 e5c39b2ef0bb88fe e2b020efae162ec3 f421d5fca7b4beaa 187047a921c243d5 cfd87298d9e5712a 19a2fd5fb206898 9ce2ac6dc3fa4894 1ddfb9bf1a0a777e 952ae016ecbb1f06 b0b5679a1f79e994 39846112320d8c84 1ec8ab8ace952159 ee0f0aedceaf4128 80bccdaccf7e1324 1e13347ea7936bff f642ad289f857936 ef038c5b8c223f6b 33b5ab6bf6ff7ad4 ] wstrb=[d9 b 93 44 66 67 af 3f 72 42 83 d8 aa 33 17 1c 75 9b f5 1f ce c 3c 43 a7 31 63 75 3d 9f b9 e5 d0 1c 5a d bb 13 f2 8b 2f 4d 98 ea 60 8b 75 90 d8 e 7a 38 99 f0 c8 71 fe 43 a9 97 33 72 8 31 b5 b1 c8 e8 23 d0 19 d8 81 e1 c0 a5 b1 d9 7d 32 ba 3e d7 6b 17 55 9e d2 93 75 3d aa ca db ] bresp=0 bid=0
[15000] [SEQUENCER] mst_id=0 s_id=0 awaddr=1d65f6a0 awid=11 awlen=115 awsize=0 awburst=1 wdata=[118de32ccc4261c4 6577e38fc71d6ab 8a52fb02c4f0b69f 91331863fa08efd8 f67ac6839be0de2e e0d194cd978a969b 9193867380cdc185 1cae9fb4f204ad31 898f43cc880e4cf6 8dc0e7cfd803481 ef84e1b21b22ca40 a3311736258aae30 a30ae2b1f914257f 1436efbfac0d25b2 d197d3e2128fc464 ba3e9e3b76806f5 e3752ca8f4a2b694 7327af81fdad9a2 d742e097b50d008a a9afb71e12d664db 32b13e7dbab80d3f efc50dcab0e23216 c3b896f189f41f14 c4ac2c549974c4e8 ca56f6fff669d56e 5df48334713a1e cde5ff068e0f8df0 479635fc50a20d7 f97b5af5983cf605 264c83f604d757e2 c9e178b9c76159fb df9e50012ac5e755 2f9d3f37c35cd3ae 8abe2da905ead3f7 30b0bb4cf97eb7f0 3cdb8b9eea5c7daa f04751a1e04dfa83 d9ccb273c799b947 31f636f2a0f80ced 8146077016a83e11 de41f758a23d8893 c3359581db12b9e3 f1baf7f490382e4a 3275b6dec47b9cf1 1f8e56d5cffcef4d e0351d97f5ab4c5f ba26e95091494ec9 e1463e1692aad475 885620d4d9b54025 eafe8eefc17b5bae d4263023c27d0a25 9c324a4acc44cd05 8dc028b3dc7c50f8 1ef95b1d8730d939 d375a63fe1e658d7 3e62a9cfbb2ba567 c25c7ea1e135cef2 c31c27c9dd5c04ec 9887aa5315d224e0 f707f3d2817ed198 dedad684dae428f4 f0b64dd43a241b9c bba2ed34f76280d8 d246a9cce7be41a7 21e25d431a7dc3b9 11e04491c2fcf7a1 2abb3948dd854a77 f8030e30e426ee5d a723e5fecc9d968b aa22e10289e352c1 ee0a411fd1df1f46 9e7cb5d12225ef33 ac0941f4952e271d e70d4664c89f96d4 eac586079a138313 2f41aa318589fc35 ce29930996cec7fb 30e24b0f164ef095 9bd8eccab8ef1910 cfbde10ce023f540 f672e5d5ea027fd4 a2f198e400a02c1b e0c4215b924bd29f fc4e5273f2af79f0 f34fa60bd7370730 e982d9cf1f3feb58 91ef6548d413c766 ab4ace96e5d12c43 511179b053f0b54 d952d2ba14cda866 fa9ed4a997007ce3 9c3f8837049da151 196b49b7ffafec44 96b06927f5925af2 fa2ffc43140a1e60 13ba0aa432eff15f 28824c51139b45fa 27a5645aaa6a73cb dd5a652a22b24894 364d8e8e3b5f6efe e5c9e2c985dcb17b a88efa0fddf2f2e8 195261e6c32447f4 c900f96fdedc889d bccf7b85ff1c44af c2408ca3f18ff37f d06c7c1cd621dd6b d53e221b0b418613 fcd179920d3bf7a2 e35dd50d977eaebe a2c034d1cd3df5ae da79ed50b89bf728 d01aa5e79f91ae63 eccfa4123dd7c25e f673b986f2dadab8 126c891cc7499162 ] wstrb=[6d c0 2e 26 47 90 42 b4 51 70 da 98 0 1c 4c 51 8c 27 e9 8d 43 36 de d0 5d c8 5d a0 fe 3b 70 5b 3 cd fb 1 9 6c 5c c 39 58 e 42 c4 6a 4f fd c2 5d 40 86 c7 8f 84 8a ec c4 10 b3 53 94 3d 3f 58 4e f2 ab e2 30 ea 3b 7e dd e6 60 d d1 9b 8b ae 82 eb bb 53 87 46 1 9 31 bc 5c b8 2 5d c1 33 19 1d ec 1b 7a ad 4e 93 cb 3a ae 45 e8 fd d9 b3 37 87 f8 ] bresp=0 bid=0
[15000] MASTER_DRIVER1 received transaction, op=AXI_WRITE
[15000] MASTER_DRIVER0 received transaction, op=AXI_WRITE
[35000] MASTER 1 AW_VALID_RDY Handshake
[35000] MASTER 0 AW_VALID_RDY Handshake
[45000] ARB MONITOR: slave=0 m0_req=0 m1_req=1 winner=1
[45000] ARB MONITOR: slave=1 m0_req=1 m1_req=0 winner=0
[45000] AXI S1_AWVALID_RDY HANDSHAKE
[45000] AXI S0_AWVALID_RDY HANDSHAKE
[55000] MASTER 1 W_VALID_RDY Handshake beat=0 wlast=0
[55000] MASTER 0 W_VALID_RDY Handshake beat=0 wlast=0
[65000] MASTER 0 W_VALID_RDY Handshake beat=1 wlast=0
[65000] MASTER 1 W_VALID_RDY Handshake beat=1 wlast=0
[65000] S1 MEMORY WRITE beat=0 addr=1d65f6a0 data=118de32ccc4261c4 id=03
[65000] AXI S0_WVALID_RDY HANDSHAKE
[65000] S0 MEMORY WRITE beat=0 addr=0b559aa8 data=9f64374d18ea07ef id=18
[75000] AXI S0_WVALID_RDY HANDSHAKE
[75000] S0 MEMORY WRITE beat=1 addr=0b559aa8 data=e195a45cf17da5e7 id=18
[75000] S1 MEMORY WRITE beat=1 addr=1d65f6a1 data=06577e38fc71d6ab id=03
[75000] MASTER 1 W_VALID_RDY Handshake beat=2 wlast=0
[75000] MASTER 0 W_VALID_RDY Handshake beat=2 wlast=0
[85000] MASTER_DRIVER1 received transaction, op=AXI_WRITE
[85000] MASTER 0 W_VALID_RDY Handshake beat=3 wlast=0
[85000] MASTER 1 W_VALID_RDY Handshake beat=3 wlast=1
[85000] S1 MEMORY WRITE beat=2 addr=1d65f6a2 data=8a52fb02c4f0b69f id=03
[85000] AXI S0_WVALID_RDY HANDSHAKE
[85000] S0 MEMORY WRITE beat=2 addr=0b559aa8 data=ad96520fed0d5624 id=18
[95000] AXI S0_WVALID_RDY HANDSHAKE
[95000] S0 MEMORY WRITE beat=3 addr=0b559aa8 data=85f75e1396362dfe id=18
[95000] S1 MEMORY WRITE beat=3 addr=1d65f6a3 data=91331863fa08efd8 id=03
[95000] MASTER 0 W_VALID_RDY Handshake beat=4 wlast=0
[105000] MASTER 0 W_VALID_RDY Handshake beat=5 wlast=0
[105000] MASTER 1 AW_VALID_RDY Handshake
[105000] S1 MEMORY WRITE beat=4 addr=1d65f6a4 data=f67ac6839be0de2e id=03
[105000] SLAVE0 sent B resp, id=8
[115000] S1 MEMORY WRITE beat=5 addr=1d65f6a5 data=e0d194cd978a969b id=03
[115000] [SLAVE MONITOR] mst_id=1 s_id=0 awaddr=b559aa8 awid=1000 awlen=3 awsize=7 awburst=0 wdata=[9f64374d18ea07ef e195a45cf17da5e7 ad96520fed0d5624 85f75e1396362dfe ] wstrb=[5d e6 70 81 ] bresp=0 bid=11000
[115000] MASTER 0 W_VALID_RDY Handshake beat=6 wlast=0
[125000] MASTER 1 RECEIVED BRESP. BRESP=0
[125000] [MASTER DRIVER] mst_id=1 s_id=0 awaddr=b559aa8 awid=1000 awlen=3 awsize=7 awburst=0 wdata=[9f64374d18ea07ef e195a45cf17da5e7 ad96520fed0d5624 85f75e1396362dfe ] wstrb=[5d e6 70 81 ] bresp=0 bid=1000
[125000] MASTER 0 W_VALID_RDY Handshake beat=7 wlast=0
[125000] MASTER 1 W_VALID_RDY Handshake beat=0 wlast=0
[125000] MASTER 1 B_VALID_RDY Handshake
[125000] [MASTER MONITOR] mst_id=1 s_id=0 awaddr=b559aa8 awid=1000 awlen=3 awsize=7 awburst=0 wdata=[9f64374d18ea07ef e195a45cf17da5e7 ad96520fed0d5624 85f75e1396362dfe ] wstrb=[5d e6 70 81 ] bresp=0 bid=1000
[125000] S1 MEMORY WRITE beat=6 addr=1d65f6a6 data=9193867380cdc185 id=03
[125000] SCOREBOARD MATCH: decode_err expected = 0, actual =0
[125000] SCOREBOARD MATCH: slave_id expected = 0, actual =0
[125000] SCOREBOARD MATCH: awaddr passthrough expected = b559aa8, actual =b559aa8
[125000] SCOREBOARD MATCH: awlen passthrough expected = 3, actual =3
[125000] SCOREBOARD MATCH: awsize passthrough expected = 7, actual =7
[125000] SCOREBOARD MATCH: awburst passthrough expected = 0, actual =0
[125000] SCOREBOARD MATCH: wdata size check expected = 4, actual =4
[125000] SCOREBOARD MATCH: wdata passthrough beat=0 expected = 9f64374d18ea07ef, actual =9f64374d18ea07ef
[125000] SCOREBOARD MATCH: wdata passthrough beat=1 expected = e195a45cf17da5e7, actual =e195a45cf17da5e7
[125000] SCOREBOARD MATCH: wdata passthrough beat=2 expected = ad96520fed0d5624, actual =ad96520fed0d5624
[125000] SCOREBOARD MATCH: wdata passthrough beat=3 expected = 85f75e1396362dfe, actual =85f75e1396362dfe
[125000] SCOREBOARD MATCH: wstrb size check expected = 4, actual =4
[125000] SCOREBOARD MATCH: wstrb passthrough beat=0 expected = 5d, actual =5d
[125000] SCOREBOARD MATCH: wstrb passthrough beat=1 expected = e6, actual =e6
[125000] SCOREBOARD MATCH: wstrb passthrough beat=2 expected = 70, actual =70
[125000] SCOREBOARD MATCH: wstrb passthrough beat=3 expected = 81, actual =81
[125000] SCOREBOARD MATCH: bresp passthrough expected = 0, actual =0
[125000] SCOREBOARD MATCH: response routed to correct master (write) expected = 1, actual =1
[125000] [SCOREBOARD-M] mst_id=1 s_id=0 awaddr=b559aa8 awid=1000 awlen=3 awsize=7 awburst=0 wdata=[9f64374d18ea07ef e195a45cf17da5e7 ad96520fed0d5624 85f75e1396362dfe ] wstrb=[5d e6 70 81 ] bresp=0 bid=1000
[125000] [SCOREBOARD-S] mst_id=1 s_id=0 awaddr=b559aa8 awid=1000 awlen=3 awsize=7 awburst=0 wdata=[9f64374d18ea07ef e195a45cf17da5e7 ad96520fed0d5624 85f75e1396362dfe ] wstrb=[5d e6 70 81 ] bresp=0 bid=11000
[125000] SCOREBOARD: Transaction 1 received. pass=18 fail=0
[125000] ALL PASS. Total transactions: 1
[135000] S1 MEMORY WRITE beat=7 addr=1d65f6a7 data=1cae9fb4f204ad31 id=03
[135000] MASTER 1 W_VALID_RDY Handshake beat=1 wlast=0
[135000] MASTER 0 W_VALID_RDY Handshake beat=8 wlast=0
[145000] MASTER 0 W_VALID_RDY Handshake beat=9 wlast=0
[145000] MASTER 1 W_VALID_RDY Handshake beat=2 wlast=0
[145000] S1 MEMORY WRITE beat=8 addr=1d65f6a8 data=898f43cc880e4cf6 id=03
[155000] S1 MEMORY WRITE beat=9 addr=1d65f6a9 data=08dc0e7cfd803481 id=03
[155000] MASTER 1 W_VALID_RDY Handshake beat=3 wlast=0
[155000] MASTER 0 W_VALID_RDY Handshake beat=10 wlast=0
[165000] MASTER 0 W_VALID_RDY Handshake beat=11 wlast=0
[165000] MASTER 1 W_VALID_RDY Handshake beat=4 wlast=0
[165000] S1 MEMORY WRITE beat=10 addr=1d65f6aa data=ef84e1b21b22ca40 id=03
[175000] S1 MEMORY WRITE beat=11 addr=1d65f6ab data=a3311736258aae30 id=03
[175000] MASTER 1 W_VALID_RDY Handshake beat=5 wlast=0
[175000] MASTER 0 W_VALID_RDY Handshake beat=12 wlast=0
[185000] MASTER 0 W_VALID_RDY Handshake beat=13 wlast=0
[185000] MASTER 1 W_VALID_RDY Handshake beat=6 wlast=0
[185000] S1 MEMORY WRITE beat=12 addr=1d65f6ac data=a30ae2b1f914257f id=03
[195000] S1 MEMORY WRITE beat=13 addr=1d65f6ad data=1436efbfac0d25b2 id=03
[195000] MASTER 1 W_VALID_RDY Handshake beat=7 wlast=0
[195000] MASTER 0 W_VALID_RDY Handshake beat=14 wlast=0
[205000] MASTER 0 W_VALID_RDY Handshake beat=15 wlast=0
[205000] S1 MEMORY WRITE beat=14 addr=1d65f6ae data=d197d3e2128fc464 id=03
[215000] S1 MEMORY WRITE beat=15 addr=1d65f6af data=0ba3e9e3b76806f5 id=03
[215000] MASTER 0 W_VALID_RDY Handshake beat=16 wlast=0
[225000] MASTER 0 W_VALID_RDY Handshake beat=17 wlast=0
[225000] S1 MEMORY WRITE beat=16 addr=1d65f6b0 data=e3752ca8f4a2b694 id=03
[235000] S1 MEMORY WRITE beat=17 addr=1d65f6b1 data=07327af81fdad9a2 id=03
[235000] MASTER 0 W_VALID_RDY Handshake beat=18 wlast=0
[245000] MASTER 0 W_VALID_RDY Handshake beat=19 wlast=0
[245000] S1 MEMORY WRITE beat=18 addr=1d65f6b2 data=d742e097b50d008a id=03
[255000] S1 MEMORY WRITE beat=19 addr=1d65f6b3 data=a9afb71e12d664db id=03
[255000] MASTER 0 W_VALID_RDY Handshake beat=20 wlast=0
[265000] MASTER 0 W_VALID_RDY Handshake beat=21 wlast=0
[265000] S1 MEMORY WRITE beat=20 addr=1d65f6b4 data=32b13e7dbab80d3f id=03
[275000] S1 MEMORY WRITE beat=21 addr=1d65f6b5 data=efc50dcab0e23216 id=03
[275000] MASTER 0 W_VALID_RDY Handshake beat=22 wlast=0
[285000] MASTER 0 W_VALID_RDY Handshake beat=23 wlast=0
[285000] S1 MEMORY WRITE beat=22 addr=1d65f6b6 data=c3b896f189f41f14 id=03
[295000] S1 MEMORY WRITE beat=23 addr=1d65f6b7 data=c4ac2c549974c4e8 id=03
[295000] MASTER 0 W_VALID_RDY Handshake beat=24 wlast=0
[305000] MASTER 0 W_VALID_RDY Handshake beat=25 wlast=0
[305000] S1 MEMORY WRITE beat=24 addr=1d65f6b8 data=ca56f6fff669d56e id=03
[315000] S1 MEMORY WRITE beat=25 addr=1d65f6b9 data=005df48334713a1e id=03
[315000] MASTER 0 W_VALID_RDY Handshake beat=26 wlast=0
[325000] MASTER 0 W_VALID_RDY Handshake beat=27 wlast=0
[325000] S1 MEMORY WRITE beat=26 addr=1d65f6ba data=cde5ff068e0f8df0 id=03
[335000] S1 MEMORY WRITE beat=27 addr=1d65f6bb data=0479635fc50a20d7 id=03
[335000] MASTER 0 W_VALID_RDY Handshake beat=28 wlast=0
[345000] MASTER 0 W_VALID_RDY Handshake beat=29 wlast=0
[345000] S1 MEMORY WRITE beat=28 addr=1d65f6bc data=f97b5af5983cf605 id=03
[355000] S1 MEMORY WRITE beat=29 addr=1d65f6bd data=264c83f604d757e2 id=03
[355000] MASTER 0 W_VALID_RDY Handshake beat=30 wlast=0
[365000] MASTER 0 W_VALID_RDY Handshake beat=31 wlast=0
[365000] S1 MEMORY WRITE beat=30 addr=1d65f6be data=c9e178b9c76159fb id=03
[375000] S1 MEMORY WRITE beat=31 addr=1d65f6bf data=df9e50012ac5e755 id=03
[375000] MASTER 0 W_VALID_RDY Handshake beat=32 wlast=0
[385000] MASTER 0 W_VALID_RDY Handshake beat=33 wlast=0
[385000] S1 MEMORY WRITE beat=32 addr=1d65f6c0 data=2f9d3f37c35cd3ae id=03
[395000] S1 MEMORY WRITE beat=33 addr=1d65f6c1 data=8abe2da905ead3f7 id=03
[395000] MASTER 0 W_VALID_RDY Handshake beat=34 wlast=0
[405000] MASTER 0 W_VALID_RDY Handshake beat=35 wlast=0
[405000] S1 MEMORY WRITE beat=34 addr=1d65f6c2 data=30b0bb4cf97eb7f0 id=03
[415000] S1 MEMORY WRITE beat=35 addr=1d65f6c3 data=3cdb8b9eea5c7daa id=03
[415000] MASTER 0 W_VALID_RDY Handshake beat=36 wlast=0
[425000] MASTER 0 W_VALID_RDY Handshake beat=37 wlast=0
[425000] S1 MEMORY WRITE beat=36 addr=1d65f6c4 data=f04751a1e04dfa83 id=03
[435000] S1 MEMORY WRITE beat=37 addr=1d65f6c5 data=d9ccb273c799b947 id=03
[435000] MASTER 0 W_VALID_RDY Handshake beat=38 wlast=0
[445000] MASTER 0 W_VALID_RDY Handshake beat=39 wlast=0
[445000] S1 MEMORY WRITE beat=38 addr=1d65f6c6 data=31f636f2a0f80ced id=03
[455000] S1 MEMORY WRITE beat=39 addr=1d65f6c7 data=8146077016a83e11 id=03
[455000] MASTER 0 W_VALID_RDY Handshake beat=40 wlast=0
[465000] MASTER 0 W_VALID_RDY Handshake beat=41 wlast=0
[465000] S1 MEMORY WRITE beat=40 addr=1d65f6c8 data=de41f758a23d8893 id=03
[475000] S1 MEMORY WRITE beat=41 addr=1d65f6c9 data=c3359581db12b9e3 id=03
[475000] MASTER 0 W_VALID_RDY Handshake beat=42 wlast=0
[485000] MASTER 0 W_VALID_RDY Handshake beat=43 wlast=0
[485000] S1 MEMORY WRITE beat=42 addr=1d65f6ca data=f1baf7f490382e4a id=03
[495000] S1 MEMORY WRITE beat=43 addr=1d65f6cb data=3275b6dec47b9cf1 id=03
[495000] MASTER 0 W_VALID_RDY Handshake beat=44 wlast=0
[505000] MASTER 0 W_VALID_RDY Handshake beat=45 wlast=0
[505000] S1 MEMORY WRITE beat=44 addr=1d65f6cc data=1f8e56d5cffcef4d id=03
[515000] S1 MEMORY WRITE beat=45 addr=1d65f6cd data=e0351d97f5ab4c5f id=03
[515000] MASTER 0 W_VALID_RDY Handshake beat=46 wlast=0
[525000] MASTER 0 W_VALID_RDY Handshake beat=47 wlast=0
[525000] S1 MEMORY WRITE beat=46 addr=1d65f6ce data=ba26e95091494ec9 id=03
[535000] S1 MEMORY WRITE beat=47 addr=1d65f6cf data=e1463e1692aad475 id=03
[535000] MASTER 0 W_VALID_RDY Handshake beat=48 wlast=0
[545000] MASTER 0 W_VALID_RDY Handshake beat=49 wlast=0
[545000] S1 MEMORY WRITE beat=48 addr=1d65f6d0 data=885620d4d9b54025 id=03
[555000] S1 MEMORY WRITE beat=49 addr=1d65f6d1 data=eafe8eefc17b5bae id=03
[555000] MASTER 0 W_VALID_RDY Handshake beat=50 wlast=0
[565000] MASTER 0 W_VALID_RDY Handshake beat=51 wlast=0
[565000] S1 MEMORY WRITE beat=50 addr=1d65f6d2 data=d4263023c27d0a25 id=03
[575000] S1 MEMORY WRITE beat=51 addr=1d65f6d3 data=9c324a4acc44cd05 id=03
[575000] MASTER 0 W_VALID_RDY Handshake beat=52 wlast=0
[585000] MASTER 0 W_VALID_RDY Handshake beat=53 wlast=0
[585000] S1 MEMORY WRITE beat=52 addr=1d65f6d4 data=8dc028b3dc7c50f8 id=03
[595000] S1 MEMORY WRITE beat=53 addr=1d65f6d5 data=1ef95b1d8730d939 id=03
[595000] MASTER 0 W_VALID_RDY Handshake beat=54 wlast=0
[605000] MASTER 0 W_VALID_RDY Handshake beat=55 wlast=0
[605000] S1 MEMORY WRITE beat=54 addr=1d65f6d6 data=d375a63fe1e658d7 id=03
[615000] S1 MEMORY WRITE beat=55 addr=1d65f6d7 data=3e62a9cfbb2ba567 id=03
[615000] MASTER 0 W_VALID_RDY Handshake beat=56 wlast=0
[625000] MASTER 0 W_VALID_RDY Handshake beat=57 wlast=0
[625000] S1 MEMORY WRITE beat=56 addr=1d65f6d8 data=c25c7ea1e135cef2 id=03
[635000] S1 MEMORY WRITE beat=57 addr=1d65f6d9 data=c31c27c9dd5c04ec id=03
[635000] MASTER 0 W_VALID_RDY Handshake beat=58 wlast=0
[645000] MASTER 0 W_VALID_RDY Handshake beat=59 wlast=0
[645000] S1 MEMORY WRITE beat=58 addr=1d65f6da data=9887aa5315d224e0 id=03
[655000] S1 MEMORY WRITE beat=59 addr=1d65f6db data=f707f3d2817ed198 id=03
[655000] MASTER 0 W_VALID_RDY Handshake beat=60 wlast=0
[665000] MASTER 0 W_VALID_RDY Handshake beat=61 wlast=0
[665000] S1 MEMORY WRITE beat=60 addr=1d65f6dc data=dedad684dae428f4 id=03
[675000] S1 MEMORY WRITE beat=61 addr=1d65f6dd data=f0b64dd43a241b9c id=03
[675000] MASTER 0 W_VALID_RDY Handshake beat=62 wlast=0
[685000] MASTER 0 W_VALID_RDY Handshake beat=63 wlast=0
[685000] S1 MEMORY WRITE beat=62 addr=1d65f6de data=bba2ed34f76280d8 id=03
[695000] S1 MEMORY WRITE beat=63 addr=1d65f6df data=d246a9cce7be41a7 id=03
[695000] MASTER 0 W_VALID_RDY Handshake beat=64 wlast=0
[705000] MASTER 0 W_VALID_RDY Handshake beat=65 wlast=0
[705000] S1 MEMORY WRITE beat=64 addr=1d65f6e0 data=21e25d431a7dc3b9 id=03
[715000] S1 MEMORY WRITE beat=65 addr=1d65f6e1 data=11e04491c2fcf7a1 id=03
[715000] MASTER 0 W_VALID_RDY Handshake beat=66 wlast=0
[725000] MASTER 0 W_VALID_RDY Handshake beat=67 wlast=0
[725000] S1 MEMORY WRITE beat=66 addr=1d65f6e2 data=2abb3948dd854a77 id=03
[735000] S1 MEMORY WRITE beat=67 addr=1d65f6e3 data=f8030e30e426ee5d id=03
[735000] MASTER 0 W_VALID_RDY Handshake beat=68 wlast=0
[745000] MASTER 0 W_VALID_RDY Handshake beat=69 wlast=0
[745000] S1 MEMORY WRITE beat=68 addr=1d65f6e4 data=a723e5fecc9d968b id=03
[755000] S1 MEMORY WRITE beat=69 addr=1d65f6e5 data=aa22e10289e352c1 id=03
[755000] MASTER 0 W_VALID_RDY Handshake beat=70 wlast=0
[765000] MASTER 0 W_VALID_RDY Handshake beat=71 wlast=0
[765000] S1 MEMORY WRITE beat=70 addr=1d65f6e6 data=ee0a411fd1df1f46 id=03
[775000] S1 MEMORY WRITE beat=71 addr=1d65f6e7 data=9e7cb5d12225ef33 id=03
[775000] MASTER 0 W_VALID_RDY Handshake beat=72 wlast=0
[785000] MASTER 0 W_VALID_RDY Handshake beat=73 wlast=0
[785000] S1 MEMORY WRITE beat=72 addr=1d65f6e8 data=ac0941f4952e271d id=03
[795000] S1 MEMORY WRITE beat=73 addr=1d65f6e9 data=e70d4664c89f96d4 id=03
[795000] MASTER 0 W_VALID_RDY Handshake beat=74 wlast=0
[805000] MASTER 0 W_VALID_RDY Handshake beat=75 wlast=0
[805000] S1 MEMORY WRITE beat=74 addr=1d65f6ea data=eac586079a138313 id=03
[815000] S1 MEMORY WRITE beat=75 addr=1d65f6eb data=2f41aa318589fc35 id=03
[815000] MASTER 0 W_VALID_RDY Handshake beat=76 wlast=0
[825000] MASTER 0 W_VALID_RDY Handshake beat=77 wlast=0
[825000] S1 MEMORY WRITE beat=76 addr=1d65f6ec data=ce29930996cec7fb id=03
[835000] S1 MEMORY WRITE beat=77 addr=1d65f6ed data=30e24b0f164ef095 id=03
[835000] MASTER 0 W_VALID_RDY Handshake beat=78 wlast=0
[845000] MASTER 0 W_VALID_RDY Handshake beat=79 wlast=0
[845000] S1 MEMORY WRITE beat=78 addr=1d65f6ee data=9bd8eccab8ef1910 id=03
[855000] S1 MEMORY WRITE beat=79 addr=1d65f6ef data=cfbde10ce023f540 id=03
[855000] MASTER 0 W_VALID_RDY Handshake beat=80 wlast=0
[865000] MASTER 0 W_VALID_RDY Handshake beat=81 wlast=0
[865000] S1 MEMORY WRITE beat=80 addr=1d65f6f0 data=f672e5d5ea027fd4 id=03
[875000] S1 MEMORY WRITE beat=81 addr=1d65f6f1 data=a2f198e400a02c1b id=03
[875000] MASTER 0 W_VALID_RDY Handshake beat=82 wlast=0
[885000] MASTER 0 W_VALID_RDY Handshake beat=83 wlast=0
[885000] S1 MEMORY WRITE beat=82 addr=1d65f6f2 data=e0c4215b924bd29f id=03
[895000] S1 MEMORY WRITE beat=83 addr=1d65f6f3 data=fc4e5273f2af79f0 id=03
[895000] MASTER 0 W_VALID_RDY Handshake beat=84 wlast=0
[905000] MASTER 0 W_VALID_RDY Handshake beat=85 wlast=0
[905000] S1 MEMORY WRITE beat=84 addr=1d65f6f4 data=f34fa60bd7370730 id=03
[915000] S1 MEMORY WRITE beat=85 addr=1d65f6f5 data=e982d9cf1f3feb58 id=03
[915000] MASTER 0 W_VALID_RDY Handshake beat=86 wlast=0
[925000] MASTER 0 W_VALID_RDY Handshake beat=87 wlast=0
[925000] S1 MEMORY WRITE beat=86 addr=1d65f6f6 data=91ef6548d413c766 id=03
[935000] S1 MEMORY WRITE beat=87 addr=1d65f6f7 data=ab4ace96e5d12c43 id=03
[935000] MASTER 0 W_VALID_RDY Handshake beat=88 wlast=0
[945000] MASTER 0 W_VALID_RDY Handshake beat=89 wlast=0
[945000] S1 MEMORY WRITE beat=88 addr=1d65f6f8 data=0511179b053f0b54 id=03
[955000] S1 MEMORY WRITE beat=89 addr=1d65f6f9 data=d952d2ba14cda866 id=03
[955000] MASTER 0 W_VALID_RDY Handshake beat=90 wlast=0
[965000] MASTER 0 W_VALID_RDY Handshake beat=91 wlast=0
[965000] S1 MEMORY WRITE beat=90 addr=1d65f6fa data=fa9ed4a997007ce3 id=03
[975000] S1 MEMORY WRITE beat=91 addr=1d65f6fb data=9c3f8837049da151 id=03
[975000] MASTER 0 W_VALID_RDY Handshake beat=92 wlast=0
[985000] MASTER 0 W_VALID_RDY Handshake beat=93 wlast=0
[985000] S1 MEMORY WRITE beat=92 addr=1d65f6fc data=196b49b7ffafec44 id=03
[995000] S1 MEMORY WRITE beat=93 addr=1d65f6fd data=96b06927f5925af2 id=03
[995000] MASTER 0 W_VALID_RDY Handshake beat=94 wlast=0
[1005000] MASTER 0 W_VALID_RDY Handshake beat=95 wlast=0
[1005000] S1 MEMORY WRITE beat=94 addr=1d65f6fe data=fa2ffc43140a1e60 id=03
[1015000] S1 MEMORY WRITE beat=95 addr=1d65f6ff data=13ba0aa432eff15f id=03
[1015000] MASTER 0 W_VALID_RDY Handshake beat=96 wlast=0
[1025000] MASTER 0 W_VALID_RDY Handshake beat=97 wlast=0
[1025000] S1 MEMORY WRITE beat=96 addr=1d65f700 data=28824c51139b45fa id=03
[1035000] S1 MEMORY WRITE beat=97 addr=1d65f701 data=27a5645aaa6a73cb id=03
[1035000] MASTER 0 W_VALID_RDY Handshake beat=98 wlast=0
[1045000] MASTER 0 W_VALID_RDY Handshake beat=99 wlast=0
[1045000] S1 MEMORY WRITE beat=98 addr=1d65f702 data=dd5a652a22b24894 id=03
[1055000] S1 MEMORY WRITE beat=99 addr=1d65f703 data=364d8e8e3b5f6efe id=03
[1055000] MASTER 0 W_VALID_RDY Handshake beat=100 wlast=0
[1065000] MASTER 0 W_VALID_RDY Handshake beat=101 wlast=0
[1065000] S1 MEMORY WRITE beat=100 addr=1d65f704 data=e5c9e2c985dcb17b id=03
[1075000] S1 MEMORY WRITE beat=101 addr=1d65f705 data=a88efa0fddf2f2e8 id=03
[1075000] MASTER 0 W_VALID_RDY Handshake beat=102 wlast=0
[1085000] MASTER 0 W_VALID_RDY Handshake beat=103 wlast=0
[1085000] S1 MEMORY WRITE beat=102 addr=1d65f706 data=195261e6c32447f4 id=03
[1095000] S1 MEMORY WRITE beat=103 addr=1d65f707 data=c900f96fdedc889d id=03
[1095000] MASTER 0 W_VALID_RDY Handshake beat=104 wlast=0
[1105000] MASTER 0 W_VALID_RDY Handshake beat=105 wlast=0
[1105000] S1 MEMORY WRITE beat=104 addr=1d65f708 data=bccf7b85ff1c44af id=03
[1115000] S1 MEMORY WRITE beat=105 addr=1d65f709 data=c2408ca3f18ff37f id=03
[1115000] MASTER 0 W_VALID_RDY Handshake beat=106 wlast=0
[1125000] MASTER 0 W_VALID_RDY Handshake beat=107 wlast=0
[1125000] S1 MEMORY WRITE beat=106 addr=1d65f70a data=d06c7c1cd621dd6b id=03
[1135000] S1 MEMORY WRITE beat=107 addr=1d65f70b data=d53e221b0b418613 id=03
[1135000] MASTER 0 W_VALID_RDY Handshake beat=108 wlast=0
[1145000] MASTER 0 W_VALID_RDY Handshake beat=109 wlast=0
[1145000] S1 MEMORY WRITE beat=108 addr=1d65f70c data=fcd179920d3bf7a2 id=03
[1155000] S1 MEMORY WRITE beat=109 addr=1d65f70d data=e35dd50d977eaebe id=03
[1155000] MASTER 0 W_VALID_RDY Handshake beat=110 wlast=0
[1165000] MASTER 0 W_VALID_RDY Handshake beat=111 wlast=0
[1165000] S1 MEMORY WRITE beat=110 addr=1d65f70e data=a2c034d1cd3df5ae id=03
[1175000] S1 MEMORY WRITE beat=111 addr=1d65f70f data=da79ed50b89bf728 id=03
[1175000] MASTER 0 W_VALID_RDY Handshake beat=112 wlast=0
[1185000] MASTER 0 W_VALID_RDY Handshake beat=113 wlast=0
[1185000] S1 MEMORY WRITE beat=112 addr=1d65f710 data=d01aa5e79f91ae63 id=03
[1195000] S1 MEMORY WRITE beat=113 addr=1d65f711 data=eccfa4123dd7c25e id=03
[1195000] MASTER 0 W_VALID_RDY Handshake beat=114 wlast=0
[1205000] MASTER 0 W_VALID_RDY Handshake beat=115 wlast=1
[1205000] S1 MEMORY WRITE beat=114 addr=1d65f712 data=f673b986f2dadab8 id=03
[1215000] S1 MEMORY WRITE beat=115 addr=1d65f713 data=126c891cc7499162 id=03
[1225000] SLAVE1 sent B resp, id=3
[1235000] AXI S1_AWVALID_RDY HANDSHAKE
[1235000] [SLAVE MONITOR] mst_id=0 s_id=1 awaddr=1d65f6a0 awid=11 awlen=115 awsize=0 awburst=1 wdata=[118de32ccc4261c4 6577e38fc71d6ab 8a52fb02c4f0b69f 91331863fa08efd8 f67ac6839be0de2e e0d194cd978a969b 9193867380cdc185 1cae9fb4f204ad31 898f43cc880e4cf6 8dc0e7cfd803481 ef84e1b21b22ca40 a3311736258aae30 a30ae2b1f914257f 1436efbfac0d25b2 d197d3e2128fc464 ba3e9e3b76806f5 e3752ca8f4a2b694 7327af81fdad9a2 d742e097b50d008a a9afb71e12d664db 32b13e7dbab80d3f efc50dcab0e23216 c3b896f189f41f14 c4ac2c549974c4e8 ca56f6fff669d56e 5df48334713a1e cde5ff068e0f8df0 479635fc50a20d7 f97b5af5983cf605 264c83f604d757e2 c9e178b9c76159fb df9e50012ac5e755 2f9d3f37c35cd3ae 8abe2da905ead3f7 30b0bb4cf97eb7f0 3cdb8b9eea5c7daa f04751a1e04dfa83 d9ccb273c799b947 31f636f2a0f80ced 8146077016a83e11 de41f758a23d8893 c3359581db12b9e3 f1baf7f490382e4a 3275b6dec47b9cf1 1f8e56d5cffcef4d e0351d97f5ab4c5f ba26e95091494ec9 e1463e1692aad475 885620d4d9b54025 eafe8eefc17b5bae d4263023c27d0a25 9c324a4acc44cd05 8dc028b3dc7c50f8 1ef95b1d8730d939 d375a63fe1e658d7 3e62a9cfbb2ba567 c25c7ea1e135cef2 c31c27c9dd5c04ec 9887aa5315d224e0 f707f3d2817ed198 dedad684dae428f4 f0b64dd43a241b9c bba2ed34f76280d8 d246a9cce7be41a7 21e25d431a7dc3b9 11e04491c2fcf7a1 2abb3948dd854a77 f8030e30e426ee5d a723e5fecc9d968b aa22e10289e352c1 ee0a411fd1df1f46 9e7cb5d12225ef33 ac0941f4952e271d e70d4664c89f96d4 eac586079a138313 2f41aa318589fc35 ce29930996cec7fb 30e24b0f164ef095 9bd8eccab8ef1910 cfbde10ce023f540 f672e5d5ea027fd4 a2f198e400a02c1b e0c4215b924bd29f fc4e5273f2af79f0 f34fa60bd7370730 e982d9cf1f3feb58 91ef6548d413c766 ab4ace96e5d12c43 511179b053f0b54 d952d2ba14cda866 fa9ed4a997007ce3 9c3f8837049da151 196b49b7ffafec44 96b06927f5925af2 fa2ffc43140a1e60 13ba0aa432eff15f 28824c51139b45fa 27a5645aaa6a73cb dd5a652a22b24894 364d8e8e3b5f6efe e5c9e2c985dcb17b a88efa0fddf2f2e8 195261e6c32447f4 c900f96fdedc889d bccf7b85ff1c44af c2408ca3f18ff37f d06c7c1cd621dd6b d53e221b0b418613 fcd179920d3bf7a2 e35dd50d977eaebe a2c034d1cd3df5ae da79ed50b89bf728 d01aa5e79f91ae63 eccfa4123dd7c25e f673b986f2dadab8 126c891cc7499162 ] wstrb=[6d c0 2e 26 47 90 42 b4 51 70 da 98 0 1c 4c 51 8c 27 e9 8d 43 36 de d0 5d c8 5d a0 fe 3b 70 5b 3 cd fb 1 9 6c 5c c 39 58 e 42 c4 6a 4f fd c2 5d 40 86 c7 8f 84 8a ec c4 10 b3 53 94 3d 3f 58 4e f2 ab e2 30 ea 3b 7e dd e6 60 d d1 9b 8b ae 82 eb bb 53 87 46 1 9 31 bc 5c b8 2 5d c1 33 19 1d ec 1b 7a ad 4e 93 cb 3a ae 45 e8 fd d9 b3 37 87 f8 ] bresp=0 bid=11
[1235000] ARB MONITOR: slave=1 m0_req=0 m1_req=1 winner=1
[1245000] MASTER 0 RECEIVED BRESP. BRESP=0
[1245000] [MASTER DRIVER] mst_id=0 s_id=0 awaddr=1d65f6a0 awid=11 awlen=115 awsize=0 awburst=1 wdata=[118de32ccc4261c4 6577e38fc71d6ab 8a52fb02c4f0b69f 91331863fa08efd8 f67ac6839be0de2e e0d194cd978a969b 9193867380cdc185 1cae9fb4f204ad31 898f43cc880e4cf6 8dc0e7cfd803481 ef84e1b21b22ca40 a3311736258aae30 a30ae2b1f914257f 1436efbfac0d25b2 d197d3e2128fc464 ba3e9e3b76806f5 e3752ca8f4a2b694 7327af81fdad9a2 d742e097b50d008a a9afb71e12d664db 32b13e7dbab80d3f efc50dcab0e23216 c3b896f189f41f14 c4ac2c549974c4e8 ca56f6fff669d56e 5df48334713a1e cde5ff068e0f8df0 479635fc50a20d7 f97b5af5983cf605 264c83f604d757e2 c9e178b9c76159fb df9e50012ac5e755 2f9d3f37c35cd3ae 8abe2da905ead3f7 30b0bb4cf97eb7f0 3cdb8b9eea5c7daa f04751a1e04dfa83 d9ccb273c799b947 31f636f2a0f80ced 8146077016a83e11 de41f758a23d8893 c3359581db12b9e3 f1baf7f490382e4a 3275b6dec47b9cf1 1f8e56d5cffcef4d e0351d97f5ab4c5f ba26e95091494ec9 e1463e1692aad475 885620d4d9b54025 eafe8eefc17b5bae d4263023c27d0a25 9c324a4acc44cd05 8dc028b3dc7c50f8 1ef95b1d8730d939 d375a63fe1e658d7 3e62a9cfbb2ba567 c25c7ea1e135cef2 c31c27c9dd5c04ec 9887aa5315d224e0 f707f3d2817ed198 dedad684dae428f4 f0b64dd43a241b9c bba2ed34f76280d8 d246a9cce7be41a7 21e25d431a7dc3b9 11e04491c2fcf7a1 2abb3948dd854a77 f8030e30e426ee5d a723e5fecc9d968b aa22e10289e352c1 ee0a411fd1df1f46 9e7cb5d12225ef33 ac0941f4952e271d e70d4664c89f96d4 eac586079a138313 2f41aa318589fc35 ce29930996cec7fb 30e24b0f164ef095 9bd8eccab8ef1910 cfbde10ce023f540 f672e5d5ea027fd4 a2f198e400a02c1b e0c4215b924bd29f fc4e5273f2af79f0 f34fa60bd7370730 e982d9cf1f3feb58 91ef6548d413c766 ab4ace96e5d12c43 511179b053f0b54 d952d2ba14cda866 fa9ed4a997007ce3 9c3f8837049da151 196b49b7ffafec44 96b06927f5925af2 fa2ffc43140a1e60 13ba0aa432eff15f 28824c51139b45fa 27a5645aaa6a73cb dd5a652a22b24894 364d8e8e3b5f6efe e5c9e2c985dcb17b a88efa0fddf2f2e8 195261e6c32447f4 c900f96fdedc889d bccf7b85ff1c44af c2408ca3f18ff37f d06c7c1cd621dd6b d53e221b0b418613 fcd179920d3bf7a2 e35dd50d977eaebe a2c034d1cd3df5ae da79ed50b89bf728 d01aa5e79f91ae63 eccfa4123dd7c25e f673b986f2dadab8 126c891cc7499162 ] wstrb=[6d c0 2e 26 47 90 42 b4 51 70 da 98 0 1c 4c 51 8c 27 e9 8d 43 36 de d0 5d c8 5d a0 fe 3b 70 5b 3 cd fb 1 9 6c 5c c 39 58 e 42 c4 6a 4f fd c2 5d 40 86 c7 8f 84 8a ec c4 10 b3 53 94 3d 3f 58 4e f2 ab e2 30 ea 3b 7e dd e6 60 d d1 9b 8b ae 82 eb bb 53 87 46 1 9 31 bc 5c b8 2 5d c1 33 19 1d ec 1b 7a ad 4e 93 cb 3a ae 45 e8 fd d9 b3 37 87 f8 ] bresp=0 bid=11
[1245000] MASTER 0 B_VALID_RDY Handshake
[1245000] [MASTER MONITOR] mst_id=0 s_id=1 awaddr=1d65f6a0 awid=11 awlen=115 awsize=0 awburst=1 wdata=[118de32ccc4261c4 6577e38fc71d6ab 8a52fb02c4f0b69f 91331863fa08efd8 f67ac6839be0de2e e0d194cd978a969b 9193867380cdc185 1cae9fb4f204ad31 898f43cc880e4cf6 8dc0e7cfd803481 ef84e1b21b22ca40 a3311736258aae30 a30ae2b1f914257f 1436efbfac0d25b2 d197d3e2128fc464 ba3e9e3b76806f5 e3752ca8f4a2b694 7327af81fdad9a2 d742e097b50d008a a9afb71e12d664db 32b13e7dbab80d3f efc50dcab0e23216 c3b896f189f41f14 c4ac2c549974c4e8 ca56f6fff669d56e 5df48334713a1e cde5ff068e0f8df0 479635fc50a20d7 f97b5af5983cf605 264c83f604d757e2 c9e178b9c76159fb df9e50012ac5e755 2f9d3f37c35cd3ae 8abe2da905ead3f7 30b0bb4cf97eb7f0 3cdb8b9eea5c7daa f04751a1e04dfa83 d9ccb273c799b947 31f636f2a0f80ced 8146077016a83e11 de41f758a23d8893 c3359581db12b9e3 f1baf7f490382e4a 3275b6dec47b9cf1 1f8e56d5cffcef4d e0351d97f5ab4c5f ba26e95091494ec9 e1463e1692aad475 885620d4d9b54025 eafe8eefc17b5bae d4263023c27d0a25 9c324a4acc44cd05 8dc028b3dc7c50f8 1ef95b1d8730d939 d375a63fe1e658d7 3e62a9cfbb2ba567 c25c7ea1e135cef2 c31c27c9dd5c04ec 9887aa5315d224e0 f707f3d2817ed198 dedad684dae428f4 f0b64dd43a241b9c bba2ed34f76280d8 d246a9cce7be41a7 21e25d431a7dc3b9 11e04491c2fcf7a1 2abb3948dd854a77 f8030e30e426ee5d a723e5fecc9d968b aa22e10289e352c1 ee0a411fd1df1f46 9e7cb5d12225ef33 ac0941f4952e271d e70d4664c89f96d4 eac586079a138313 2f41aa318589fc35 ce29930996cec7fb 30e24b0f164ef095 9bd8eccab8ef1910 cfbde10ce023f540 f672e5d5ea027fd4 a2f198e400a02c1b e0c4215b924bd29f fc4e5273f2af79f0 f34fa60bd7370730 e982d9cf1f3feb58 91ef6548d413c766 ab4ace96e5d12c43 511179b053f0b54 d952d2ba14cda866 fa9ed4a997007ce3 9c3f8837049da151 196b49b7ffafec44 96b06927f5925af2 fa2ffc43140a1e60 13ba0aa432eff15f 28824c51139b45fa 27a5645aaa6a73cb dd5a652a22b24894 364d8e8e3b5f6efe e5c9e2c985dcb17b a88efa0fddf2f2e8 195261e6c32447f4 c900f96fdedc889d bccf7b85ff1c44af c2408ca3f18ff37f d06c7c1cd621dd6b d53e221b0b418613 fcd179920d3bf7a2 e35dd50d977eaebe a2c034d1cd3df5ae da79ed50b89bf728 d01aa5e79f91ae63 eccfa4123dd7c25e f673b986f2dadab8 126c891cc7499162 ] wstrb=[6d c0 2e 26 47 90 42 b4 51 70 da 98 0 1c 4c 51 8c 27 e9 8d 43 36 de d0 5d c8 5d a0 fe 3b 70 5b 3 cd fb 1 9 6c 5c c 39 58 e 42 c4 6a 4f fd c2 5d 40 86 c7 8f 84 8a ec c4 10 b3 53 94 3d 3f 58 4e f2 ab e2 30 ea 3b 7e dd e6 60 d d1 9b 8b ae 82 eb bb 53 87 46 1 9 31 bc 5c b8 2 5d c1 33 19 1d ec 1b 7a ad 4e 93 cb 3a ae 45 e8 fd d9 b3 37 87 f8 ] bresp=0 bid=11
[1245000] S1 MEMORY WRITE beat=0 addr=1b4953a0 data=33a11d0f2a0415a3 id=1a
[1245000] SCOREBOARD MATCH: decode_err expected = 0, actual =0
[1245000] SCOREBOARD MATCH: slave_id expected = 1, actual =1
[1245000] SCOREBOARD MATCH: awaddr passthrough expected = 1d65f6a0, actual =1d65f6a0
[1245000] SCOREBOARD MATCH: awlen passthrough expected = 115, actual =115
[1245000] SCOREBOARD MATCH: awsize passthrough expected = 0, actual =0
[1245000] SCOREBOARD MATCH: awburst passthrough expected = 1, actual =1
[1245000] SCOREBOARD MATCH: wdata size check expected = 74, actual =74
[1245000] SCOREBOARD MATCH: wdata passthrough beat=0 expected = 118de32ccc4261c4, actual =118de32ccc4261c4
[1245000] SCOREBOARD MATCH: wdata passthrough beat=1 expected = 6577e38fc71d6ab, actual =6577e38fc71d6ab
[1245000] SCOREBOARD MATCH: wdata passthrough beat=2 expected = 8a52fb02c4f0b69f, actual =8a52fb02c4f0b69f
[1245000] SCOREBOARD MATCH: wdata passthrough beat=3 expected = 91331863fa08efd8, actual =91331863fa08efd8
[1245000] SCOREBOARD MATCH: wdata passthrough beat=4 expected = f67ac6839be0de2e, actual =f67ac6839be0de2e
[1245000] SCOREBOARD MATCH: wdata passthrough beat=5 expected = e0d194cd978a969b, actual =e0d194cd978a969b
[1245000] SCOREBOARD MATCH: wdata passthrough beat=6 expected = 9193867380cdc185, actual =9193867380cdc185
[1245000] SCOREBOARD MATCH: wdata passthrough beat=7 expected = 1cae9fb4f204ad31, actual =1cae9fb4f204ad31
[1245000] SCOREBOARD MATCH: wdata passthrough beat=8 expected = 898f43cc880e4cf6, actual =898f43cc880e4cf6
[1245000] SCOREBOARD MATCH: wdata passthrough beat=9 expected = 8dc0e7cfd803481, actual =8dc0e7cfd803481
[1245000] SCOREBOARD MATCH: wdata passthrough beat=10 expected = ef84e1b21b22ca40, actual =ef84e1b21b22ca40
[1245000] SCOREBOARD MATCH: wdata passthrough beat=11 expected = a3311736258aae30, actual =a3311736258aae30
[1245000] SCOREBOARD MATCH: wdata passthrough beat=12 expected = a30ae2b1f914257f, actual =a30ae2b1f914257f
[1245000] SCOREBOARD MATCH: wdata passthrough beat=13 expected = 1436efbfac0d25b2, actual =1436efbfac0d25b2
[1245000] SCOREBOARD MATCH: wdata passthrough beat=14 expected = d197d3e2128fc464, actual =d197d3e2128fc464
[1245000] SCOREBOARD MATCH: wdata passthrough beat=15 expected = ba3e9e3b76806f5, actual =ba3e9e3b76806f5
[1245000] SCOREBOARD MATCH: wdata passthrough beat=16 expected = e3752ca8f4a2b694, actual =e3752ca8f4a2b694
[1245000] SCOREBOARD MATCH: wdata passthrough beat=17 expected = 7327af81fdad9a2, actual =7327af81fdad9a2
[1245000] SCOREBOARD MATCH: wdata passthrough beat=18 expected = d742e097b50d008a, actual =d742e097b50d008a
[1245000] SCOREBOARD MATCH: wdata passthrough beat=19 expected = a9afb71e12d664db, actual =a9afb71e12d664db
[1245000] SCOREBOARD MATCH: wdata passthrough beat=20 expected = 32b13e7dbab80d3f, actual =32b13e7dbab80d3f
[1245000] SCOREBOARD MATCH: wdata passthrough beat=21 expected = efc50dcab0e23216, actual =efc50dcab0e23216
[1245000] SCOREBOARD MATCH: wdata passthrough beat=22 expected = c3b896f189f41f14, actual =c3b896f189f41f14
[1245000] SCOREBOARD MATCH: wdata passthrough beat=23 expected = c4ac2c549974c4e8, actual =c4ac2c549974c4e8
[1245000] SCOREBOARD MATCH: wdata passthrough beat=24 expected = ca56f6fff669d56e, actual =ca56f6fff669d56e
[1245000] SCOREBOARD MATCH: wdata passthrough beat=25 expected = 5df48334713a1e, actual =5df48334713a1e
[1245000] SCOREBOARD MATCH: wdata passthrough beat=26 expected = cde5ff068e0f8df0, actual =cde5ff068e0f8df0
[1245000] SCOREBOARD MATCH: wdata passthrough beat=27 expected = 479635fc50a20d7, actual =479635fc50a20d7
[1245000] SCOREBOARD MATCH: wdata passthrough beat=28 expected = f97b5af5983cf605, actual =f97b5af5983cf605
[1245000] SCOREBOARD MATCH: wdata passthrough beat=29 expected = 264c83f604d757e2, actual =264c83f604d757e2
[1245000] SCOREBOARD MATCH: wdata passthrough beat=30 expected = c9e178b9c76159fb, actual =c9e178b9c76159fb
[1245000] SCOREBOARD MATCH: wdata passthrough beat=31 expected = df9e50012ac5e755, actual =df9e50012ac5e755
[1245000] SCOREBOARD MATCH: wdata passthrough beat=32 expected = 2f9d3f37c35cd3ae, actual =2f9d3f37c35cd3ae
[1245000] SCOREBOARD MATCH: wdata passthrough beat=33 expected = 8abe2da905ead3f7, actual =8abe2da905ead3f7
[1245000] SCOREBOARD MATCH: wdata passthrough beat=34 expected = 30b0bb4cf97eb7f0, actual =30b0bb4cf97eb7f0
[1245000] SCOREBOARD MATCH: wdata passthrough beat=35 expected = 3cdb8b9eea5c7daa, actual =3cdb8b9eea5c7daa
[1245000] SCOREBOARD MATCH: wdata passthrough beat=36 expected = f04751a1e04dfa83, actual =f04751a1e04dfa83
[1245000] SCOREBOARD MATCH: wdata passthrough beat=37 expected = d9ccb273c799b947, actual =d9ccb273c799b947
[1245000] SCOREBOARD MATCH: wdata passthrough beat=38 expected = 31f636f2a0f80ced, actual =31f636f2a0f80ced
[1245000] SCOREBOARD MATCH: wdata passthrough beat=39 expected = 8146077016a83e11, actual =8146077016a83e11
[1245000] SCOREBOARD MATCH: wdata passthrough beat=40 expected = de41f758a23d8893, actual =de41f758a23d8893
[1245000] SCOREBOARD MATCH: wdata passthrough beat=41 expected = c3359581db12b9e3, actual =c3359581db12b9e3
[1245000] SCOREBOARD MATCH: wdata passthrough beat=42 expected = f1baf7f490382e4a, actual =f1baf7f490382e4a
[1245000] SCOREBOARD MATCH: wdata passthrough beat=43 expected = 3275b6dec47b9cf1, actual =3275b6dec47b9cf1
[1245000] SCOREBOARD MATCH: wdata passthrough beat=44 expected = 1f8e56d5cffcef4d, actual =1f8e56d5cffcef4d
[1245000] SCOREBOARD MATCH: wdata passthrough beat=45 expected = e0351d97f5ab4c5f, actual =e0351d97f5ab4c5f
[1245000] SCOREBOARD MATCH: wdata passthrough beat=46 expected = ba26e95091494ec9, actual =ba26e95091494ec9
[1245000] SCOREBOARD MATCH: wdata passthrough beat=47 expected = e1463e1692aad475, actual =e1463e1692aad475
[1245000] SCOREBOARD MATCH: wdata passthrough beat=48 expected = 885620d4d9b54025, actual =885620d4d9b54025
[1245000] SCOREBOARD MATCH: wdata passthrough beat=49 expected = eafe8eefc17b5bae, actual =eafe8eefc17b5bae
[1245000] SCOREBOARD MATCH: wdata passthrough beat=50 expected = d4263023c27d0a25, actual =d4263023c27d0a25
[1245000] SCOREBOARD MATCH: wdata passthrough beat=51 expected = 9c324a4acc44cd05, actual =9c324a4acc44cd05
[1245000] SCOREBOARD MATCH: wdata passthrough beat=52 expected = 8dc028b3dc7c50f8, actual =8dc028b3dc7c50f8
[1245000] SCOREBOARD MATCH: wdata passthrough beat=53 expected = 1ef95b1d8730d939, actual =1ef95b1d8730d939
[1245000] SCOREBOARD MATCH: wdata passthrough beat=54 expected = d375a63fe1e658d7, actual =d375a63fe1e658d7
[1245000] SCOREBOARD MATCH: wdata passthrough beat=55 expected = 3e62a9cfbb2ba567, actual =3e62a9cfbb2ba567
[1245000] SCOREBOARD MATCH: wdata passthrough beat=56 expected = c25c7ea1e135cef2, actual =c25c7ea1e135cef2
[1245000] SCOREBOARD MATCH: wdata passthrough beat=57 expected = c31c27c9dd5c04ec, actual =c31c27c9dd5c04ec
[1245000] SCOREBOARD MATCH: wdata passthrough beat=58 expected = 9887aa5315d224e0, actual =9887aa5315d224e0
[1245000] SCOREBOARD MATCH: wdata passthrough beat=59 expected = f707f3d2817ed198, actual =f707f3d2817ed198
[1245000] SCOREBOARD MATCH: wdata passthrough beat=60 expected = dedad684dae428f4, actual =dedad684dae428f4
[1245000] SCOREBOARD MATCH: wdata passthrough beat=61 expected = f0b64dd43a241b9c, actual =f0b64dd43a241b9c
[1245000] SCOREBOARD MATCH: wdata passthrough beat=62 expected = bba2ed34f76280d8, actual =bba2ed34f76280d8
[1245000] SCOREBOARD MATCH: wdata passthrough beat=63 expected = d246a9cce7be41a7, actual =d246a9cce7be41a7
[1245000] SCOREBOARD MATCH: wdata passthrough beat=64 expected = 21e25d431a7dc3b9, actual =21e25d431a7dc3b9
[1245000] SCOREBOARD MATCH: wdata passthrough beat=65 expected = 11e04491c2fcf7a1, actual =11e04491c2fcf7a1
[1245000] SCOREBOARD MATCH: wdata passthrough beat=66 expected = 2abb3948dd854a77, actual =2abb3948dd854a77
[1245000] SCOREBOARD MATCH: wdata passthrough beat=67 expected = f8030e30e426ee5d, actual =f8030e30e426ee5d
[1245000] SCOREBOARD MATCH: wdata passthrough beat=68 expected = a723e5fecc9d968b, actual =a723e5fecc9d968b
[1245000] SCOREBOARD MATCH: wdata passthrough beat=69 expected = aa22e10289e352c1, actual =aa22e10289e352c1
[1245000] SCOREBOARD MATCH: wdata passthrough beat=70 expected = ee0a411fd1df1f46, actual =ee0a411fd1df1f46
[1245000] SCOREBOARD MATCH: wdata passthrough beat=71 expected = 9e7cb5d12225ef33, actual =9e7cb5d12225ef33
[1245000] SCOREBOARD MATCH: wdata passthrough beat=72 expected = ac0941f4952e271d, actual =ac0941f4952e271d
[1245000] SCOREBOARD MATCH: wdata passthrough beat=73 expected = e70d4664c89f96d4, actual =e70d4664c89f96d4
[1245000] SCOREBOARD MATCH: wdata passthrough beat=74 expected = eac586079a138313, actual =eac586079a138313
[1245000] SCOREBOARD MATCH: wdata passthrough beat=75 expected = 2f41aa318589fc35, actual =2f41aa318589fc35
[1245000] SCOREBOARD MATCH: wdata passthrough beat=76 expected = ce29930996cec7fb, actual =ce29930996cec7fb
[1245000] SCOREBOARD MATCH: wdata passthrough beat=77 expected = 30e24b0f164ef095, actual =30e24b0f164ef095
[1245000] SCOREBOARD MATCH: wdata passthrough beat=78 expected = 9bd8eccab8ef1910, actual =9bd8eccab8ef1910
[1245000] SCOREBOARD MATCH: wdata passthrough beat=79 expected = cfbde10ce023f540, actual =cfbde10ce023f540
[1245000] SCOREBOARD MATCH: wdata passthrough beat=80 expected = f672e5d5ea027fd4, actual =f672e5d5ea027fd4
[1245000] SCOREBOARD MATCH: wdata passthrough beat=81 expected = a2f198e400a02c1b, actual =a2f198e400a02c1b
[1245000] SCOREBOARD MATCH: wdata passthrough beat=82 expected = e0c4215b924bd29f, actual =e0c4215b924bd29f
[1245000] SCOREBOARD MATCH: wdata passthrough beat=83 expected = fc4e5273f2af79f0, actual =fc4e5273f2af79f0
[1245000] SCOREBOARD MATCH: wdata passthrough beat=84 expected = f34fa60bd7370730, actual =f34fa60bd7370730
[1245000] SCOREBOARD MATCH: wdata passthrough beat=85 expected = e982d9cf1f3feb58, actual =e982d9cf1f3feb58
[1245000] SCOREBOARD MATCH: wdata passthrough beat=86 expected = 91ef6548d413c766, actual =91ef6548d413c766
[1245000] SCOREBOARD MATCH: wdata passthrough beat=87 expected = ab4ace96e5d12c43, actual =ab4ace96e5d12c43
[1245000] SCOREBOARD MATCH: wdata passthrough beat=88 expected = 511179b053f0b54, actual =511179b053f0b54
[1245000] SCOREBOARD MATCH: wdata passthrough beat=89 expected = d952d2ba14cda866, actual =d952d2ba14cda866
[1245000] SCOREBOARD MATCH: wdata passthrough beat=90 expected = fa9ed4a997007ce3, actual =fa9ed4a997007ce3
[1245000] SCOREBOARD MATCH: wdata passthrough beat=91 expected = 9c3f8837049da151, actual =9c3f8837049da151
[1245000] SCOREBOARD MATCH: wdata passthrough beat=92 expected = 196b49b7ffafec44, actual =196b49b7ffafec44
[1245000] SCOREBOARD MATCH: wdata passthrough beat=93 expected = 96b06927f5925af2, actual =96b06927f5925af2
[1245000] SCOREBOARD MATCH: wdata passthrough beat=94 expected = fa2ffc43140a1e60, actual =fa2ffc43140a1e60
[1245000] SCOREBOARD MATCH: wdata passthrough beat=95 expected = 13ba0aa432eff15f, actual =13ba0aa432eff15f
[1245000] SCOREBOARD MATCH: wdata passthrough beat=96 expected = 28824c51139b45fa, actual =28824c51139b45fa
[1245000] SCOREBOARD MATCH: wdata passthrough beat=97 expected = 27a5645aaa6a73cb, actual =27a5645aaa6a73cb
[1245000] SCOREBOARD MATCH: wdata passthrough beat=98 expected = dd5a652a22b24894, actual =dd5a652a22b24894
[1245000] SCOREBOARD MATCH: wdata passthrough beat=99 expected = 364d8e8e3b5f6efe, actual =364d8e8e3b5f6efe
[1245000] SCOREBOARD MATCH: wdata passthrough beat=100 expected = e5c9e2c985dcb17b, actual =e5c9e2c985dcb17b
[1245000] SCOREBOARD MATCH: wdata passthrough beat=101 expected = a88efa0fddf2f2e8, actual =a88efa0fddf2f2e8
[1245000] SCOREBOARD MATCH: wdata passthrough beat=102 expected = 195261e6c32447f4, actual =195261e6c32447f4
[1245000] SCOREBOARD MATCH: wdata passthrough beat=103 expected = c900f96fdedc889d, actual =c900f96fdedc889d
[1245000] SCOREBOARD MATCH: wdata passthrough beat=104 expected = bccf7b85ff1c44af, actual =bccf7b85ff1c44af
[1245000] SCOREBOARD MATCH: wdata passthrough beat=105 expected = c2408ca3f18ff37f, actual =c2408ca3f18ff37f
[1245000] SCOREBOARD MATCH: wdata passthrough beat=106 expected = d06c7c1cd621dd6b, actual =d06c7c1cd621dd6b
[1245000] SCOREBOARD MATCH: wdata passthrough beat=107 expected = d53e221b0b418613, actual =d53e221b0b418613
[1245000] SCOREBOARD MATCH: wdata passthrough beat=108 expected = fcd179920d3bf7a2, actual =fcd179920d3bf7a2
[1245000] SCOREBOARD MATCH: wdata passthrough beat=109 expected = e35dd50d977eaebe, actual =e35dd50d977eaebe
[1245000] SCOREBOARD MATCH: wdata passthrough beat=110 expected = a2c034d1cd3df5ae, actual =a2c034d1cd3df5ae
[1245000] SCOREBOARD MATCH: wdata passthrough beat=111 expected = da79ed50b89bf728, actual =da79ed50b89bf728
[1245000] SCOREBOARD MATCH: wdata passthrough beat=112 expected = d01aa5e79f91ae63, actual =d01aa5e79f91ae63
[1245000] SCOREBOARD MATCH: wdata passthrough beat=113 expected = eccfa4123dd7c25e, actual =eccfa4123dd7c25e
[1245000] SCOREBOARD MATCH: wdata passthrough beat=114 expected = f673b986f2dadab8, actual =f673b986f2dadab8
[1245000] SCOREBOARD MATCH: wdata passthrough beat=115 expected = 126c891cc7499162, actual =126c891cc7499162
[1245000] SCOREBOARD MATCH: wstrb size check expected = 74, actual =74
[1245000] SCOREBOARD MATCH: wstrb passthrough beat=0 expected = 6d, actual =6d
[1245000] SCOREBOARD MATCH: wstrb passthrough beat=1 expected = c0, actual =c0
[1245000] SCOREBOARD MATCH: wstrb passthrough beat=2 expected = 2e, actual =2e
[1245000] SCOREBOARD MATCH: wstrb passthrough beat=3 expected = 26, actual =26
[1245000] SCOREBOARD MATCH: wstrb passthrough beat=4 expected = 47, actual =47
[1245000] SCOREBOARD MATCH: wstrb passthrough beat=5 expected = 90, actual =90
[1245000] SCOREBOARD MATCH: wstrb passthrough beat=6 expected = 42, actual =42
[1245000] SCOREBOARD MATCH: wstrb passthrough beat=7 expected = b4, actual =b4
[1245000] SCOREBOARD MATCH: wstrb passthrough beat=8 expected = 51, actual =51
[1245000] SCOREBOARD MATCH: wstrb passthrough beat=9 expected = 70, actual =70
[1245000] SCOREBOARD MATCH: wstrb passthrough beat=10 expected = da, actual =da
[1245000] SCOREBOARD MATCH: wstrb passthrough beat=11 expected = 98, actual =98
[1245000] SCOREBOARD MATCH: wstrb passthrough beat=12 expected = 0, actual =0
[1245000] SCOREBOARD MATCH: wstrb passthrough beat=13 expected = 1c, actual =1c
[1245000] SCOREBOARD MATCH: wstrb passthrough beat=14 expected = 4c, actual =4c
[1245000] SCOREBOARD MATCH: wstrb passthrough beat=15 expected = 51, actual =51
[1245000] SCOREBOARD MATCH: wstrb passthrough beat=16 expected = 8c, actual =8c
[1245000] SCOREBOARD MATCH: wstrb passthrough beat=17 expected = 27, actual =27
[1245000] SCOREBOARD MATCH: wstrb passthrough beat=18 expected = e9, actual =e9
[1245000] SCOREBOARD MATCH: wstrb passthrough beat=19 expected = 8d, actual =8d
[1245000] SCOREBOARD MATCH: wstrb passthrough beat=20 expected = 43, actual =43
[1245000] SCOREBOARD MATCH: wstrb passthrough beat=21 expected = 36, actual =36
[1245000] SCOREBOARD MATCH: wstrb passthrough beat=22 expected = de, actual =de
[1245000] SCOREBOARD MATCH: wstrb passthrough beat=23 expected = d0, actual =d0
[1245000] SCOREBOARD MATCH: wstrb passthrough beat=24 expected = 5d, actual =5d
[1245000] SCOREBOARD MATCH: wstrb passthrough beat=25 expected = c8, actual =c8
[1245000] SCOREBOARD MATCH: wstrb passthrough beat=26 expected = 5d, actual =5d
[1245000] SCOREBOARD MATCH: wstrb passthrough beat=27 expected = a0, actual =a0
[1245000] SCOREBOARD MATCH: wstrb passthrough beat=28 expected = fe, actual =fe
[1245000] SCOREBOARD MATCH: wstrb passthrough beat=29 expected = 3b, actual =3b
[1245000] SCOREBOARD MATCH: wstrb passthrough beat=30 expected = 70, actual =70
[1245000] SCOREBOARD MATCH: wstrb passthrough beat=31 expected = 5b, actual =5b
[1245000] SCOREBOARD MATCH: wstrb passthrough beat=32 expected = 3, actual =3
[1245000] SCOREBOARD MATCH: wstrb passthrough beat=33 expected = cd, actual =cd
[1245000] SCOREBOARD MATCH: wstrb passthrough beat=34 expected = fb, actual =fb
[1245000] SCOREBOARD MATCH: wstrb passthrough beat=35 expected = 1, actual =1
[1245000] SCOREBOARD MATCH: wstrb passthrough beat=36 expected = 9, actual =9
[1245000] SCOREBOARD MATCH: wstrb passthrough beat=37 expected = 6c, actual =6c
[1245000] SCOREBOARD MATCH: wstrb passthrough beat=38 expected = 5c, actual =5c
[1245000] SCOREBOARD MATCH: wstrb passthrough beat=39 expected = c, actual =c
[1245000] SCOREBOARD MATCH: wstrb passthrough beat=40 expected = 39, actual =39
[1245000] SCOREBOARD MATCH: wstrb passthrough beat=41 expected = 58, actual =58
[1245000] SCOREBOARD MATCH: wstrb passthrough beat=42 expected = e, actual =e
[1245000] SCOREBOARD MATCH: wstrb passthrough beat=43 expected = 42, actual =42
[1245000] SCOREBOARD MATCH: wstrb passthrough beat=44 expected = c4, actual =c4
[1245000] SCOREBOARD MATCH: wstrb passthrough beat=45 expected = 6a, actual =6a
[1245000] SCOREBOARD MATCH: wstrb passthrough beat=46 expected = 4f, actual =4f
[1245000] SCOREBOARD MATCH: wstrb passthrough beat=47 expected = fd, actual =fd
[1245000] SCOREBOARD MATCH: wstrb passthrough beat=48 expected = c2, actual =c2
[1245000] SCOREBOARD MATCH: wstrb passthrough beat=49 expected = 5d, actual =5d
[1245000] SCOREBOARD MATCH: wstrb passthrough beat=50 expected = 40, actual =40
[1245000] SCOREBOARD MATCH: wstrb passthrough beat=51 expected = 86, actual =86
[1245000] SCOREBOARD MATCH: wstrb passthrough beat=52 expected = c7, actual =c7
[1245000] SCOREBOARD MATCH: wstrb passthrough beat=53 expected = 8f, actual =8f
[1245000] SCOREBOARD MATCH: wstrb passthrough beat=54 expected = 84, actual =84
[1245000] SCOREBOARD MATCH: wstrb passthrough beat=55 expected = 8a, actual =8a
[1245000] SCOREBOARD MATCH: wstrb passthrough beat=56 expected = ec, actual =ec
[1245000] SCOREBOARD MATCH: wstrb passthrough beat=57 expected = c4, actual =c4
[1245000] SCOREBOARD MATCH: wstrb passthrough beat=58 expected = 10, actual =10
[1245000] SCOREBOARD MATCH: wstrb passthrough beat=59 expected = b3, actual =b3
[1245000] SCOREBOARD MATCH: wstrb passthrough beat=60 expected = 53, actual =53
[1245000] SCOREBOARD MATCH: wstrb passthrough beat=61 expected = 94, actual =94
[1245000] SCOREBOARD MATCH: wstrb passthrough beat=62 expected = 3d, actual =3d
[1245000] SCOREBOARD MATCH: wstrb passthrough beat=63 expected = 3f, actual =3f
[1245000] SCOREBOARD MATCH: wstrb passthrough beat=64 expected = 58, actual =58
[1245000] SCOREBOARD MATCH: wstrb passthrough beat=65 expected = 4e, actual =4e
[1245000] SCOREBOARD MATCH: wstrb passthrough beat=66 expected = f2, actual =f2
[1245000] SCOREBOARD MATCH: wstrb passthrough beat=67 expected = ab, actual =ab
[1245000] SCOREBOARD MATCH: wstrb passthrough beat=68 expected = e2, actual =e2
[1245000] SCOREBOARD MATCH: wstrb passthrough beat=69 expected = 30, actual =30
[1245000] SCOREBOARD MATCH: wstrb passthrough beat=70 expected = ea, actual =ea
[1245000] SCOREBOARD MATCH: wstrb passthrough beat=71 expected = 3b, actual =3b
[1245000] SCOREBOARD MATCH: wstrb passthrough beat=72 expected = 7e, actual =7e
[1245000] SCOREBOARD MATCH: wstrb passthrough beat=73 expected = dd, actual =dd
[1245000] SCOREBOARD MATCH: wstrb passthrough beat=74 expected = e6, actual =e6
[1245000] SCOREBOARD MATCH: wstrb passthrough beat=75 expected = 60, actual =60
[1245000] SCOREBOARD MATCH: wstrb passthrough beat=76 expected = d, actual =d
[1245000] SCOREBOARD MATCH: wstrb passthrough beat=77 expected = d1, actual =d1
[1245000] SCOREBOARD MATCH: wstrb passthrough beat=78 expected = 9b, actual =9b
[1245000] SCOREBOARD MATCH: wstrb passthrough beat=79 expected = 8b, actual =8b
[1245000] SCOREBOARD MATCH: wstrb passthrough beat=80 expected = ae, actual =ae
[1245000] SCOREBOARD MATCH: wstrb passthrough beat=81 expected = 82, actual =82
[1245000] SCOREBOARD MATCH: wstrb passthrough beat=82 expected = eb, actual =eb
[1245000] SCOREBOARD MATCH: wstrb passthrough beat=83 expected = bb, actual =bb
[1245000] SCOREBOARD MATCH: wstrb passthrough beat=84 expected = 53, actual =53
[1245000] SCOREBOARD MATCH: wstrb passthrough beat=85 expected = 87, actual =87
[1245000] SCOREBOARD MATCH: wstrb passthrough beat=86 expected = 46, actual =46
[1245000] SCOREBOARD MATCH: wstrb passthrough beat=87 expected = 1, actual =1
[1245000] SCOREBOARD MATCH: wstrb passthrough beat=88 expected = 9, actual =9
[1245000] SCOREBOARD MATCH: wstrb passthrough beat=89 expected = 31, actual =31
[1245000] SCOREBOARD MATCH: wstrb passthrough beat=90 expected = bc, actual =bc
[1245000] SCOREBOARD MATCH: wstrb passthrough beat=91 expected = 5c, actual =5c
[1245000] SCOREBOARD MATCH: wstrb passthrough beat=92 expected = b8, actual =b8
[1245000] SCOREBOARD MATCH: wstrb passthrough beat=93 expected = 2, actual =2
[1245000] SCOREBOARD MATCH: wstrb passthrough beat=94 expected = 5d, actual =5d
[1245000] SCOREBOARD MATCH: wstrb passthrough beat=95 expected = c1, actual =c1
[1245000] SCOREBOARD MATCH: wstrb passthrough beat=96 expected = 33, actual =33
[1245000] SCOREBOARD MATCH: wstrb passthrough beat=97 expected = 19, actual =19
[1245000] SCOREBOARD MATCH: wstrb passthrough beat=98 expected = 1d, actual =1d
[1245000] SCOREBOARD MATCH: wstrb passthrough beat=99 expected = ec, actual =ec
[1245000] SCOREBOARD MATCH: wstrb passthrough beat=100 expected = 1b, actual =1b
[1245000] SCOREBOARD MATCH: wstrb passthrough beat=101 expected = 7a, actual =7a
[1245000] SCOREBOARD MATCH: wstrb passthrough beat=102 expected = ad, actual =ad
[1245000] SCOREBOARD MATCH: wstrb passthrough beat=103 expected = 4e, actual =4e
[1245000] SCOREBOARD MATCH: wstrb passthrough beat=104 expected = 93, actual =93
[1245000] SCOREBOARD MATCH: wstrb passthrough beat=105 expected = cb, actual =cb
[1245000] SCOREBOARD MATCH: wstrb passthrough beat=106 expected = 3a, actual =3a
[1245000] SCOREBOARD MATCH: wstrb passthrough beat=107 expected = ae, actual =ae
[1245000] SCOREBOARD MATCH: wstrb passthrough beat=108 expected = 45, actual =45
[1245000] SCOREBOARD MATCH: wstrb passthrough beat=109 expected = e8, actual =e8
[1245000] SCOREBOARD MATCH: wstrb passthrough beat=110 expected = fd, actual =fd
[1245000] SCOREBOARD MATCH: wstrb passthrough beat=111 expected = d9, actual =d9
[1245000] SCOREBOARD MATCH: wstrb passthrough beat=112 expected = b3, actual =b3
[1245000] SCOREBOARD MATCH: wstrb passthrough beat=113 expected = 37, actual =37
[1245000] SCOREBOARD MATCH: wstrb passthrough beat=114 expected = 87, actual =87
[1245000] SCOREBOARD MATCH: wstrb passthrough beat=115 expected = f8, actual =f8
[1245000] SCOREBOARD MATCH: bresp passthrough expected = 0, actual =0
[1245000] SCOREBOARD MATCH: response routed to correct master (write) expected = 0, actual =0
[1245000] [SCOREBOARD-M] mst_id=0 s_id=1 awaddr=1d65f6a0 awid=11 awlen=115 awsize=0 awburst=1 wdata=[118de32ccc4261c4 6577e38fc71d6ab 8a52fb02c4f0b69f 91331863fa08efd8 f67ac6839be0de2e e0d194cd978a969b 9193867380cdc185 1cae9fb4f204ad31 898f43cc880e4cf6 8dc0e7cfd803481 ef84e1b21b22ca40 a3311736258aae30 a30ae2b1f914257f 1436efbfac0d25b2 d197d3e2128fc464 ba3e9e3b76806f5 e3752ca8f4a2b694 7327af81fdad9a2 d742e097b50d008a a9afb71e12d664db 32b13e7dbab80d3f efc50dcab0e23216 c3b896f189f41f14 c4ac2c549974c4e8 ca56f6fff669d56e 5df48334713a1e cde5ff068e0f8df0 479635fc50a20d7 f97b5af5983cf605 264c83f604d757e2 c9e178b9c76159fb df9e50012ac5e755 2f9d3f37c35cd3ae 8abe2da905ead3f7 30b0bb4cf97eb7f0 3cdb8b9eea5c7daa f04751a1e04dfa83 d9ccb273c799b947 31f636f2a0f80ced 8146077016a83e11 de41f758a23d8893 c3359581db12b9e3 f1baf7f490382e4a 3275b6dec47b9cf1 1f8e56d5cffcef4d e0351d97f5ab4c5f ba26e95091494ec9 e1463e1692aad475 885620d4d9b54025 eafe8eefc17b5bae d4263023c27d0a25 9c324a4acc44cd05 8dc028b3dc7c50f8 1ef95b1d8730d939 d375a63fe1e658d7 3e62a9cfbb2ba567 c25c7ea1e135cef2 c31c27c9dd5c04ec 9887aa5315d224e0 f707f3d2817ed198 dedad684dae428f4 f0b64dd43a241b9c bba2ed34f76280d8 d246a9cce7be41a7 21e25d431a7dc3b9 11e04491c2fcf7a1 2abb3948dd854a77 f8030e30e426ee5d a723e5fecc9d968b aa22e10289e352c1 ee0a411fd1df1f46 9e7cb5d12225ef33 ac0941f4952e271d e70d4664c89f96d4 eac586079a138313 2f41aa318589fc35 ce29930996cec7fb 30e24b0f164ef095 9bd8eccab8ef1910 cfbde10ce023f540 f672e5d5ea027fd4 a2f198e400a02c1b e0c4215b924bd29f fc4e5273f2af79f0 f34fa60bd7370730 e982d9cf1f3feb58 91ef6548d413c766 ab4ace96e5d12c43 511179b053f0b54 d952d2ba14cda866 fa9ed4a997007ce3 9c3f8837049da151 196b49b7ffafec44 96b06927f5925af2 fa2ffc43140a1e60 13ba0aa432eff15f 28824c51139b45fa 27a5645aaa6a73cb dd5a652a22b24894 364d8e8e3b5f6efe e5c9e2c985dcb17b a88efa0fddf2f2e8 195261e6c32447f4 c900f96fdedc889d bccf7b85ff1c44af c2408ca3f18ff37f d06c7c1cd621dd6b d53e221b0b418613 fcd179920d3bf7a2 e35dd50d977eaebe a2c034d1cd3df5ae da79ed50b89bf728 d01aa5e79f91ae63 eccfa4123dd7c25e f673b986f2dadab8 126c891cc7499162 ] wstrb=[6d c0 2e 26 47 90 42 b4 51 70 da 98 0 1c 4c 51 8c 27 e9 8d 43 36 de d0 5d c8 5d a0 fe 3b 70 5b 3 cd fb 1 9 6c 5c c 39 58 e 42 c4 6a 4f fd c2 5d 40 86 c7 8f 84 8a ec c4 10 b3 53 94 3d 3f 58 4e f2 ab e2 30 ea 3b 7e dd e6 60 d d1 9b 8b ae 82 eb bb 53 87 46 1 9 31 bc 5c b8 2 5d c1 33 19 1d ec 1b 7a ad 4e 93 cb 3a ae 45 e8 fd d9 b3 37 87 f8 ] bresp=0 bid=11
[1245000] [SCOREBOARD-S] mst_id=0 s_id=1 awaddr=1d65f6a0 awid=11 awlen=115 awsize=0 awburst=1 wdata=[118de32ccc4261c4 6577e38fc71d6ab 8a52fb02c4f0b69f 91331863fa08efd8 f67ac6839be0de2e e0d194cd978a969b 9193867380cdc185 1cae9fb4f204ad31 898f43cc880e4cf6 8dc0e7cfd803481 ef84e1b21b22ca40 a3311736258aae30 a30ae2b1f914257f 1436efbfac0d25b2 d197d3e2128fc464 ba3e9e3b76806f5 e3752ca8f4a2b694 7327af81fdad9a2 d742e097b50d008a a9afb71e12d664db 32b13e7dbab80d3f efc50dcab0e23216 c3b896f189f41f14 c4ac2c549974c4e8 ca56f6fff669d56e 5df48334713a1e cde5ff068e0f8df0 479635fc50a20d7 f97b5af5983cf605 264c83f604d757e2 c9e178b9c76159fb df9e50012ac5e755 2f9d3f37c35cd3ae 8abe2da905ead3f7 30b0bb4cf97eb7f0 3cdb8b9eea5c7daa f04751a1e04dfa83 d9ccb273c799b947 31f636f2a0f80ced 8146077016a83e11 de41f758a23d8893 c3359581db12b9e3 f1baf7f490382e4a 3275b6dec47b9cf1 1f8e56d5cffcef4d e0351d97f5ab4c5f ba26e95091494ec9 e1463e1692aad475 885620d4d9b54025 eafe8eefc17b5bae d4263023c27d0a25 9c324a4acc44cd05 8dc028b3dc7c50f8 1ef95b1d8730d939 d375a63fe1e658d7 3e62a9cfbb2ba567 c25c7ea1e135cef2 c31c27c9dd5c04ec 9887aa5315d224e0 f707f3d2817ed198 dedad684dae428f4 f0b64dd43a241b9c bba2ed34f76280d8 d246a9cce7be41a7 21e25d431a7dc3b9 11e04491c2fcf7a1 2abb3948dd854a77 f8030e30e426ee5d a723e5fecc9d968b aa22e10289e352c1 ee0a411fd1df1f46 9e7cb5d12225ef33 ac0941f4952e271d e70d4664c89f96d4 eac586079a138313 2f41aa318589fc35 ce29930996cec7fb 30e24b0f164ef095 9bd8eccab8ef1910 cfbde10ce023f540 f672e5d5ea027fd4 a2f198e400a02c1b e0c4215b924bd29f fc4e5273f2af79f0 f34fa60bd7370730 e982d9cf1f3feb58 91ef6548d413c766 ab4ace96e5d12c43 511179b053f0b54 d952d2ba14cda866 fa9ed4a997007ce3 9c3f8837049da151 196b49b7ffafec44 96b06927f5925af2 fa2ffc43140a1e60 13ba0aa432eff15f 28824c51139b45fa 27a5645aaa6a73cb dd5a652a22b24894 364d8e8e3b5f6efe e5c9e2c985dcb17b a88efa0fddf2f2e8 195261e6c32447f4 c900f96fdedc889d bccf7b85ff1c44af c2408ca3f18ff37f d06c7c1cd621dd6b d53e221b0b418613 fcd179920d3bf7a2 e35dd50d977eaebe a2c034d1cd3df5ae da79ed50b89bf728 d01aa5e79f91ae63 eccfa4123dd7c25e f673b986f2dadab8 126c891cc7499162 ] wstrb=[6d c0 2e 26 47 90 42 b4 51 70 da 98 0 1c 4c 51 8c 27 e9 8d 43 36 de d0 5d c8 5d a0 fe 3b 70 5b 3 cd fb 1 9 6c 5c c 39 58 e 42 c4 6a 4f fd c2 5d 40 86 c7 8f 84 8a ec c4 10 b3 53 94 3d 3f 58 4e f2 ab e2 30 ea 3b 7e dd e6 60 d d1 9b 8b ae 82 eb bb 53 87 46 1 9 31 bc 5c b8 2 5d c1 33 19 1d ec 1b 7a ad 4e 93 cb 3a ae 45 e8 fd d9 b3 37 87 f8 ] bresp=0 bid=11
[1245000] SCOREBOARD: Transaction 2 received. pass=260 fail=0
[1245000] ALL PASS. Total transactions: 2
[1255000] S1 MEMORY WRITE beat=1 addr=1b4953c0 data=1651a564261aedaa id=1a
[1255000] MASTER 1 W_VALID_RDY Handshake beat=8 wlast=0
[1265000] MASTER 1 W_VALID_RDY Handshake beat=9 wlast=0
[1265000] S1 MEMORY WRITE beat=2 addr=1b4953e0 data=d77d74e0cf053321 id=1a
[1275000] S1 MEMORY WRITE beat=3 addr=1b495400 data=f90948c48e085f99 id=1a
[1275000] MASTER 1 W_VALID_RDY Handshake beat=10 wlast=0
[1285000] MASTER 1 W_VALID_RDY Handshake beat=11 wlast=0
[1285000] S1 MEMORY WRITE beat=4 addr=1b495420 data=b4234d430b1e91ef id=1a
[1295000] S1 MEMORY WRITE beat=5 addr=1b495440 data=da23c5108f5aee28 id=1a
[1295000] MASTER 1 W_VALID_RDY Handshake beat=12 wlast=0
[1305000] MASTER_DRIVER1 received transaction, op=AXI_READ
[1305000] MASTER 1 W_VALID_RDY Handshake beat=13 wlast=1
[1305000] S1 MEMORY WRITE beat=6 addr=1b495460 data=1d634dc28ba0c223 id=1a
[1315000] S1 MEMORY WRITE beat=7 addr=1b4952c0 data=96bf5412d32d0dd5 id=1a
[1325000] MASTER_DRIVER1 received transaction, op=AXI_WRITE
[1325000] S1 MEMORY WRITE beat=8 addr=1b4952e0 data=e287fbfdd1869b05 id=1a
[1335000] S1 MEMORY WRITE beat=9 addr=1b495300 data=dd275d29f0e31923 id=1a
[1335000] AXI S0_ARVALID_RDY HANDSHAKE
[1335000] MEMORY READ MISS beat=0 addr=5bf91b0 -> default data id=18
[1335000] ARB MONITOR: slave=0 m0_req=0 m1_req=1 winner=1
[1345000] MASTER 1 AW_VALID_RDY Handshake
[1345000] SLAVE 0 R_VALID_RDY Handshake beat=0 rlast=0
[1345000] MEMORY READ MISS beat=1 addr=5bf91b8 -> default data id=18
[1345000] S1 MEMORY WRITE beat=10 addr=1b495320 data=c41026f8ffeb49bf id=1a
[1355000] S1 MEMORY WRITE beat=11 addr=1b495340 data=d171e4c5f3e6b13b id=1a
[1355000] SLAVE 0 R_VALID_RDY Handshake beat=1 rlast=1
[1355000] [SLAVE MONITOR] READ mst_id=1 s_id=0 araddr=5bf91b0 arid=2 arlen=1 arsize=3 arburst=1 rid=[1212] rresp=[00] rdata=[baadf00d12345678baadf00d12345678]
[1365000] MASTER 1 W_VALID_RDY Handshake beat=0 wlast=0
[1365000] MASTER 1 R_VALID_RDY Handshake beat=0 rlast=0
[1365000] S1 MEMORY WRITE beat=12 addr=1b495360 data=e4c9ca5ea69822f5 id=1a
[1375000] S1 MEMORY WRITE beat=13 addr=1b495380 data=26836cb52e9941ee id=1a
[1375000] MASTER 1 R_VALID_RDY Handshake beat=1 rlast=1
[1375000] [MASTER MONITOR] READ mst_id=1 s_id=0 araddr=5bf91b0 arid=2 arlen=1 arsize=3 arburst=1 rid=[22] rresp=[00] rdata=[baadf00d12345678baadf00d12345678]
[1375000] MASTER 1 W_VALID_RDY Handshake beat=1 wlast=0
[1375000] [MASTER DRIVER] READ mst_id=1 s_id=0 araddr=5bf91b0 arid=2 arlen=1 arsize=3 arburst=1 rid=[22] rresp=[00] rdata=[baadf00d12345678baadf00d12345678]
[1375000] SCOREBOARD MATCH: decode_err expected = 0, actual =0
[1375000] SCOREBOARD MATCH: slave_id expected = 0, actual =0
[1375000] SCOREBOARD MATCH: araddr passthrough expected = 5bf91b0, actual =5bf91b0
[1375000] SCOREBOARD MATCH: arlen passthrough expected = 1, actual =1
[1375000] SCOREBOARD MATCH: arsize passthrough expected = 3, actual =3
[1375000] SCOREBOARD MATCH: arburst passthrough expected = 1, actual =1
[1375000] SCOREBOARD MATCH: rdata size check expected = 2, actual =2
[1375000] SCOREBOARD MATCH: rdata passthrough beat=0 expected = baadf00d12345678, actual =baadf00d12345678
[1375000] SCOREBOARD MATCH: rdata passthrough beat=1 expected = baadf00d12345678, actual =baadf00d12345678
[1375000] SCOREBOARD MATCH: rresp size check expected = 2, actual =2
[1375000] SCOREBOARD MATCH: rresp passthrough beat=0 expected = 0, actual =0
[1375000] SCOREBOARD MATCH: rresp passthrough beat=1 expected = 0, actual =0
[1375000] SCOREBOARD MATCH: response routed to correct master (read beat 0) expected = 1, actual =1
[1375000] SCOREBOARD MATCH: response routed to correct master (read beat 1) expected = 1, actual =1
[1375000] [SCOREBOARD-M] READ mst_id=1 s_id=0 araddr=5bf91b0 arid=2 arlen=1 arsize=3 arburst=1 rid=[22] rresp=[00] rdata=[baadf00d12345678baadf00d12345678]
[1375000] [SCOREBOARD-S] READ mst_id=1 s_id=0 araddr=5bf91b0 arid=2 arlen=1 arsize=3 arburst=1 rid=[1212] rresp=[00] rdata=[baadf00d12345678baadf00d12345678]
[1375000] SCOREBOARD: Transaction 3 received. pass=274 fail=0
[1375000] ALL PASS. Total transactions: 3
[1385000] MASTER 1 W_VALID_RDY Handshake beat=2 wlast=0
[1385000] SLAVE1 sent B resp, id=10
[1395000] AXI S1_AWVALID_RDY HANDSHAKE
[1395000] [SLAVE MONITOR] mst_id=1 s_id=1 awaddr=1b4953a0 awid=1010 awlen=13 awsize=5 awburst=2 wdata=[33a11d0f2a0415a3 1651a564261aedaa d77d74e0cf053321 f90948c48e085f99 b4234d430b1e91ef da23c5108f5aee28 1d634dc28ba0c223 96bf5412d32d0dd5 e287fbfdd1869b05 dd275d29f0e31923 c41026f8ffeb49bf d171e4c5f3e6b13b e4c9ca5ea69822f5 26836cb52e9941ee ] wstrb=[56 29 7a 4c 88 68 1 de 91 7b 2a 19 e3 2b ] bresp=0 bid=11010
[1395000] ARB MONITOR: slave=1 m0_req=0 m1_req=1 winner=1
[1395000] MASTER 1 W_VALID_RDY Handshake beat=3 wlast=0
[1405000] MASTER 1 RECEIVED BRESP. BRESP=0
[1405000] [MASTER DRIVER] mst_id=1 s_id=0 awaddr=1b4953a0 awid=1010 awlen=13 awsize=5 awburst=2 wdata=[33a11d0f2a0415a3 1651a564261aedaa d77d74e0cf053321 f90948c48e085f99 b4234d430b1e91ef da23c5108f5aee28 1d634dc28ba0c223 96bf5412d32d0dd5 e287fbfdd1869b05 dd275d29f0e31923 c41026f8ffeb49bf d171e4c5f3e6b13b e4c9ca5ea69822f5 26836cb52e9941ee ] wstrb=[56 29 7a 4c 88 68 1 de 91 7b 2a 19 e3 2b ] bresp=0 bid=1010
[1405000] MASTER 1 W_VALID_RDY Handshake beat=4 wlast=0
[1405000] MASTER 1 B_VALID_RDY Handshake
[1405000] [MASTER MONITOR] mst_id=1 s_id=1 awaddr=1b4953a0 awid=1010 awlen=13 awsize=5 awburst=2 wdata=[33a11d0f2a0415a3 1651a564261aedaa d77d74e0cf053321 f90948c48e085f99 b4234d430b1e91ef da23c5108f5aee28 1d634dc28ba0c223 96bf5412d32d0dd5 e287fbfdd1869b05 dd275d29f0e31923 c41026f8ffeb49bf d171e4c5f3e6b13b e4c9ca5ea69822f5 26836cb52e9941ee ] wstrb=[56 29 7a 4c 88 68 1 de 91 7b 2a 19 e3 2b ] bresp=0 bid=1010
[1405000] S1 MEMORY WRITE beat=0 addr=158ce238 data=df23201cec0decd0 id=1b
[1405000] SCOREBOARD MATCH: decode_err expected = 0, actual =0
[1405000] SCOREBOARD MATCH: slave_id expected = 1, actual =1
[1405000] SCOREBOARD MATCH: awaddr passthrough expected = 1b4953a0, actual =1b4953a0
[1405000] SCOREBOARD MATCH: awlen passthrough expected = 13, actual =13
[1405000] SCOREBOARD MATCH: awsize passthrough expected = 5, actual =5
[1405000] SCOREBOARD MATCH: awburst passthrough expected = 2, actual =2
[1405000] SCOREBOARD MATCH: wdata size check expected = e, actual =e
[1405000] SCOREBOARD MATCH: wdata passthrough beat=0 expected = 33a11d0f2a0415a3, actual =33a11d0f2a0415a3
[1405000] SCOREBOARD MATCH: wdata passthrough beat=1 expected = 1651a564261aedaa, actual =1651a564261aedaa
[1405000] SCOREBOARD MATCH: wdata passthrough beat=2 expected = d77d74e0cf053321, actual =d77d74e0cf053321
[1405000] SCOREBOARD MATCH: wdata passthrough beat=3 expected = f90948c48e085f99, actual =f90948c48e085f99
[1405000] SCOREBOARD MATCH: wdata passthrough beat=4 expected = b4234d430b1e91ef, actual =b4234d430b1e91ef
[1405000] SCOREBOARD MATCH: wdata passthrough beat=5 expected = da23c5108f5aee28, actual =da23c5108f5aee28
[1405000] SCOREBOARD MATCH: wdata passthrough beat=6 expected = 1d634dc28ba0c223, actual =1d634dc28ba0c223
[1405000] SCOREBOARD MATCH: wdata passthrough beat=7 expected = 96bf5412d32d0dd5, actual =96bf5412d32d0dd5
[1405000] SCOREBOARD MATCH: wdata passthrough beat=8 expected = e287fbfdd1869b05, actual =e287fbfdd1869b05
[1405000] SCOREBOARD MATCH: wdata passthrough beat=9 expected = dd275d29f0e31923, actual =dd275d29f0e31923
[1405000] SCOREBOARD MATCH: wdata passthrough beat=10 expected = c41026f8ffeb49bf, actual =c41026f8ffeb49bf
[1405000] SCOREBOARD MATCH: wdata passthrough beat=11 expected = d171e4c5f3e6b13b, actual =d171e4c5f3e6b13b
[1405000] SCOREBOARD MATCH: wdata passthrough beat=12 expected = e4c9ca5ea69822f5, actual =e4c9ca5ea69822f5
[1405000] SCOREBOARD MATCH: wdata passthrough beat=13 expected = 26836cb52e9941ee, actual =26836cb52e9941ee
[1405000] SCOREBOARD MATCH: wstrb size check expected = e, actual =e
[1405000] SCOREBOARD MATCH: wstrb passthrough beat=0 expected = 56, actual =56
[1405000] SCOREBOARD MATCH: wstrb passthrough beat=1 expected = 29, actual =29
[1405000] SCOREBOARD MATCH: wstrb passthrough beat=2 expected = 7a, actual =7a
[1405000] SCOREBOARD MATCH: wstrb passthrough beat=3 expected = 4c, actual =4c
[1405000] SCOREBOARD MATCH: wstrb passthrough beat=4 expected = 88, actual =88
[1405000] SCOREBOARD MATCH: wstrb passthrough beat=5 expected = 68, actual =68
[1405000] SCOREBOARD MATCH: wstrb passthrough beat=6 expected = 1, actual =1
[1405000] SCOREBOARD MATCH: wstrb passthrough beat=7 expected = de, actual =de
[1405000] SCOREBOARD MATCH: wstrb passthrough beat=8 expected = 91, actual =91
[1405000] SCOREBOARD MATCH: wstrb passthrough beat=9 expected = 7b, actual =7b
[1405000] SCOREBOARD MATCH: wstrb passthrough beat=10 expected = 2a, actual =2a
[1405000] SCOREBOARD MATCH: wstrb passthrough beat=11 expected = 19, actual =19
[1405000] SCOREBOARD MATCH: wstrb passthrough beat=12 expected = e3, actual =e3
[1405000] SCOREBOARD MATCH: wstrb passthrough beat=13 expected = 2b, actual =2b
[1405000] SCOREBOARD MATCH: bresp passthrough expected = 0, actual =0
[1405000] SCOREBOARD MATCH: response routed to correct master (write) expected = 1, actual =1
[1405000] [SCOREBOARD-M] mst_id=1 s_id=1 awaddr=1b4953a0 awid=1010 awlen=13 awsize=5 awburst=2 wdata=[33a11d0f2a0415a3 1651a564261aedaa d77d74e0cf053321 f90948c48e085f99 b4234d430b1e91ef da23c5108f5aee28 1d634dc28ba0c223 96bf5412d32d0dd5 e287fbfdd1869b05 dd275d29f0e31923 c41026f8ffeb49bf d171e4c5f3e6b13b e4c9ca5ea69822f5 26836cb52e9941ee ] wstrb=[56 29 7a 4c 88 68 1 de 91 7b 2a 19 e3 2b ] bresp=0 bid=1010
[1405000] [SCOREBOARD-S] mst_id=1 s_id=1 awaddr=1b4953a0 awid=1010 awlen=13 awsize=5 awburst=2 wdata=[33a11d0f2a0415a3 1651a564261aedaa d77d74e0cf053321 f90948c48e085f99 b4234d430b1e91ef da23c5108f5aee28 1d634dc28ba0c223 96bf5412d32d0dd5 e287fbfdd1869b05 dd275d29f0e31923 c41026f8ffeb49bf d171e4c5f3e6b13b e4c9ca5ea69822f5 26836cb52e9941ee ] wstrb=[56 29 7a 4c 88 68 1 de 91 7b 2a 19 e3 2b ] bresp=0 bid=11010
[1405000] SCOREBOARD: Transaction 4 received. pass=312 fail=0
[1405000] ALL PASS. Total transactions: 4
[1415000] S1 MEMORY WRITE beat=1 addr=158ce23a data=278e488ccf02f06d id=1b
[1415000] MASTER 1 W_VALID_RDY Handshake beat=5 wlast=0
[1425000] MASTER 1 W_VALID_RDY Handshake beat=6 wlast=0
[1425000] S1 MEMORY WRITE beat=2 addr=158ce23c data=c9b48cb43a7689ff id=1b
[1435000] S1 MEMORY WRITE beat=3 addr=158ce23e data=268476cfb0b499a5 id=1b
[1435000] MASTER 1 W_VALID_RDY Handshake beat=7 wlast=0
[1445000] MASTER 1 W_VALID_RDY Handshake beat=8 wlast=0
[1445000] S1 MEMORY WRITE beat=4 addr=158ce240 data=ffb78a13a8d7acd0 id=1b
[1455000] S1 MEMORY WRITE beat=5 addr=158ce242 data=e34e36cfce12bf5b id=1b
[1455000] MASTER 1 W_VALID_RDY Handshake beat=9 wlast=0
[1465000] MASTER 1 W_VALID_RDY Handshake beat=10 wlast=0
[1465000] S1 MEMORY WRITE beat=6 addr=158ce244 data=fec75900c96c16c7 id=1b
[1475000] S1 MEMORY WRITE beat=7 addr=158ce246 data=f243c39889d2ad9e id=1b
[1475000] MASTER 1 W_VALID_RDY Handshake beat=11 wlast=0
[1485000] MASTER 1 W_VALID_RDY Handshake beat=12 wlast=0
[1485000] S1 MEMORY WRITE beat=8 addr=158ce248 data=d7e56cf9fe7ee313 id=1b
[1495000] S1 MEMORY WRITE beat=9 addr=158ce24a data=c7eaf9dbd591fa67 id=1b
[1495000] MASTER 1 W_VALID_RDY Handshake beat=13 wlast=0
[1505000] MASTER 1 W_VALID_RDY Handshake beat=14 wlast=0
[1505000] S1 MEMORY WRITE beat=10 addr=158ce24c data=df64a806d6acc5fa id=1b
[1515000] S1 MEMORY WRITE beat=11 addr=158ce24e data=d52ba90d3a2ebd73 id=1b
[1515000] MASTER 1 W_VALID_RDY Handshake beat=15 wlast=0
[1525000] MASTER 1 W_VALID_RDY Handshake beat=16 wlast=0
[1525000] S1 MEMORY WRITE beat=12 addr=158ce250 data=8fc0b7dab74a14ff id=1b
[1535000] S1 MEMORY WRITE beat=13 addr=158ce252 data=8df6daf99d16a2e8 id=1b
[1535000] MASTER 1 W_VALID_RDY Handshake beat=17 wlast=0
[1545000] MASTER 1 W_VALID_RDY Handshake beat=18 wlast=0
[1545000] S1 MEMORY WRITE beat=14 addr=158ce254 data=d745605bef255fe0 id=1b
[1555000] S1 MEMORY WRITE beat=15 addr=158ce256 data=266f74e0e3228407 id=1b
[1555000] MASTER 1 W_VALID_RDY Handshake beat=19 wlast=0
[1565000] MASTER 1 W_VALID_RDY Handshake beat=20 wlast=0
[1565000] S1 MEMORY WRITE beat=16 addr=158ce258 data=803926efe7061836 id=1b
[1575000] S1 MEMORY WRITE beat=17 addr=158ce25a data=d62b7816b4664fd9 id=1b
[1575000] MASTER 1 W_VALID_RDY Handshake beat=21 wlast=0
[1585000] MASTER 1 W_VALID_RDY Handshake beat=22 wlast=0
[1585000] S1 MEMORY WRITE beat=18 addr=158ce25c data=9788d3e0d77e874b id=1b
[1595000] S1 MEMORY WRITE beat=19 addr=158ce25e data=3e849f81fc9aecf6 id=1b
[1595000] MASTER 1 W_VALID_RDY Handshake beat=23 wlast=0
[1605000] MASTER 1 W_VALID_RDY Handshake beat=24 wlast=0
[1605000] S1 MEMORY WRITE beat=20 addr=158ce260 data=31013cd017c1fad0 id=1b
[1615000] S1 MEMORY WRITE beat=21 addr=158ce262 data=ef40821b94b01797 id=1b
[1615000] MASTER 1 W_VALID_RDY Handshake beat=25 wlast=0
[1625000] MASTER 1 W_VALID_RDY Handshake beat=26 wlast=0
[1625000] S1 MEMORY WRITE beat=22 addr=158ce264 data=114b048ec88a10b0 id=1b
[1635000] S1 MEMORY WRITE beat=23 addr=158ce266 data=e04c0b802dc5219c id=1b
[1635000] MASTER 1 W_VALID_RDY Handshake beat=27 wlast=0
[1645000] MASTER 1 W_VALID_RDY Handshake beat=28 wlast=0
[1645000] S1 MEMORY WRITE beat=24 addr=158ce268 data=c2753933c24c415e id=1b
[1655000] S1 MEMORY WRITE beat=25 addr=158ce26a data=8ad6520ecf8c8d9b id=1b
[1655000] MASTER 1 W_VALID_RDY Handshake beat=29 wlast=0
[1665000] MASTER 1 W_VALID_RDY Handshake beat=30 wlast=0
[1665000] S1 MEMORY WRITE beat=26 addr=158ce26c data=fd51af37d3c03dc1 id=1b
[1675000] S1 MEMORY WRITE beat=27 addr=158ce26e data=960c7f1feb225d8f id=1b
[1675000] MASTER 1 W_VALID_RDY Handshake beat=31 wlast=0
[1685000] MASTER 1 W_VALID_RDY Handshake beat=32 wlast=0
[1685000] S1 MEMORY WRITE beat=28 addr=158ce270 data=baaeeb2a3fc6e86b id=1b
[1695000] S1 MEMORY WRITE beat=29 addr=158ce272 data=9387262c20e2d12e id=1b
[1695000] MASTER 1 W_VALID_RDY Handshake beat=33 wlast=0
[1705000] MASTER 1 W_VALID_RDY Handshake beat=34 wlast=0
[1705000] S1 MEMORY WRITE beat=30 addr=158ce274 data=0c052ebd38009a62 id=1b
[1715000] S1 MEMORY WRITE beat=31 addr=158ce276 data=f7c782cd2993a54c id=1b
[1715000] MASTER 1 W_VALID_RDY Handshake beat=35 wlast=0
[1725000] MASTER 1 W_VALID_RDY Handshake beat=36 wlast=0
[1725000] S1 MEMORY WRITE beat=32 addr=158ce278 data=ca76767ac6b419e7 id=1b
[1735000] S1 MEMORY WRITE beat=33 addr=158ce27a data=feb4b4498b4ea8f9 id=1b
[1735000] MASTER 1 W_VALID_RDY Handshake beat=37 wlast=0
[1745000] MASTER 1 W_VALID_RDY Handshake beat=38 wlast=0
[1745000] S1 MEMORY WRITE beat=34 addr=158ce27c data=b4e24e45d67ba537 id=1b
[1755000] S1 MEMORY WRITE beat=35 addr=158ce27e data=9d2fbf1ef67c3716 id=1b
[1755000] MASTER 1 W_VALID_RDY Handshake beat=39 wlast=0
[1765000] MASTER 1 W_VALID_RDY Handshake beat=40 wlast=0
[1765000] S1 MEMORY WRITE beat=36 addr=158ce280 data=01cae010ff58c4bf id=1b
[1775000] S1 MEMORY WRITE beat=37 addr=158ce282 data=d5d469f61be47368 id=1b
[1775000] MASTER 1 W_VALID_RDY Handshake beat=41 wlast=0
[1785000] MASTER 1 W_VALID_RDY Handshake beat=42 wlast=0
[1785000] S1 MEMORY WRITE beat=38 addr=158ce284 data=9260aa7eb6ad2e55 id=1b
[1795000] S1 MEMORY WRITE beat=39 addr=158ce286 data=3605f315f3042915 id=1b
[1795000] MASTER 1 W_VALID_RDY Handshake beat=43 wlast=0
[1805000] MASTER 1 W_VALID_RDY Handshake beat=44 wlast=0
[1805000] S1 MEMORY WRITE beat=40 addr=158ce288 data=0ee89c7d942b8a8e id=1b
[1815000] S1 MEMORY WRITE beat=41 addr=158ce28a data=cad8b8e48bda5d0b id=1b
[1815000] MASTER 1 W_VALID_RDY Handshake beat=45 wlast=0
[1825000] MASTER 1 W_VALID_RDY Handshake beat=46 wlast=0
[1825000] S1 MEMORY WRITE beat=42 addr=158ce28c data=fede8620a14946fb id=1b
[1835000] S1 MEMORY WRITE beat=43 addr=158ce28e data=3574d18a00deabf9 id=1b
[1835000] MASTER 1 W_VALID_RDY Handshake beat=47 wlast=0
[1845000] MASTER 1 W_VALID_RDY Handshake beat=48 wlast=0
[1845000] S1 MEMORY WRITE beat=44 addr=158ce290 data=8cb909048dc7229d id=1b
[1855000] S1 MEMORY WRITE beat=45 addr=158ce292 data=2f106999004d8a6e id=1b
[1855000] MASTER 1 W_VALID_RDY Handshake beat=49 wlast=0
[1865000] MASTER 1 W_VALID_RDY Handshake beat=50 wlast=0
[1865000] S1 MEMORY WRITE beat=46 addr=158ce294 data=012c36670b978f25 id=1b
[1875000] S1 MEMORY WRITE beat=47 addr=158ce296 data=995eb1c2e4853b23 id=1b
[1875000] MASTER 1 W_VALID_RDY Handshake beat=51 wlast=0
[1885000] MASTER 1 W_VALID_RDY Handshake beat=52 wlast=0
[1885000] S1 MEMORY WRITE beat=48 addr=158ce298 data=e4d2c5918de53f6b id=1b
[1895000] S1 MEMORY WRITE beat=49 addr=158ce29a data=997cce90c86f1b5b id=1b
[1895000] MASTER 1 W_VALID_RDY Handshake beat=53 wlast=0
[1905000] MASTER 1 W_VALID_RDY Handshake beat=54 wlast=0
[1905000] S1 MEMORY WRITE beat=50 addr=158ce29c data=acf4567ee5fefbf8 id=1b
[1915000] S1 MEMORY WRITE beat=51 addr=158ce29e data=f3e43b6332db8053 id=1b
[1915000] MASTER 1 W_VALID_RDY Handshake beat=55 wlast=0
[1925000] MASTER 1 W_VALID_RDY Handshake beat=56 wlast=0
[1925000] S1 MEMORY WRITE beat=52 addr=158ce2a0 data=fb4a9bae91c71c0f id=1b
[1935000] S1 MEMORY WRITE beat=53 addr=158ce2a2 data=f7c618070d6109f4 id=1b
[1935000] MASTER 1 W_VALID_RDY Handshake beat=57 wlast=0
[1945000] MASTER 1 W_VALID_RDY Handshake beat=58 wlast=0
[1945000] S1 MEMORY WRITE beat=54 addr=158ce2a4 data=c03c8a47283ef22d id=1b
[1955000] S1 MEMORY WRITE beat=55 addr=158ce2a6 data=ba060e3cebaa536b id=1b
[1955000] MASTER 1 W_VALID_RDY Handshake beat=59 wlast=0
[1965000] MASTER 1 W_VALID_RDY Handshake beat=60 wlast=0
[1965000] S1 MEMORY WRITE beat=56 addr=158ce2a8 data=f90b5d5fbb8725f5 id=1b
[1975000] S1 MEMORY WRITE beat=57 addr=158ce2aa data=e3c6182231cc2644 id=1b
[1975000] MASTER 1 W_VALID_RDY Handshake beat=61 wlast=0
[1985000] MASTER 1 W_VALID_RDY Handshake beat=62 wlast=0
[1985000] S1 MEMORY WRITE beat=58 addr=158ce2ac data=1d7679af3947e7a6 id=1b
[1995000] S1 MEMORY WRITE beat=59 addr=158ce2ae data=f4cf0d9b1dcc265f id=1b
[1995000] MASTER 1 W_VALID_RDY Handshake beat=63 wlast=0
[2005000] MASTER 1 W_VALID_RDY Handshake beat=64 wlast=0
[2005000] S1 MEMORY WRITE beat=60 addr=158ce2b0 data=cf984ca31681d70e id=1b
[2015000] S1 MEMORY WRITE beat=61 addr=158ce2b2 data=cfc9beb4d89525be id=1b
[2015000] MASTER 1 W_VALID_RDY Handshake beat=65 wlast=0
[2025000] MASTER 1 W_VALID_RDY Handshake beat=66 wlast=0
[2025000] S1 MEMORY WRITE beat=62 addr=158ce2b4 data=f6614c1ded0ec652 id=1b
[2035000] S1 MEMORY WRITE beat=63 addr=158ce2b6 data=03909d60c498cc4f id=1b
[2035000] MASTER 1 W_VALID_RDY Handshake beat=67 wlast=0
[2045000] MASTER 1 W_VALID_RDY Handshake beat=68 wlast=0
[2045000] S1 MEMORY WRITE beat=64 addr=158ce2b8 data=9d2df20dc5f998c0 id=1b
[2055000] S1 MEMORY WRITE beat=65 addr=158ce2ba data=33085f12d35a5c14 id=1b
[2055000] MASTER 1 W_VALID_RDY Handshake beat=69 wlast=0
[2065000] MASTER 1 W_VALID_RDY Handshake beat=70 wlast=0
[2065000] S1 MEMORY WRITE beat=66 addr=158ce2bc data=97f32863938f3e2a id=1b
[2075000] S1 MEMORY WRITE beat=67 addr=158ce2be data=d988d6ea3698fc72 id=1b
[2075000] MASTER 1 W_VALID_RDY Handshake beat=71 wlast=0
[2085000] MASTER 1 W_VALID_RDY Handshake beat=72 wlast=0
[2085000] S1 MEMORY WRITE beat=68 addr=158ce2c0 data=09f3588635211a71 id=1b
[2095000] S1 MEMORY WRITE beat=69 addr=158ce2c2 data=c8b0589b8c9135fc id=1b
[2095000] MASTER 1 W_VALID_RDY Handshake beat=73 wlast=0
[2105000] MASTER 1 W_VALID_RDY Handshake beat=74 wlast=0
[2105000] S1 MEMORY WRITE beat=70 addr=158ce2c4 data=c32a326ea1e680e9 id=1b
[2115000] S1 MEMORY WRITE beat=71 addr=158ce2c6 data=d7079b5a22392f86 id=1b
[2115000] MASTER 1 W_VALID_RDY Handshake beat=75 wlast=0
[2125000] MASTER 1 W_VALID_RDY Handshake beat=76 wlast=0
[2125000] S1 MEMORY WRITE beat=72 addr=158ce2c8 data=aeca6582cd1d8af4 id=1b
[2135000] S1 MEMORY WRITE beat=73 addr=158ce2ca data=ef040bde1fb7f3f6 id=1b
[2135000] MASTER 1 W_VALID_RDY Handshake beat=77 wlast=0
[2145000] MASTER 1 W_VALID_RDY Handshake beat=78 wlast=0
[2145000] S1 MEMORY WRITE beat=74 addr=158ce2cc data=c1f1237cf1f497f1 id=1b
[2155000] S1 MEMORY WRITE beat=75 addr=158ce2ce data=bf1222e5c60ba738 id=1b
[2155000] MASTER 1 W_VALID_RDY Handshake beat=79 wlast=0
[2165000] MASTER 1 W_VALID_RDY Handshake beat=80 wlast=0
[2165000] S1 MEMORY WRITE beat=76 addr=158ce2d0 data=e5c39b2ef0bb88fe id=1b
[2175000] S1 MEMORY WRITE beat=77 addr=158ce2d2 data=e2b020efae162ec3 id=1b
[2175000] MASTER 1 W_VALID_RDY Handshake beat=81 wlast=0
[2185000] MASTER 1 W_VALID_RDY Handshake beat=82 wlast=0
[2185000] S1 MEMORY WRITE beat=78 addr=158ce2d4 data=f421d5fca7b4beaa id=1b
[2195000] S1 MEMORY WRITE beat=79 addr=158ce2d6 data=187047a921c243d5 id=1b
[2195000] MASTER 1 W_VALID_RDY Handshake beat=83 wlast=0
[2205000] MASTER 1 W_VALID_RDY Handshake beat=84 wlast=0
[2205000] S1 MEMORY WRITE beat=80 addr=158ce2d8 data=cfd87298d9e5712a id=1b
[2215000] S1 MEMORY WRITE beat=81 addr=158ce2da data=019a2fd5fb206898 id=1b
[2215000] MASTER 1 W_VALID_RDY Handshake beat=85 wlast=0
[2225000] MASTER 1 W_VALID_RDY Handshake beat=86 wlast=0
[2225000] S1 MEMORY WRITE beat=82 addr=158ce2dc data=9ce2ac6dc3fa4894 id=1b
[2235000] S1 MEMORY WRITE beat=83 addr=158ce2de data=1ddfb9bf1a0a777e id=1b
[2235000] MASTER 1 W_VALID_RDY Handshake beat=87 wlast=0
[2245000] MASTER 1 W_VALID_RDY Handshake beat=88 wlast=0
[2245000] S1 MEMORY WRITE beat=84 addr=158ce2e0 data=952ae016ecbb1f06 id=1b
[2255000] S1 MEMORY WRITE beat=85 addr=158ce2e2 data=b0b5679a1f79e994 id=1b
[2255000] MASTER 1 W_VALID_RDY Handshake beat=89 wlast=0
[2265000] MASTER 1 W_VALID_RDY Handshake beat=90 wlast=0
[2265000] S1 MEMORY WRITE beat=86 addr=158ce2e4 data=39846112320d8c84 id=1b
[2275000] S1 MEMORY WRITE beat=87 addr=158ce2e6 data=1ec8ab8ace952159 id=1b
[2275000] MASTER 1 W_VALID_RDY Handshake beat=91 wlast=0
[2285000] MASTER 1 W_VALID_RDY Handshake beat=92 wlast=0
[2285000] S1 MEMORY WRITE beat=88 addr=158ce2e8 data=ee0f0aedceaf4128 id=1b
[2295000] S1 MEMORY WRITE beat=89 addr=158ce2ea data=80bccdaccf7e1324 id=1b
[2295000] MASTER 1 W_VALID_RDY Handshake beat=93 wlast=1
[2305000] S1 MEMORY WRITE beat=90 addr=158ce2ec data=1e13347ea7936bff id=1b
[2315000] S1 MEMORY WRITE beat=91 addr=158ce2ee data=f642ad289f857936 id=1b
[2325000] S1 MEMORY WRITE beat=92 addr=158ce2f0 data=ef038c5b8c223f6b id=1b
[2335000] S1 MEMORY WRITE beat=93 addr=158ce2f2 data=33b5ab6bf6ff7ad4 id=1b
[2345000] SLAVE1 sent B resp, id=11
[2355000] [SLAVE MONITOR] mst_id=1 s_id=1 awaddr=158ce238 awid=1011 awlen=93 awsize=1 awburst=1 wdata=[df23201cec0decd0 278e488ccf02f06d c9b48cb43a7689ff 268476cfb0b499a5 ffb78a13a8d7acd0 e34e36cfce12bf5b fec75900c96c16c7 f243c39889d2ad9e d7e56cf9fe7ee313 c7eaf9dbd591fa67 df64a806d6acc5fa d52ba90d3a2ebd73 8fc0b7dab74a14ff 8df6daf99d16a2e8 d745605bef255fe0 266f74e0e3228407 803926efe7061836 d62b7816b4664fd9 9788d3e0d77e874b 3e849f81fc9aecf6 31013cd017c1fad0 ef40821b94b01797 114b048ec88a10b0 e04c0b802dc5219c c2753933c24c415e 8ad6520ecf8c8d9b fd51af37d3c03dc1 960c7f1feb225d8f baaeeb2a3fc6e86b 9387262c20e2d12e c052ebd38009a62 f7c782cd2993a54c ca76767ac6b419e7 feb4b4498b4ea8f9 b4e24e45d67ba537 9d2fbf1ef67c3716 1cae010ff58c4bf d5d469f61be47368 9260aa7eb6ad2e55 3605f315f3042915 ee89c7d942b8a8e cad8b8e48bda5d0b fede8620a14946fb 3574d18a00deabf9 8cb909048dc7229d 2f106999004d8a6e 12c36670b978f25 995eb1c2e4853b23 e4d2c5918de53f6b 997cce90c86f1b5b acf4567ee5fefbf8 f3e43b6332db8053 fb4a9bae91c71c0f f7c618070d6109f4 c03c8a47283ef22d ba060e3cebaa536b f90b5d5fbb8725f5 e3c6182231cc2644 1d7679af3947e7a6 f4cf0d9b1dcc265f cf984ca31681d70e cfc9beb4d89525be f6614c1ded0ec652 3909d60c498cc4f 9d2df20dc5f998c0 33085f12d35a5c14 97f32863938f3e2a d988d6ea3698fc72 9f3588635211a71 c8b0589b8c9135fc c32a326ea1e680e9 d7079b5a22392f86 aeca6582cd1d8af4 ef040bde1fb7f3f6 c1f1237cf1f497f1 bf1222e5c60ba738 e5c39b2ef0bb88fe e2b020efae162ec3 f421d5fca7b4beaa 187047a921c243d5 cfd87298d9e5712a 19a2fd5fb206898 9ce2ac6dc3fa4894 1ddfb9bf1a0a777e 952ae016ecbb1f06 b0b5679a1f79e994 39846112320d8c84 1ec8ab8ace952159 ee0f0aedceaf4128 80bccdaccf7e1324 1e13347ea7936bff f642ad289f857936 ef038c5b8c223f6b 33b5ab6bf6ff7ad4 ] wstrb=[d9 b 93 44 66 67 af 3f 72 42 83 d8 aa 33 17 1c 75 9b f5 1f ce c 3c 43 a7 31 63 75 3d 9f b9 e5 d0 1c 5a d bb 13 f2 8b 2f 4d 98 ea 60 8b 75 90 d8 e 7a 38 99 f0 c8 71 fe 43 a9 97 33 72 8 31 b5 b1 c8 e8 23 d0 19 d8 81 e1 c0 a5 b1 d9 7d 32 ba 3e d7 6b 17 55 9e d2 93 75 3d aa ca db ] bresp=0 bid=11011
[2365000] MASTER 1 RECEIVED BRESP. BRESP=0
[2365000] [MASTER DRIVER] mst_id=1 s_id=0 awaddr=158ce238 awid=1011 awlen=93 awsize=1 awburst=1 wdata=[df23201cec0decd0 278e488ccf02f06d c9b48cb43a7689ff 268476cfb0b499a5 ffb78a13a8d7acd0 e34e36cfce12bf5b fec75900c96c16c7 f243c39889d2ad9e d7e56cf9fe7ee313 c7eaf9dbd591fa67 df64a806d6acc5fa d52ba90d3a2ebd73 8fc0b7dab74a14ff 8df6daf99d16a2e8 d745605bef255fe0 266f74e0e3228407 803926efe7061836 d62b7816b4664fd9 9788d3e0d77e874b 3e849f81fc9aecf6 31013cd017c1fad0 ef40821b94b01797 114b048ec88a10b0 e04c0b802dc5219c c2753933c24c415e 8ad6520ecf8c8d9b fd51af37d3c03dc1 960c7f1feb225d8f baaeeb2a3fc6e86b 9387262c20e2d12e c052ebd38009a62 f7c782cd2993a54c ca76767ac6b419e7 feb4b4498b4ea8f9 b4e24e45d67ba537 9d2fbf1ef67c3716 1cae010ff58c4bf d5d469f61be47368 9260aa7eb6ad2e55 3605f315f3042915 ee89c7d942b8a8e cad8b8e48bda5d0b fede8620a14946fb 3574d18a00deabf9 8cb909048dc7229d 2f106999004d8a6e 12c36670b978f25 995eb1c2e4853b23 e4d2c5918de53f6b 997cce90c86f1b5b acf4567ee5fefbf8 f3e43b6332db8053 fb4a9bae91c71c0f f7c618070d6109f4 c03c8a47283ef22d ba060e3cebaa536b f90b5d5fbb8725f5 e3c6182231cc2644 1d7679af3947e7a6 f4cf0d9b1dcc265f cf984ca31681d70e cfc9beb4d89525be f6614c1ded0ec652 3909d60c498cc4f 9d2df20dc5f998c0 33085f12d35a5c14 97f32863938f3e2a d988d6ea3698fc72 9f3588635211a71 c8b0589b8c9135fc c32a326ea1e680e9 d7079b5a22392f86 aeca6582cd1d8af4 ef040bde1fb7f3f6 c1f1237cf1f497f1 bf1222e5c60ba738 e5c39b2ef0bb88fe e2b020efae162ec3 f421d5fca7b4beaa 187047a921c243d5 cfd87298d9e5712a 19a2fd5fb206898 9ce2ac6dc3fa4894 1ddfb9bf1a0a777e 952ae016ecbb1f06 b0b5679a1f79e994 39846112320d8c84 1ec8ab8ace952159 ee0f0aedceaf4128 80bccdaccf7e1324 1e13347ea7936bff f642ad289f857936 ef038c5b8c223f6b 33b5ab6bf6ff7ad4 ] wstrb=[d9 b 93 44 66 67 af 3f 72 42 83 d8 aa 33 17 1c 75 9b f5 1f ce c 3c 43 a7 31 63 75 3d 9f b9 e5 d0 1c 5a d bb 13 f2 8b 2f 4d 98 ea 60 8b 75 90 d8 e 7a 38 99 f0 c8 71 fe 43 a9 97 33 72 8 31 b5 b1 c8 e8 23 d0 19 d8 81 e1 c0 a5 b1 d9 7d 32 ba 3e d7 6b 17 55 9e d2 93 75 3d aa ca db ] bresp=0 bid=1011
[2365000] MASTER 1 B_VALID_RDY Handshake
[2365000] [MASTER MONITOR] mst_id=1 s_id=1 awaddr=158ce238 awid=1011 awlen=93 awsize=1 awburst=1 wdata=[df23201cec0decd0 278e488ccf02f06d c9b48cb43a7689ff 268476cfb0b499a5 ffb78a13a8d7acd0 e34e36cfce12bf5b fec75900c96c16c7 f243c39889d2ad9e d7e56cf9fe7ee313 c7eaf9dbd591fa67 df64a806d6acc5fa d52ba90d3a2ebd73 8fc0b7dab74a14ff 8df6daf99d16a2e8 d745605bef255fe0 266f74e0e3228407 803926efe7061836 d62b7816b4664fd9 9788d3e0d77e874b 3e849f81fc9aecf6 31013cd017c1fad0 ef40821b94b01797 114b048ec88a10b0 e04c0b802dc5219c c2753933c24c415e 8ad6520ecf8c8d9b fd51af37d3c03dc1 960c7f1feb225d8f baaeeb2a3fc6e86b 9387262c20e2d12e c052ebd38009a62 f7c782cd2993a54c ca76767ac6b419e7 feb4b4498b4ea8f9 b4e24e45d67ba537 9d2fbf1ef67c3716 1cae010ff58c4bf d5d469f61be47368 9260aa7eb6ad2e55 3605f315f3042915 ee89c7d942b8a8e cad8b8e48bda5d0b fede8620a14946fb 3574d18a00deabf9 8cb909048dc7229d 2f106999004d8a6e 12c36670b978f25 995eb1c2e4853b23 e4d2c5918de53f6b 997cce90c86f1b5b acf4567ee5fefbf8 f3e43b6332db8053 fb4a9bae91c71c0f f7c618070d6109f4 c03c8a47283ef22d ba060e3cebaa536b f90b5d5fbb8725f5 e3c6182231cc2644 1d7679af3947e7a6 f4cf0d9b1dcc265f cf984ca31681d70e cfc9beb4d89525be f6614c1ded0ec652 3909d60c498cc4f 9d2df20dc5f998c0 33085f12d35a5c14 97f32863938f3e2a d988d6ea3698fc72 9f3588635211a71 c8b0589b8c9135fc c32a326ea1e680e9 d7079b5a22392f86 aeca6582cd1d8af4 ef040bde1fb7f3f6 c1f1237cf1f497f1 bf1222e5c60ba738 e5c39b2ef0bb88fe e2b020efae162ec3 f421d5fca7b4beaa 187047a921c243d5 cfd87298d9e5712a 19a2fd5fb206898 9ce2ac6dc3fa4894 1ddfb9bf1a0a777e 952ae016ecbb1f06 b0b5679a1f79e994 39846112320d8c84 1ec8ab8ace952159 ee0f0aedceaf4128 80bccdaccf7e1324 1e13347ea7936bff f642ad289f857936 ef038c5b8c223f6b 33b5ab6bf6ff7ad4 ] wstrb=[d9 b 93 44 66 67 af 3f 72 42 83 d8 aa 33 17 1c 75 9b f5 1f ce c 3c 43 a7 31 63 75 3d 9f b9 e5 d0 1c 5a d bb 13 f2 8b 2f 4d 98 ea 60 8b 75 90 d8 e 7a 38 99 f0 c8 71 fe 43 a9 97 33 72 8 31 b5 b1 c8 e8 23 d0 19 d8 81 e1 c0 a5 b1 d9 7d 32 ba 3e d7 6b 17 55 9e d2 93 75 3d aa ca db ] bresp=0 bid=1011
[2365000] SCOREBOARD MATCH: decode_err expected = 0, actual =0
[2365000] SCOREBOARD MATCH: slave_id expected = 1, actual =1
[2365000] SCOREBOARD MATCH: awaddr passthrough expected = 158ce238, actual =158ce238
[2365000] SCOREBOARD MATCH: awlen passthrough expected = 93, actual =93
[2365000] SCOREBOARD MATCH: awsize passthrough expected = 1, actual =1
[2365000] SCOREBOARD MATCH: awburst passthrough expected = 1, actual =1
[2365000] SCOREBOARD MATCH: wdata size check expected = 5e, actual =5e
[2365000] SCOREBOARD MATCH: wdata passthrough beat=0 expected = df23201cec0decd0, actual =df23201cec0decd0
[2365000] SCOREBOARD MATCH: wdata passthrough beat=1 expected = 278e488ccf02f06d, actual =278e488ccf02f06d
[2365000] SCOREBOARD MATCH: wdata passthrough beat=2 expected = c9b48cb43a7689ff, actual =c9b48cb43a7689ff
[2365000] SCOREBOARD MATCH: wdata passthrough beat=3 expected = 268476cfb0b499a5, actual =268476cfb0b499a5
[2365000] SCOREBOARD MATCH: wdata passthrough beat=4 expected = ffb78a13a8d7acd0, actual =ffb78a13a8d7acd0
[2365000] SCOREBOARD MATCH: wdata passthrough beat=5 expected = e34e36cfce12bf5b, actual =e34e36cfce12bf5b
[2365000] SCOREBOARD MATCH: wdata passthrough beat=6 expected = fec75900c96c16c7, actual =fec75900c96c16c7
[2365000] SCOREBOARD MATCH: wdata passthrough beat=7 expected = f243c39889d2ad9e, actual =f243c39889d2ad9e
[2365000] SCOREBOARD MATCH: wdata passthrough beat=8 expected = d7e56cf9fe7ee313, actual =d7e56cf9fe7ee313
[2365000] SCOREBOARD MATCH: wdata passthrough beat=9 expected = c7eaf9dbd591fa67, actual =c7eaf9dbd591fa67
[2365000] SCOREBOARD MATCH: wdata passthrough beat=10 expected = df64a806d6acc5fa, actual =df64a806d6acc5fa
[2365000] SCOREBOARD MATCH: wdata passthrough beat=11 expected = d52ba90d3a2ebd73, actual =d52ba90d3a2ebd73
[2365000] SCOREBOARD MATCH: wdata passthrough beat=12 expected = 8fc0b7dab74a14ff, actual =8fc0b7dab74a14ff
[2365000] SCOREBOARD MATCH: wdata passthrough beat=13 expected = 8df6daf99d16a2e8, actual =8df6daf99d16a2e8
[2365000] SCOREBOARD MATCH: wdata passthrough beat=14 expected = d745605bef255fe0, actual =d745605bef255fe0
[2365000] SCOREBOARD MATCH: wdata passthrough beat=15 expected = 266f74e0e3228407, actual =266f74e0e3228407
[2365000] SCOREBOARD MATCH: wdata passthrough beat=16 expected = 803926efe7061836, actual =803926efe7061836
[2365000] SCOREBOARD MATCH: wdata passthrough beat=17 expected = d62b7816b4664fd9, actual =d62b7816b4664fd9
[2365000] SCOREBOARD MATCH: wdata passthrough beat=18 expected = 9788d3e0d77e874b, actual =9788d3e0d77e874b
[2365000] SCOREBOARD MATCH: wdata passthrough beat=19 expected = 3e849f81fc9aecf6, actual =3e849f81fc9aecf6
[2365000] SCOREBOARD MATCH: wdata passthrough beat=20 expected = 31013cd017c1fad0, actual =31013cd017c1fad0
[2365000] SCOREBOARD MATCH: wdata passthrough beat=21 expected = ef40821b94b01797, actual =ef40821b94b01797
[2365000] SCOREBOARD MATCH: wdata passthrough beat=22 expected = 114b048ec88a10b0, actual =114b048ec88a10b0
[2365000] SCOREBOARD MATCH: wdata passthrough beat=23 expected = e04c0b802dc5219c, actual =e04c0b802dc5219c
[2365000] SCOREBOARD MATCH: wdata passthrough beat=24 expected = c2753933c24c415e, actual =c2753933c24c415e
[2365000] SCOREBOARD MATCH: wdata passthrough beat=25 expected = 8ad6520ecf8c8d9b, actual =8ad6520ecf8c8d9b
[2365000] SCOREBOARD MATCH: wdata passthrough beat=26 expected = fd51af37d3c03dc1, actual =fd51af37d3c03dc1
[2365000] SCOREBOARD MATCH: wdata passthrough beat=27 expected = 960c7f1feb225d8f, actual =960c7f1feb225d8f
[2365000] SCOREBOARD MATCH: wdata passthrough beat=28 expected = baaeeb2a3fc6e86b, actual =baaeeb2a3fc6e86b
[2365000] SCOREBOARD MATCH: wdata passthrough beat=29 expected = 9387262c20e2d12e, actual =9387262c20e2d12e
[2365000] SCOREBOARD MATCH: wdata passthrough beat=30 expected = c052ebd38009a62, actual =c052ebd38009a62
[2365000] SCOREBOARD MATCH: wdata passthrough beat=31 expected = f7c782cd2993a54c, actual =f7c782cd2993a54c
[2365000] SCOREBOARD MATCH: wdata passthrough beat=32 expected = ca76767ac6b419e7, actual =ca76767ac6b419e7
[2365000] SCOREBOARD MATCH: wdata passthrough beat=33 expected = feb4b4498b4ea8f9, actual =feb4b4498b4ea8f9
[2365000] SCOREBOARD MATCH: wdata passthrough beat=34 expected = b4e24e45d67ba537, actual =b4e24e45d67ba537
[2365000] SCOREBOARD MATCH: wdata passthrough beat=35 expected = 9d2fbf1ef67c3716, actual =9d2fbf1ef67c3716
[2365000] SCOREBOARD MATCH: wdata passthrough beat=36 expected = 1cae010ff58c4bf, actual =1cae010ff58c4bf
[2365000] SCOREBOARD MATCH: wdata passthrough beat=37 expected = d5d469f61be47368, actual =d5d469f61be47368
[2365000] SCOREBOARD MATCH: wdata passthrough beat=38 expected = 9260aa7eb6ad2e55, actual =9260aa7eb6ad2e55
[2365000] SCOREBOARD MATCH: wdata passthrough beat=39 expected = 3605f315f3042915, actual =3605f315f3042915
[2365000] SCOREBOARD MATCH: wdata passthrough beat=40 expected = ee89c7d942b8a8e, actual =ee89c7d942b8a8e
[2365000] SCOREBOARD MATCH: wdata passthrough beat=41 expected = cad8b8e48bda5d0b, actual =cad8b8e48bda5d0b
[2365000] SCOREBOARD MATCH: wdata passthrough beat=42 expected = fede8620a14946fb, actual =fede8620a14946fb
[2365000] SCOREBOARD MATCH: wdata passthrough beat=43 expected = 3574d18a00deabf9, actual =3574d18a00deabf9
[2365000] SCOREBOARD MATCH: wdata passthrough beat=44 expected = 8cb909048dc7229d, actual =8cb909048dc7229d
[2365000] SCOREBOARD MATCH: wdata passthrough beat=45 expected = 2f106999004d8a6e, actual =2f106999004d8a6e
[2365000] SCOREBOARD MATCH: wdata passthrough beat=46 expected = 12c36670b978f25, actual =12c36670b978f25
[2365000] SCOREBOARD MATCH: wdata passthrough beat=47 expected = 995eb1c2e4853b23, actual =995eb1c2e4853b23
[2365000] SCOREBOARD MATCH: wdata passthrough beat=48 expected = e4d2c5918de53f6b, actual =e4d2c5918de53f6b
[2365000] SCOREBOARD MATCH: wdata passthrough beat=49 expected = 997cce90c86f1b5b, actual =997cce90c86f1b5b
[2365000] SCOREBOARD MATCH: wdata passthrough beat=50 expected = acf4567ee5fefbf8, actual =acf4567ee5fefbf8
[2365000] SCOREBOARD MATCH: wdata passthrough beat=51 expected = f3e43b6332db8053, actual =f3e43b6332db8053
[2365000] SCOREBOARD MATCH: wdata passthrough beat=52 expected = fb4a9bae91c71c0f, actual =fb4a9bae91c71c0f
[2365000] SCOREBOARD MATCH: wdata passthrough beat=53 expected = f7c618070d6109f4, actual =f7c618070d6109f4
[2365000] SCOREBOARD MATCH: wdata passthrough beat=54 expected = c03c8a47283ef22d, actual =c03c8a47283ef22d
[2365000] SCOREBOARD MATCH: wdata passthrough beat=55 expected = ba060e3cebaa536b, actual =ba060e3cebaa536b
[2365000] SCOREBOARD MATCH: wdata passthrough beat=56 expected = f90b5d5fbb8725f5, actual =f90b5d5fbb8725f5
[2365000] SCOREBOARD MATCH: wdata passthrough beat=57 expected = e3c6182231cc2644, actual =e3c6182231cc2644
[2365000] SCOREBOARD MATCH: wdata passthrough beat=58 expected = 1d7679af3947e7a6, actual =1d7679af3947e7a6
[2365000] SCOREBOARD MATCH: wdata passthrough beat=59 expected = f4cf0d9b1dcc265f, actual =f4cf0d9b1dcc265f
[2365000] SCOREBOARD MATCH: wdata passthrough beat=60 expected = cf984ca31681d70e, actual =cf984ca31681d70e
[2365000] SCOREBOARD MATCH: wdata passthrough beat=61 expected = cfc9beb4d89525be, actual =cfc9beb4d89525be
[2365000] SCOREBOARD MATCH: wdata passthrough beat=62 expected = f6614c1ded0ec652, actual =f6614c1ded0ec652
[2365000] SCOREBOARD MATCH: wdata passthrough beat=63 expected = 3909d60c498cc4f, actual =3909d60c498cc4f
[2365000] SCOREBOARD MATCH: wdata passthrough beat=64 expected = 9d2df20dc5f998c0, actual =9d2df20dc5f998c0
[2365000] SCOREBOARD MATCH: wdata passthrough beat=65 expected = 33085f12d35a5c14, actual =33085f12d35a5c14
[2365000] SCOREBOARD MATCH: wdata passthrough beat=66 expected = 97f32863938f3e2a, actual =97f32863938f3e2a
[2365000] SCOREBOARD MATCH: wdata passthrough beat=67 expected = d988d6ea3698fc72, actual =d988d6ea3698fc72
[2365000] SCOREBOARD MATCH: wdata passthrough beat=68 expected = 9f3588635211a71, actual =9f3588635211a71
[2365000] SCOREBOARD MATCH: wdata passthrough beat=69 expected = c8b0589b8c9135fc, actual =c8b0589b8c9135fc
[2365000] SCOREBOARD MATCH: wdata passthrough beat=70 expected = c32a326ea1e680e9, actual =c32a326ea1e680e9
[2365000] SCOREBOARD MATCH: wdata passthrough beat=71 expected = d7079b5a22392f86, actual =d7079b5a22392f86
[2365000] SCOREBOARD MATCH: wdata passthrough beat=72 expected = aeca6582cd1d8af4, actual =aeca6582cd1d8af4
[2365000] SCOREBOARD MATCH: wdata passthrough beat=73 expected = ef040bde1fb7f3f6, actual =ef040bde1fb7f3f6
[2365000] SCOREBOARD MATCH: wdata passthrough beat=74 expected = c1f1237cf1f497f1, actual =c1f1237cf1f497f1
[2365000] SCOREBOARD MATCH: wdata passthrough beat=75 expected = bf1222e5c60ba738, actual =bf1222e5c60ba738
[2365000] SCOREBOARD MATCH: wdata passthrough beat=76 expected = e5c39b2ef0bb88fe, actual =e5c39b2ef0bb88fe
[2365000] SCOREBOARD MATCH: wdata passthrough beat=77 expected = e2b020efae162ec3, actual =e2b020efae162ec3
[2365000] SCOREBOARD MATCH: wdata passthrough beat=78 expected = f421d5fca7b4beaa, actual =f421d5fca7b4beaa
[2365000] SCOREBOARD MATCH: wdata passthrough beat=79 expected = 187047a921c243d5, actual =187047a921c243d5
[2365000] SCOREBOARD MATCH: wdata passthrough beat=80 expected = cfd87298d9e5712a, actual =cfd87298d9e5712a
[2365000] SCOREBOARD MATCH: wdata passthrough beat=81 expected = 19a2fd5fb206898, actual =19a2fd5fb206898
[2365000] SCOREBOARD MATCH: wdata passthrough beat=82 expected = 9ce2ac6dc3fa4894, actual =9ce2ac6dc3fa4894
[2365000] SCOREBOARD MATCH: wdata passthrough beat=83 expected = 1ddfb9bf1a0a777e, actual =1ddfb9bf1a0a777e
[2365000] SCOREBOARD MATCH: wdata passthrough beat=84 expected = 952ae016ecbb1f06, actual =952ae016ecbb1f06
[2365000] SCOREBOARD MATCH: wdata passthrough beat=85 expected = b0b5679a1f79e994, actual =b0b5679a1f79e994
[2365000] SCOREBOARD MATCH: wdata passthrough beat=86 expected = 39846112320d8c84, actual =39846112320d8c84
[2365000] SCOREBOARD MATCH: wdata passthrough beat=87 expected = 1ec8ab8ace952159, actual =1ec8ab8ace952159
[2365000] SCOREBOARD MATCH: wdata passthrough beat=88 expected = ee0f0aedceaf4128, actual =ee0f0aedceaf4128
[2365000] SCOREBOARD MATCH: wdata passthrough beat=89 expected = 80bccdaccf7e1324, actual =80bccdaccf7e1324
[2365000] SCOREBOARD MATCH: wdata passthrough beat=90 expected = 1e13347ea7936bff, actual =1e13347ea7936bff
