#-----------------------------------------------------------
# xsim v2025.2 (64-bit)
# SW Build 6299465 on Fri Nov 14 12:34:56 MST 2025
# IP Build 6300035 on Fri Nov 14 10:48:45 MST 2025
# SharedData Build 6298862 on Thu Nov 13 04:50:51 MST 2025
# Start of session at: Thu Sep 10 18:03:22 2026
# Process ID         : 3560951
# Current directory  : /home/nashita/Desktop/practice/axi_xbar/sim
# Command line       : xsim -log regress_results/BT_run15.log -mode tcl -source {xsim.dir/tb_top_snap/xsim_script.tcl}
# Log file           : /home/nashita/Desktop/practice/axi_xbar/sim/regress_results/BT_run15.log
# Journal file       : /home/nashita/Desktop/practice/axi_xbar/sim/xsim.jou
# Running On         : vlsi-vivado
# Platform           : Ubuntu
# Operating System   : Ubuntu 24.04.4 LTS
# Processor Detail   : Intel(R) Core(TM) i5-10400 CPU @ 2.90GHz
# CPU Frequency      : 4000.619 MHz
# CPU Physical cores : 6
# CPU Logical cores  : 12
# Host memory        : 41875 MB
# Swap memory        : 27648 MB
# Total Virtual      : 69524 MB
# Available Virtual  : 62776 MB
#-----------------------------------------------------------
source xsim.dir/tb_top_snap/xsim_script.tcl
# xsim {tb_top_snap} -testplusarg BT -autoloadwcfg -runall -sv_seed 16
Time resolution is 1 ps
run -all
[0] RUNNING BASE TEST
[0] INSIDE THE BASE TEST CONSTRUCTOR
[0] ENV: before agent
[0] SLAVE CONSTRUCTED
[0] MASTER MONITOR CONSTRUCTED
[0] MASTER MONITOR CONSTRUCTED
[0] SLAVE MONITOR CONSTRUCTED
[0] SLAVE MONITOR CONSTRUCTED
[0] ARB MONITOR CONSTRUCTED
GENERATOR CONSTRUCTED
[0] ENV: after agent
[0] ENV: before scoreboard
[0] ENV: after scoreboard
[15000] [SEQUENCER] mst_id=1 s_id=0 awaddr=dacf4e8 awid=1010 awlen=0 awsize=6 awburst=2 wdata=[db18911ae532fba8 ] wstrb=[ee ] bresp=0 bid=0
[15000] [SEQUENCER] READ mst_id=1 s_id=0 araddr=85ac4f8 arid=1 arlen=1 arsize=3 arburst=1 rid=[] rresp=[] rdata=[]
[15000] [SEQUENCER] READ mst_id=1 s_id=0 araddr=8d831e0 arid=2 arlen=1 arsize=3 arburst=1 rid=[] rresp=[] rdata=[]
[15000] [SEQUENCER] mst_id=1 s_id=0 awaddr=7e74e40 awid=1 awlen=216 awsize=4 awburst=1 wdata=[87a998f6128a95d3 e7877f9bcce71e78 c075889ed03693b7 e2c1298a09e4ae3c d6cbccb4c81f2194 1855b54cca48a926 d42d576217415552 df6076e6fb16ded6 c55f87fc2af92416 c23a7968f7b62c32 f2cd0b09998cdf5e c4860374a19af04e 19511c81b82c9305 d1b9726486c07cdc 285b6d2b0c1e278a c44aba8f963f75d8 1cfff2b5c1ac89ac cdcab13696042cf3 2c43a2ccc55b5fe0 707e98c92156bc5 281998b9c9439581 e9ef561d4d29ac2 e6e80687d45d3b85 1da0d10615a6deed ea7979af8f019f40 e35edac52c3fc667 c1e6a554d1618036 e0631f7780ffabcb ad3f72322c601f03 fdc19f39c3c1fa3c c4c1a608ef261786 9b863689de24beb0 21e6b8edf201183a e1272fc11947d5c3 f76c9473e6a85ef5 d8a9772ffcad664a 95f53c0d99534d60 fffbac55b9d0a6f0 367e0d3b0d61d081 a6b51de1d8a52385 9275ca75cc734948 d9d519c926b0ca37 ff55edbcc8f3d7b0 156720f9008a37ab 273b01e291cbb831 dabf8fe2ef3c3ac2 efc6726d2690ef9e b85ca7cff026b0db df62eb9d9701744f bd9263ed931c37b1 8342e88ccf295e0b e62ad25af5ef0bbd 890b436ee2a5d42a 31cf323523bd3648 19ac42050c4e2bfb eef4002597fa048f bbb73ad7a2b78573 af05b16e20c3325a b8bd36e9d5637cdc f81b02509df9b193 bebce3edf47471c1 c9d7ee9da720b3be c51a6552f77a1ad7 ebee8c98c1f2f0ed e913a4ac83d7493f fb516416b5c67b35 f7b96c232e2e09fe b205533de73ff0ae 1d066be4e0cd10cf efb1acd2d56b754 9496a80214bfd807 f58ce8d6c1006e0a ee57255eb19d13e6 c65cebed048803a3 c58871ad02edcd61 b48ae147bbe9d4c3 c071d86633df970c 36cd646dfae7cd35 b6d1a1f805fa4a14 39d9e120eb5845b4 e64012e9f7437a5f fd3dc473f0a7458d dbff8b411d11b4e2 14552f413717a593 27beeb20c23f9e2b df51530d1192f3b4 c8aa994783be7661 c5fe148cf3a6824e 5397602f0698467 f427fac8a54f6799 98f5e9e7cde40f49 3e4d93b03a260f55 df7576ee9e2f5fe9 ec136f32b2758e78 ec9b9dcdf86b60d6 969ac0bfaa6102e2 dcd6915bcc1114bc c47c759202ae2ff2 ad0f32d4c9722f28 958343e4db173651 ddc5664389e5c42f d357f358d9ffb976 3516efc80ad49918 94ba5d47e8db373c c2daf0b392dc560b 9db0ef23e812509f d0ed87dcf7f1e07b 8ace3686326b4c6b 9a7d9d0a13c8788f bba590a287f25aa daea7215eb6b24e6 ff339d7596888f90 bf07b53af5680f1f e0d334068aedf67f 2176861099f2274f f5a366fe006d17b eaf4c7fbe07e3b4a fa70629af02d6a75 d0343bf00c6b4e0b ece9895509ca9909 f9f8037ebb2903eb c79451f6e759ebef f12484f8ca2c3f6e 555435a347ddb4c 9bd7c73beb1c8876 3548c7e5cce99550 8167709c0cfc4c34 f818d4aa3a9e0b3f 8787a08f1d3f37d8 2a3b840cad619c8f e7ffa7ce08ef112c 262e4904a25458b6 cfb5f546ef87485e f876598ad069cd10 f2be25c6b7b59d14 a73ce5721ea4a28e ef0e6f9ec2741b0c fa29b8219fb33efc be57e18ae1cc9564 2440b071a1669d93 c119dc90ad665128 f32e68d1e6a6892 bfd10625ff71be1a 2cd80f43337396fe d1ddff9080eae2b5 5ca0d03c0af5d0 ef7e8cce91af05b5 1299e86b2d34b013 e93fa5e3c15c8c5e d30b921312f6893b c02b394ed8be32b1 1a1abf0fe5a57a7e f89c03b9296adf31 22911e2ed265122 d2cbcba1b8c73d07 e2321c381c43d0f1 896a2213cb67cf5a 42f0c62e45b2e1a 809eff0bdc35edb4 279dbd0fe661289a cabc56b50a09211f e63f0ed32bccc971 922df20bcb5b55c0 d56476df8ddccbe2 b9a99553dcea48c0 28459e813ba385b3 c9805195cbd7875f a8c1d01ffdaa1560 b94d9b130329e6e9 cf016e48d1076ea0 ceb1840102cdeca9 5f7d392f7c33e67 c8caad0887ff1f14 8acd0bbdd4f941da ccbc8041177c3109 9f7b501d90c4df4f e5be212995872d49 ad035e522a485bdb bb0d3b2a327aa16b c801ceb4cc7eae70 f6c70a4b20cb5c54 d345fdbff5052d07 c183db77b1d44575 d29fa1c99b47cc73 904cf97a384ae5c2 ea1f2b37a5e59f88 c12d6bfcd1d0d4f1 8a1bbab33cbecd01 e2a46c89d17a6576 234b3a68f43ae5eb 30f9b2eca3d1d885 f54c3dfcad66f51b a1a1db06939e1f75 376ff7fb18977864 c5fe6d7fd29b8df2 e639ad682cbc35f7 c553ae5be7a04886 ba3bd6781da9a563 ca65db5a8b521bda f2f26460a07583e0 be1f29430fb989b5 9b0ba58f2d2e3ad9 cda3beb98885049d 983e8e520dfe09f0 3b2c44c90bc2e7fd 9447ec9a334a33e2 c1483dd288d00382 9492eb7f2c867aed dfd0aecffc74829b 8544861d28dad81a d56153072118eca1 1d8d6f3c19d7719d c2b249b7353201d6 d64aee77a2d1f559 bca966f618139cbe cd459e94f3d85db3 96aa530cff5bb0ad ] wstrb=[b 6b 3 be ff b0 ca a 1c cd c8 1b 7e 93 26 9a 60 ee b5 de 81 db 78 e2 ca 2e c0 4b 9 39 2d d3 67 ee 1f 70 27 4c 44 8e 3a 63 fe 61 af 42 ef ea a5 ee 4b 55 30 3b 3f d6 29 8a 2b 59 c5 6a 2f ee f4 5a 48 ba c4 77 a8 b9 d2 f0 73 96 68 1b 4f 3a c c2 d0 74 de 20 ae ea e2 7e 5e c0 9e c aa 81 8a 8 41 29 14 ec aa 9f f4 eb c8 9 d7 72 a8 cc 5d 70 d5 35 e2 7d 1 3f ed d6 74 cf 53 75 e 40 4b 83 f 9e f8 1d de 44 a0 ed e2 99 b c1 dd ab ae bf 44 b9 80 21 65 2f e1 a9 e8 61 cb 4d 90 ac f7 79 d c2 c6 9e 6e bd 17 7b 7f dd 19 ed 9b 30 69 1a e 82 8 a9 b3 71 c3 c1 f3 cb 6a a6 3c 2d 67 30 f9 d1 d6 35 ff 3e 65 f8 f 3c 2d e 7a 93 6 89 cf 34 98 49 c7 9e d2 ] bresp=0 bid=0
[15000] [SEQUENCER] READ mst_id=1 s_id=0 araddr=1a0f4b60 arid=4 arlen=1 arsize=3 arburst=1 rid=[] rresp=[] rdata=[]
[15000] MASTER_DRIVER1 received transaction, op=AXI_WRITE
[35000] MASTER 1 AW_VALID_RDY Handshake
[45000] ARB MONITOR: slave=0 m0_req=0 m1_req=1 winner=1
[45000] AXI S0_AWVALID_RDY HANDSHAKE
[55000] MASTER 1 W_VALID_RDY Handshake beat=0 wlast=1
[55000] MASTER_DRIVER1 received transaction, op=AXI_READ
[65000] AXI S0_WVALID_RDY HANDSHAKE
[65000] S0 MEMORY WRITE beat=0 addr=0dacf4e8 data=db18911ae532fba8 id=1a
[75000] SLAVE0 sent B resp, id=10
[75000] [SLAVE MONITOR] mst_id=1 s_id=0 awaddr=dacf4e8 awid=1010 awlen=0 awsize=6 awburst=2 wdata=[db18911ae532fba8 ] wstrb=[ee ] bresp=0 bid=11010
[75000] MASTER_DRIVER1 received transaction, op=AXI_READ
[85000] ARB MONITOR: slave=0 m0_req=0 m1_req=1 winner=1
[85000] AXI S0_ARVALID_RDY HANDSHAKE
[85000] MEMORY READ MISS beat=0 addr=85ac4f8 -> default data id=17
[95000] MEMORY READ MISS beat=1 addr=85ac500 -> default data id=17
[95000] SLAVE 0 R_VALID_RDY Handshake beat=0 rlast=0
[95000] MASTER 1 B_VALID_RDY Handshake
[95000] [MASTER MONITOR] mst_id=1 s_id=0 awaddr=dacf4e8 awid=1010 awlen=0 awsize=6 awburst=2 wdata=[db18911ae532fba8 ] wstrb=[ee ] bresp=0 bid=1010
[95000] MASTER_DRIVER1 received transaction, op=AXI_WRITE
[95000] MASTER 1 RECEIVED BRESP. BRESP=0
[95000] [MASTER DRIVER] mst_id=1 s_id=0 awaddr=dacf4e8 awid=1010 awlen=0 awsize=6 awburst=2 wdata=[db18911ae532fba8 ] wstrb=[ee ] bresp=0 bid=1010
[95000] SCOREBOARD MATCH: decode_err expected = 0, actual =0
[95000] SCOREBOARD MATCH: slave_id expected = 0, actual =0
[95000] SCOREBOARD MATCH: awaddr passthrough expected = dacf4e8, actual =dacf4e8
[95000] SCOREBOARD MATCH: awlen passthrough expected = 0, actual =0
[95000] SCOREBOARD MATCH: awsize passthrough expected = 6, actual =6
[95000] SCOREBOARD MATCH: awburst passthrough expected = 2, actual =2
[95000] SCOREBOARD MATCH: wdata size check expected = 1, actual =1
[95000] SCOREBOARD MATCH: wdata passthrough beat=0 expected = db18911ae532fba8, actual =db18911ae532fba8
[95000] SCOREBOARD MATCH: wstrb size check expected = 1, actual =1
[95000] SCOREBOARD MATCH: wstrb passthrough beat=0 expected = ee, actual =ee
[95000] SCOREBOARD MATCH: bresp passthrough expected = 0, actual =0
[95000] SCOREBOARD MATCH: response routed to correct master (write) expected = 1, actual =1
[95000] [SCOREBOARD-M] mst_id=1 s_id=0 awaddr=dacf4e8 awid=1010 awlen=0 awsize=6 awburst=2 wdata=[db18911ae532fba8 ] wstrb=[ee ] bresp=0 bid=1010
[95000] [SCOREBOARD-S] mst_id=1 s_id=0 awaddr=dacf4e8 awid=1010 awlen=0 awsize=6 awburst=2 wdata=[db18911ae532fba8 ] wstrb=[ee ] bresp=0 bid=11010
[95000] SCOREBOARD: Transaction 1 received. pass=12 fail=0
[95000] ALL PASS. Total transactions: 1
[105000] SLAVE 0 R_VALID_RDY Handshake beat=1 rlast=1
[105000] [SLAVE MONITOR] READ mst_id=1 s_id=0 araddr=85ac4f8 arid=1 arlen=1 arsize=3 arburst=1 rid=[1111] rresp=[00] rdata=[baadf00d12345678baadf00d12345678]
[115000] AXI S0_ARVALID_RDY HANDSHAKE
[115000] MEMORY READ MISS beat=0 addr=8d831e0 -> default data id=18
[115000] ARB MONITOR: slave=0 m0_req=0 m1_req=1 winner=1
[115000] MASTER 1 R_VALID_RDY Handshake beat=0 rlast=0
[115000] MASTER 1 AW_VALID_RDY Handshake
[125000] [MASTER DRIVER] READ mst_id=1 s_id=0 araddr=85ac4f8 arid=1 arlen=1 arsize=3 arburst=1 rid=[11] rresp=[00] rdata=[baadf00d12345678baadf00d12345678]
[125000] MASTER 1 R_VALID_RDY Handshake beat=1 rlast=1
[125000] [MASTER MONITOR] READ mst_id=1 s_id=0 araddr=85ac4f8 arid=1 arlen=1 arsize=3 arburst=1 rid=[11] rresp=[00] rdata=[baadf00d12345678baadf00d12345678]
[125000] ARB MONITOR: slave=0 m0_req=0 m1_req=1 winner=1
[125000] SLAVE 0 R_VALID_RDY Handshake beat=0 rlast=0
[125000] MEMORY READ MISS beat=1 addr=8d831e8 -> default data id=18
[125000] AXI S0_AWVALID_RDY HANDSHAKE
[125000] SCOREBOARD MATCH: decode_err expected = 0, actual =0
[125000] SCOREBOARD MATCH: slave_id expected = 0, actual =0
[125000] SCOREBOARD MATCH: araddr passthrough expected = 85ac4f8, actual =85ac4f8
[125000] SCOREBOARD MATCH: arlen passthrough expected = 1, actual =1
[125000] SCOREBOARD MATCH: arsize passthrough expected = 3, actual =3
[125000] SCOREBOARD MATCH: arburst passthrough expected = 1, actual =1
[125000] SCOREBOARD MATCH: rdata size check expected = 2, actual =2
[125000] SCOREBOARD MATCH: rdata passthrough beat=0 expected = baadf00d12345678, actual =baadf00d12345678
[125000] SCOREBOARD MATCH: rdata passthrough beat=1 expected = baadf00d12345678, actual =baadf00d12345678
[125000] SCOREBOARD MATCH: rresp size check expected = 2, actual =2
[125000] SCOREBOARD MATCH: rresp passthrough beat=0 expected = 0, actual =0
[125000] SCOREBOARD MATCH: rresp passthrough beat=1 expected = 0, actual =0
[125000] SCOREBOARD MATCH: response routed to correct master (read beat 0) expected = 1, actual =1
[125000] SCOREBOARD MATCH: response routed to correct master (read beat 1) expected = 1, actual =1
[125000] [SCOREBOARD-M] READ mst_id=1 s_id=0 araddr=85ac4f8 arid=1 arlen=1 arsize=3 arburst=1 rid=[11] rresp=[00] rdata=[baadf00d12345678baadf00d12345678]
[125000] [SCOREBOARD-S] READ mst_id=1 s_id=0 araddr=85ac4f8 arid=1 arlen=1 arsize=3 arburst=1 rid=[1111] rresp=[00] rdata=[baadf00d12345678baadf00d12345678]
[125000] SCOREBOARD: Transaction 2 received. pass=26 fail=0
[125000] ALL PASS. Total transactions: 2
[135000] SLAVE 0 R_VALID_RDY Handshake beat=1 rlast=1
[135000] [SLAVE MONITOR] READ mst_id=1 s_id=0 araddr=8d831e0 arid=2 arlen=1 arsize=3 arburst=1 rid=[1212] rresp=[00] rdata=[baadf00d12345678baadf00d12345678]
[135000] MASTER 1 W_VALID_RDY Handshake beat=0 wlast=0
[145000] MASTER 1 W_VALID_RDY Handshake beat=1 wlast=0
[145000] MASTER 1 R_VALID_RDY Handshake beat=0 rlast=0
[145000] AXI S0_WVALID_RDY HANDSHAKE
[145000] S0 MEMORY WRITE beat=0 addr=07e74e40 data=87a998f6128a95d3 id=11
[155000] AXI S0_WVALID_RDY HANDSHAKE
[155000] S0 MEMORY WRITE beat=1 addr=07e74e50 data=e7877f9bcce71e78 id=11
[155000] MASTER 1 R_VALID_RDY Handshake beat=1 rlast=1
[155000] [MASTER MONITOR] READ mst_id=1 s_id=0 araddr=8d831e0 arid=2 arlen=1 arsize=3 arburst=1 rid=[22] rresp=[00] rdata=[baadf00d12345678baadf00d12345678]
[155000] MASTER 1 W_VALID_RDY Handshake beat=2 wlast=0
[155000] [MASTER DRIVER] READ mst_id=1 s_id=0 araddr=8d831e0 arid=2 arlen=1 arsize=3 arburst=1 rid=[22] rresp=[00] rdata=[baadf00d12345678baadf00d12345678]
[155000] SCOREBOARD MATCH: decode_err expected = 0, actual =0
[155000] SCOREBOARD MATCH: slave_id expected = 0, actual =0
[155000] SCOREBOARD MATCH: araddr passthrough expected = 8d831e0, actual =8d831e0
[155000] SCOREBOARD MATCH: arlen passthrough expected = 1, actual =1
[155000] SCOREBOARD MATCH: arsize passthrough expected = 3, actual =3
[155000] SCOREBOARD MATCH: arburst passthrough expected = 1, actual =1
[155000] SCOREBOARD MATCH: rdata size check expected = 2, actual =2
[155000] SCOREBOARD MATCH: rdata passthrough beat=0 expected = baadf00d12345678, actual =baadf00d12345678
[155000] SCOREBOARD MATCH: rdata passthrough beat=1 expected = baadf00d12345678, actual =baadf00d12345678
[155000] SCOREBOARD MATCH: rresp size check expected = 2, actual =2
[155000] SCOREBOARD MATCH: rresp passthrough beat=0 expected = 0, actual =0
[155000] SCOREBOARD MATCH: rresp passthrough beat=1 expected = 0, actual =0
[155000] SCOREBOARD MATCH: response routed to correct master (read beat 0) expected = 1, actual =1
[155000] SCOREBOARD MATCH: response routed to correct master (read beat 1) expected = 1, actual =1
[155000] [SCOREBOARD-M] READ mst_id=1 s_id=0 araddr=8d831e0 arid=2 arlen=1 arsize=3 arburst=1 rid=[22] rresp=[00] rdata=[baadf00d12345678baadf00d12345678]
[155000] [SCOREBOARD-S] READ mst_id=1 s_id=0 araddr=8d831e0 arid=2 arlen=1 arsize=3 arburst=1 rid=[1212] rresp=[00] rdata=[baadf00d12345678baadf00d12345678]
[155000] SCOREBOARD: Transaction 3 received. pass=40 fail=0
[155000] ALL PASS. Total transactions: 3
[165000] MASTER 1 W_VALID_RDY Handshake beat=3 wlast=0
[165000] AXI S0_WVALID_RDY HANDSHAKE
[165000] S0 MEMORY WRITE beat=2 addr=07e74e60 data=c075889ed03693b7 id=11
[175000] AXI S0_WVALID_RDY HANDSHAKE
[175000] S0 MEMORY WRITE beat=3 addr=07e74e70 data=e2c1298a09e4ae3c id=11
[175000] MASTER 1 W_VALID_RDY Handshake beat=4 wlast=0
[185000] MASTER 1 W_VALID_RDY Handshake beat=5 wlast=0
[185000] AXI S0_WVALID_RDY HANDSHAKE
[185000] S0 MEMORY WRITE beat=4 addr=07e74e80 data=d6cbccb4c81f2194 id=11
[195000] AXI S0_WVALID_RDY HANDSHAKE
[195000] S0 MEMORY WRITE beat=5 addr=07e74e90 data=1855b54cca48a926 id=11
[195000] MASTER 1 W_VALID_RDY Handshake beat=6 wlast=0
[205000] MASTER 1 W_VALID_RDY Handshake beat=7 wlast=0
[205000] AXI S0_WVALID_RDY HANDSHAKE
[205000] S0 MEMORY WRITE beat=6 addr=07e74ea0 data=d42d576217415552 id=11
[215000] AXI S0_WVALID_RDY HANDSHAKE
[215000] S0 MEMORY WRITE beat=7 addr=07e74eb0 data=df6076e6fb16ded6 id=11
[215000] MASTER 1 W_VALID_RDY Handshake beat=8 wlast=0
[225000] MASTER 1 W_VALID_RDY Handshake beat=9 wlast=0
[225000] AXI S0_WVALID_RDY HANDSHAKE
[225000] S0 MEMORY WRITE beat=8 addr=07e74ec0 data=c55f87fc2af92416 id=11
[235000] AXI S0_WVALID_RDY HANDSHAKE
[235000] S0 MEMORY WRITE beat=9 addr=07e74ed0 data=c23a7968f7b62c32 id=11
[235000] MASTER 1 W_VALID_RDY Handshake beat=10 wlast=0
[245000] MASTER 1 W_VALID_RDY Handshake beat=11 wlast=0
[245000] AXI S0_WVALID_RDY HANDSHAKE
[245000] S0 MEMORY WRITE beat=10 addr=07e74ee0 data=f2cd0b09998cdf5e id=11
[255000] AXI S0_WVALID_RDY HANDSHAKE
[255000] S0 MEMORY WRITE beat=11 addr=07e74ef0 data=c4860374a19af04e id=11
[255000] MASTER 1 W_VALID_RDY Handshake beat=12 wlast=0
[265000] MASTER 1 W_VALID_RDY Handshake beat=13 wlast=0
[265000] AXI S0_WVALID_RDY HANDSHAKE
[265000] S0 MEMORY WRITE beat=12 addr=07e74f00 data=19511c81b82c9305 id=11
[275000] AXI S0_WVALID_RDY HANDSHAKE
[275000] S0 MEMORY WRITE beat=13 addr=07e74f10 data=d1b9726486c07cdc id=11
[275000] MASTER 1 W_VALID_RDY Handshake beat=14 wlast=0
[285000] MASTER 1 W_VALID_RDY Handshake beat=15 wlast=0
[285000] AXI S0_WVALID_RDY HANDSHAKE
[285000] S0 MEMORY WRITE beat=14 addr=07e74f20 data=285b6d2b0c1e278a id=11
[295000] AXI S0_WVALID_RDY HANDSHAKE
[295000] S0 MEMORY WRITE beat=15 addr=07e74f30 data=c44aba8f963f75d8 id=11
[295000] MASTER 1 W_VALID_RDY Handshake beat=16 wlast=0
[305000] MASTER 1 W_VALID_RDY Handshake beat=17 wlast=0
[305000] AXI S0_WVALID_RDY HANDSHAKE
[305000] S0 MEMORY WRITE beat=16 addr=07e74f40 data=1cfff2b5c1ac89ac id=11
[315000] AXI S0_WVALID_RDY HANDSHAKE
[315000] S0 MEMORY WRITE beat=17 addr=07e74f50 data=cdcab13696042cf3 id=11
[315000] MASTER 1 W_VALID_RDY Handshake beat=18 wlast=0
[325000] MASTER 1 W_VALID_RDY Handshake beat=19 wlast=0
[325000] AXI S0_WVALID_RDY HANDSHAKE
[325000] S0 MEMORY WRITE beat=18 addr=07e74f60 data=2c43a2ccc55b5fe0 id=11
[335000] AXI S0_WVALID_RDY HANDSHAKE
[335000] S0 MEMORY WRITE beat=19 addr=07e74f70 data=0707e98c92156bc5 id=11
[335000] MASTER 1 W_VALID_RDY Handshake beat=20 wlast=0
[345000] MASTER 1 W_VALID_RDY Handshake beat=21 wlast=0
[345000] AXI S0_WVALID_RDY HANDSHAKE
[345000] S0 MEMORY WRITE beat=20 addr=07e74f80 data=281998b9c9439581 id=11
[355000] AXI S0_WVALID_RDY HANDSHAKE
[355000] S0 MEMORY WRITE beat=21 addr=07e74f90 data=0e9ef561d4d29ac2 id=11
[355000] MASTER 1 W_VALID_RDY Handshake beat=22 wlast=0
[365000] MASTER 1 W_VALID_RDY Handshake beat=23 wlast=0
[365000] AXI S0_WVALID_RDY HANDSHAKE
[365000] S0 MEMORY WRITE beat=22 addr=07e74fa0 data=e6e80687d45d3b85 id=11
[375000] AXI S0_WVALID_RDY HANDSHAKE
[375000] S0 MEMORY WRITE beat=23 addr=07e74fb0 data=1da0d10615a6deed id=11
[375000] MASTER 1 W_VALID_RDY Handshake beat=24 wlast=0
[385000] MASTER 1 W_VALID_RDY Handshake beat=25 wlast=0
[385000] AXI S0_WVALID_RDY HANDSHAKE
[385000] S0 MEMORY WRITE beat=24 addr=07e74fc0 data=ea7979af8f019f40 id=11
[395000] AXI S0_WVALID_RDY HANDSHAKE
[395000] S0 MEMORY WRITE beat=25 addr=07e74fd0 data=e35edac52c3fc667 id=11
[395000] MASTER 1 W_VALID_RDY Handshake beat=26 wlast=0
[405000] MASTER 1 W_VALID_RDY Handshake beat=27 wlast=0
[405000] AXI S0_WVALID_RDY HANDSHAKE
[405000] S0 MEMORY WRITE beat=26 addr=07e74fe0 data=c1e6a554d1618036 id=11
[415000] AXI S0_WVALID_RDY HANDSHAKE
[415000] S0 MEMORY WRITE beat=27 addr=07e74ff0 data=e0631f7780ffabcb id=11
[415000] MASTER 1 W_VALID_RDY Handshake beat=28 wlast=0
[425000] MASTER 1 W_VALID_RDY Handshake beat=29 wlast=0
[425000] AXI S0_WVALID_RDY HANDSHAKE
[425000] S0 MEMORY WRITE beat=28 addr=07e75000 data=ad3f72322c601f03 id=11
[435000] AXI S0_WVALID_RDY HANDSHAKE
[435000] S0 MEMORY WRITE beat=29 addr=07e75010 data=fdc19f39c3c1fa3c id=11
[435000] MASTER 1 W_VALID_RDY Handshake beat=30 wlast=0
[445000] MASTER 1 W_VALID_RDY Handshake beat=31 wlast=0
[445000] AXI S0_WVALID_RDY HANDSHAKE
[445000] S0 MEMORY WRITE beat=30 addr=07e75020 data=c4c1a608ef261786 id=11
[455000] AXI S0_WVALID_RDY HANDSHAKE
[455000] S0 MEMORY WRITE beat=31 addr=07e75030 data=9b863689de24beb0 id=11
[455000] MASTER 1 W_VALID_RDY Handshake beat=32 wlast=0
[465000] MASTER 1 W_VALID_RDY Handshake beat=33 wlast=0
[465000] AXI S0_WVALID_RDY HANDSHAKE
[465000] S0 MEMORY WRITE beat=32 addr=07e75040 data=21e6b8edf201183a id=11
[475000] AXI S0_WVALID_RDY HANDSHAKE
[475000] S0 MEMORY WRITE beat=33 addr=07e75050 data=e1272fc11947d5c3 id=11
[475000] MASTER 1 W_VALID_RDY Handshake beat=34 wlast=0
[485000] MASTER 1 W_VALID_RDY Handshake beat=35 wlast=0
[485000] AXI S0_WVALID_RDY HANDSHAKE
[485000] S0 MEMORY WRITE beat=34 addr=07e75060 data=f76c9473e6a85ef5 id=11
[495000] AXI S0_WVALID_RDY HANDSHAKE
[495000] S0 MEMORY WRITE beat=35 addr=07e75070 data=d8a9772ffcad664a id=11
[495000] MASTER 1 W_VALID_RDY Handshake beat=36 wlast=0
[505000] MASTER 1 W_VALID_RDY Handshake beat=37 wlast=0
[505000] AXI S0_WVALID_RDY HANDSHAKE
[505000] S0 MEMORY WRITE beat=36 addr=07e75080 data=95f53c0d99534d60 id=11
[515000] AXI S0_WVALID_RDY HANDSHAKE
[515000] S0 MEMORY WRITE beat=37 addr=07e75090 data=fffbac55b9d0a6f0 id=11
[515000] MASTER 1 W_VALID_RDY Handshake beat=38 wlast=0
[525000] MASTER 1 W_VALID_RDY Handshake beat=39 wlast=0
[525000] AXI S0_WVALID_RDY HANDSHAKE
[525000] S0 MEMORY WRITE beat=38 addr=07e750a0 data=367e0d3b0d61d081 id=11
[535000] AXI S0_WVALID_RDY HANDSHAKE
[535000] S0 MEMORY WRITE beat=39 addr=07e750b0 data=a6b51de1d8a52385 id=11
[535000] MASTER 1 W_VALID_RDY Handshake beat=40 wlast=0
[545000] MASTER 1 W_VALID_RDY Handshake beat=41 wlast=0
[545000] AXI S0_WVALID_RDY HANDSHAKE
[545000] S0 MEMORY WRITE beat=40 addr=07e750c0 data=9275ca75cc734948 id=11
[555000] AXI S0_WVALID_RDY HANDSHAKE
[555000] S0 MEMORY WRITE beat=41 addr=07e750d0 data=d9d519c926b0ca37 id=11
[555000] MASTER 1 W_VALID_RDY Handshake beat=42 wlast=0
[565000] MASTER 1 W_VALID_RDY Handshake beat=43 wlast=0
[565000] AXI S0_WVALID_RDY HANDSHAKE
[565000] S0 MEMORY WRITE beat=42 addr=07e750e0 data=ff55edbcc8f3d7b0 id=11
[575000] AXI S0_WVALID_RDY HANDSHAKE
[575000] S0 MEMORY WRITE beat=43 addr=07e750f0 data=156720f9008a37ab id=11
[575000] MASTER 1 W_VALID_RDY Handshake beat=44 wlast=0
[585000] MASTER 1 W_VALID_RDY Handshake beat=45 wlast=0
[585000] AXI S0_WVALID_RDY HANDSHAKE
[585000] S0 MEMORY WRITE beat=44 addr=07e75100 data=273b01e291cbb831 id=11
[595000] AXI S0_WVALID_RDY HANDSHAKE
[595000] S0 MEMORY WRITE beat=45 addr=07e75110 data=dabf8fe2ef3c3ac2 id=11
[595000] MASTER 1 W_VALID_RDY Handshake beat=46 wlast=0
[605000] MASTER 1 W_VALID_RDY Handshake beat=47 wlast=0
[605000] AXI S0_WVALID_RDY HANDSHAKE
[605000] S0 MEMORY WRITE beat=46 addr=07e75120 data=efc6726d2690ef9e id=11
[615000] AXI S0_WVALID_RDY HANDSHAKE
[615000] S0 MEMORY WRITE beat=47 addr=07e75130 data=b85ca7cff026b0db id=11
[615000] MASTER 1 W_VALID_RDY Handshake beat=48 wlast=0
[625000] MASTER 1 W_VALID_RDY Handshake beat=49 wlast=0
[625000] AXI S0_WVALID_RDY HANDSHAKE
[625000] S0 MEMORY WRITE beat=48 addr=07e75140 data=df62eb9d9701744f id=11
[635000] AXI S0_WVALID_RDY HANDSHAKE
[635000] S0 MEMORY WRITE beat=49 addr=07e75150 data=bd9263ed931c37b1 id=11
[635000] MASTER 1 W_VALID_RDY Handshake beat=50 wlast=0
[645000] MASTER 1 W_VALID_RDY Handshake beat=51 wlast=0
[645000] AXI S0_WVALID_RDY HANDSHAKE
[645000] S0 MEMORY WRITE beat=50 addr=07e75160 data=8342e88ccf295e0b id=11
[655000] AXI S0_WVALID_RDY HANDSHAKE
[655000] S0 MEMORY WRITE beat=51 addr=07e75170 data=e62ad25af5ef0bbd id=11
[655000] MASTER 1 W_VALID_RDY Handshake beat=52 wlast=0
[665000] MASTER 1 W_VALID_RDY Handshake beat=53 wlast=0
[665000] AXI S0_WVALID_RDY HANDSHAKE
[665000] S0 MEMORY WRITE beat=52 addr=07e75180 data=890b436ee2a5d42a id=11
[675000] AXI S0_WVALID_RDY HANDSHAKE
[675000] S0 MEMORY WRITE beat=53 addr=07e75190 data=31cf323523bd3648 id=11
[675000] MASTER 1 W_VALID_RDY Handshake beat=54 wlast=0
[685000] MASTER 1 W_VALID_RDY Handshake beat=55 wlast=0
[685000] AXI S0_WVALID_RDY HANDSHAKE
[685000] S0 MEMORY WRITE beat=54 addr=07e751a0 data=19ac42050c4e2bfb id=11
[695000] AXI S0_WVALID_RDY HANDSHAKE
[695000] S0 MEMORY WRITE beat=55 addr=07e751b0 data=eef4002597fa048f id=11
[695000] MASTER 1 W_VALID_RDY Handshake beat=56 wlast=0
[705000] MASTER 1 W_VALID_RDY Handshake beat=57 wlast=0
[705000] AXI S0_WVALID_RDY HANDSHAKE
[705000] S0 MEMORY WRITE beat=56 addr=07e751c0 data=bbb73ad7a2b78573 id=11
[715000] AXI S0_WVALID_RDY HANDSHAKE
[715000] S0 MEMORY WRITE beat=57 addr=07e751d0 data=af05b16e20c3325a id=11
[715000] MASTER 1 W_VALID_RDY Handshake beat=58 wlast=0
[725000] MASTER 1 W_VALID_RDY Handshake beat=59 wlast=0
[725000] AXI S0_WVALID_RDY HANDSHAKE
[725000] S0 MEMORY WRITE beat=58 addr=07e751e0 data=b8bd36e9d5637cdc id=11
[735000] AXI S0_WVALID_RDY HANDSHAKE
[735000] S0 MEMORY WRITE beat=59 addr=07e751f0 data=f81b02509df9b193 id=11
[735000] MASTER 1 W_VALID_RDY Handshake beat=60 wlast=0
[745000] MASTER 1 W_VALID_RDY Handshake beat=61 wlast=0
[745000] AXI S0_WVALID_RDY HANDSHAKE
[745000] S0 MEMORY WRITE beat=60 addr=07e75200 data=bebce3edf47471c1 id=11
[755000] AXI S0_WVALID_RDY HANDSHAKE
[755000] S0 MEMORY WRITE beat=61 addr=07e75210 data=c9d7ee9da720b3be id=11
[755000] MASTER 1 W_VALID_RDY Handshake beat=62 wlast=0
[765000] MASTER 1 W_VALID_RDY Handshake beat=63 wlast=0
[765000] AXI S0_WVALID_RDY HANDSHAKE
[765000] S0 MEMORY WRITE beat=62 addr=07e75220 data=c51a6552f77a1ad7 id=11
[775000] AXI S0_WVALID_RDY HANDSHAKE
[775000] S0 MEMORY WRITE beat=63 addr=07e75230 data=ebee8c98c1f2f0ed id=11
[775000] MASTER 1 W_VALID_RDY Handshake beat=64 wlast=0
[785000] MASTER 1 W_VALID_RDY Handshake beat=65 wlast=0
[785000] AXI S0_WVALID_RDY HANDSHAKE
[785000] S0 MEMORY WRITE beat=64 addr=07e75240 data=e913a4ac83d7493f id=11
[795000] AXI S0_WVALID_RDY HANDSHAKE
[795000] S0 MEMORY WRITE beat=65 addr=07e75250 data=fb516416b5c67b35 id=11
[795000] MASTER 1 W_VALID_RDY Handshake beat=66 wlast=0
[805000] MASTER 1 W_VALID_RDY Handshake beat=67 wlast=0
[805000] AXI S0_WVALID_RDY HANDSHAKE
[805000] S0 MEMORY WRITE beat=66 addr=07e75260 data=f7b96c232e2e09fe id=11
[815000] AXI S0_WVALID_RDY HANDSHAKE
[815000] S0 MEMORY WRITE beat=67 addr=07e75270 data=b205533de73ff0ae id=11
[815000] MASTER 1 W_VALID_RDY Handshake beat=68 wlast=0
[825000] MASTER 1 W_VALID_RDY Handshake beat=69 wlast=0
[825000] AXI S0_WVALID_RDY HANDSHAKE
[825000] S0 MEMORY WRITE beat=68 addr=07e75280 data=1d066be4e0cd10cf id=11
[835000] AXI S0_WVALID_RDY HANDSHAKE
[835000] S0 MEMORY WRITE beat=69 addr=07e75290 data=0efb1acd2d56b754 id=11
[835000] MASTER 1 W_VALID_RDY Handshake beat=70 wlast=0
[845000] MASTER 1 W_VALID_RDY Handshake beat=71 wlast=0
[845000] AXI S0_WVALID_RDY HANDSHAKE
[845000] S0 MEMORY WRITE beat=70 addr=07e752a0 data=9496a80214bfd807 id=11
[855000] AXI S0_WVALID_RDY HANDSHAKE
[855000] S0 MEMORY WRITE beat=71 addr=07e752b0 data=f58ce8d6c1006e0a id=11
[855000] MASTER 1 W_VALID_RDY Handshake beat=72 wlast=0
[865000] MASTER 1 W_VALID_RDY Handshake beat=73 wlast=0
[865000] AXI S0_WVALID_RDY HANDSHAKE
[865000] S0 MEMORY WRITE beat=72 addr=07e752c0 data=ee57255eb19d13e6 id=11
[875000] AXI S0_WVALID_RDY HANDSHAKE
[875000] S0 MEMORY WRITE beat=73 addr=07e752d0 data=c65cebed048803a3 id=11
[875000] MASTER 1 W_VALID_RDY Handshake beat=74 wlast=0
[885000] MASTER 1 W_VALID_RDY Handshake beat=75 wlast=0
[885000] AXI S0_WVALID_RDY HANDSHAKE
[885000] S0 MEMORY WRITE beat=74 addr=07e752e0 data=c58871ad02edcd61 id=11
[895000] AXI S0_WVALID_RDY HANDSHAKE
[895000] S0 MEMORY WRITE beat=75 addr=07e752f0 data=b48ae147bbe9d4c3 id=11
[895000] MASTER 1 W_VALID_RDY Handshake beat=76 wlast=0
[905000] MASTER 1 W_VALID_RDY Handshake beat=77 wlast=0
[905000] AXI S0_WVALID_RDY HANDSHAKE
[905000] S0 MEMORY WRITE beat=76 addr=07e75300 data=c071d86633df970c id=11
[915000] AXI S0_WVALID_RDY HANDSHAKE
[915000] S0 MEMORY WRITE beat=77 addr=07e75310 data=36cd646dfae7cd35 id=11
[915000] MASTER 1 W_VALID_RDY Handshake beat=78 wlast=0
[925000] MASTER 1 W_VALID_RDY Handshake beat=79 wlast=0
[925000] AXI S0_WVALID_RDY HANDSHAKE
[925000] S0 MEMORY WRITE beat=78 addr=07e75320 data=b6d1a1f805fa4a14 id=11
[935000] AXI S0_WVALID_RDY HANDSHAKE
[935000] S0 MEMORY WRITE beat=79 addr=07e75330 data=39d9e120eb5845b4 id=11
[935000] MASTER 1 W_VALID_RDY Handshake beat=80 wlast=0
[945000] MASTER 1 W_VALID_RDY Handshake beat=81 wlast=0
[945000] AXI S0_WVALID_RDY HANDSHAKE
[945000] S0 MEMORY WRITE beat=80 addr=07e75340 data=e64012e9f7437a5f id=11
[955000] AXI S0_WVALID_RDY HANDSHAKE
[955000] S0 MEMORY WRITE beat=81 addr=07e75350 data=fd3dc473f0a7458d id=11
[955000] MASTER 1 W_VALID_RDY Handshake beat=82 wlast=0
[965000] MASTER 1 W_VALID_RDY Handshake beat=83 wlast=0
[965000] AXI S0_WVALID_RDY HANDSHAKE
[965000] S0 MEMORY WRITE beat=82 addr=07e75360 data=dbff8b411d11b4e2 id=11
[975000] AXI S0_WVALID_RDY HANDSHAKE
[975000] S0 MEMORY WRITE beat=83 addr=07e75370 data=14552f413717a593 id=11
[975000] MASTER 1 W_VALID_RDY Handshake beat=84 wlast=0
[985000] MASTER 1 W_VALID_RDY Handshake beat=85 wlast=0
[985000] AXI S0_WVALID_RDY HANDSHAKE
[985000] S0 MEMORY WRITE beat=84 addr=07e75380 data=27beeb20c23f9e2b id=11
[995000] AXI S0_WVALID_RDY HANDSHAKE
[995000] S0 MEMORY WRITE beat=85 addr=07e75390 data=df51530d1192f3b4 id=11
[995000] MASTER 1 W_VALID_RDY Handshake beat=86 wlast=0
[1005000] MASTER 1 W_VALID_RDY Handshake beat=87 wlast=0
[1005000] AXI S0_WVALID_RDY HANDSHAKE
[1005000] S0 MEMORY WRITE beat=86 addr=07e753a0 data=c8aa994783be7661 id=11
[1015000] AXI S0_WVALID_RDY HANDSHAKE
[1015000] S0 MEMORY WRITE beat=87 addr=07e753b0 data=c5fe148cf3a6824e id=11
[1015000] MASTER 1 W_VALID_RDY Handshake beat=88 wlast=0
[1025000] MASTER 1 W_VALID_RDY Handshake beat=89 wlast=0
[1025000] AXI S0_WVALID_RDY HANDSHAKE
[1025000] S0 MEMORY WRITE beat=88 addr=07e753c0 data=05397602f0698467 id=11
[1035000] AXI S0_WVALID_RDY HANDSHAKE
[1035000] S0 MEMORY WRITE beat=89 addr=07e753d0 data=f427fac8a54f6799 id=11
[1035000] MASTER 1 W_VALID_RDY Handshake beat=90 wlast=0
[1045000] MASTER 1 W_VALID_RDY Handshake beat=91 wlast=0
[1045000] AXI S0_WVALID_RDY HANDSHAKE
[1045000] S0 MEMORY WRITE beat=90 addr=07e753e0 data=98f5e9e7cde40f49 id=11
[1055000] AXI S0_WVALID_RDY HANDSHAKE
[1055000] S0 MEMORY WRITE beat=91 addr=07e753f0 data=3e4d93b03a260f55 id=11
[1055000] MASTER 1 W_VALID_RDY Handshake beat=92 wlast=0
[1065000] MASTER 1 W_VALID_RDY Handshake beat=93 wlast=0
[1065000] AXI S0_WVALID_RDY HANDSHAKE
[1065000] S0 MEMORY WRITE beat=92 addr=07e75400 data=df7576ee9e2f5fe9 id=11
[1075000] AXI S0_WVALID_RDY HANDSHAKE
[1075000] S0 MEMORY WRITE beat=93 addr=07e75410 data=ec136f32b2758e78 id=11
[1075000] MASTER 1 W_VALID_RDY Handshake beat=94 wlast=0
[1085000] MASTER 1 W_VALID_RDY Handshake beat=95 wlast=0
[1085000] AXI S0_WVALID_RDY HANDSHAKE
[1085000] S0 MEMORY WRITE beat=94 addr=07e75420 data=ec9b9dcdf86b60d6 id=11
[1095000] AXI S0_WVALID_RDY HANDSHAKE
[1095000] S0 MEMORY WRITE beat=95 addr=07e75430 data=969ac0bfaa6102e2 id=11
[1095000] MASTER 1 W_VALID_RDY Handshake beat=96 wlast=0
[1105000] MASTER 1 W_VALID_RDY Handshake beat=97 wlast=0
[1105000] AXI S0_WVALID_RDY HANDSHAKE
[1105000] S0 MEMORY WRITE beat=96 addr=07e75440 data=dcd6915bcc1114bc id=11
[1115000] AXI S0_WVALID_RDY HANDSHAKE
[1115000] S0 MEMORY WRITE beat=97 addr=07e75450 data=c47c759202ae2ff2 id=11
[1115000] MASTER 1 W_VALID_RDY Handshake beat=98 wlast=0
[1125000] MASTER 1 W_VALID_RDY Handshake beat=99 wlast=0
[1125000] AXI S0_WVALID_RDY HANDSHAKE
[1125000] S0 MEMORY WRITE beat=98 addr=07e75460 data=ad0f32d4c9722f28 id=11
[1135000] AXI S0_WVALID_RDY HANDSHAKE
[1135000] S0 MEMORY WRITE beat=99 addr=07e75470 data=958343e4db173651 id=11
[1135000] MASTER 1 W_VALID_RDY Handshake beat=100 wlast=0
[1145000] MASTER 1 W_VALID_RDY Handshake beat=101 wlast=0
[1145000] AXI S0_WVALID_RDY HANDSHAKE
[1145000] S0 MEMORY WRITE beat=100 addr=07e75480 data=ddc5664389e5c42f id=11
[1155000] AXI S0_WVALID_RDY HANDSHAKE
[1155000] S0 MEMORY WRITE beat=101 addr=07e75490 data=d357f358d9ffb976 id=11
[1155000] MASTER 1 W_VALID_RDY Handshake beat=102 wlast=0
[1165000] MASTER 1 W_VALID_RDY Handshake beat=103 wlast=0
[1165000] AXI S0_WVALID_RDY HANDSHAKE
[1165000] S0 MEMORY WRITE beat=102 addr=07e754a0 data=3516efc80ad49918 id=11
[1175000] AXI S0_WVALID_RDY HANDSHAKE
[1175000] S0 MEMORY WRITE beat=103 addr=07e754b0 data=94ba5d47e8db373c id=11
[1175000] MASTER 1 W_VALID_RDY Handshake beat=104 wlast=0
[1185000] MASTER 1 W_VALID_RDY Handshake beat=105 wlast=0
[1185000] AXI S0_WVALID_RDY HANDSHAKE
[1185000] S0 MEMORY WRITE beat=104 addr=07e754c0 data=c2daf0b392dc560b id=11
[1195000] AXI S0_WVALID_RDY HANDSHAKE
[1195000] S0 MEMORY WRITE beat=105 addr=07e754d0 data=9db0ef23e812509f id=11
[1195000] MASTER 1 W_VALID_RDY Handshake beat=106 wlast=0
[1205000] MASTER 1 W_VALID_RDY Handshake beat=107 wlast=0
[1205000] AXI S0_WVALID_RDY HANDSHAKE
[1205000] S0 MEMORY WRITE beat=106 addr=07e754e0 data=d0ed87dcf7f1e07b id=11
[1215000] AXI S0_WVALID_RDY HANDSHAKE
[1215000] S0 MEMORY WRITE beat=107 addr=07e754f0 data=8ace3686326b4c6b id=11
[1215000] MASTER 1 W_VALID_RDY Handshake beat=108 wlast=0
[1225000] MASTER 1 W_VALID_RDY Handshake beat=109 wlast=0
[1225000] AXI S0_WVALID_RDY HANDSHAKE
[1225000] S0 MEMORY WRITE beat=108 addr=07e75500 data=9a7d9d0a13c8788f id=11
[1235000] AXI S0_WVALID_RDY HANDSHAKE
[1235000] S0 MEMORY WRITE beat=109 addr=07e75510 data=0bba590a287f25aa id=11
[1235000] MASTER 1 W_VALID_RDY Handshake beat=110 wlast=0
[1245000] MASTER 1 W_VALID_RDY Handshake beat=111 wlast=0
[1245000] AXI S0_WVALID_RDY HANDSHAKE
[1245000] S0 MEMORY WRITE beat=110 addr=07e75520 data=daea7215eb6b24e6 id=11
[1255000] AXI S0_WVALID_RDY HANDSHAKE
[1255000] S0 MEMORY WRITE beat=111 addr=07e75530 data=ff339d7596888f90 id=11
[1255000] MASTER 1 W_VALID_RDY Handshake beat=112 wlast=0
[1265000] MASTER 1 W_VALID_RDY Handshake beat=113 wlast=0
[1265000] AXI S0_WVALID_RDY HANDSHAKE
[1265000] S0 MEMORY WRITE beat=112 addr=07e75540 data=bf07b53af5680f1f id=11
[1275000] AXI S0_WVALID_RDY HANDSHAKE
[1275000] S0 MEMORY WRITE beat=113 addr=07e75550 data=e0d334068aedf67f id=11
[1275000] MASTER 1 W_VALID_RDY Handshake beat=114 wlast=0
[1285000] MASTER 1 W_VALID_RDY Handshake beat=115 wlast=0
[1285000] AXI S0_WVALID_RDY HANDSHAKE
[1285000] S0 MEMORY WRITE beat=114 addr=07e75560 data=2176861099f2274f id=11
[1295000] AXI S0_WVALID_RDY HANDSHAKE
[1295000] S0 MEMORY WRITE beat=115 addr=07e75570 data=0f5a366fe006d17b id=11
[1295000] MASTER 1 W_VALID_RDY Handshake beat=116 wlast=0
[1305000] MASTER 1 W_VALID_RDY Handshake beat=117 wlast=0
[1305000] AXI S0_WVALID_RDY HANDSHAKE
[1305000] S0 MEMORY WRITE beat=116 addr=07e75580 data=eaf4c7fbe07e3b4a id=11
[1315000] AXI S0_WVALID_RDY HANDSHAKE
[1315000] S0 MEMORY WRITE beat=117 addr=07e75590 data=fa70629af02d6a75 id=11
[1315000] MASTER 1 W_VALID_RDY Handshake beat=118 wlast=0
[1325000] MASTER 1 W_VALID_RDY Handshake beat=119 wlast=0
[1325000] AXI S0_WVALID_RDY HANDSHAKE
[1325000] S0 MEMORY WRITE beat=118 addr=07e755a0 data=d0343bf00c6b4e0b id=11
[1335000] AXI S0_WVALID_RDY HANDSHAKE
[1335000] S0 MEMORY WRITE beat=119 addr=07e755b0 data=ece9895509ca9909 id=11
[1335000] MASTER 1 W_VALID_RDY Handshake beat=120 wlast=0
[1345000] MASTER 1 W_VALID_RDY Handshake beat=121 wlast=0
[1345000] AXI S0_WVALID_RDY HANDSHAKE
[1345000] S0 MEMORY WRITE beat=120 addr=07e755c0 data=f9f8037ebb2903eb id=11
[1355000] AXI S0_WVALID_RDY HANDSHAKE
[1355000] S0 MEMORY WRITE beat=121 addr=07e755d0 data=c79451f6e759ebef id=11
[1355000] MASTER 1 W_VALID_RDY Handshake beat=122 wlast=0
[1365000] MASTER 1 W_VALID_RDY Handshake beat=123 wlast=0
[1365000] AXI S0_WVALID_RDY HANDSHAKE
[1365000] S0 MEMORY WRITE beat=122 addr=07e755e0 data=f12484f8ca2c3f6e id=11
[1375000] AXI S0_WVALID_RDY HANDSHAKE
[1375000] S0 MEMORY WRITE beat=123 addr=07e755f0 data=0555435a347ddb4c id=11
[1375000] MASTER 1 W_VALID_RDY Handshake beat=124 wlast=0
[1385000] MASTER 1 W_VALID_RDY Handshake beat=125 wlast=0
[1385000] AXI S0_WVALID_RDY HANDSHAKE
[1385000] S0 MEMORY WRITE beat=124 addr=07e75600 data=9bd7c73beb1c8876 id=11
[1395000] AXI S0_WVALID_RDY HANDSHAKE
[1395000] S0 MEMORY WRITE beat=125 addr=07e75610 data=3548c7e5cce99550 id=11
[1395000] MASTER 1 W_VALID_RDY Handshake beat=126 wlast=0
[1405000] MASTER 1 W_VALID_RDY Handshake beat=127 wlast=0
[1405000] AXI S0_WVALID_RDY HANDSHAKE
[1405000] S0 MEMORY WRITE beat=126 addr=07e75620 data=8167709c0cfc4c34 id=11
[1415000] AXI S0_WVALID_RDY HANDSHAKE
[1415000] S0 MEMORY WRITE beat=127 addr=07e75630 data=f818d4aa3a9e0b3f id=11
[1415000] MASTER 1 W_VALID_RDY Handshake beat=128 wlast=0
[1425000] MASTER 1 W_VALID_RDY Handshake beat=129 wlast=0
[1425000] AXI S0_WVALID_RDY HANDSHAKE
[1425000] S0 MEMORY WRITE beat=128 addr=07e75640 data=8787a08f1d3f37d8 id=11
[1435000] AXI S0_WVALID_RDY HANDSHAKE
[1435000] S0 MEMORY WRITE beat=129 addr=07e75650 data=2a3b840cad619c8f id=11
[1435000] MASTER 1 W_VALID_RDY Handshake beat=130 wlast=0
[1445000] MASTER 1 W_VALID_RDY Handshake beat=131 wlast=0
[1445000] AXI S0_WVALID_RDY HANDSHAKE
[1445000] S0 MEMORY WRITE beat=130 addr=07e75660 data=e7ffa7ce08ef112c id=11
[1455000] AXI S0_WVALID_RDY HANDSHAKE
[1455000] S0 MEMORY WRITE beat=131 addr=07e75670 data=262e4904a25458b6 id=11
[1455000] MASTER 1 W_VALID_RDY Handshake beat=132 wlast=0
[1465000] MASTER 1 W_VALID_RDY Handshake beat=133 wlast=0
[1465000] AXI S0_WVALID_RDY HANDSHAKE
[1465000] S0 MEMORY WRITE beat=132 addr=07e75680 data=cfb5f546ef87485e id=11
[1475000] AXI S0_WVALID_RDY HANDSHAKE
[1475000] S0 MEMORY WRITE beat=133 addr=07e75690 data=f876598ad069cd10 id=11
[1475000] MASTER 1 W_VALID_RDY Handshake beat=134 wlast=0
[1485000] MASTER 1 W_VALID_RDY Handshake beat=135 wlast=0
[1485000] AXI S0_WVALID_RDY HANDSHAKE
[1485000] S0 MEMORY WRITE beat=134 addr=07e756a0 data=f2be25c6b7b59d14 id=11
[1495000] AXI S0_WVALID_RDY HANDSHAKE
[1495000] S0 MEMORY WRITE beat=135 addr=07e756b0 data=a73ce5721ea4a28e id=11
[1495000] MASTER 1 W_VALID_RDY Handshake beat=136 wlast=0
[1505000] MASTER 1 W_VALID_RDY Handshake beat=137 wlast=0
[1505000] AXI S0_WVALID_RDY HANDSHAKE
[1505000] S0 MEMORY WRITE beat=136 addr=07e756c0 data=ef0e6f9ec2741b0c id=11
[1515000] AXI S0_WVALID_RDY HANDSHAKE
[1515000] S0 MEMORY WRITE beat=137 addr=07e756d0 data=fa29b8219fb33efc id=11
[1515000] MASTER 1 W_VALID_RDY Handshake beat=138 wlast=0
[1525000] MASTER 1 W_VALID_RDY Handshake beat=139 wlast=0
[1525000] AXI S0_WVALID_RDY HANDSHAKE
[1525000] S0 MEMORY WRITE beat=138 addr=07e756e0 data=be57e18ae1cc9564 id=11
[1535000] AXI S0_WVALID_RDY HANDSHAKE
[1535000] S0 MEMORY WRITE beat=139 addr=07e756f0 data=2440b071a1669d93 id=11
[1535000] MASTER 1 W_VALID_RDY Handshake beat=140 wlast=0
[1545000] MASTER 1 W_VALID_RDY Handshake beat=141 wlast=0
[1545000] AXI S0_WVALID_RDY HANDSHAKE
[1545000] S0 MEMORY WRITE beat=140 addr=07e75700 data=c119dc90ad665128 id=11
[1555000] AXI S0_WVALID_RDY HANDSHAKE
[1555000] S0 MEMORY WRITE beat=141 addr=07e75710 data=0f32e68d1e6a6892 id=11
[1555000] MASTER 1 W_VALID_RDY Handshake beat=142 wlast=0
[1565000] MASTER 1 W_VALID_RDY Handshake beat=143 wlast=0
[1565000] AXI S0_WVALID_RDY HANDSHAKE
[1565000] S0 MEMORY WRITE beat=142 addr=07e75720 data=bfd10625ff71be1a id=11
[1575000] AXI S0_WVALID_RDY HANDSHAKE
[1575000] S0 MEMORY WRITE beat=143 addr=07e75730 data=2cd80f43337396fe id=11
[1575000] MASTER 1 W_VALID_RDY Handshake beat=144 wlast=0
[1585000] MASTER 1 W_VALID_RDY Handshake beat=145 wlast=0
[1585000] AXI S0_WVALID_RDY HANDSHAKE
[1585000] S0 MEMORY WRITE beat=144 addr=07e75740 data=d1ddff9080eae2b5 id=11
[1595000] AXI S0_WVALID_RDY HANDSHAKE
[1595000] S0 MEMORY WRITE beat=145 addr=07e75750 data=005ca0d03c0af5d0 id=11
[1595000] MASTER 1 W_VALID_RDY Handshake beat=146 wlast=0
[1605000] MASTER 1 W_VALID_RDY Handshake beat=147 wlast=0
[1605000] AXI S0_WVALID_RDY HANDSHAKE
[1605000] S0 MEMORY WRITE beat=146 addr=07e75760 data=ef7e8cce91af05b5 id=11
[1615000] AXI S0_WVALID_RDY HANDSHAKE
[1615000] S0 MEMORY WRITE beat=147 addr=07e75770 data=1299e86b2d34b013 id=11
[1615000] MASTER 1 W_VALID_RDY Handshake beat=148 wlast=0
[1625000] MASTER 1 W_VALID_RDY Handshake beat=149 wlast=0
[1625000] AXI S0_WVALID_RDY HANDSHAKE
[1625000] S0 MEMORY WRITE beat=148 addr=07e75780 data=e93fa5e3c15c8c5e id=11
[1635000] AXI S0_WVALID_RDY HANDSHAKE
[1635000] S0 MEMORY WRITE beat=149 addr=07e75790 data=d30b921312f6893b id=11
[1635000] MASTER 1 W_VALID_RDY Handshake beat=150 wlast=0
[1645000] MASTER 1 W_VALID_RDY Handshake beat=151 wlast=0
[1645000] AXI S0_WVALID_RDY HANDSHAKE
[1645000] S0 MEMORY WRITE beat=150 addr=07e757a0 data=c02b394ed8be32b1 id=11
[1655000] AXI S0_WVALID_RDY HANDSHAKE
[1655000] S0 MEMORY WRITE beat=151 addr=07e757b0 data=1a1abf0fe5a57a7e id=11
[1655000] MASTER 1 W_VALID_RDY Handshake beat=152 wlast=0
[1665000] MASTER 1 W_VALID_RDY Handshake beat=153 wlast=0
[1665000] AXI S0_WVALID_RDY HANDSHAKE
[1665000] S0 MEMORY WRITE beat=152 addr=07e757c0 data=f89c03b9296adf31 id=11
[1675000] AXI S0_WVALID_RDY HANDSHAKE
[1675000] S0 MEMORY WRITE beat=153 addr=07e757d0 data=022911e2ed265122 id=11
[1675000] MASTER 1 W_VALID_RDY Handshake beat=154 wlast=0
[1685000] MASTER 1 W_VALID_RDY Handshake beat=155 wlast=0
[1685000] AXI S0_WVALID_RDY HANDSHAKE
[1685000] S0 MEMORY WRITE beat=154 addr=07e757e0 data=d2cbcba1b8c73d07 id=11
[1695000] AXI S0_WVALID_RDY HANDSHAKE
[1695000] S0 MEMORY WRITE beat=155 addr=07e757f0 data=e2321c381c43d0f1 id=11
[1695000] MASTER 1 W_VALID_RDY Handshake beat=156 wlast=0
[1705000] MASTER 1 W_VALID_RDY Handshake beat=157 wlast=0
[1705000] AXI S0_WVALID_RDY HANDSHAKE
[1705000] S0 MEMORY WRITE beat=156 addr=07e75800 data=896a2213cb67cf5a id=11
[1715000] AXI S0_WVALID_RDY HANDSHAKE
[1715000] S0 MEMORY WRITE beat=157 addr=07e75810 data=042f0c62e45b2e1a id=11
[1715000] MASTER 1 W_VALID_RDY Handshake beat=158 wlast=0
[1725000] MASTER 1 W_VALID_RDY Handshake beat=159 wlast=0
[1725000] AXI S0_WVALID_RDY HANDSHAKE
[1725000] S0 MEMORY WRITE beat=158 addr=07e75820 data=809eff0bdc35edb4 id=11
[1735000] AXI S0_WVALID_RDY HANDSHAKE
[1735000] S0 MEMORY WRITE beat=159 addr=07e75830 data=279dbd0fe661289a id=11
[1735000] MASTER 1 W_VALID_RDY Handshake beat=160 wlast=0
[1745000] MASTER 1 W_VALID_RDY Handshake beat=161 wlast=0
[1745000] AXI S0_WVALID_RDY HANDSHAKE
[1745000] S0 MEMORY WRITE beat=160 addr=07e75840 data=cabc56b50a09211f id=11
[1755000] AXI S0_WVALID_RDY HANDSHAKE
[1755000] S0 MEMORY WRITE beat=161 addr=07e75850 data=e63f0ed32bccc971 id=11
[1755000] MASTER 1 W_VALID_RDY Handshake beat=162 wlast=0
[1765000] MASTER 1 W_VALID_RDY Handshake beat=163 wlast=0
[1765000] AXI S0_WVALID_RDY HANDSHAKE
[1765000] S0 MEMORY WRITE beat=162 addr=07e75860 data=922df20bcb5b55c0 id=11
[1775000] AXI S0_WVALID_RDY HANDSHAKE
[1775000] S0 MEMORY WRITE beat=163 addr=07e75870 data=d56476df8ddccbe2 id=11
[1775000] MASTER 1 W_VALID_RDY Handshake beat=164 wlast=0
[1785000] MASTER 1 W_VALID_RDY Handshake beat=165 wlast=0
[1785000] AXI S0_WVALID_RDY HANDSHAKE
[1785000] S0 MEMORY WRITE beat=164 addr=07e75880 data=b9a99553dcea48c0 id=11
[1795000] AXI S0_WVALID_RDY HANDSHAKE
[1795000] S0 MEMORY WRITE beat=165 addr=07e75890 data=28459e813ba385b3 id=11
[1795000] MASTER 1 W_VALID_RDY Handshake beat=166 wlast=0
[1805000] MASTER 1 W_VALID_RDY Handshake beat=167 wlast=0
[1805000] AXI S0_WVALID_RDY HANDSHAKE
[1805000] S0 MEMORY WRITE beat=166 addr=07e758a0 data=c9805195cbd7875f id=11
[1815000] AXI S0_WVALID_RDY HANDSHAKE
[1815000] S0 MEMORY WRITE beat=167 addr=07e758b0 data=a8c1d01ffdaa1560 id=11
[1815000] MASTER 1 W_VALID_RDY Handshake beat=168 wlast=0
[1825000] MASTER 1 W_VALID_RDY Handshake beat=169 wlast=0
[1825000] AXI S0_WVALID_RDY HANDSHAKE
[1825000] S0 MEMORY WRITE beat=168 addr=07e758c0 data=b94d9b130329e6e9 id=11
[1835000] AXI S0_WVALID_RDY HANDSHAKE
[1835000] S0 MEMORY WRITE beat=169 addr=07e758d0 data=cf016e48d1076ea0 id=11
[1835000] MASTER 1 W_VALID_RDY Handshake beat=170 wlast=0
[1845000] MASTER 1 W_VALID_RDY Handshake beat=171 wlast=0
[1845000] AXI S0_WVALID_RDY HANDSHAKE
[1845000] S0 MEMORY WRITE beat=170 addr=07e758e0 data=ceb1840102cdeca9 id=11
[1855000] AXI S0_WVALID_RDY HANDSHAKE
[1855000] S0 MEMORY WRITE beat=171 addr=07e758f0 data=05f7d392f7c33e67 id=11
[1855000] MASTER 1 W_VALID_RDY Handshake beat=172 wlast=0
[1865000] MASTER 1 W_VALID_RDY Handshake beat=173 wlast=0
[1865000] AXI S0_WVALID_RDY HANDSHAKE
[1865000] S0 MEMORY WRITE beat=172 addr=07e75900 data=c8caad0887ff1f14 id=11
[1875000] AXI S0_WVALID_RDY HANDSHAKE
[1875000] S0 MEMORY WRITE beat=173 addr=07e75910 data=8acd0bbdd4f941da id=11
[1875000] MASTER 1 W_VALID_RDY Handshake beat=174 wlast=0
[1885000] MASTER 1 W_VALID_RDY Handshake beat=175 wlast=0
[1885000] AXI S0_WVALID_RDY HANDSHAKE
[1885000] S0 MEMORY WRITE beat=174 addr=07e75920 data=ccbc8041177c3109 id=11
[1895000] AXI S0_WVALID_RDY HANDSHAKE
[1895000] S0 MEMORY WRITE beat=175 addr=07e75930 data=9f7b501d90c4df4f id=11
[1895000] MASTER 1 W_VALID_RDY Handshake beat=176 wlast=0
[1905000] MASTER 1 W_VALID_RDY Handshake beat=177 wlast=0
[1905000] AXI S0_WVALID_RDY HANDSHAKE
[1905000] S0 MEMORY WRITE beat=176 addr=07e75940 data=e5be212995872d49 id=11
[1915000] AXI S0_WVALID_RDY HANDSHAKE
[1915000] S0 MEMORY WRITE beat=177 addr=07e75950 data=ad035e522a485bdb id=11
[1915000] MASTER 1 W_VALID_RDY Handshake beat=178 wlast=0
[1925000] MASTER 1 W_VALID_RDY Handshake beat=179 wlast=0
[1925000] AXI S0_WVALID_RDY HANDSHAKE
[1925000] S0 MEMORY WRITE beat=178 addr=07e75960 data=bb0d3b2a327aa16b id=11
[1935000] AXI S0_WVALID_RDY HANDSHAKE
[1935000] S0 MEMORY WRITE beat=179 addr=07e75970 data=c801ceb4cc7eae70 id=11
[1935000] MASTER 1 W_VALID_RDY Handshake beat=180 wlast=0
[1945000] MASTER 1 W_VALID_RDY Handshake beat=181 wlast=0
[1945000] AXI S0_WVALID_RDY HANDSHAKE
[1945000] S0 MEMORY WRITE beat=180 addr=07e75980 data=f6c70a4b20cb5c54 id=11
[1955000] AXI S0_WVALID_RDY HANDSHAKE
[1955000] S0 MEMORY WRITE beat=181 addr=07e75990 data=d345fdbff5052d07 id=11
[1955000] MASTER 1 W_VALID_RDY Handshake beat=182 wlast=0
[1965000] MASTER 1 W_VALID_RDY Handshake beat=183 wlast=0
[1965000] AXI S0_WVALID_RDY HANDSHAKE
[1965000] S0 MEMORY WRITE beat=182 addr=07e759a0 data=c183db77b1d44575 id=11
[1975000] AXI S0_WVALID_RDY HANDSHAKE
[1975000] S0 MEMORY WRITE beat=183 addr=07e759b0 data=d29fa1c99b47cc73 id=11
[1975000] MASTER 1 W_VALID_RDY Handshake beat=184 wlast=0
[1985000] MASTER 1 W_VALID_RDY Handshake beat=185 wlast=0
[1985000] AXI S0_WVALID_RDY HANDSHAKE
[1985000] S0 MEMORY WRITE beat=184 addr=07e759c0 data=904cf97a384ae5c2 id=11
[1995000] AXI S0_WVALID_RDY HANDSHAKE
[1995000] S0 MEMORY WRITE beat=185 addr=07e759d0 data=ea1f2b37a5e59f88 id=11
[1995000] MASTER 1 W_VALID_RDY Handshake beat=186 wlast=0
[2005000] MASTER 1 W_VALID_RDY Handshake beat=187 wlast=0
[2005000] AXI S0_WVALID_RDY HANDSHAKE
[2005000] S0 MEMORY WRITE beat=186 addr=07e759e0 data=c12d6bfcd1d0d4f1 id=11
[2015000] AXI S0_WVALID_RDY HANDSHAKE
[2015000] S0 MEMORY WRITE beat=187 addr=07e759f0 data=8a1bbab33cbecd01 id=11
[2015000] MASTER 1 W_VALID_RDY Handshake beat=188 wlast=0
[2025000] MASTER 1 W_VALID_RDY Handshake beat=189 wlast=0
[2025000] AXI S0_WVALID_RDY HANDSHAKE
[2025000] S0 MEMORY WRITE beat=188 addr=07e75a00 data=e2a46c89d17a6576 id=11
[2035000] AXI S0_WVALID_RDY HANDSHAKE
[2035000] S0 MEMORY WRITE beat=189 addr=07e75a10 data=234b3a68f43ae5eb id=11
[2035000] MASTER 1 W_VALID_RDY Handshake beat=190 wlast=0
[2045000] MASTER 1 W_VALID_RDY Handshake beat=191 wlast=0
[2045000] AXI S0_WVALID_RDY HANDSHAKE
[2045000] S0 MEMORY WRITE beat=190 addr=07e75a20 data=30f9b2eca3d1d885 id=11
[2055000] AXI S0_WVALID_RDY HANDSHAKE
[2055000] S0 MEMORY WRITE beat=191 addr=07e75a30 data=f54c3dfcad66f51b id=11
[2055000] MASTER 1 W_VALID_RDY Handshake beat=192 wlast=0
[2065000] MASTER 1 W_VALID_RDY Handshake beat=193 wlast=0
[2065000] AXI S0_WVALID_RDY HANDSHAKE
[2065000] S0 MEMORY WRITE beat=192 addr=07e75a40 data=a1a1db06939e1f75 id=11
[2075000] AXI S0_WVALID_RDY HANDSHAKE
[2075000] S0 MEMORY WRITE beat=193 addr=07e75a50 data=376ff7fb18977864 id=11
[2075000] MASTER 1 W_VALID_RDY Handshake beat=194 wlast=0
[2085000] MASTER 1 W_VALID_RDY Handshake beat=195 wlast=0
[2085000] AXI S0_WVALID_RDY HANDSHAKE
[2085000] S0 MEMORY WRITE beat=194 addr=07e75a60 data=c5fe6d7fd29b8df2 id=11
[2095000] AXI S0_WVALID_RDY HANDSHAKE
[2095000] S0 MEMORY WRITE beat=195 addr=07e75a70 data=e639ad682cbc35f7 id=11
[2095000] MASTER 1 W_VALID_RDY Handshake beat=196 wlast=0
[2105000] MASTER 1 W_VALID_RDY Handshake beat=197 wlast=0
[2105000] AXI S0_WVALID_RDY HANDSHAKE
[2105000] S0 MEMORY WRITE beat=196 addr=07e75a80 data=c553ae5be7a04886 id=11
[2115000] AXI S0_WVALID_RDY HANDSHAKE
[2115000] S0 MEMORY WRITE beat=197 addr=07e75a90 data=ba3bd6781da9a563 id=11
[2115000] MASTER 1 W_VALID_RDY Handshake beat=198 wlast=0
[2125000] MASTER 1 W_VALID_RDY Handshake beat=199 wlast=0
[2125000] AXI S0_WVALID_RDY HANDSHAKE
[2125000] S0 MEMORY WRITE beat=198 addr=07e75aa0 data=ca65db5a8b521bda id=11
[2135000] AXI S0_WVALID_RDY HANDSHAKE
[2135000] S0 MEMORY WRITE beat=199 addr=07e75ab0 data=f2f26460a07583e0 id=11
[2135000] MASTER 1 W_VALID_RDY Handshake beat=200 wlast=0
[2145000] MASTER 1 W_VALID_RDY Handshake beat=201 wlast=0
[2145000] AXI S0_WVALID_RDY HANDSHAKE
[2145000] S0 MEMORY WRITE beat=200 addr=07e75ac0 data=be1f29430fb989b5 id=11
[2155000] AXI S0_WVALID_RDY HANDSHAKE
[2155000] S0 MEMORY WRITE beat=201 addr=07e75ad0 data=9b0ba58f2d2e3ad9 id=11
[2155000] MASTER 1 W_VALID_RDY Handshake beat=202 wlast=0
[2165000] MASTER 1 W_VALID_RDY Handshake beat=203 wlast=0
[2165000] AXI S0_WVALID_RDY HANDSHAKE
[2165000] S0 MEMORY WRITE beat=202 addr=07e75ae0 data=cda3beb98885049d id=11
[2175000] AXI S0_WVALID_RDY HANDSHAKE
[2175000] S0 MEMORY WRITE beat=203 addr=07e75af0 data=983e8e520dfe09f0 id=11
[2175000] MASTER 1 W_VALID_RDY Handshake beat=204 wlast=0
[2185000] MASTER 1 W_VALID_RDY Handshake beat=205 wlast=0
[2185000] AXI S0_WVALID_RDY HANDSHAKE
[2185000] S0 MEMORY WRITE beat=204 addr=07e75b00 data=3b2c44c90bc2e7fd id=11
[2195000] AXI S0_WVALID_RDY HANDSHAKE
[2195000] S0 MEMORY WRITE beat=205 addr=07e75b10 data=9447ec9a334a33e2 id=11
[2195000] MASTER 1 W_VALID_RDY Handshake beat=206 wlast=0
[2205000] MASTER 1 W_VALID_RDY Handshake beat=207 wlast=0
[2205000] AXI S0_WVALID_RDY HANDSHAKE
[2205000] S0 MEMORY WRITE beat=206 addr=07e75b20 data=c1483dd288d00382 id=11
[2215000] AXI S0_WVALID_RDY HANDSHAKE
[2215000] S0 MEMORY WRITE beat=207 addr=07e75b30 data=9492eb7f2c867aed id=11
[2215000] MASTER 1 W_VALID_RDY Handshake beat=208 wlast=0
[2225000] MASTER 1 W_VALID_RDY Handshake beat=209 wlast=0
[2225000] AXI S0_WVALID_RDY HANDSHAKE
[2225000] S0 MEMORY WRITE beat=208 addr=07e75b40 data=dfd0aecffc74829b id=11
[2235000] AXI S0_WVALID_RDY HANDSHAKE
[2235000] S0 MEMORY WRITE beat=209 addr=07e75b50 data=8544861d28dad81a id=11
[2235000] MASTER 1 W_VALID_RDY Handshake beat=210 wlast=0
[2245000] MASTER 1 W_VALID_RDY Handshake beat=211 wlast=0
[2245000] AXI S0_WVALID_RDY HANDSHAKE
[2245000] S0 MEMORY WRITE beat=210 addr=07e75b60 data=d56153072118eca1 id=11
[2255000] AXI S0_WVALID_RDY HANDSHAKE
[2255000] S0 MEMORY WRITE beat=211 addr=07e75b70 data=1d8d6f3c19d7719d id=11
[2255000] MASTER 1 W_VALID_RDY Handshake beat=212 wlast=0
[2265000] MASTER 1 W_VALID_RDY Handshake beat=213 wlast=0
[2265000] AXI S0_WVALID_RDY HANDSHAKE
[2265000] S0 MEMORY WRITE beat=212 addr=07e75b80 data=c2b249b7353201d6 id=11
[2275000] AXI S0_WVALID_RDY HANDSHAKE
[2275000] S0 MEMORY WRITE beat=213 addr=07e75b90 data=d64aee77a2d1f559 id=11
[2275000] MASTER 1 W_VALID_RDY Handshake beat=214 wlast=0
[2285000] MASTER 1 W_VALID_RDY Handshake beat=215 wlast=0
[2285000] AXI S0_WVALID_RDY HANDSHAKE
[2285000] S0 MEMORY WRITE beat=214 addr=07e75ba0 data=bca966f618139cbe id=11
[2295000] AXI S0_WVALID_RDY HANDSHAKE
[2295000] S0 MEMORY WRITE beat=215 addr=07e75bb0 data=cd459e94f3d85db3 id=11
[2295000] MASTER 1 W_VALID_RDY Handshake beat=216 wlast=1
[2295000] MASTER_DRIVER1 received transaction, op=AXI_READ
[2305000] AXI S0_WVALID_RDY HANDSHAKE
[2305000] S0 MEMORY WRITE beat=216 addr=07e75bc0 data=96aa530cff5bb0ad id=11
[2315000] SLAVE0 sent B resp, id=1
[2315000] [SLAVE MONITOR] mst_id=1 s_id=0 awaddr=7e74e40 awid=1 awlen=216 awsize=4 awburst=1 wdata=[87a998f6128a95d3 e7877f9bcce71e78 c075889ed03693b7 e2c1298a09e4ae3c d6cbccb4c81f2194 1855b54cca48a926 d42d576217415552 df6076e6fb16ded6 c55f87fc2af92416 c23a7968f7b62c32 f2cd0b09998cdf5e c4860374a19af04e 19511c81b82c9305 d1b9726486c07cdc 285b6d2b0c1e278a c44aba8f963f75d8 1cfff2b5c1ac89ac cdcab13696042cf3 2c43a2ccc55b5fe0 707e98c92156bc5 281998b9c9439581 e9ef561d4d29ac2 e6e80687d45d3b85 1da0d10615a6deed ea7979af8f019f40 e35edac52c3fc667 c1e6a554d1618036 e0631f7780ffabcb ad3f72322c601f03 fdc19f39c3c1fa3c c4c1a608ef261786 9b863689de24beb0 21e6b8edf201183a e1272fc11947d5c3 f76c9473e6a85ef5 d8a9772ffcad664a 95f53c0d99534d60 fffbac55b9d0a6f0 367e0d3b0d61d081 a6b51de1d8a52385 9275ca75cc734948 d9d519c926b0ca37 ff55edbcc8f3d7b0 156720f9008a37ab 273b01e291cbb831 dabf8fe2ef3c3ac2 efc6726d2690ef9e b85ca7cff026b0db df62eb9d9701744f bd9263ed931c37b1 8342e88ccf295e0b e62ad25af5ef0bbd 890b436ee2a5d42a 31cf323523bd3648 19ac42050c4e2bfb eef4002597fa048f bbb73ad7a2b78573 af05b16e20c3325a b8bd36e9d5637cdc f81b02509df9b193 bebce3edf47471c1 c9d7ee9da720b3be c51a6552f77a1ad7 ebee8c98c1f2f0ed e913a4ac83d7493f fb516416b5c67b35 f7b96c232e2e09fe b205533de73ff0ae 1d066be4e0cd10cf efb1acd2d56b754 9496a80214bfd807 f58ce8d6c1006e0a ee57255eb19d13e6 c65cebed048803a3 c58871ad02edcd61 b48ae147bbe9d4c3 c071d86633df970c 36cd646dfae7cd35 b6d1a1f805fa4a14 39d9e120eb5845b4 e64012e9f7437a5f fd3dc473f0a7458d dbff8b411d11b4e2 14552f413717a593 27beeb20c23f9e2b df51530d1192f3b4 c8aa994783be7661 c5fe148cf3a6824e 5397602f0698467 f427fac8a54f6799 98f5e9e7cde40f49 3e4d93b03a260f55 df7576ee9e2f5fe9 ec136f32b2758e78 ec9b9dcdf86b60d6 969ac0bfaa6102e2 dcd6915bcc1114bc c47c759202ae2ff2 ad0f32d4c9722f28 958343e4db173651 ddc5664389e5c42f d357f358d9ffb976 3516efc80ad49918 94ba5d47e8db373c c2daf0b392dc560b 9db0ef23e812509f d0ed87dcf7f1e07b 8ace3686326b4c6b 9a7d9d0a13c8788f bba590a287f25aa daea7215eb6b24e6 ff339d7596888f90 bf07b53af5680f1f e0d334068aedf67f 2176861099f2274f f5a366fe006d17b eaf4c7fbe07e3b4a fa70629af02d6a75 d0343bf00c6b4e0b ece9895509ca9909 f9f8037ebb2903eb c79451f6e759ebef f12484f8ca2c3f6e 555435a347ddb4c 9bd7c73beb1c8876 3548c7e5cce99550 8167709c0cfc4c34 f818d4aa3a9e0b3f 8787a08f1d3f37d8 2a3b840cad619c8f e7ffa7ce08ef112c 262e4904a25458b6 cfb5f546ef87485e f876598ad069cd10 f2be25c6b7b59d14 a73ce5721ea4a28e ef0e6f9ec2741b0c fa29b8219fb33efc be57e18ae1cc9564 2440b071a1669d93 c119dc90ad665128 f32e68d1e6a6892 bfd10625ff71be1a 2cd80f43337396fe d1ddff9080eae2b5 5ca0d03c0af5d0 ef7e8cce91af05b5 1299e86b2d34b013 e93fa5e3c15c8c5e d30b921312f6893b c02b394ed8be32b1 1a1abf0fe5a57a7e f89c03b9296adf31 22911e2ed265122 d2cbcba1b8c73d07 e2321c381c43d0f1 896a2213cb67cf5a 42f0c62e45b2e1a 809eff0bdc35edb4 279dbd0fe661289a cabc56b50a09211f e63f0ed32bccc971 922df20bcb5b55c0 d56476df8ddccbe2 b9a99553dcea48c0 28459e813ba385b3 c9805195cbd7875f a8c1d01ffdaa1560 b94d9b130329e6e9 cf016e48d1076ea0 ceb1840102cdeca9 5f7d392f7c33e67 c8caad0887ff1f14 8acd0bbdd4f941da ccbc8041177c3109 9f7b501d90c4df4f e5be212995872d49 ad035e522a485bdb bb0d3b2a327aa16b c801ceb4cc7eae70 f6c70a4b20cb5c54 d345fdbff5052d07 c183db77b1d44575 d29fa1c99b47cc73 904cf97a384ae5c2 ea1f2b37a5e59f88 c12d6bfcd1d0d4f1 8a1bbab33cbecd01 e2a46c89d17a6576 234b3a68f43ae5eb 30f9b2eca3d1d885 f54c3dfcad66f51b a1a1db06939e1f75 376ff7fb18977864 c5fe6d7fd29b8df2 e639ad682cbc35f7 c553ae5be7a04886 ba3bd6781da9a563 ca65db5a8b521bda f2f26460a07583e0 be1f29430fb989b5 9b0ba58f2d2e3ad9 cda3beb98885049d 983e8e520dfe09f0 3b2c44c90bc2e7fd 9447ec9a334a33e2 c1483dd288d00382 9492eb7f2c867aed dfd0aecffc74829b 8544861d28dad81a d56153072118eca1 1d8d6f3c19d7719d c2b249b7353201d6 d64aee77a2d1f559 bca966f618139cbe cd459e94f3d85db3 96aa530cff5bb0ad ] wstrb=[b 6b 3 be ff b0 ca a 1c cd c8 1b 7e 93 26 9a 60 ee b5 de 81 db 78 e2 ca 2e c0 4b 9 39 2d d3 67 ee 1f 70 27 4c 44 8e 3a 63 fe 61 af 42 ef ea a5 ee 4b 55 30 3b 3f d6 29 8a 2b 59 c5 6a 2f ee f4 5a 48 ba c4 77 a8 b9 d2 f0 73 96 68 1b 4f 3a c c2 d0 74 de 20 ae ea e2 7e 5e c0 9e c aa 81 8a 8 41 29 14 ec aa 9f f4 eb c8 9 d7 72 a8 cc 5d 70 d5 35 e2 7d 1 3f ed d6 74 cf 53 75 e 40 4b 83 f 9e f8 1d de 44 a0 ed e2 99 b c1 dd ab ae bf 44 b9 80 21 65 2f e1 a9 e8 61 cb 4d 90 ac f7 79 d c2 c6 9e 6e bd 17 7b 7f dd 19 ed 9b 30 69 1a e 82 8 a9 b3 71 c3 c1 f3 cb 6a a6 3c 2d 67 30 f9 d1 d6 35 ff 3e 65 f8 f 3c 2d e 7a 93 6 89 cf 34 98 49 c7 9e d2 ] bresp=0 bid=10001
[2325000] ARB MONITOR: slave=1 m0_req=0 m1_req=1 winner=1
[2325000] AXI S0_ARVALID_RDY HANDSHAKE
[2325000] MEMORY READ MISS beat=0 addr=1a0f4b60 -> default data id=20
[2335000] MEMORY READ MISS beat=1 addr=1a0f4b68 -> default data id=20
[2335000] SLAVE 1 R_VALID_RDY Handshake beat=0 rlast=0
[2335000] MASTER 1 B_VALID_RDY Handshake
[2335000] [MASTER MONITOR] mst_id=1 s_id=0 awaddr=7e74e40 awid=1 awlen=216 awsize=4 awburst=1 wdata=[87a998f6128a95d3 e7877f9bcce71e78 c075889ed03693b7 e2c1298a09e4ae3c d6cbccb4c81f2194 1855b54cca48a926 d42d576217415552 df6076e6fb16ded6 c55f87fc2af92416 c23a7968f7b62c32 f2cd0b09998cdf5e c4860374a19af04e 19511c81b82c9305 d1b9726486c07cdc 285b6d2b0c1e278a c44aba8f963f75d8 1cfff2b5c1ac89ac cdcab13696042cf3 2c43a2ccc55b5fe0 707e98c92156bc5 281998b9c9439581 e9ef561d4d29ac2 e6e80687d45d3b85 1da0d10615a6deed ea7979af8f019f40 e35edac52c3fc667 c1e6a554d1618036 e0631f7780ffabcb ad3f72322c601f03 fdc19f39c3c1fa3c c4c1a608ef261786 9b863689de24beb0 21e6b8edf201183a e1272fc11947d5c3 f76c9473e6a85ef5 d8a9772ffcad664a 95f53c0d99534d60 fffbac55b9d0a6f0 367e0d3b0d61d081 a6b51de1d8a52385 9275ca75cc734948 d9d519c926b0ca37 ff55edbcc8f3d7b0 156720f9008a37ab 273b01e291cbb831 dabf8fe2ef3c3ac2 efc6726d2690ef9e b85ca7cff026b0db df62eb9d9701744f bd9263ed931c37b1 8342e88ccf295e0b e62ad25af5ef0bbd 890b436ee2a5d42a 31cf323523bd3648 19ac42050c4e2bfb eef4002597fa048f bbb73ad7a2b78573 af05b16e20c3325a b8bd36e9d5637cdc f81b02509df9b193 bebce3edf47471c1 c9d7ee9da720b3be c51a6552f77a1ad7 ebee8c98c1f2f0ed e913a4ac83d7493f fb516416b5c67b35 f7b96c232e2e09fe b205533de73ff0ae 1d066be4e0cd10cf efb1acd2d56b754 9496a80214bfd807 f58ce8d6c1006e0a ee57255eb19d13e6 c65cebed048803a3 c58871ad02edcd61 b48ae147bbe9d4c3 c071d86633df970c 36cd646dfae7cd35 b6d1a1f805fa4a14 39d9e120eb5845b4 e64012e9f7437a5f fd3dc473f0a7458d dbff8b411d11b4e2 14552f413717a593 27beeb20c23f9e2b df51530d1192f3b4 c8aa994783be7661 c5fe148cf3a6824e 5397602f0698467 f427fac8a54f6799 98f5e9e7cde40f49 3e4d93b03a260f55 df7576ee9e2f5fe9 ec136f32b2758e78 ec9b9dcdf86b60d6 969ac0bfaa6102e2 dcd6915bcc1114bc c47c759202ae2ff2 ad0f32d4c9722f28 958343e4db173651 ddc5664389e5c42f d357f358d9ffb976 3516efc80ad49918 94ba5d47e8db373c c2daf0b392dc560b 9db0ef23e812509f d0ed87dcf7f1e07b 8ace3686326b4c6b 9a7d9d0a13c8788f bba590a287f25aa daea7215eb6b24e6 ff339d7596888f90 bf07b53af5680f1f e0d334068aedf67f 2176861099f2274f f5a366fe006d17b eaf4c7fbe07e3b4a fa70629af02d6a75 d0343bf00c6b4e0b ece9895509ca9909 f9f8037ebb2903eb c79451f6e759ebef f12484f8ca2c3f6e 555435a347ddb4c 9bd7c73beb1c8876 3548c7e5cce99550 8167709c0cfc4c34 f818d4aa3a9e0b3f 8787a08f1d3f37d8 2a3b840cad619c8f e7ffa7ce08ef112c 262e4904a25458b6 cfb5f546ef87485e f876598ad069cd10 f2be25c6b7b59d14 a73ce5721ea4a28e ef0e6f9ec2741b0c fa29b8219fb33efc be57e18ae1cc9564 2440b071a1669d93 c119dc90ad665128 f32e68d1e6a6892 bfd10625ff71be1a 2cd80f43337396fe d1ddff9080eae2b5 5ca0d03c0af5d0 ef7e8cce91af05b5 1299e86b2d34b013 e93fa5e3c15c8c5e d30b921312f6893b c02b394ed8be32b1 1a1abf0fe5a57a7e f89c03b9296adf31 22911e2ed265122 d2cbcba1b8c73d07 e2321c381c43d0f1 896a2213cb67cf5a 42f0c62e45b2e1a 809eff0bdc35edb4 279dbd0fe661289a cabc56b50a09211f e63f0ed32bccc971 922df20bcb5b55c0 d56476df8ddccbe2 b9a99553dcea48c0 28459e813ba385b3 c9805195cbd7875f a8c1d01ffdaa1560 b94d9b130329e6e9 cf016e48d1076ea0 ceb1840102cdeca9 5f7d392f7c33e67 c8caad0887ff1f14 8acd0bbdd4f941da ccbc8041177c3109 9f7b501d90c4df4f e5be212995872d49 ad035e522a485bdb bb0d3b2a327aa16b c801ceb4cc7eae70 f6c70a4b20cb5c54 d345fdbff5052d07 c183db77b1d44575 d29fa1c99b47cc73 904cf97a384ae5c2 ea1f2b37a5e59f88 c12d6bfcd1d0d4f1 8a1bbab33cbecd01 e2a46c89d17a6576 234b3a68f43ae5eb 30f9b2eca3d1d885 f54c3dfcad66f51b a1a1db06939e1f75 376ff7fb18977864 c5fe6d7fd29b8df2 e639ad682cbc35f7 c553ae5be7a04886 ba3bd6781da9a563 ca65db5a8b521bda f2f26460a07583e0 be1f29430fb989b5 9b0ba58f2d2e3ad9 cda3beb98885049d 983e8e520dfe09f0 3b2c44c90bc2e7fd 9447ec9a334a33e2 c1483dd288d00382 9492eb7f2c867aed dfd0aecffc74829b 8544861d28dad81a d56153072118eca1 1d8d6f3c19d7719d c2b249b7353201d6 d64aee77a2d1f559 bca966f618139cbe cd459e94f3d85db3 96aa530cff5bb0ad ] wstrb=[b 6b 3 be ff b0 ca a 1c cd c8 1b 7e 93 26 9a 60 ee b5 de 81 db 78 e2 ca 2e c0 4b 9 39 2d d3 67 ee 1f 70 27 4c 44 8e 3a 63 fe 61 af 42 ef ea a5 ee 4b 55 30 3b 3f d6 29 8a 2b 59 c5 6a 2f ee f4 5a 48 ba c4 77 a8 b9 d2 f0 73 96 68 1b 4f 3a c c2 d0 74 de 20 ae ea e2 7e 5e c0 9e c aa 81 8a 8 41 29 14 ec aa 9f f4 eb c8 9 d7 72 a8 cc 5d 70 d5 35 e2 7d 1 3f ed d6 74 cf 53 75 e 40 4b 83 f 9e f8 1d de 44 a0 ed e2 99 b c1 dd ab ae bf 44 b9 80 21 65 2f e1 a9 e8 61 cb 4d 90 ac f7 79 d c2 c6 9e 6e bd 17 7b 7f dd 19 ed 9b 30 69 1a e 82 8 a9 b3 71 c3 c1 f3 cb 6a a6 3c 2d 67 30 f9 d1 d6 35 ff 3e 65 f8 f 3c 2d e 7a 93 6 89 cf 34 98 49 c7 9e d2 ] bresp=0 bid=1
[2335000] MASTER 1 RECEIVED BRESP. BRESP=0
[2335000] [MASTER DRIVER] mst_id=1 s_id=0 awaddr=7e74e40 awid=1 awlen=216 awsize=4 awburst=1 wdata=[87a998f6128a95d3 e7877f9bcce71e78 c075889ed03693b7 e2c1298a09e4ae3c d6cbccb4c81f2194 1855b54cca48a926 d42d576217415552 df6076e6fb16ded6 c55f87fc2af92416 c23a7968f7b62c32 f2cd0b09998cdf5e c4860374a19af04e 19511c81b82c9305 d1b9726486c07cdc 285b6d2b0c1e278a c44aba8f963f75d8 1cfff2b5c1ac89ac cdcab13696042cf3 2c43a2ccc55b5fe0 707e98c92156bc5 281998b9c9439581 e9ef561d4d29ac2 e6e80687d45d3b85 1da0d10615a6deed ea7979af8f019f40 e35edac52c3fc667 c1e6a554d1618036 e0631f7780ffabcb ad3f72322c601f03 fdc19f39c3c1fa3c c4c1a608ef261786 9b863689de24beb0 21e6b8edf201183a e1272fc11947d5c3 f76c9473e6a85ef5 d8a9772ffcad664a 95f53c0d99534d60 fffbac55b9d0a6f0 367e0d3b0d61d081 a6b51de1d8a52385 9275ca75cc734948 d9d519c926b0ca37 ff55edbcc8f3d7b0 156720f9008a37ab 273b01e291cbb831 dabf8fe2ef3c3ac2 efc6726d2690ef9e b85ca7cff026b0db df62eb9d9701744f bd9263ed931c37b1 8342e88ccf295e0b e62ad25af5ef0bbd 890b436ee2a5d42a 31cf323523bd3648 19ac42050c4e2bfb eef4002597fa048f bbb73ad7a2b78573 af05b16e20c3325a b8bd36e9d5637cdc f81b02509df9b193 bebce3edf47471c1 c9d7ee9da720b3be c51a6552f77a1ad7 ebee8c98c1f2f0ed e913a4ac83d7493f fb516416b5c67b35 f7b96c232e2e09fe b205533de73ff0ae 1d066be4e0cd10cf efb1acd2d56b754 9496a80214bfd807 f58ce8d6c1006e0a ee57255eb19d13e6 c65cebed048803a3 c58871ad02edcd61 b48ae147bbe9d4c3 c071d86633df970c 36cd646dfae7cd35 b6d1a1f805fa4a14 39d9e120eb5845b4 e64012e9f7437a5f fd3dc473f0a7458d dbff8b411d11b4e2 14552f413717a593 27beeb20c23f9e2b df51530d1192f3b4 c8aa994783be7661 c5fe148cf3a6824e 5397602f0698467 f427fac8a54f6799 98f5e9e7cde40f49 3e4d93b03a260f55 df7576ee9e2f5fe9 ec136f32b2758e78 ec9b9dcdf86b60d6 969ac0bfaa6102e2 dcd6915bcc1114bc c47c759202ae2ff2 ad0f32d4c9722f28 958343e4db173651 ddc5664389e5c42f d357f358d9ffb976 3516efc80ad49918 94ba5d47e8db373c c2daf0b392dc560b 9db0ef23e812509f d0ed87dcf7f1e07b 8ace3686326b4c6b 9a7d9d0a13c8788f bba590a287f25aa daea7215eb6b24e6 ff339d7596888f90 bf07b53af5680f1f e0d334068aedf67f 2176861099f2274f f5a366fe006d17b eaf4c7fbe07e3b4a fa70629af02d6a75 d0343bf00c6b4e0b ece9895509ca9909 f9f8037ebb2903eb c79451f6e759ebef f12484f8ca2c3f6e 555435a347ddb4c 9bd7c73beb1c8876 3548c7e5cce99550 8167709c0cfc4c34 f818d4aa3a9e0b3f 8787a08f1d3f37d8 2a3b840cad619c8f e7ffa7ce08ef112c 262e4904a25458b6 cfb5f546ef87485e f876598ad069cd10 f2be25c6b7b59d14 a73ce5721ea4a28e ef0e6f9ec2741b0c fa29b8219fb33efc be57e18ae1cc9564 2440b071a1669d93 c119dc90ad665128 f32e68d1e6a6892 bfd10625ff71be1a 2cd80f43337396fe d1ddff9080eae2b5 5ca0d03c0af5d0 ef7e8cce91af05b5 1299e86b2d34b013 e93fa5e3c15c8c5e d30b921312f6893b c02b394ed8be32b1 1a1abf0fe5a57a7e f89c03b9296adf31 22911e2ed265122 d2cbcba1b8c73d07 e2321c381c43d0f1 896a2213cb67cf5a 42f0c62e45b2e1a 809eff0bdc35edb4 279dbd0fe661289a cabc56b50a09211f e63f0ed32bccc971 922df20bcb5b55c0 d56476df8ddccbe2 b9a99553dcea48c0 28459e813ba385b3 c9805195cbd7875f a8c1d01ffdaa1560 b94d9b130329e6e9 cf016e48d1076ea0 ceb1840102cdeca9 5f7d392f7c33e67 c8caad0887ff1f14 8acd0bbdd4f941da ccbc8041177c3109 9f7b501d90c4df4f e5be212995872d49 ad035e522a485bdb bb0d3b2a327aa16b c801ceb4cc7eae70 f6c70a4b20cb5c54 d345fdbff5052d07 c183db77b1d44575 d29fa1c99b47cc73 904cf97a384ae5c2 ea1f2b37a5e59f88 c12d6bfcd1d0d4f1 8a1bbab33cbecd01 e2a46c89d17a6576 234b3a68f43ae5eb 30f9b2eca3d1d885 f54c3dfcad66f51b a1a1db06939e1f75 376ff7fb18977864 c5fe6d7fd29b8df2 e639ad682cbc35f7 c553ae5be7a04886 ba3bd6781da9a563 ca65db5a8b521bda f2f26460a07583e0 be1f29430fb989b5 9b0ba58f2d2e3ad9 cda3beb98885049d 983e8e520dfe09f0 3b2c44c90bc2e7fd 9447ec9a334a33e2 c1483dd288d00382 9492eb7f2c867aed dfd0aecffc74829b 8544861d28dad81a d56153072118eca1 1d8d6f3c19d7719d c2b249b7353201d6 d64aee77a2d1f559 bca966f618139cbe cd459e94f3d85db3 96aa530cff5bb0ad ] wstrb=[b 6b 3 be ff b0 ca a 1c cd c8 1b 7e 93 26 9a 60 ee b5 de 81 db 78 e2 ca 2e c0 4b 9 39 2d d3 67 ee 1f 70 27 4c 44 8e 3a 63 fe 61 af 42 ef ea a5 ee 4b 55 30 3b 3f d6 29 8a 2b 59 c5 6a 2f ee f4 5a 48 ba c4 77 a8 b9 d2 f0 73 96 68 1b 4f 3a c c2 d0 74 de 20 ae ea e2 7e 5e c0 9e c aa 81 8a 8 41 29 14 ec aa 9f f4 eb c8 9 d7 72 a8 cc 5d 70 d5 35 e2 7d 1 3f ed d6 74 cf 53 75 e 40 4b 83 f 9e f8 1d de 44 a0 ed e2 99 b c1 dd ab ae bf 44 b9 80 21 65 2f e1 a9 e8 61 cb 4d 90 ac f7 79 d c2 c6 9e 6e bd 17 7b 7f dd 19 ed 9b 30 69 1a e 82 8 a9 b3 71 c3 c1 f3 cb 6a a6 3c 2d 67 30 f9 d1 d6 35 ff 3e 65 f8 f 3c 2d e 7a 93 6 89 cf 34 98 49 c7 9e d2 ] bresp=0 bid=1
[2335000] SCOREBOARD MATCH: decode_err expected = 0, actual =0
[2335000] SCOREBOARD MATCH: slave_id expected = 0, actual =0
[2335000] SCOREBOARD MATCH: awaddr passthrough expected = 7e74e40, actual =7e74e40
[2335000] SCOREBOARD MATCH: awlen passthrough expected = 216, actual =216
[2335000] SCOREBOARD MATCH: awsize passthrough expected = 4, actual =4
[2335000] SCOREBOARD MATCH: awburst passthrough expected = 1, actual =1
[2335000] SCOREBOARD MATCH: wdata size check expected = d9, actual =d9
[2335000] SCOREBOARD MATCH: wdata passthrough beat=0 expected = 87a998f6128a95d3, actual =87a998f6128a95d3
[2335000] SCOREBOARD MATCH: wdata passthrough beat=1 expected = e7877f9bcce71e78, actual =e7877f9bcce71e78
[2335000] SCOREBOARD MATCH: wdata passthrough beat=2 expected = c075889ed03693b7, actual =c075889ed03693b7
[2335000] SCOREBOARD MATCH: wdata passthrough beat=3 expected = e2c1298a09e4ae3c, actual =e2c1298a09e4ae3c
[2335000] SCOREBOARD MATCH: wdata passthrough beat=4 expected = d6cbccb4c81f2194, actual =d6cbccb4c81f2194
[2335000] SCOREBOARD MATCH: wdata passthrough beat=5 expected = 1855b54cca48a926, actual =1855b54cca48a926
[2335000] SCOREBOARD MATCH: wdata passthrough beat=6 expected = d42d576217415552, actual =d42d576217415552
[2335000] SCOREBOARD MATCH: wdata passthrough beat=7 expected = df6076e6fb16ded6, actual =df6076e6fb16ded6
[2335000] SCOREBOARD MATCH: wdata passthrough beat=8 expected = c55f87fc2af92416, actual =c55f87fc2af92416
[2335000] SCOREBOARD MATCH: wdata passthrough beat=9 expected = c23a7968f7b62c32, actual =c23a7968f7b62c32
[2335000] SCOREBOARD MATCH: wdata passthrough beat=10 expected = f2cd0b09998cdf5e, actual =f2cd0b09998cdf5e
[2335000] SCOREBOARD MATCH: wdata passthrough beat=11 expected = c4860374a19af04e, actual =c4860374a19af04e
[2335000] SCOREBOARD MATCH: wdata passthrough beat=12 expected = 19511c81b82c9305, actual =19511c81b82c9305
[2335000] SCOREBOARD MATCH: wdata passthrough beat=13 expected = d1b9726486c07cdc, actual =d1b9726486c07cdc
[2335000] SCOREBOARD MATCH: wdata passthrough beat=14 expected = 285b6d2b0c1e278a, actual =285b6d2b0c1e278a
[2335000] SCOREBOARD MATCH: wdata passthrough beat=15 expected = c44aba8f963f75d8, actual =c44aba8f963f75d8
[2335000] SCOREBOARD MATCH: wdata passthrough beat=16 expected = 1cfff2b5c1ac89ac, actual =1cfff2b5c1ac89ac
[2335000] SCOREBOARD MATCH: wdata passthrough beat=17 expected = cdcab13696042cf3, actual =cdcab13696042cf3
[2335000] SCOREBOARD MATCH: wdata passthrough beat=18 expected = 2c43a2ccc55b5fe0, actual =2c43a2ccc55b5fe0
[2335000] SCOREBOARD MATCH: wdata passthrough beat=19 expected = 707e98c92156bc5, actual =707e98c92156bc5
[2335000] SCOREBOARD MATCH: wdata passthrough beat=20 expected = 281998b9c9439581, actual =281998b9c9439581
[2335000] SCOREBOARD MATCH: wdata passthrough beat=21 expected = e9ef561d4d29ac2, actual =e9ef561d4d29ac2
[2335000] SCOREBOARD MATCH: wdata passthrough beat=22 expected = e6e80687d45d3b85, actual =e6e80687d45d3b85
[2335000] SCOREBOARD MATCH: wdata passthrough beat=23 expected = 1da0d10615a6deed, actual =1da0d10615a6deed
[2335000] SCOREBOARD MATCH: wdata passthrough beat=24 expected = ea7979af8f019f40, actual =ea7979af8f019f40
[2335000] SCOREBOARD MATCH: wdata passthrough beat=25 expected = e35edac52c3fc667, actual =e35edac52c3fc667
[2335000] SCOREBOARD MATCH: wdata passthrough beat=26 expected = c1e6a554d1618036, actual =c1e6a554d1618036
[2335000] SCOREBOARD MATCH: wdata passthrough beat=27 expected = e0631f7780ffabcb, actual =e0631f7780ffabcb
[2335000] SCOREBOARD MATCH: wdata passthrough beat=28 expected = ad3f72322c601f03, actual =ad3f72322c601f03
[2335000] SCOREBOARD MATCH: wdata passthrough beat=29 expected = fdc19f39c3c1fa3c, actual =fdc19f39c3c1fa3c
[2335000] SCOREBOARD MATCH: wdata passthrough beat=30 expected = c4c1a608ef261786, actual =c4c1a608ef261786
[2335000] SCOREBOARD MATCH: wdata passthrough beat=31 expected = 9b863689de24beb0, actual =9b863689de24beb0
[2335000] SCOREBOARD MATCH: wdata passthrough beat=32 expected = 21e6b8edf201183a, actual =21e6b8edf201183a
[2335000] SCOREBOARD MATCH: wdata passthrough beat=33 expected = e1272fc11947d5c3, actual =e1272fc11947d5c3
[2335000] SCOREBOARD MATCH: wdata passthrough beat=34 expected = f76c9473e6a85ef5, actual =f76c9473e6a85ef5
[2335000] SCOREBOARD MATCH: wdata passthrough beat=35 expected = d8a9772ffcad664a, actual =d8a9772ffcad664a
[2335000] SCOREBOARD MATCH: wdata passthrough beat=36 expected = 95f53c0d99534d60, actual =95f53c0d99534d60
[2335000] SCOREBOARD MATCH: wdata passthrough beat=37 expected = fffbac55b9d0a6f0, actual =fffbac55b9d0a6f0
[2335000] SCOREBOARD MATCH: wdata passthrough beat=38 expected = 367e0d3b0d61d081, actual =367e0d3b0d61d081
[2335000] SCOREBOARD MATCH: wdata passthrough beat=39 expected = a6b51de1d8a52385, actual =a6b51de1d8a52385
[2335000] SCOREBOARD MATCH: wdata passthrough beat=40 expected = 9275ca75cc734948, actual =9275ca75cc734948
[2335000] SCOREBOARD MATCH: wdata passthrough beat=41 expected = d9d519c926b0ca37, actual =d9d519c926b0ca37
[2335000] SCOREBOARD MATCH: wdata passthrough beat=42 expected = ff55edbcc8f3d7b0, actual =ff55edbcc8f3d7b0
[2335000] SCOREBOARD MATCH: wdata passthrough beat=43 expected = 156720f9008a37ab, actual =156720f9008a37ab
[2335000] SCOREBOARD MATCH: wdata passthrough beat=44 expected = 273b01e291cbb831, actual =273b01e291cbb831
[2335000] SCOREBOARD MATCH: wdata passthrough beat=45 expected = dabf8fe2ef3c3ac2, actual =dabf8fe2ef3c3ac2
[2335000] SCOREBOARD MATCH: wdata passthrough beat=46 expected = efc6726d2690ef9e, actual =efc6726d2690ef9e
[2335000] SCOREBOARD MATCH: wdata passthrough beat=47 expected = b85ca7cff026b0db, actual =b85ca7cff026b0db
[2335000] SCOREBOARD MATCH: wdata passthrough beat=48 expected = df62eb9d9701744f, actual =df62eb9d9701744f
[2335000] SCOREBOARD MATCH: wdata passthrough beat=49 expected = bd9263ed931c37b1, actual =bd9263ed931c37b1
[2335000] SCOREBOARD MATCH: wdata passthrough beat=50 expected = 8342e88ccf295e0b, actual =8342e88ccf295e0b
[2335000] SCOREBOARD MATCH: wdata passthrough beat=51 expected = e62ad25af5ef0bbd, actual =e62ad25af5ef0bbd
[2335000] SCOREBOARD MATCH: wdata passthrough beat=52 expected = 890b436ee2a5d42a, actual =890b436ee2a5d42a
[2335000] SCOREBOARD MATCH: wdata passthrough beat=53 expected = 31cf323523bd3648, actual =31cf323523bd3648
[2335000] SCOREBOARD MATCH: wdata passthrough beat=54 expected = 19ac42050c4e2bfb, actual =19ac42050c4e2bfb
[2335000] SCOREBOARD MATCH: wdata passthrough beat=55 expected = eef4002597fa048f, actual =eef4002597fa048f
[2335000] SCOREBOARD MATCH: wdata passthrough beat=56 expected = bbb73ad7a2b78573, actual =bbb73ad7a2b78573
[2335000] SCOREBOARD MATCH: wdata passthrough beat=57 expected = af05b16e20c3325a, actual =af05b16e20c3325a
[2335000] SCOREBOARD MATCH: wdata passthrough beat=58 expected = b8bd36e9d5637cdc, actual =b8bd36e9d5637cdc
[2335000] SCOREBOARD MATCH: wdata passthrough beat=59 expected = f81b02509df9b193, actual =f81b02509df9b193
[2335000] SCOREBOARD MATCH: wdata passthrough beat=60 expected = bebce3edf47471c1, actual =bebce3edf47471c1
[2335000] SCOREBOARD MATCH: wdata passthrough beat=61 expected = c9d7ee9da720b3be, actual =c9d7ee9da720b3be
[2335000] SCOREBOARD MATCH: wdata passthrough beat=62 expected = c51a6552f77a1ad7, actual =c51a6552f77a1ad7
[2335000] SCOREBOARD MATCH: wdata passthrough beat=63 expected = ebee8c98c1f2f0ed, actual =ebee8c98c1f2f0ed
[2335000] SCOREBOARD MATCH: wdata passthrough beat=64 expected = e913a4ac83d7493f, actual =e913a4ac83d7493f
[2335000] SCOREBOARD MATCH: wdata passthrough beat=65 expected = fb516416b5c67b35, actual =fb516416b5c67b35
[2335000] SCOREBOARD MATCH: wdata passthrough beat=66 expected = f7b96c232e2e09fe, actual =f7b96c232e2e09fe
[2335000] SCOREBOARD MATCH: wdata passthrough beat=67 expected = b205533de73ff0ae, actual =b205533de73ff0ae
[2335000] SCOREBOARD MATCH: wdata passthrough beat=68 expected = 1d066be4e0cd10cf, actual =1d066be4e0cd10cf
[2335000] SCOREBOARD MATCH: wdata passthrough beat=69 expected = efb1acd2d56b754, actual =efb1acd2d56b754
[2335000] SCOREBOARD MATCH: wdata passthrough beat=70 expected = 9496a80214bfd807, actual =9496a80214bfd807
[2335000] SCOREBOARD MATCH: wdata passthrough beat=71 expected = f58ce8d6c1006e0a, actual =f58ce8d6c1006e0a
[2335000] SCOREBOARD MATCH: wdata passthrough beat=72 expected = ee57255eb19d13e6, actual =ee57255eb19d13e6
[2335000] SCOREBOARD MATCH: wdata passthrough beat=73 expected = c65cebed048803a3, actual =c65cebed048803a3
[2335000] SCOREBOARD MATCH: wdata passthrough beat=74 expected = c58871ad02edcd61, actual =c58871ad02edcd61
[2335000] SCOREBOARD MATCH: wdata passthrough beat=75 expected = b48ae147bbe9d4c3, actual =b48ae147bbe9d4c3
[2335000] SCOREBOARD MATCH: wdata passthrough beat=76 expected = c071d86633df970c, actual =c071d86633df970c
[2335000] SCOREBOARD MATCH: wdata passthrough beat=77 expected = 36cd646dfae7cd35, actual =36cd646dfae7cd35
[2335000] SCOREBOARD MATCH: wdata passthrough beat=78 expected = b6d1a1f805fa4a14, actual =b6d1a1f805fa4a14
[2335000] SCOREBOARD MATCH: wdata passthrough beat=79 expected = 39d9e120eb5845b4, actual =39d9e120eb5845b4
[2335000] SCOREBOARD MATCH: wdata passthrough beat=80 expected = e64012e9f7437a5f, actual =e64012e9f7437a5f
[2335000] SCOREBOARD MATCH: wdata passthrough beat=81 expected = fd3dc473f0a7458d, actual =fd3dc473f0a7458d
[2335000] SCOREBOARD MATCH: wdata passthrough beat=82 expected = dbff8b411d11b4e2, actual =dbff8b411d11b4e2
[2335000] SCOREBOARD MATCH: wdata passthrough beat=83 expected = 14552f413717a593, actual =14552f413717a593
[2335000] SCOREBOARD MATCH: wdata passthrough beat=84 expected = 27beeb20c23f9e2b, actual =27beeb20c23f9e2b
[2335000] SCOREBOARD MATCH: wdata passthrough beat=85 expected = df51530d1192f3b4, actual =df51530d1192f3b4
[2335000] SCOREBOARD MATCH: wdata passthrough beat=86 expected = c8aa994783be7661, actual =c8aa994783be7661
[2335000] SCOREBOARD MATCH: wdata passthrough beat=87 expected = c5fe148cf3a6824e, actual =c5fe148cf3a6824e
[2335000] SCOREBOARD MATCH: wdata passthrough beat=88 expected = 5397602f0698467, actual =5397602f0698467
[2335000] SCOREBOARD MATCH: wdata passthrough beat=89 expected = f427fac8a54f6799, actual =f427fac8a54f6799
[2335000] SCOREBOARD MATCH: wdata passthrough beat=90 expected = 98f5e9e7cde40f49, actual =98f5e9e7cde40f49
[2335000] SCOREBOARD MATCH: wdata passthrough beat=91 expected = 3e4d93b03a260f55, actual =3e4d93b03a260f55
[2335000] SCOREBOARD MATCH: wdata passthrough beat=92 expected = df7576ee9e2f5fe9, actual =df7576ee9e2f5fe9
[2335000] SCOREBOARD MATCH: wdata passthrough beat=93 expected = ec136f32b2758e78, actual =ec136f32b2758e78
[2335000] SCOREBOARD MATCH: wdata passthrough beat=94 expected = ec9b9dcdf86b60d6, actual =ec9b9dcdf86b60d6
[2335000] SCOREBOARD MATCH: wdata passthrough beat=95 expected = 969ac0bfaa6102e2, actual =969ac0bfaa6102e2
[2335000] SCOREBOARD MATCH: wdata passthrough beat=96 expected = dcd6915bcc1114bc, actual =dcd6915bcc1114bc
[2335000] SCOREBOARD MATCH: wdata passthrough beat=97 expected = c47c759202ae2ff2, actual =c47c759202ae2ff2
[2335000] SCOREBOARD MATCH: wdata passthrough beat=98 expected = ad0f32d4c9722f28, actual =ad0f32d4c9722f28
[2335000] SCOREBOARD MATCH: wdata passthrough beat=99 expected = 958343e4db173651, actual =958343e4db173651
[2335000] SCOREBOARD MATCH: wdata passthrough beat=100 expected = ddc5664389e5c42f, actual =ddc5664389e5c42f
[2335000] SCOREBOARD MATCH: wdata passthrough beat=101 expected = d357f358d9ffb976, actual =d357f358d9ffb976
[2335000] SCOREBOARD MATCH: wdata passthrough beat=102 expected = 3516efc80ad49918, actual =3516efc80ad49918
[2335000] SCOREBOARD MATCH: wdata passthrough beat=103 expected = 94ba5d47e8db373c, actual =94ba5d47e8db373c
[2335000] SCOREBOARD MATCH: wdata passthrough beat=104 expected = c2daf0b392dc560b, actual =c2daf0b392dc560b
[2335000] SCOREBOARD MATCH: wdata passthrough beat=105 expected = 9db0ef23e812509f, actual =9db0ef23e812509f
[2335000] SCOREBOARD MATCH: wdata passthrough beat=106 expected = d0ed87dcf7f1e07b, actual =d0ed87dcf7f1e07b
[2335000] SCOREBOARD MATCH: wdata passthrough beat=107 expected = 8ace3686326b4c6b, actual =8ace3686326b4c6b
[2335000] SCOREBOARD MATCH: wdata passthrough beat=108 expected = 9a7d9d0a13c8788f, actual =9a7d9d0a13c8788f
[2335000] SCOREBOARD MATCH: wdata passthrough beat=109 expected = bba590a287f25aa, actual =bba590a287f25aa
[2335000] SCOREBOARD MATCH: wdata passthrough beat=110 expected = daea7215eb6b24e6, actual =daea7215eb6b24e6
[2335000] SCOREBOARD MATCH: wdata passthrough beat=111 expected = ff339d7596888f90, actual =ff339d7596888f90
[2335000] SCOREBOARD MATCH: wdata passthrough beat=112 expected = bf07b53af5680f1f, actual =bf07b53af5680f1f
[2335000] SCOREBOARD MATCH: wdata passthrough beat=113 expected = e0d334068aedf67f, actual =e0d334068aedf67f
[2335000] SCOREBOARD MATCH: wdata passthrough beat=114 expected = 2176861099f2274f, actual =2176861099f2274f
[2335000] SCOREBOARD MATCH: wdata passthrough beat=115 expected = f5a366fe006d17b, actual =f5a366fe006d17b
[2335000] SCOREBOARD MATCH: wdata passthrough beat=116 expected = eaf4c7fbe07e3b4a, actual =eaf4c7fbe07e3b4a
[2335000] SCOREBOARD MATCH: wdata passthrough beat=117 expected = fa70629af02d6a75, actual =fa70629af02d6a75
[2335000] SCOREBOARD MATCH: wdata passthrough beat=118 expected = d0343bf00c6b4e0b, actual =d0343bf00c6b4e0b
[2335000] SCOREBOARD MATCH: wdata passthrough beat=119 expected = ece9895509ca9909, actual =ece9895509ca9909
[2335000] SCOREBOARD MATCH: wdata passthrough beat=120 expected = f9f8037ebb2903eb, actual =f9f8037ebb2903eb
[2335000] SCOREBOARD MATCH: wdata passthrough beat=121 expected = c79451f6e759ebef, actual =c79451f6e759ebef
[2335000] SCOREBOARD MATCH: wdata passthrough beat=122 expected = f12484f8ca2c3f6e, actual =f12484f8ca2c3f6e
[2335000] SCOREBOARD MATCH: wdata passthrough beat=123 expected = 555435a347ddb4c, actual =555435a347ddb4c
[2335000] SCOREBOARD MATCH: wdata passthrough beat=124 expected = 9bd7c73beb1c8876, actual =9bd7c73beb1c8876
[2335000] SCOREBOARD MATCH: wdata passthrough beat=125 expected = 3548c7e5cce99550, actual =3548c7e5cce99550
[2335000] SCOREBOARD MATCH: wdata passthrough beat=126 expected = 8167709c0cfc4c34, actual =8167709c0cfc4c34
[2335000] SCOREBOARD MATCH: wdata passthrough beat=127 expected = f818d4aa3a9e0b3f, actual =f818d4aa3a9e0b3f
[2335000] SCOREBOARD MATCH: wdata passthrough beat=128 expected = 8787a08f1d3f37d8, actual =8787a08f1d3f37d8
[2335000] SCOREBOARD MATCH: wdata passthrough beat=129 expected = 2a3b840cad619c8f, actual =2a3b840cad619c8f
[2335000] SCOREBOARD MATCH: wdata passthrough beat=130 expected = e7ffa7ce08ef112c, actual =e7ffa7ce08ef112c
[2335000] SCOREBOARD MATCH: wdata passthrough beat=131 expected = 262e4904a25458b6, actual =262e4904a25458b6
[2335000] SCOREBOARD MATCH: wdata passthrough beat=132 expected = cfb5f546ef87485e, actual =cfb5f546ef87485e
[2335000] SCOREBOARD MATCH: wdata passthrough beat=133 expected = f876598ad069cd10, actual =f876598ad069cd10
[2335000] SCOREBOARD MATCH: wdata passthrough beat=134 expected = f2be25c6b7b59d14, actual =f2be25c6b7b59d14
[2335000] SCOREBOARD MATCH: wdata passthrough beat=135 expected = a73ce5721ea4a28e, actual =a73ce5721ea4a28e
[2335000] SCOREBOARD MATCH: wdata passthrough beat=136 expected = ef0e6f9ec2741b0c, actual =ef0e6f9ec2741b0c
[2335000] SCOREBOARD MATCH: wdata passthrough beat=137 expected = fa29b8219fb33efc, actual =fa29b8219fb33efc
[2335000] SCOREBOARD MATCH: wdata passthrough beat=138 expected = be57e18ae1cc9564, actual =be57e18ae1cc9564
[2335000] SCOREBOARD MATCH: wdata passthrough beat=139 expected = 2440b071a1669d93, actual =2440b071a1669d93
[2335000] SCOREBOARD MATCH: wdata passthrough beat=140 expected = c119dc90ad665128, actual =c119dc90ad665128
[2335000] SCOREBOARD MATCH: wdata passthrough beat=141 expected = f32e68d1e6a6892, actual =f32e68d1e6a6892
[2335000] SCOREBOARD MATCH: wdata passthrough beat=142 expected = bfd10625ff71be1a, actual =bfd10625ff71be1a
[2335000] SCOREBOARD MATCH: wdata passthrough beat=143 expected = 2cd80f43337396fe, actual =2cd80f43337396fe
[2335000] SCOREBOARD MATCH: wdata passthrough beat=144 expected = d1ddff9080eae2b5, actual =d1ddff9080eae2b5
[2335000] SCOREBOARD MATCH: wdata passthrough beat=145 expected = 5ca0d03c0af5d0, actual =5ca0d03c0af5d0
[2335000] SCOREBOARD MATCH: wdata passthrough beat=146 expected = ef7e8cce91af05b5, actual =ef7e8cce91af05b5
[2335000] SCOREBOARD MATCH: wdata passthrough beat=147 expected = 1299e86b2d34b013, actual =1299e86b2d34b013
[2335000] SCOREBOARD MATCH: wdata passthrough beat=148 expected = e93fa5e3c15c8c5e, actual =e93fa5e3c15c8c5e
[2335000] SCOREBOARD MATCH: wdata passthrough beat=149 expected = d30b921312f6893b, actual =d30b921312f6893b
[2335000] SCOREBOARD MATCH: wdata passthrough beat=150 expected = c02b394ed8be32b1, actual =c02b394ed8be32b1
[2335000] SCOREBOARD MATCH: wdata passthrough beat=151 expected = 1a1abf0fe5a57a7e, actual =1a1abf0fe5a57a7e
[2335000] SCOREBOARD MATCH: wdata passthrough beat=152 expected = f89c03b9296adf31, actual =f89c03b9296adf31
[2335000] SCOREBOARD MATCH: wdata passthrough beat=153 expected = 22911e2ed265122, actual =22911e2ed265122
[2335000] SCOREBOARD MATCH: wdata passthrough beat=154 expected = d2cbcba1b8c73d07, actual =d2cbcba1b8c73d07
[2335000] SCOREBOARD MATCH: wdata passthrough beat=155 expected = e2321c381c43d0f1, actual =e2321c381c43d0f1
[2335000] SCOREBOARD MATCH: wdata passthrough beat=156 expected = 896a2213cb67cf5a, actual =896a2213cb67cf5a
[2335000] SCOREBOARD MATCH: wdata passthrough beat=157 expected = 42f0c62e45b2e1a, actual =42f0c62e45b2e1a
[2335000] SCOREBOARD MATCH: wdata passthrough beat=158 expected = 809eff0bdc35edb4, actual =809eff0bdc35edb4
[2335000] SCOREBOARD MATCH: wdata passthrough beat=159 expected = 279dbd0fe661289a, actual =279dbd0fe661289a
[2335000] SCOREBOARD MATCH: wdata passthrough beat=160 expected = cabc56b50a09211f, actual =cabc56b50a09211f
[2335000] SCOREBOARD MATCH: wdata passthrough beat=161 expected = e63f0ed32bccc971, actual =e63f0ed32bccc971
[2335000] SCOREBOARD MATCH: wdata passthrough beat=162 expected = 922df20bcb5b55c0, actual =922df20bcb5b55c0
[2335000] SCOREBOARD MATCH: wdata passthrough beat=163 expected = d56476df8ddccbe2, actual =d56476df8ddccbe2
[2335000] SCOREBOARD MATCH: wdata passthrough beat=164 expected = b9a99553dcea48c0, actual =b9a99553dcea48c0
[2335000] SCOREBOARD MATCH: wdata passthrough beat=165 expected = 28459e813ba385b3, actual =28459e813ba385b3
[2335000] SCOREBOARD MATCH: wdata passthrough beat=166 expected = c9805195cbd7875f, actual =c9805195cbd7875f
[2335000] SCOREBOARD MATCH: wdata passthrough beat=167 expected = a8c1d01ffdaa1560, actual =a8c1d01ffdaa1560
[2335000] SCOREBOARD MATCH: wdata passthrough beat=168 expected = b94d9b130329e6e9, actual =b94d9b130329e6e9
[2335000] SCOREBOARD MATCH: wdata passthrough beat=169 expected = cf016e48d1076ea0, actual =cf016e48d1076ea0
[2335000] SCOREBOARD MATCH: wdata passthrough beat=170 expected = ceb1840102cdeca9, actual =ceb1840102cdeca9
[2335000] SCOREBOARD MATCH: wdata passthrough beat=171 expected = 5f7d392f7c33e67, actual =5f7d392f7c33e67
[2335000] SCOREBOARD MATCH: wdata passthrough beat=172 expected = c8caad0887ff1f14, actual =c8caad0887ff1f14
[2335000] SCOREBOARD MATCH: wdata passthrough beat=173 expected = 8acd0bbdd4f941da, actual =8acd0bbdd4f941da
[2335000] SCOREBOARD MATCH: wdata passthrough beat=174 expected = ccbc8041177c3109, actual =ccbc8041177c3109
[2335000] SCOREBOARD MATCH: wdata passthrough beat=175 expected = 9f7b501d90c4df4f, actual =9f7b501d90c4df4f
[2335000] SCOREBOARD MATCH: wdata passthrough beat=176 expected = e5be212995872d49, actual =e5be212995872d49
[2335000] SCOREBOARD MATCH: wdata passthrough beat=177 expected = ad035e522a485bdb, actual =ad035e522a485bdb
[2335000] SCOREBOARD MATCH: wdata passthrough beat=178 expected = bb0d3b2a327aa16b, actual =bb0d3b2a327aa16b
[2335000] SCOREBOARD MATCH: wdata passthrough beat=179 expected = c801ceb4cc7eae70, actual =c801ceb4cc7eae70
[2335000] SCOREBOARD MATCH: wdata passthrough beat=180 expected = f6c70a4b20cb5c54, actual =f6c70a4b20cb5c54
[2335000] SCOREBOARD MATCH: wdata passthrough beat=181 expected = d345fdbff5052d07, actual =d345fdbff5052d07
[2335000] SCOREBOARD MATCH: wdata passthrough beat=182 expected = c183db77b1d44575, actual =c183db77b1d44575
[2335000] SCOREBOARD MATCH: wdata passthrough beat=183 expected = d29fa1c99b47cc73, actual =d29fa1c99b47cc73
[2335000] SCOREBOARD MATCH: wdata passthrough beat=184 expected = 904cf97a384ae5c2, actual =904cf97a384ae5c2
[2335000] SCOREBOARD MATCH: wdata passthrough beat=185 expected = ea1f2b37a5e59f88, actual =ea1f2b37a5e59f88
[2335000] SCOREBOARD MATCH: wdata passthrough beat=186 expected = c12d6bfcd1d0d4f1, actual =c12d6bfcd1d0d4f1
[2335000] SCOREBOARD MATCH: wdata passthrough beat=187 expected = 8a1bbab33cbecd01, actual =8a1bbab33cbecd01
[2335000] SCOREBOARD MATCH: wdata passthrough beat=188 expected = e2a46c89d17a6576, actual =e2a46c89d17a6576
[2335000] SCOREBOARD MATCH: wdata passthrough beat=189 expected = 234b3a68f43ae5eb, actual =234b3a68f43ae5eb
[2335000] SCOREBOARD MATCH: wdata passthrough beat=190 expected = 30f9b2eca3d1d885, actual =30f9b2eca3d1d885
[2335000] SCOREBOARD MATCH: wdata passthrough beat=191 expected = f54c3dfcad66f51b, actual =f54c3dfcad66f51b
[2335000] SCOREBOARD MATCH: wdata passthrough beat=192 expected = a1a1db06939e1f75, actual =a1a1db06939e1f75
[2335000] SCOREBOARD MATCH: wdata passthrough beat=193 expected = 376ff7fb18977864, actual =376ff7fb18977864
[2335000] SCOREBOARD MATCH: wdata passthrough beat=194 expected = c5fe6d7fd29b8df2, actual =c5fe6d7fd29b8df2
[2335000] SCOREBOARD MATCH: wdata passthrough beat=195 expected = e639ad682cbc35f7, actual =e639ad682cbc35f7
[2335000] SCOREBOARD MATCH: wdata passthrough beat=196 expected = c553ae5be7a04886, actual =c553ae5be7a04886
[2335000] SCOREBOARD MATCH: wdata passthrough beat=197 expected = ba3bd6781da9a563, actual =ba3bd6781da9a563
[2335000] SCOREBOARD MATCH: wdata passthrough beat=198 expected = ca65db5a8b521bda, actual =ca65db5a8b521bda
[2335000] SCOREBOARD MATCH: wdata passthrough beat=199 expected = f2f26460a07583e0, actual =f2f26460a07583e0
[2335000] SCOREBOARD MATCH: wdata passthrough beat=200 expected = be1f29430fb989b5, actual =be1f29430fb989b5
[2335000] SCOREBOARD MATCH: wdata passthrough beat=201 expected = 9b0ba58f2d2e3ad9, actual =9b0ba58f2d2e3ad9
[2335000] SCOREBOARD MATCH: wdata passthrough beat=202 expected = cda3beb98885049d, actual =cda3beb98885049d
[2335000] SCOREBOARD MATCH: wdata passthrough beat=203 expected = 983e8e520dfe09f0, actual =983e8e520dfe09f0
[2335000] SCOREBOARD MATCH: wdata passthrough beat=204 expected = 3b2c44c90bc2e7fd, actual =3b2c44c90bc2e7fd
[2335000] SCOREBOARD MATCH: wdata passthrough beat=205 expected = 9447ec9a334a33e2, actual =9447ec9a334a33e2
[2335000] SCOREBOARD MATCH: wdata passthrough beat=206 expected = c1483dd288d00382, actual =c1483dd288d00382
[2335000] SCOREBOARD MATCH: wdata passthrough beat=207 expected = 9492eb7f2c867aed, actual =9492eb7f2c867aed
[2335000] SCOREBOARD MATCH: wdata passthrough beat=208 expected = dfd0aecffc74829b, actual =dfd0aecffc74829b
[2335000] SCOREBOARD MATCH: wdata passthrough beat=209 expected = 8544861d28dad81a, actual =8544861d28dad81a
[2335000] SCOREBOARD MATCH: wdata passthrough beat=210 expected = d56153072118eca1, actual =d56153072118eca1
[2335000] SCOREBOARD MATCH: wdata passthrough beat=211 expected = 1d8d6f3c19d7719d, actual =1d8d6f3c19d7719d
[2335000] SCOREBOARD MATCH: wdata passthrough beat=212 expected = c2b249b7353201d6, actual =c2b249b7353201d6
[2335000] SCOREBOARD MATCH: wdata passthrough beat=213 expected = d64aee77a2d1f559, actual =d64aee77a2d1f559
[2335000] SCOREBOARD MATCH: wdata passthrough beat=214 expected = bca966f618139cbe, actual =bca966f618139cbe
[2335000] SCOREBOARD MATCH: wdata passthrough beat=215 expected = cd459e94f3d85db3, actual =cd459e94f3d85db3
[2335000] SCOREBOARD MATCH: wdata passthrough beat=216 expected = 96aa530cff5bb0ad, actual =96aa530cff5bb0ad
[2335000] SCOREBOARD MATCH: wstrb size check expected = d9, actual =d9
[2335000] SCOREBOARD MATCH: wstrb passthrough beat=0 expected = b, actual =b
[2335000] SCOREBOARD MATCH: wstrb passthrough beat=1 expected = 6b, actual =6b
[2335000] SCOREBOARD MATCH: wstrb passthrough beat=2 expected = 3, actual =3
[2335000] SCOREBOARD MATCH: wstrb passthrough beat=3 expected = be, actual =be
[2335000] SCOREBOARD MATCH: wstrb passthrough beat=4 expected = ff, actual =ff
[2335000] SCOREBOARD MATCH: wstrb passthrough beat=5 expected = b0, actual =b0
[2335000] SCOREBOARD MATCH: wstrb passthrough beat=6 expected = ca, actual =ca
[2335000] SCOREBOARD MATCH: wstrb passthrough beat=7 expected = a, actual =a
[2335000] SCOREBOARD MATCH: wstrb passthrough beat=8 expected = 1c, actual =1c
[2335000] SCOREBOARD MATCH: wstrb passthrough beat=9 expected = cd, actual =cd
[2335000] SCOREBOARD MATCH: wstrb passthrough beat=10 expected = c8, actual =c8
[2335000] SCOREBOARD MATCH: wstrb passthrough beat=11 expected = 1b, actual =1b
[2335000] SCOREBOARD MATCH: wstrb passthrough beat=12 expected = 7e, actual =7e
[2335000] SCOREBOARD MATCH: wstrb passthrough beat=13 expected = 93, actual =93
[2335000] SCOREBOARD MATCH: wstrb passthrough beat=14 expected = 26, actual =26
[2335000] SCOREBOARD MATCH: wstrb passthrough beat=15 expected = 9a, actual =9a
[2335000] SCOREBOARD MATCH: wstrb passthrough beat=16 expected = 60, actual =60
[2335000] SCOREBOARD MATCH: wstrb passthrough beat=17 expected = ee, actual =ee
[2335000] SCOREBOARD MATCH: wstrb passthrough beat=18 expected = b5, actual =b5
[2335000] SCOREBOARD MATCH: wstrb passthrough beat=19 expected = de, actual =de
[2335000] SCOREBOARD MATCH: wstrb passthrough beat=20 expected = 81, actual =81
[2335000] SCOREBOARD MATCH: wstrb passthrough beat=21 expected = db, actual =db
[2335000] SCOREBOARD MATCH: wstrb passthrough beat=22 expected = 78, actual =78
[2335000] SCOREBOARD MATCH: wstrb passthrough beat=23 expected = e2, actual =e2
[2335000] SCOREBOARD MATCH: wstrb passthrough beat=24 expected = ca, actual =ca
[2335000] SCOREBOARD MATCH: wstrb passthrough beat=25 expected = 2e, actual =2e
[2335000] SCOREBOARD MATCH: wstrb passthrough beat=26 expected = c0, actual =c0
[2335000] SCOREBOARD MATCH: wstrb passthrough beat=27 expected = 4b, actual =4b
[2335000] SCOREBOARD MATCH: wstrb passthrough beat=28 expected = 9, actual =9
[2335000] SCOREBOARD MATCH: wstrb passthrough beat=29 expected = 39, actual =39
[2335000] SCOREBOARD MATCH: wstrb passthrough beat=30 expected = 2d, actual =2d
[2335000] SCOREBOARD MATCH: wstrb passthrough beat=31 expected = d3, actual =d3
[2335000] SCOREBOARD MATCH: wstrb passthrough beat=32 expected = 67, actual =67
[2335000] SCOREBOARD MATCH: wstrb passthrough beat=33 expected = ee, actual =ee
[2335000] SCOREBOARD MATCH: wstrb passthrough beat=34 expected = 1f, actual =1f
[2335000] SCOREBOARD MATCH: wstrb passthrough beat=35 expected = 70, actual =70
[2335000] SCOREBOARD MATCH: wstrb passthrough beat=36 expected = 27, actual =27
[2335000] SCOREBOARD MATCH: wstrb passthrough beat=37 expected = 4c, actual =4c
[2335000] SCOREBOARD MATCH: wstrb passthrough beat=38 expected = 44, actual =44
[2335000] SCOREBOARD MATCH: wstrb passthrough beat=39 expected = 8e, actual =8e
[2335000] SCOREBOARD MATCH: wstrb passthrough beat=40 expected = 3a, actual =3a
[2335000] SCOREBOARD MATCH: wstrb passthrough beat=41 expected = 63, actual =63
[2335000] SCOREBOARD MATCH: wstrb passthrough beat=42 expected = fe, actual =fe
[2335000] SCOREBOARD MATCH: wstrb passthrough beat=43 expected = 61, actual =61
[2335000] SCOREBOARD MATCH: wstrb passthrough beat=44 expected = af, actual =af
[2335000] SCOREBOARD MATCH: wstrb passthrough beat=45 expected = 42, actual =42
[2335000] SCOREBOARD MATCH: wstrb passthrough beat=46 expected = ef, actual =ef
[2335000] SCOREBOARD MATCH: wstrb passthrough beat=47 expected = ea, actual =ea
[2335000] SCOREBOARD MATCH: wstrb passthrough beat=48 expected = a5, actual =a5
[2335000] SCOREBOARD MATCH: wstrb passthrough beat=49 expected = ee, actual =ee
[2335000] SCOREBOARD MATCH: wstrb passthrough beat=50 expected = 4b, actual =4b
[2335000] SCOREBOARD MATCH: wstrb passthrough beat=51 expected = 55, actual =55
[2335000] SCOREBOARD MATCH: wstrb passthrough beat=52 expected = 30, actual =30
[2335000] SCOREBOARD MATCH: wstrb passthrough beat=53 expected = 3b, actual =3b
[2335000] SCOREBOARD MATCH: wstrb passthrough beat=54 expected = 3f, actual =3f
[2335000] SCOREBOARD MATCH: wstrb passthrough beat=55 expected = d6, actual =d6
[2335000] SCOREBOARD MATCH: wstrb passthrough beat=56 expected = 29, actual =29
[2335000] SCOREBOARD MATCH: wstrb passthrough beat=57 expected = 8a, actual =8a
[2335000] SCOREBOARD MATCH: wstrb passthrough beat=58 expected = 2b, actual =2b
[2335000] SCOREBOARD MATCH: wstrb passthrough beat=59 expected = 59, actual =59
[2335000] SCOREBOARD MATCH: wstrb passthrough beat=60 expected = c5, actual =c5
[2335000] SCOREBOARD MATCH: wstrb passthrough beat=61 expected = 6a, actual =6a
[2335000] SCOREBOARD MATCH: wstrb passthrough beat=62 expected = 2f, actual =2f
[2335000] SCOREBOARD MATCH: wstrb passthrough beat=63 expected = ee, actual =ee
[2335000] SCOREBOARD MATCH: wstrb passthrough beat=64 expected = f4, actual =f4
[2335000] SCOREBOARD MATCH: wstrb passthrough beat=65 expected = 5a, actual =5a
[2335000] SCOREBOARD MATCH: wstrb passthrough beat=66 expected = 48, actual =48
[2335000] SCOREBOARD MATCH: wstrb passthrough beat=67 expected = ba, actual =ba
[2335000] SCOREBOARD MATCH: wstrb passthrough beat=68 expected = c4, actual =c4
[2335000] SCOREBOARD MATCH: wstrb passthrough beat=69 expected = 77, actual =77
[2335000] SCOREBOARD MATCH: wstrb passthrough beat=70 expected = a8, actual =a8
[2335000] SCOREBOARD MATCH: wstrb passthrough beat=71 expected = b9, actual =b9
[2335000] SCOREBOARD MATCH: wstrb passthrough beat=72 expected = d2, actual =d2
[2335000] SCOREBOARD MATCH: wstrb passthrough beat=73 expected = f0, actual =f0
[2335000] SCOREBOARD MATCH: wstrb passthrough beat=74 expected = 73, actual =73
[2335000] SCOREBOARD MATCH: wstrb passthrough beat=75 expected = 96, actual =96
[2335000] SCOREBOARD MATCH: wstrb passthrough beat=76 expected = 68, actual =68
[2335000] SCOREBOARD MATCH: wstrb passthrough beat=77 expected = 1b, actual =1b
[2335000] SCOREBOARD MATCH: wstrb passthrough beat=78 expected = 4f, actual =4f
[2335000] SCOREBOARD MATCH: wstrb passthrough beat=79 expected = 3a, actual =3a
[2335000] SCOREBOARD MATCH: wstrb passthrough beat=80 expected = c, actual =c
[2335000] SCOREBOARD MATCH: wstrb passthrough beat=81 expected = c2, actual =c2
[2335000] SCOREBOARD MATCH: wstrb passthrough beat=82 expected = d0, actual =d0
[2335000] SCOREBOARD MATCH: wstrb passthrough beat=83 expected = 74, actual =74
[2335000] SCOREBOARD MATCH: wstrb passthrough beat=84 expected = de, actual =de
[2335000] SCOREBOARD MATCH: wstrb passthrough beat=85 expected = 20, actual =20
[2335000] SCOREBOARD MATCH: wstrb passthrough beat=86 expected = ae, actual =ae
[2335000] SCOREBOARD MATCH: wstrb passthrough beat=87 expected = ea, actual =ea
[2335000] SCOREBOARD MATCH: wstrb passthrough beat=88 expected = e2, actual =e2
[2335000] SCOREBOARD MATCH: wstrb passthrough beat=89 expected = 7e, actual =7e
[2335000] SCOREBOARD MATCH: wstrb passthrough beat=90 expected = 5e, actual =5e
[2335000] SCOREBOARD MATCH: wstrb passthrough beat=91 expected = c0, actual =c0
[2335000] SCOREBOARD MATCH: wstrb passthrough beat=92 expected = 9e, actual =9e
[2335000] SCOREBOARD MATCH: wstrb passthrough beat=93 expected = c, actual =c
[2335000] SCOREBOARD MATCH: wstrb passthrough beat=94 expected = aa, actual =aa
[2335000] SCOREBOARD MATCH: wstrb passthrough beat=95 expected = 81, actual =81
[2335000] SCOREBOARD MATCH: wstrb passthrough beat=96 expected = 8a, actual =8a
[2335000] SCOREBOARD MATCH: wstrb passthrough beat=97 expected = 8, actual =8
[2335000] SCOREBOARD MATCH: wstrb passthrough beat=98 expected = 41, actual =41
[2335000] SCOREBOARD MATCH: wstrb passthrough beat=99 expected = 29, actual =29
[2335000] SCOREBOARD MATCH: wstrb passthrough beat=100 expected = 14, actual =14
[2335000] SCOREBOARD MATCH: wstrb passthrough beat=101 expected = ec, actual =ec
[2335000] SCOREBOARD MATCH: wstrb passthrough beat=102 expected = aa, actual =aa
[2335000] SCOREBOARD MATCH: wstrb passthrough beat=103 expected = 9f, actual =9f
[2335000] SCOREBOARD MATCH: wstrb passthrough beat=104 expected = f4, actual =f4
[2335000] SCOREBOARD MATCH: wstrb passthrough beat=105 expected = eb, actual =eb
[2335000] SCOREBOARD MATCH: wstrb passthrough beat=106 expected = c8, actual =c8
[2335000] SCOREBOARD MATCH: wstrb passthrough beat=107 expected = 9, actual =9
[2335000] SCOREBOARD MATCH: wstrb passthrough beat=108 expected = d7, actual =d7
[2335000] SCOREBOARD MATCH: wstrb passthrough beat=109 expected = 72, actual =72
[2335000] SCOREBOARD MATCH: wstrb passthrough beat=110 expected = a8, actual =a8
[2335000] SCOREBOARD MATCH: wstrb passthrough beat=111 expected = cc, actual =cc
[2335000] SCOREBOARD MATCH: wstrb passthrough beat=112 expected = 5d, actual =5d
[2335000] SCOREBOARD MATCH: wstrb passthrough beat=113 expected = 70, actual =70
[2335000] SCOREBOARD MATCH: wstrb passthrough beat=114 expected = d5, actual =d5
[2335000] SCOREBOARD MATCH: wstrb passthrough beat=115 expected = 35, actual =35
[2335000] SCOREBOARD MATCH: wstrb passthrough beat=116 expected = e2, actual =e2
[2335000] SCOREBOARD MATCH: wstrb passthrough beat=117 expected = 7d, actual =7d
[2335000] SCOREBOARD MATCH: wstrb passthrough beat=118 expected = 1, actual =1
[2335000] SCOREBOARD MATCH: wstrb passthrough beat=119 expected = 3f, actual =3f
[2335000] SCOREBOARD MATCH: wstrb passthrough beat=120 expected = ed, actual =ed
[2335000] SCOREBOARD MATCH: wstrb passthrough beat=121 expected = d6, actual =d6
[2335000] SCOREBOARD MATCH: wstrb passthrough beat=122 expected = 74, actual =74
[2335000] SCOREBOARD MATCH: wstrb passthrough beat=123 expected = cf, actual =cf
[2335000] SCOREBOARD MATCH: wstrb passthrough beat=124 expected = 53, actual =53
[2335000] SCOREBOARD MATCH: wstrb passthrough beat=125 expected = 75, actual =75
[2335000] SCOREBOARD MATCH: wstrb passthrough beat=126 expected = e, actual =e
[2335000] SCOREBOARD MATCH: wstrb passthrough beat=127 expected = 40, actual =40
[2335000] SCOREBOARD MATCH: wstrb passthrough beat=128 expected = 4b, actual =4b
[2335000] SCOREBOARD MATCH: wstrb passthrough beat=129 expected = 83, actual =83
[2335000] SCOREBOARD MATCH: wstrb passthrough beat=130 expected = f, actual =f
[2335000] SCOREBOARD MATCH: wstrb passthrough beat=131 expected = 9e, actual =9e
[2335000] SCOREBOARD MATCH: wstrb passthrough beat=132 expected = f8, actual =f8
[2335000] SCOREBOARD MATCH: wstrb passthrough beat=133 expected = 1d, actual =1d
[2335000] SCOREBOARD MATCH: wstrb passthrough beat=134 expected = de, actual =de
[2335000] SCOREBOARD MATCH: wstrb passthrough beat=135 expected = 44, actual =44
[2335000] SCOREBOARD MATCH: wstrb passthrough beat=136 expected = a0, actual =a0
[2335000] SCOREBOARD MATCH: wstrb passthrough beat=137 expected = ed, actual =ed
[2335000] SCOREBOARD MATCH: wstrb passthrough beat=138 expected = e2, actual =e2
