#-----------------------------------------------------------
# xsim v2025.2 (64-bit)
# SW Build 6299465 on Fri Nov 14 12:34:56 MST 2025
# IP Build 6300035 on Fri Nov 14 10:48:45 MST 2025
# SharedData Build 6298862 on Thu Nov 13 04:50:51 MST 2025
# Start of session at: Wed Sep  9 00:06:13 2026
# Process ID         : 393282
# Current directory  : /home/nashita/Desktop/practice/axi_xbar/sim
# Command line       : xsim -log regress_results/BT_run5.log -mode tcl -source {xsim.dir/tb_top_snap/xsim_script.tcl}
# Log file           : /home/nashita/Desktop/practice/axi_xbar/sim/regress_results/BT_run5.log
# Journal file       : /home/nashita/Desktop/practice/axi_xbar/sim/xsim.jou
# Running On         : vlsi-vivado
# Platform           : Ubuntu
# Operating System   : Ubuntu 24.04.4 LTS
# Processor Detail   : Intel(R) Core(TM) i5-10400 CPU @ 2.90GHz
# CPU Frequency      : 4083.867 MHz
# CPU Physical cores : 6
# CPU Logical cores  : 12
# Host memory        : 41875 MB
# Swap memory        : 27648 MB
# Total Virtual      : 69524 MB
# Available Virtual  : 63275 MB
#-----------------------------------------------------------
source xsim.dir/tb_top_snap/xsim_script.tcl
# xsim {tb_top_snap} -testplusarg BT -autoloadwcfg -runall -sv_seed 6
Time resolution is 1 ps
run -all
[0] RUNNING BASE TEST
[0] INSIDE THE BASE TEST CONSTRUCTOR
[0] ENV: before agent
[0] SLAVE CONSTRUCTED
[0] MASTER MONITOR CONSTRUCTED
[0] MASTER MONITOR CONSTRUCTED
[0] SLAVE MONITOR CONSTRUCTED
[0] SLAVE MONITOR CONSTRUCTED
[0] ARB MONITOR CONSTRUCTED
GENERATOR CONSTRUCTED
[0] ENV: after agent
[0] ENV: before scoreboard
[0] ENV: after scoreboard
[15000] [SEQUENCER] mst_id=1 s_id=0 awaddr=14d16058 awid=10 awlen=1 awsize=3 awburst=1 wdata=[] wstrb=[] bresp=0 bid=0
[15000] [SEQUENCER] mst_id=1 s_id=0 awaddr=6a43c20 awid=1110 awlen=1 awsize=3 awburst=1 wdata=[] wstrb=[] bresp=0 bid=0
[15000] [SEQUENCER] mst_id=1 s_id=0 awaddr=5f6b8a0 awid=1010 awlen=1 awsize=3 awburst=1 wdata=[] wstrb=[] bresp=0 bid=0
[15000] [SEQUENCER] mst_id=1 s_id=0 awaddr=341d820 awid=1 awlen=1 awsize=3 awburst=1 wdata=[] wstrb=[] bresp=0 bid=0
[15000] [SEQUENCER] mst_id=1 s_id=0 awaddr=1dc8c6f8 awid=0 awlen=1 awsize=3 awburst=1 wdata=[] wstrb=[] bresp=0 bid=0
[15000] [SEQUENCER] mst_id=1 s_id=0 awaddr=1f8deed8 awid=110 awlen=1 awsize=3 awburst=1 wdata=[] wstrb=[] bresp=0 bid=0
[15000] [SEQUENCER] READ mst_id=0 s_id=0 araddr=1a0190e0 arid=0 arlen=1 arsize=3 arburst=1 rid=[] rresp=[] rdata=[]
[15000] [SEQUENCER] READ mst_id=1 s_id=0 araddr=2e028d0 arid=6 arlen=1 arsize=3 arburst=1 rid=[] rresp=[] rdata=[]
[15000] [SEQUENCER] mst_id=1 s_id=0 awaddr=166c6030 awid=1111 awlen=1 awsize=3 awburst=1 wdata=[] wstrb=[] bresp=0 bid=0
[15000] [SEQUENCER] mst_id=0 s_id=0 awaddr=16bf31b0 awid=100 awlen=1 awsize=3 awburst=1 wdata=[] wstrb=[] bresp=0 bid=0
[15000] MASTER_DRIVER1 received transaction, op=AXI_WRITE
[15000] MASTER_DRIVER0 received transaction, op=AXI_READ
[35000] MASTER 1 AW_VALID_RDY Handshake
[35000] MASTER_DRIVER0 received transaction, op=AXI_WRITE
[45000] ARB MONITOR: slave=1 m0_req=0 m1_req=1 winner=1
[45000] ARB MONITOR: slave=1 m0_req=1 m1_req=0 winner=0
[45000] AXI S0_ARVALID_RDY HANDSHAKE
[45000] MEMORY READ MISS beat=0 addr=1a0190e0 -> default data id=0
[45000] AXI S1_AWVALID_RDY HANDSHAKE
[55000] MEMORY READ MISS beat=1 addr=1a0190e8 -> default data id=0
[55000] SLAVE 1 R_VALID_RDY Handshake beat=0 rlast=0
[55000] MASTER 1 W_VALID_RDY Handshake beat=0 wlast=0
[55000] MASTER 0 AW_VALID_RDY Handshake
[65000] MASTER_DRIVER1 received transaction, op=AXI_WRITE
[65000] MASTER 1 W_VALID_RDY Handshake beat=1 wlast=1
[65000] SLAVE 1 R_VALID_RDY Handshake beat=1 rlast=1
[65000] [SLAVE MONITOR] READ mst_id=0 s_id=1 araddr=1a0190e0 arid=0 arlen=1 arsize=3 arburst=1 rid=[00] rresp=[00] rdata=[baadf00d12345678baadf00d12345678]
[65000] S1 MEMORY WRITE beat=0 addr=14d16058 data=0000000000000000 id=12
[75000] S1 MEMORY WRITE beat=1 addr=14d16060 data=0000000000000000 id=12
[75000] MASTER 0 R_VALID_RDY Handshake beat=0 rlast=0
[75000] MASTER 0 W_VALID_RDY Handshake beat=0 wlast=0
[85000] [MASTER DRIVER] READ mst_id=0 s_id=0 araddr=1a0190e0 arid=0 arlen=1 arsize=3 arburst=1 rid=[00] rresp=[00] rdata=[baadf00d12345678baadf00d12345678]
[85000] MASTER 0 W_VALID_RDY Handshake beat=1 wlast=1
[85000] MASTER 0 R_VALID_RDY Handshake beat=1 rlast=1
[85000] [MASTER MONITOR] READ mst_id=0 s_id=1 araddr=1a0190e0 arid=0 arlen=1 arsize=3 arburst=1 rid=[00] rresp=[00] rdata=[baadf00d12345678baadf00d12345678]
[85000] MASTER 1 AW_VALID_RDY Handshake
[85000] SLAVE1 sent B resp, id=2
[85000] SCOREBOARD MATCH: decode_err expected = 0, actual =0
[85000] SCOREBOARD MATCH: slave_id expected = 1, actual =1
[85000] SCOREBOARD MATCH: araddr passthrough expected = 1a0190e0, actual =1a0190e0
[85000] SCOREBOARD MATCH: arlen passthrough expected = 1, actual =1
[85000] SCOREBOARD MATCH: arsize passthrough expected = 3, actual =3
[85000] SCOREBOARD MATCH: arburst passthrough expected = 1, actual =1
[85000] SCOREBOARD MATCH: rdata size check expected = 2, actual =2
[85000] SCOREBOARD MATCH: rdata passthrough beat=0 expected = baadf00d12345678, actual =baadf00d12345678
[85000] SCOREBOARD MATCH: rdata passthrough beat=1 expected = baadf00d12345678, actual =baadf00d12345678
[85000] SCOREBOARD MATCH: rresp size check expected = 2, actual =2
[85000] SCOREBOARD MATCH: rresp passthrough beat=0 expected = 0, actual =0
[85000] SCOREBOARD MATCH: rresp passthrough beat=1 expected = 0, actual =0
[85000] SCOREBOARD MATCH: response routed to correct master (read beat 0) expected = 0, actual =0
[85000] SCOREBOARD MATCH: response routed to correct master (read beat 1) expected = 0, actual =0
[85000] [SCOREBOARD-M] READ mst_id=0 s_id=1 araddr=1a0190e0 arid=0 arlen=1 arsize=3 arburst=1 rid=[00] rresp=[00] rdata=[baadf00d12345678baadf00d12345678]
[85000] [SCOREBOARD-S] READ mst_id=0 s_id=1 araddr=1a0190e0 arid=0 arlen=1 arsize=3 arburst=1 rid=[00] rresp=[00] rdata=[baadf00d12345678baadf00d12345678]
[85000] SCOREBOARD: Transaction 1 received. pass=14 fail=0
[85000] ALL PASS. Total transactions: 1
[95000] AXI S0_AWVALID_RDY HANDSHAKE
[95000] AXI S1_AWVALID_RDY HANDSHAKE
[95000] [SLAVE MONITOR] mst_id=1 s_id=1 awaddr=14d16058 awid=10 awlen=1 awsize=3 awburst=1 wdata=[0 0 ] wstrb=[0 0 ] bresp=0 bid=10010
[95000] ARB MONITOR: slave=0 m0_req=0 m1_req=1 winner=1
[95000] ARB MONITOR: slave=1 m0_req=1 m1_req=0 winner=0
[105000] MASTER 1 RECEIVED BRESP. BRESP=0
[105000] [MASTER DRIVER] mst_id=1 s_id=0 awaddr=14d16058 awid=10 awlen=1 awsize=3 awburst=1 wdata=[] wstrb=[] bresp=0 bid=10
[105000] MASTER 1 W_VALID_RDY Handshake beat=0 wlast=0
[105000] MASTER 1 B_VALID_RDY Handshake
[105000] [MASTER MONITOR] mst_id=1 s_id=1 awaddr=14d16058 awid=10 awlen=1 awsize=3 awburst=1 wdata=[0 0 ] wstrb=[0 0 ] bresp=0 bid=10
[105000] S1 MEMORY WRITE beat=0 addr=16bf31b0 data=0000000000000000 id=04
[105000] SCOREBOARD MATCH: decode_err expected = 0, actual =0
[105000] SCOREBOARD MATCH: slave_id expected = 1, actual =1
[105000] SCOREBOARD MATCH: awaddr passthrough expected = 14d16058, actual =14d16058
[105000] SCOREBOARD MATCH: awlen passthrough expected = 1, actual =1
[105000] SCOREBOARD MATCH: awsize passthrough expected = 3, actual =3
[105000] SCOREBOARD MATCH: awburst passthrough expected = 1, actual =1
[105000] SCOREBOARD MATCH: wdata size check expected = 2, actual =2
[105000] SCOREBOARD MATCH: wdata passthrough beat=0 expected = 0, actual =0
[105000] SCOREBOARD MATCH: wdata passthrough beat=1 expected = 0, actual =0
[105000] SCOREBOARD MATCH: wstrb size check expected = 2, actual =2
[105000] SCOREBOARD MATCH: wstrb passthrough beat=0 expected = 0, actual =0
[105000] SCOREBOARD MATCH: wstrb passthrough beat=1 expected = 0, actual =0
[105000] SCOREBOARD MATCH: bresp passthrough expected = 0, actual =0
[105000] SCOREBOARD MATCH: response routed to correct master (write) expected = 1, actual =1
[105000] [SCOREBOARD-M] mst_id=1 s_id=1 awaddr=14d16058 awid=10 awlen=1 awsize=3 awburst=1 wdata=[0 0 ] wstrb=[0 0 ] bresp=0 bid=10
[105000] [SCOREBOARD-S] mst_id=1 s_id=1 awaddr=14d16058 awid=10 awlen=1 awsize=3 awburst=1 wdata=[0 0 ] wstrb=[0 0 ] bresp=0 bid=10010
[105000] SCOREBOARD: Transaction 2 received. pass=28 fail=0
[105000] ALL PASS. Total transactions: 2
[115000] AXI S0_WVALID_RDY HANDSHAKE
[115000] S0 MEMORY WRITE beat=0 addr=06a43c20 data=0000000000000000 id=1e
[115000] S1 MEMORY WRITE beat=1 addr=16bf31b8 data=0000000000000000 id=04
[115000] MASTER 1 W_VALID_RDY Handshake beat=1 wlast=1
[115000] MASTER_DRIVER1 received transaction, op=AXI_WRITE
[125000] SLAVE1 sent B resp, id=4
[125000] AXI S0_WVALID_RDY HANDSHAKE
[125000] S0 MEMORY WRITE beat=1 addr=06a43c28 data=0000000000000000 id=1e
[135000] SLAVE0 sent B resp, id=14
[135000] [SLAVE MONITOR] mst_id=1 s_id=0 awaddr=6a43c20 awid=1110 awlen=1 awsize=3 awburst=1 wdata=[0 0 ] wstrb=[0 0 ] bresp=0 bid=11110
[135000] [SLAVE MONITOR] mst_id=0 s_id=1 awaddr=16bf31b0 awid=100 awlen=1 awsize=3 awburst=1 wdata=[0 0 ] wstrb=[0 0 ] bresp=0 bid=100
[135000] MASTER 1 AW_VALID_RDY Handshake
[145000] MASTER 0 RECEIVED BRESP. BRESP=0
[145000] [MASTER DRIVER] mst_id=0 s_id=0 awaddr=16bf31b0 awid=100 awlen=1 awsize=3 awburst=1 wdata=[] wstrb=[] bresp=0 bid=100
[145000] MASTER 0 B_VALID_RDY Handshake
[145000] [MASTER MONITOR] mst_id=0 s_id=1 awaddr=16bf31b0 awid=100 awlen=1 awsize=3 awburst=1 wdata=[0 0 ] wstrb=[0 0 ] bresp=0 bid=100
[145000] ARB MONITOR: slave=0 m0_req=0 m1_req=1 winner=1
[145000] AXI S0_AWVALID_RDY HANDSHAKE
[145000] SCOREBOARD MATCH: decode_err expected = 0, actual =0
[145000] SCOREBOARD MATCH: slave_id expected = 1, actual =1
[145000] SCOREBOARD MATCH: awaddr passthrough expected = 16bf31b0, actual =16bf31b0
[145000] SCOREBOARD MATCH: awlen passthrough expected = 1, actual =1
[145000] SCOREBOARD MATCH: awsize passthrough expected = 3, actual =3
[145000] SCOREBOARD MATCH: awburst passthrough expected = 1, actual =1
[145000] SCOREBOARD MATCH: wdata size check expected = 2, actual =2
[145000] SCOREBOARD MATCH: wdata passthrough beat=0 expected = 0, actual =0
[145000] SCOREBOARD MATCH: wdata passthrough beat=1 expected = 0, actual =0
[145000] SCOREBOARD MATCH: wstrb size check expected = 2, actual =2
[145000] SCOREBOARD MATCH: wstrb passthrough beat=0 expected = 0, actual =0
[145000] SCOREBOARD MATCH: wstrb passthrough beat=1 expected = 0, actual =0
[145000] SCOREBOARD MATCH: bresp passthrough expected = 0, actual =0
[145000] SCOREBOARD MATCH: response routed to correct master (write) expected = 0, actual =0
[145000] [SCOREBOARD-M] mst_id=0 s_id=1 awaddr=16bf31b0 awid=100 awlen=1 awsize=3 awburst=1 wdata=[0 0 ] wstrb=[0 0 ] bresp=0 bid=100
[145000] [SCOREBOARD-S] mst_id=0 s_id=1 awaddr=16bf31b0 awid=100 awlen=1 awsize=3 awburst=1 wdata=[0 0 ] wstrb=[0 0 ] bresp=0 bid=100
[145000] SCOREBOARD: Transaction 3 received. pass=42 fail=0
[145000] ALL PASS. Total transactions: 3
[155000] MASTER 1 W_VALID_RDY Handshake beat=0 wlast=0
[155000] MASTER 1 B_VALID_RDY Handshake
[155000] [MASTER MONITOR] mst_id=1 s_id=0 awaddr=6a43c20 awid=1110 awlen=1 awsize=3 awburst=1 wdata=[0 0 ] wstrb=[0 0 ] bresp=0 bid=1110
[155000] MASTER 1 RECEIVED BRESP. BRESP=0
[155000] [MASTER DRIVER] mst_id=1 s_id=0 awaddr=6a43c20 awid=1110 awlen=1 awsize=3 awburst=1 wdata=[] wstrb=[] bresp=0 bid=1110
[155000] SCOREBOARD MATCH: decode_err expected = 0, actual =0
[155000] SCOREBOARD MATCH: slave_id expected = 0, actual =0
[155000] SCOREBOARD MATCH: awaddr passthrough expected = 6a43c20, actual =6a43c20
[155000] SCOREBOARD MATCH: awlen passthrough expected = 1, actual =1
[155000] SCOREBOARD MATCH: awsize passthrough expected = 3, actual =3
[155000] SCOREBOARD MATCH: awburst passthrough expected = 1, actual =1
[155000] SCOREBOARD MATCH: wdata size check expected = 2, actual =2
[155000] SCOREBOARD MATCH: wdata passthrough beat=0 expected = 0, actual =0
[155000] SCOREBOARD MATCH: wdata passthrough beat=1 expected = 0, actual =0
[155000] SCOREBOARD MATCH: wstrb size check expected = 2, actual =2
[155000] SCOREBOARD MATCH: wstrb passthrough beat=0 expected = 0, actual =0
[155000] SCOREBOARD MATCH: wstrb passthrough beat=1 expected = 0, actual =0
[155000] SCOREBOARD MATCH: bresp passthrough expected = 0, actual =0
[155000] SCOREBOARD MATCH: response routed to correct master (write) expected = 1, actual =1
[155000] [SCOREBOARD-M] mst_id=1 s_id=0 awaddr=6a43c20 awid=1110 awlen=1 awsize=3 awburst=1 wdata=[0 0 ] wstrb=[0 0 ] bresp=0 bid=1110
[155000] [SCOREBOARD-S] mst_id=1 s_id=0 awaddr=6a43c20 awid=1110 awlen=1 awsize=3 awburst=1 wdata=[0 0 ] wstrb=[0 0 ] bresp=0 bid=11110
[155000] SCOREBOARD: Transaction 4 received. pass=56 fail=0
[155000] ALL PASS. Total transactions: 4
[165000] MASTER_DRIVER1 received transaction, op=AXI_WRITE
[165000] MASTER 1 W_VALID_RDY Handshake beat=1 wlast=1
[165000] AXI S0_WVALID_RDY HANDSHAKE
[165000] S0 MEMORY WRITE beat=0 addr=05f6b8a0 data=0000000000000000 id=1a
[175000] AXI S0_WVALID_RDY HANDSHAKE
[175000] S0 MEMORY WRITE beat=1 addr=05f6b8a8 data=0000000000000000 id=1a
[185000] MASTER 1 AW_VALID_RDY Handshake
[185000] SLAVE0 sent B resp, id=10
[195000] AXI S0_AWVALID_RDY HANDSHAKE
[195000] [SLAVE MONITOR] mst_id=1 s_id=0 awaddr=5f6b8a0 awid=1010 awlen=1 awsize=3 awburst=1 wdata=[0 0 ] wstrb=[0 0 ] bresp=0 bid=11010
[195000] ARB MONITOR: slave=0 m0_req=0 m1_req=1 winner=1
[205000] MASTER 1 RECEIVED BRESP. BRESP=0
[205000] [MASTER DRIVER] mst_id=1 s_id=0 awaddr=5f6b8a0 awid=1010 awlen=1 awsize=3 awburst=1 wdata=[] wstrb=[] bresp=0 bid=1010
[205000] MASTER 1 W_VALID_RDY Handshake beat=0 wlast=0
[205000] MASTER 1 B_VALID_RDY Handshake
[205000] [MASTER MONITOR] mst_id=1 s_id=0 awaddr=5f6b8a0 awid=1010 awlen=1 awsize=3 awburst=1 wdata=[0 0 ] wstrb=[0 0 ] bresp=0 bid=1010
[205000] SCOREBOARD MATCH: decode_err expected = 0, actual =0
[205000] SCOREBOARD MATCH: slave_id expected = 0, actual =0
[205000] SCOREBOARD MATCH: awaddr passthrough expected = 5f6b8a0, actual =5f6b8a0
[205000] SCOREBOARD MATCH: awlen passthrough expected = 1, actual =1
[205000] SCOREBOARD MATCH: awsize passthrough expected = 3, actual =3
[205000] SCOREBOARD MATCH: awburst passthrough expected = 1, actual =1
[205000] SCOREBOARD MATCH: wdata size check expected = 2, actual =2
[205000] SCOREBOARD MATCH: wdata passthrough beat=0 expected = 0, actual =0
[205000] SCOREBOARD MATCH: wdata passthrough beat=1 expected = 0, actual =0
[205000] SCOREBOARD MATCH: wstrb size check expected = 2, actual =2
[205000] SCOREBOARD MATCH: wstrb passthrough beat=0 expected = 0, actual =0
[205000] SCOREBOARD MATCH: wstrb passthrough beat=1 expected = 0, actual =0
[205000] SCOREBOARD MATCH: bresp passthrough expected = 0, actual =0
[205000] SCOREBOARD MATCH: response routed to correct master (write) expected = 1, actual =1
[205000] [SCOREBOARD-M] mst_id=1 s_id=0 awaddr=5f6b8a0 awid=1010 awlen=1 awsize=3 awburst=1 wdata=[0 0 ] wstrb=[0 0 ] bresp=0 bid=1010
[205000] [SCOREBOARD-S] mst_id=1 s_id=0 awaddr=5f6b8a0 awid=1010 awlen=1 awsize=3 awburst=1 wdata=[0 0 ] wstrb=[0 0 ] bresp=0 bid=11010
[205000] SCOREBOARD: Transaction 5 received. pass=70 fail=0
[205000] ALL PASS. Total transactions: 5
[215000] AXI S0_WVALID_RDY HANDSHAKE
[215000] S0 MEMORY WRITE beat=0 addr=0341d820 data=0000000000000000 id=11
[215000] MASTER 1 W_VALID_RDY Handshake beat=1 wlast=1
[215000] MASTER_DRIVER1 received transaction, op=AXI_WRITE
[225000] AXI S0_WVALID_RDY HANDSHAKE
[225000] S0 MEMORY WRITE beat=1 addr=0341d828 data=0000000000000000 id=11
[235000] SLAVE0 sent B resp, id=1
[235000] [SLAVE MONITOR] mst_id=1 s_id=0 awaddr=341d820 awid=1 awlen=1 awsize=3 awburst=1 wdata=[0 0 ] wstrb=[0 0 ] bresp=0 bid=10001
[235000] MASTER 1 AW_VALID_RDY Handshake
[245000] ARB MONITOR: slave=1 m0_req=0 m1_req=1 winner=1
[245000] AXI S1_AWVALID_RDY HANDSHAKE
[255000] MASTER 1 W_VALID_RDY Handshake beat=0 wlast=0
[255000] MASTER 1 B_VALID_RDY Handshake
[255000] [MASTER MONITOR] mst_id=1 s_id=0 awaddr=341d820 awid=1 awlen=1 awsize=3 awburst=1 wdata=[0 0 ] wstrb=[0 0 ] bresp=0 bid=1
[255000] MASTER 1 RECEIVED BRESP. BRESP=0
[255000] [MASTER DRIVER] mst_id=1 s_id=0 awaddr=341d820 awid=1 awlen=1 awsize=3 awburst=1 wdata=[] wstrb=[] bresp=0 bid=1
[255000] SCOREBOARD MATCH: decode_err expected = 0, actual =0
[255000] SCOREBOARD MATCH: slave_id expected = 0, actual =0
[255000] SCOREBOARD MATCH: awaddr passthrough expected = 341d820, actual =341d820
[255000] SCOREBOARD MATCH: awlen passthrough expected = 1, actual =1
[255000] SCOREBOARD MATCH: awsize passthrough expected = 3, actual =3
[255000] SCOREBOARD MATCH: awburst passthrough expected = 1, actual =1
[255000] SCOREBOARD MATCH: wdata size check expected = 2, actual =2
[255000] SCOREBOARD MATCH: wdata passthrough beat=0 expected = 0, actual =0
[255000] SCOREBOARD MATCH: wdata passthrough beat=1 expected = 0, actual =0
[255000] SCOREBOARD MATCH: wstrb size check expected = 2, actual =2
[255000] SCOREBOARD MATCH: wstrb passthrough beat=0 expected = 0, actual =0
[255000] SCOREBOARD MATCH: wstrb passthrough beat=1 expected = 0, actual =0
[255000] SCOREBOARD MATCH: bresp passthrough expected = 0, actual =0
[255000] SCOREBOARD MATCH: response routed to correct master (write) expected = 1, actual =1
[255000] [SCOREBOARD-M] mst_id=1 s_id=0 awaddr=341d820 awid=1 awlen=1 awsize=3 awburst=1 wdata=[0 0 ] wstrb=[0 0 ] bresp=0 bid=1
[255000] [SCOREBOARD-S] mst_id=1 s_id=0 awaddr=341d820 awid=1 awlen=1 awsize=3 awburst=1 wdata=[0 0 ] wstrb=[0 0 ] bresp=0 bid=10001
[255000] SCOREBOARD: Transaction 6 received. pass=84 fail=0
[255000] ALL PASS. Total transactions: 6
[265000] MASTER_DRIVER1 received transaction, op=AXI_WRITE
[265000] MASTER 1 W_VALID_RDY Handshake beat=1 wlast=1
[265000] S1 MEMORY WRITE beat=0 addr=1dc8c6f8 data=0000000000000000 id=10
[275000] S1 MEMORY WRITE beat=1 addr=1dc8c700 data=0000000000000000 id=10
[285000] MASTER 1 AW_VALID_RDY Handshake
[285000] SLAVE1 sent B resp, id=0
[295000] AXI S1_AWVALID_RDY HANDSHAKE
[295000] [SLAVE MONITOR] mst_id=1 s_id=1 awaddr=1dc8c6f8 awid=0 awlen=1 awsize=3 awburst=1 wdata=[0 0 ] wstrb=[0 0 ] bresp=0 bid=10000
[295000] ARB MONITOR: slave=1 m0_req=0 m1_req=1 winner=1
[305000] MASTER 1 RECEIVED BRESP. BRESP=0
[305000] [MASTER DRIVER] mst_id=1 s_id=0 awaddr=1dc8c6f8 awid=0 awlen=1 awsize=3 awburst=1 wdata=[] wstrb=[] bresp=0 bid=0
[305000] MASTER 1 W_VALID_RDY Handshake beat=0 wlast=0
[305000] MASTER 1 B_VALID_RDY Handshake
[305000] [MASTER MONITOR] mst_id=1 s_id=1 awaddr=1dc8c6f8 awid=0 awlen=1 awsize=3 awburst=1 wdata=[0 0 ] wstrb=[0 0 ] bresp=0 bid=0
[305000] SCOREBOARD MATCH: decode_err expected = 0, actual =0
[305000] SCOREBOARD MATCH: slave_id expected = 1, actual =1
[305000] SCOREBOARD MATCH: awaddr passthrough expected = 1dc8c6f8, actual =1dc8c6f8
[305000] SCOREBOARD MATCH: awlen passthrough expected = 1, actual =1
[305000] SCOREBOARD MATCH: awsize passthrough expected = 3, actual =3
[305000] SCOREBOARD MATCH: awburst passthrough expected = 1, actual =1
[305000] SCOREBOARD MATCH: wdata size check expected = 2, actual =2
[305000] SCOREBOARD MATCH: wdata passthrough beat=0 expected = 0, actual =0
[305000] SCOREBOARD MATCH: wdata passthrough beat=1 expected = 0, actual =0
[305000] SCOREBOARD MATCH: wstrb size check expected = 2, actual =2
[305000] SCOREBOARD MATCH: wstrb passthrough beat=0 expected = 0, actual =0
[305000] SCOREBOARD MATCH: wstrb passthrough beat=1 expected = 0, actual =0
[305000] SCOREBOARD MATCH: bresp passthrough expected = 0, actual =0
[305000] SCOREBOARD MATCH: response routed to correct master (write) expected = 1, actual =1
[305000] [SCOREBOARD-M] mst_id=1 s_id=1 awaddr=1dc8c6f8 awid=0 awlen=1 awsize=3 awburst=1 wdata=[0 0 ] wstrb=[0 0 ] bresp=0 bid=0
[305000] [SCOREBOARD-S] mst_id=1 s_id=1 awaddr=1dc8c6f8 awid=0 awlen=1 awsize=3 awburst=1 wdata=[0 0 ] wstrb=[0 0 ] bresp=0 bid=10000
[305000] SCOREBOARD: Transaction 7 received. pass=98 fail=0
[305000] ALL PASS. Total transactions: 7
[315000] S1 MEMORY WRITE beat=0 addr=1f8deed8 data=0000000000000000 id=16
[315000] MASTER 1 W_VALID_RDY Handshake beat=1 wlast=1
[315000] MASTER_DRIVER1 received transaction, op=AXI_READ
[325000] S1 MEMORY WRITE beat=1 addr=1f8deee0 data=0000000000000000 id=16
[335000] SLAVE1 sent B resp, id=6
[335000] [SLAVE MONITOR] mst_id=1 s_id=1 awaddr=1f8deed8 awid=110 awlen=1 awsize=3 awburst=1 wdata=[0 0 ] wstrb=[0 0 ] bresp=0 bid=10110
[335000] MASTER_DRIVER1 received transaction, op=AXI_WRITE
[345000] ARB MONITOR: slave=0 m0_req=0 m1_req=1 winner=1
[345000] AXI S0_ARVALID_RDY HANDSHAKE
[345000] MEMORY READ MISS beat=0 addr=2e028d0 -> default data id=22
[355000] MEMORY READ MISS beat=1 addr=2e028d8 -> default data id=22
[355000] SLAVE 0 R_VALID_RDY Handshake beat=0 rlast=0
[355000] MASTER 1 AW_VALID_RDY Handshake
[355000] MASTER 1 B_VALID_RDY Handshake
[355000] [MASTER MONITOR] mst_id=1 s_id=1 awaddr=1f8deed8 awid=110 awlen=1 awsize=3 awburst=1 wdata=[0 0 ] wstrb=[0 0 ] bresp=0 bid=110
[355000] MASTER 1 RECEIVED BRESP. BRESP=0
[355000] [MASTER DRIVER] mst_id=1 s_id=0 awaddr=1f8deed8 awid=110 awlen=1 awsize=3 awburst=1 wdata=[] wstrb=[] bresp=0 bid=110
[355000] SCOREBOARD MATCH: decode_err expected = 0, actual =0
[355000] SCOREBOARD MATCH: slave_id expected = 1, actual =1
[355000] SCOREBOARD MATCH: awaddr passthrough expected = 1f8deed8, actual =1f8deed8
[355000] SCOREBOARD MATCH: awlen passthrough expected = 1, actual =1
[355000] SCOREBOARD MATCH: awsize passthrough expected = 3, actual =3
[355000] SCOREBOARD MATCH: awburst passthrough expected = 1, actual =1
[355000] SCOREBOARD MATCH: wdata size check expected = 2, actual =2
[355000] SCOREBOARD MATCH: wdata passthrough beat=0 expected = 0, actual =0
[355000] SCOREBOARD MATCH: wdata passthrough beat=1 expected = 0, actual =0
[355000] SCOREBOARD MATCH: wstrb size check expected = 2, actual =2
[355000] SCOREBOARD MATCH: wstrb passthrough beat=0 expected = 0, actual =0
[355000] SCOREBOARD MATCH: wstrb passthrough beat=1 expected = 0, actual =0
[355000] SCOREBOARD MATCH: bresp passthrough expected = 0, actual =0
[355000] SCOREBOARD MATCH: response routed to correct master (write) expected = 1, actual =1
[355000] [SCOREBOARD-M] mst_id=1 s_id=1 awaddr=1f8deed8 awid=110 awlen=1 awsize=3 awburst=1 wdata=[0 0 ] wstrb=[0 0 ] bresp=0 bid=110
[355000] [SCOREBOARD-S] mst_id=1 s_id=1 awaddr=1f8deed8 awid=110 awlen=1 awsize=3 awburst=1 wdata=[0 0 ] wstrb=[0 0 ] bresp=0 bid=10110
[355000] SCOREBOARD: Transaction 8 received. pass=112 fail=0
[355000] ALL PASS. Total transactions: 8
[365000] ARB MONITOR: slave=1 m0_req=0 m1_req=1 winner=1
[365000] SLAVE 0 R_VALID_RDY Handshake beat=1 rlast=1
[365000] [SLAVE MONITOR] READ mst_id=1 s_id=0 araddr=2e028d0 arid=6 arlen=1 arsize=3 arburst=1 rid=[1616] rresp=[00] rdata=[baadf00d12345678baadf00d12345678]
[365000] AXI S1_AWVALID_RDY HANDSHAKE
[375000] MASTER 1 R_VALID_RDY Handshake beat=0 rlast=0
[375000] MASTER 1 W_VALID_RDY Handshake beat=0 wlast=0
[385000] [MASTER DRIVER] READ mst_id=1 s_id=0 araddr=2e028d0 arid=6 arlen=1 arsize=3 arburst=1 rid=[66] rresp=[00] rdata=[baadf00d12345678baadf00d12345678]
[385000] MASTER 1 W_VALID_RDY Handshake beat=1 wlast=1
[385000] MASTER 1 R_VALID_RDY Handshake beat=1 rlast=1
[385000] [MASTER MONITOR] READ mst_id=1 s_id=0 araddr=2e028d0 arid=6 arlen=1 arsize=3 arburst=1 rid=[66] rresp=[00] rdata=[baadf00d12345678baadf00d12345678]
[385000] S1 MEMORY WRITE beat=0 addr=166c6030 data=0000000000000000 id=1f
[385000] SCOREBOARD MATCH: decode_err expected = 0, actual =0
[385000] SCOREBOARD MATCH: slave_id expected = 0, actual =0
[385000] SCOREBOARD MATCH: araddr passthrough expected = 2e028d0, actual =2e028d0
[385000] SCOREBOARD MATCH: arlen passthrough expected = 1, actual =1
[385000] SCOREBOARD MATCH: arsize passthrough expected = 3, actual =3
[385000] SCOREBOARD MATCH: arburst passthrough expected = 1, actual =1
[385000] SCOREBOARD MATCH: rdata size check expected = 2, actual =2
[385000] SCOREBOARD MATCH: rdata passthrough beat=0 expected = baadf00d12345678, actual =baadf00d12345678
[385000] SCOREBOARD MATCH: rdata passthrough beat=1 expected = baadf00d12345678, actual =baadf00d12345678
[385000] SCOREBOARD MATCH: rresp size check expected = 2, actual =2
[385000] SCOREBOARD MATCH: rresp passthrough beat=0 expected = 0, actual =0
[385000] SCOREBOARD MATCH: rresp passthrough beat=1 expected = 0, actual =0
[385000] SCOREBOARD MATCH: response routed to correct master (read beat 0) expected = 1, actual =1
[385000] SCOREBOARD MATCH: response routed to correct master (read beat 1) expected = 1, actual =1
[385000] [SCOREBOARD-M] READ mst_id=1 s_id=0 araddr=2e028d0 arid=6 arlen=1 arsize=3 arburst=1 rid=[66] rresp=[00] rdata=[baadf00d12345678baadf00d12345678]
[385000] [SCOREBOARD-S] READ mst_id=1 s_id=0 araddr=2e028d0 arid=6 arlen=1 arsize=3 arburst=1 rid=[1616] rresp=[00] rdata=[baadf00d12345678baadf00d12345678]
[385000] SCOREBOARD: Transaction 9 received. pass=126 fail=0
[385000] ALL PASS. Total transactions: 9
[395000] S1 MEMORY WRITE beat=1 addr=166c6038 data=0000000000000000 id=1f
[405000] SLAVE1 sent B resp, id=15
[415000] [SLAVE MONITOR] mst_id=1 s_id=1 awaddr=166c6030 awid=1111 awlen=1 awsize=3 awburst=1 wdata=[0 0 ] wstrb=[0 0 ] bresp=0 bid=11111
[425000] MASTER 1 RECEIVED BRESP. BRESP=0
[425000] [MASTER DRIVER] mst_id=1 s_id=0 awaddr=166c6030 awid=1111 awlen=1 awsize=3 awburst=1 wdata=[] wstrb=[] bresp=0 bid=1111
[425000] MASTER 1 B_VALID_RDY Handshake
[425000] [MASTER MONITOR] mst_id=1 s_id=1 awaddr=166c6030 awid=1111 awlen=1 awsize=3 awburst=1 wdata=[0 0 ] wstrb=[0 0 ] bresp=0 bid=1111
[425000] SCOREBOARD MATCH: decode_err expected = 0, actual =0
[425000] SCOREBOARD MATCH: slave_id expected = 1, actual =1
[425000] SCOREBOARD MATCH: awaddr passthrough expected = 166c6030, actual =166c6030
[425000] SCOREBOARD MATCH: awlen passthrough expected = 1, actual =1
[425000] SCOREBOARD MATCH: awsize passthrough expected = 3, actual =3
[425000] SCOREBOARD MATCH: awburst passthrough expected = 1, actual =1
[425000] SCOREBOARD MATCH: wdata size check expected = 2, actual =2
[425000] SCOREBOARD MATCH: wdata passthrough beat=0 expected = 0, actual =0
[425000] SCOREBOARD MATCH: wdata passthrough beat=1 expected = 0, actual =0
[425000] SCOREBOARD MATCH: wstrb size check expected = 2, actual =2
[425000] SCOREBOARD MATCH: wstrb passthrough beat=0 expected = 0, actual =0
[425000] SCOREBOARD MATCH: wstrb passthrough beat=1 expected = 0, actual =0
[425000] SCOREBOARD MATCH: bresp passthrough expected = 0, actual =0
[425000] SCOREBOARD MATCH: response routed to correct master (write) expected = 1, actual =1
[425000] [SCOREBOARD-M] mst_id=1 s_id=1 awaddr=166c6030 awid=1111 awlen=1 awsize=3 awburst=1 wdata=[0 0 ] wstrb=[0 0 ] bresp=0 bid=1111
[425000] [SCOREBOARD-S] mst_id=1 s_id=1 awaddr=166c6030 awid=1111 awlen=1 awsize=3 awburst=1 wdata=[0 0 ] wstrb=[0 0 ] bresp=0 bid=11111
[425000] SCOREBOARD: Transaction 10 received. pass=140 fail=0
[425000] SCOREBOARD: Expected 10 transactions completed, PASS=140 FAIL=0
[425000] ALL PASS. Total transactions: 10
[425000] ALL TRANSACTIONS MONITORED
$finish called at time : 445 ns : File "/home/nashita/Desktop/practice/axi_xbar/tb/top/axi_tb_top.sv" Line 206
exit
INFO: xsimkernel Simulation Memory Usage: 289440 KB (Peak: 337840 KB), Simulation CPU Usage: 1180 ms
INFO: [Common 17-206] Exiting xsim at Wed Sep  9 00:06:17 2026...
