#-----------------------------------------------------------
# xsim v2025.2 (64-bit)
# SW Build 6299465 on Fri Nov 14 12:34:56 MST 2025
# IP Build 6300035 on Fri Nov 14 10:48:45 MST 2025
# SharedData Build 6298862 on Thu Nov 13 04:50:51 MST 2025
# Start of session at: Tue Sep  8 12:59:40 2026
# Process ID         : 3727198
# Current directory  : /home/nashita/Desktop/practice/axi_xbar/rtl
# Command line       : xsim -log regress_results/BT_run7.log -mode tcl -source {xsim.dir/tb_top_snap/xsim_script.tcl}
# Log file           : /home/nashita/Desktop/practice/axi_xbar/rtl/regress_results/BT_run7.log
# Journal file       : /home/nashita/Desktop/practice/axi_xbar/rtl/xsim.jou
# Running On         : vlsi-vivado
# Platform           : Ubuntu
# Operating System   : Ubuntu 24.04.4 LTS
# Processor Detail   : Intel(R) Core(TM) i5-10400 CPU @ 2.90GHz
# CPU Frequency      : 4183.816 MHz
# CPU Physical cores : 6
# CPU Logical cores  : 12
# Host memory        : 41875 MB
# Swap memory        : 27648 MB
# Total Virtual      : 69524 MB
# Available Virtual  : 61638 MB
#-----------------------------------------------------------
source xsim.dir/tb_top_snap/xsim_script.tcl
# xsim {tb_top_snap} -testplusarg BT -autoloadwcfg -runall -sv_seed 8
Time resolution is 1 ps
run -all
[0] RUNNING BASE TEST
[0] INSIDE THE BASE TEST CONSTRUCTOR
[0] ENV: before agent
[0] SLAVE CONSTRUCTED
[0] MASTER MONITOR CONSTRUCTED
[0] MASTER MONITOR CONSTRUCTED
[0] SLAVE MONITOR CONSTRUCTED
[0] SLAVE MONITOR CONSTRUCTED
[0] ARB MONITOR CONSTRUCTED
GENERATOR CONSTRUCTED
[0] ENV: after agent
[0] ENV: before scoreboard
[0] ENV: after scoreboard
[15000] [SEQUENCER] READ mst_id=1 s_id=0 araddr=f1918f0 arid=15 arlen=1 arsize=3 arburst=1 rid=[] rresp=[] rdata=[]
[15000] [SEQUENCER] READ mst_id=0 s_id=0 araddr=5a2db68 arid=4 arlen=1 arsize=3 arburst=1 rid=[] rresp=[] rdata=[]
[15000] [SEQUENCER] READ mst_id=1 s_id=0 araddr=1753fec0 arid=12 arlen=1 arsize=3 arburst=1 rid=[] rresp=[] rdata=[]
[15000] [SEQUENCER] READ mst_id=1 s_id=0 araddr=d217fe8 arid=7 arlen=1 arsize=3 arburst=1 rid=[] rresp=[] rdata=[]
[15000] [SEQUENCER] READ mst_id=1 s_id=0 araddr=178ff40 arid=15 arlen=1 arsize=3 arburst=1 rid=[] rresp=[] rdata=[]
[15000] [SEQUENCER] mst_id=1 s_id=0 awaddr=494ce10 awid=0 awlen=1 awsize=3 awburst=1 wdata=[] wstrb=[] bresp=0 bid=0
[15000] [SEQUENCER] READ mst_id=0 s_id=0 araddr=36c2010 arid=2 arlen=1 arsize=3 arburst=1 rid=[] rresp=[] rdata=[]
[15000] [SEQUENCER] READ mst_id=1 s_id=0 araddr=88a53c8 arid=11 arlen=1 arsize=3 arburst=1 rid=[] rresp=[] rdata=[]
[15000] [SEQUENCER] READ mst_id=0 s_id=0 araddr=aa127d0 arid=6 arlen=1 arsize=3 arburst=1 rid=[] rresp=[] rdata=[]
[15000] [SEQUENCER] READ mst_id=0 s_id=0 araddr=10514f0 arid=1 arlen=1 arsize=3 arburst=1 rid=[] rresp=[] rdata=[]
[15000] MASTER_DRIVER1 received transaction, op=AXI_READ
[15000] MASTER_DRIVER0 received transaction, op=AXI_READ
[35000] MASTER_DRIVER1 received transaction, op=AXI_READ
[35000] MASTER_DRIVER0 received transaction, op=AXI_READ
[45000] ARB MONITOR: slave=0 m0_req=1 m1_req=1 winner=0
[45000] AXI S0_ARVALID_RDY HANDSHAKE
[45000] MEMORY READ MISS beat=0 addr=5a2db68 -> default data id=4
[45000] SCOREBOARD MATCH: arbitration winner (slave 0) expected = 0, actual =0
[55000] MEMORY READ MISS beat=1 addr=5a2db70 -> default data id=4
[55000] SLAVE 0 R_VALID_RDY Handshake beat=0 rlast=0
[55000] MASTER_DRIVER1 received transaction, op=AXI_READ
[55000] MASTER_DRIVER0 received transaction, op=AXI_READ
[65000] SLAVE 0 R_VALID_RDY Handshake beat=1 rlast=1
[65000] [SLAVE MONITOR AR] READ mst_id=0 s_id=0 araddr=5a2db68 arid=4 arlen=1 arsize=3 arburst=1 rid=[44] rresp=[00] rdata=[baadf00d12345678baadf00d12345678]
[75000] AXI S0_ARVALID_RDY HANDSHAKE
[75000] MEMORY READ MISS beat=0 addr=f1918f0 -> default data id=31
[75000] ARB MONITOR: slave=0 m0_req=1 m1_req=1 winner=1
[75000] MASTER 0 R_VALID_RDY Handshake beat=0 rlast=0
[75000] MASTER_DRIVER1 received transaction, op=AXI_READ
[75000] MASTER_DRIVER0 received transaction, op=AXI_READ
[75000] SCOREBOARD MATCH: arbitration winner (slave 0) expected = 1, actual =1
[85000] [MASTER DRIVER] READ mst_id=0 s_id=0 araddr=5a2db68 arid=4 arlen=1 arsize=3 arburst=1 rid=[44] rresp=[00] rdata=[baadf00d12345678baadf00d12345678]
[85000] MASTER 0 R_VALID_RDY Handshake beat=1 rlast=1
[85000] [MASTER MONITOR] READ mst_id=0 s_id=0 araddr=5a2db68 arid=4 arlen=1 arsize=3 arburst=1 rid=[44] rresp=[00] rdata=[baadf00d12345678baadf00d12345678]
[85000] ARB MONITOR: slave=1 m0_req=0 m1_req=0 winner=1
[85000] SLAVE 0 R_VALID_RDY Handshake beat=0 rlast=0
[85000] AXI S0_ARVALID_RDY HANDSHAKE
[85000] MEMORY READ MISS beat=0 addr=1753fec0 -> default data id=28
[85000] MEMORY READ MISS beat=1 addr=f1918f8 -> default data id=31
[85000] SCOREBOARD MATCH: decode_err expected = 0, actual =0
[85000] SCOREBOARD MATCH: slave_id expected = 0, actual =0
[85000] SCOREBOARD MATCH: araddr passthrough expected = 5a2db68, actual =5a2db68
[85000] SCOREBOARD MATCH: arlen passthrough expected = 1, actual =1
[85000] SCOREBOARD MATCH: arsize passthrough expected = 3, actual =3
[85000] SCOREBOARD MATCH: arburst passthrough expected = 1, actual =1
[85000] SCOREBOARD MATCH: rdata size check expected = 2, actual =2
[85000] SCOREBOARD MATCH: rdata passthrough beat=0 expected = baadf00d12345678, actual =baadf00d12345678
[85000] SCOREBOARD MATCH: rdata passthrough beat=1 expected = baadf00d12345678, actual =baadf00d12345678
[85000] SCOREBOARD MATCH: rresp size check expected = 2, actual =2
[85000] SCOREBOARD MATCH: rresp passthrough beat=0 expected = 0, actual =0
[85000] SCOREBOARD MATCH: rresp passthrough beat=1 expected = 0, actual =0
[85000] SCOREBOARD MATCH: response routed to correct master (read beat 0) expected = 0, actual =0
[85000] SCOREBOARD MATCH: response routed to correct master (read beat 1) expected = 0, actual =0
[85000] [SCOREBOARD-M] READ mst_id=0 s_id=0 araddr=5a2db68 arid=4 arlen=1 arsize=3 arburst=1 rid=[44] rresp=[00] rdata=[baadf00d12345678baadf00d12345678]
[85000] [SCOREBOARD-S] READ mst_id=0 s_id=0 araddr=5a2db68 arid=4 arlen=1 arsize=3 arburst=1 rid=[44] rresp=[00] rdata=[baadf00d12345678baadf00d12345678]
[85000] SCOREBOARD: Transaction 1 received. pass=16 fail=0
[85000] ALL PASS. Total transactions: 1
[95000] MEMORY READ MISS beat=1 addr=1753fec8 -> default data id=28
[95000] SLAVE 0 R_VALID_RDY Handshake beat=1 rlast=1
[95000] [SLAVE MONITOR AR] READ mst_id=1 s_id=0 araddr=f1918f0 arid=15 arlen=1 arsize=3 arburst=1 rid=[1f1f] rresp=[00] rdata=[baadf00d12345678baadf00d12345678]
[95000] SLAVE 1 R_VALID_RDY Handshake beat=0 rlast=0
[95000] MASTER_DRIVER1 received transaction, op=AXI_WRITE
[105000] MASTER 1 R_VALID_RDY Handshake beat=0 rlast=0
[105000] MASTER 1 R_VALID_RDY Handshake beat=0 rlast=0
[105000] ARB MONITOR: slave=0 m0_req=1 m1_req=1 winner=0
[105000] SLAVE 1 R_VALID_RDY Handshake beat=1 rlast=1
[105000] [SLAVE MONITOR AR] READ mst_id=1 s_id=1 araddr=1753fec0 arid=12 arlen=1 arsize=3 arburst=1 rid=[1c1c] rresp=[00] rdata=[baadf00d12345678baadf00d12345678]
[105000] AXI S0_ARVALID_RDY HANDSHAKE
[105000] MEMORY READ MISS beat=0 addr=36c2010 -> default data id=2
[105000] SCOREBOARD MATCH: arbitration winner (slave 0) expected = 0, actual =0
[115000] MEMORY READ MISS beat=1 addr=36c2018 -> default data id=2
[115000] SLAVE 0 R_VALID_RDY Handshake beat=0 rlast=0
[115000] MASTER 1 R_VALID_RDY Handshake beat=1 rlast=1
[115000] MASTER 1 R_VALID_RDY Handshake beat=1 rlast=1
[115000] [MASTER MONITOR] READ mst_id=1 s_id=0 araddr=f1918f0 arid=15 arlen=1 arsize=3 arburst=1 rid=[ff] rresp=[00] rdata=[baadf00d12345678baadf00d12345678]
[115000] MASTER 1 AW_VALID_RDY Handshake
[115000] [MASTER DRIVER] READ mst_id=1 s_id=0 araddr=178ff40 arid=15 arlen=1 arsize=3 arburst=1 rid=[ff] rresp=[00] rdata=[baadf00d12345678baadf00d12345678]
[115000] [MASTER DRIVER] READ mst_id=1 s_id=0 araddr=f1918f0 arid=15 arlen=1 arsize=3 arburst=1 rid=[ff] rresp=[00] rdata=[baadf00d12345678baadf00d12345678]
[115000] SCOREBOARD MATCH: decode_err expected = 0, actual =0
[115000] SCOREBOARD MATCH: slave_id expected = 0, actual =0
[115000] SCOREBOARD MATCH: araddr passthrough expected = f1918f0, actual =f1918f0
[115000] SCOREBOARD MATCH: arlen passthrough expected = 1, actual =1
[115000] SCOREBOARD MATCH: arsize passthrough expected = 3, actual =3
[115000] SCOREBOARD MATCH: arburst passthrough expected = 1, actual =1
[115000] SCOREBOARD MATCH: rdata size check expected = 2, actual =2
[115000] SCOREBOARD MATCH: rdata passthrough beat=0 expected = baadf00d12345678, actual =baadf00d12345678
[115000] SCOREBOARD MATCH: rdata passthrough beat=1 expected = baadf00d12345678, actual =baadf00d12345678
[115000] SCOREBOARD MATCH: rresp size check expected = 2, actual =2
[115000] SCOREBOARD MATCH: rresp passthrough beat=0 expected = 0, actual =0
[115000] SCOREBOARD MATCH: rresp passthrough beat=1 expected = 0, actual =0
[115000] SCOREBOARD MATCH: response routed to correct master (read beat 0) expected = 1, actual =1
[115000] SCOREBOARD MATCH: response routed to correct master (read beat 1) expected = 1, actual =1
[115000] [SCOREBOARD-M] READ mst_id=1 s_id=0 araddr=f1918f0 arid=15 arlen=1 arsize=3 arburst=1 rid=[ff] rresp=[00] rdata=[baadf00d12345678baadf00d12345678]
[115000] [SCOREBOARD-S] READ mst_id=1 s_id=0 araddr=f1918f0 arid=15 arlen=1 arsize=3 arburst=1 rid=[1f1f] rresp=[00] rdata=[baadf00d12345678baadf00d12345678]
[115000] SCOREBOARD: Transaction 2 received. pass=31 fail=0
[115000] ALL PASS. Total transactions: 2
[125000] ARB MONITOR: slave=0 m0_req=0 m1_req=1 winner=1
[125000] SLAVE 0 R_VALID_RDY Handshake beat=1 rlast=1
[125000] [SLAVE MONITOR AR] READ mst_id=0 s_id=0 araddr=36c2010 arid=2 arlen=1 arsize=3 arburst=1 rid=[22] rresp=[00] rdata=[baadf00d12345678baadf00d12345678]
[125000] AXI S0_AWVALID_RDY HANDSHAKE
[135000] AXI S0_ARVALID_RDY HANDSHAKE
[135000] MEMORY READ MISS beat=0 addr=d217fe8 -> default data id=23
[135000] ARB MONITOR: slave=0 m0_req=0 m1_req=1 winner=1
[135000] MASTER 1 R_VALID_RDY Handshake beat=0 rlast=0
[135000] MASTER 1 W_VALID_RDY Handshake beat=0 wlast=0
[135000] MASTER 0 R_VALID_RDY Handshake beat=0 rlast=0
[145000] [MASTER DRIVER] READ mst_id=0 s_id=0 araddr=36c2010 arid=2 arlen=1 arsize=3 arburst=1 rid=[22] rresp=[00] rdata=[baadf00d12345678baadf00d12345678]
[145000] [MASTER DRIVER] READ mst_id=1 s_id=0 araddr=1753fec0 arid=12 arlen=1 arsize=3 arburst=1 rid=[cc] rresp=[00] rdata=[baadf00d12345678baadf00d12345678]
[145000] MASTER_DRIVER1 received transaction, op=AXI_READ
[145000] MASTER 0 R_VALID_RDY Handshake beat=1 rlast=1
[145000] [MASTER MONITOR] READ mst_id=0 s_id=0 araddr=36c2010 arid=2 arlen=1 arsize=3 arburst=1 rid=[22] rresp=[00] rdata=[baadf00d12345678baadf00d12345678]
[145000] MASTER 1 W_VALID_RDY Handshake beat=1 wlast=1
[145000] MASTER 1 R_VALID_RDY Handshake beat=1 rlast=1
[145000] [MASTER MONITOR] READ mst_id=1 s_id=1 araddr=1753fec0 arid=12 arlen=1 arsize=3 arburst=1 rid=[cc] rresp=[00] rdata=[baadf00d12345678baadf00d12345678]
[145000] SLAVE 0 R_VALID_RDY Handshake beat=0 rlast=0
[145000] AXI S0_WVALID_RDY HANDSHAKE
[145000] MEMORY READ MISS beat=1 addr=d217ff0 -> default data id=23
[145000] AXI S0_WVALID_RDY HANDSHAKE
[145000] S0 MEMORY WRITE beat=0 addr=0494ce10 data=0000000000000000 id=10
[145000] SCOREBOARD MATCH: decode_err expected = 0, actual =0
[145000] SCOREBOARD MATCH: slave_id expected = 0, actual =0
[145000] SCOREBOARD MATCH: araddr passthrough expected = 36c2010, actual =36c2010
[145000] SCOREBOARD MATCH: arlen passthrough expected = 1, actual =1
[145000] SCOREBOARD MATCH: arsize passthrough expected = 3, actual =3
[145000] SCOREBOARD MATCH: arburst passthrough expected = 1, actual =1
[145000] SCOREBOARD MATCH: rdata size check expected = 2, actual =2
[145000] SCOREBOARD MATCH: rdata passthrough beat=0 expected = baadf00d12345678, actual =baadf00d12345678
[145000] SCOREBOARD MATCH: rdata passthrough beat=1 expected = baadf00d12345678, actual =baadf00d12345678
[145000] SCOREBOARD MATCH: rresp size check expected = 2, actual =2
[145000] SCOREBOARD MATCH: rresp passthrough beat=0 expected = 0, actual =0
[145000] SCOREBOARD MATCH: rresp passthrough beat=1 expected = 0, actual =0
[145000] SCOREBOARD MATCH: response routed to correct master (read beat 0) expected = 0, actual =0
[145000] SCOREBOARD MATCH: response routed to correct master (read beat 1) expected = 0, actual =0
[145000] [SCOREBOARD-M] READ mst_id=0 s_id=0 araddr=36c2010 arid=2 arlen=1 arsize=3 arburst=1 rid=[22] rresp=[00] rdata=[baadf00d12345678baadf00d12345678]
[145000] [SCOREBOARD-S] READ mst_id=0 s_id=0 araddr=36c2010 arid=2 arlen=1 arsize=3 arburst=1 rid=[22] rresp=[00] rdata=[baadf00d12345678baadf00d12345678]
[145000] SCOREBOARD: Transaction 3 received. pass=45 fail=0
[145000] ALL PASS. Total transactions: 3
[145000] SCOREBOARD MATCH: decode_err expected = 0, actual =0
[145000] SCOREBOARD MATCH: slave_id expected = 1, actual =1
[145000] SCOREBOARD MATCH: araddr passthrough expected = 1753fec0, actual =1753fec0
[145000] SCOREBOARD MATCH: arlen passthrough expected = 1, actual =1
[145000] SCOREBOARD MATCH: arsize passthrough expected = 3, actual =3
[145000] SCOREBOARD MATCH: arburst passthrough expected = 1, actual =1
[145000] SCOREBOARD MATCH: rdata size check expected = 2, actual =2
[145000] SCOREBOARD MATCH: rdata passthrough beat=0 expected = baadf00d12345678, actual =baadf00d12345678
[145000] SCOREBOARD MATCH: rdata passthrough beat=1 expected = baadf00d12345678, actual =baadf00d12345678
[145000] SCOREBOARD MATCH: rresp size check expected = 2, actual =2
[145000] SCOREBOARD MATCH: rresp passthrough beat=0 expected = 0, actual =0
[145000] SCOREBOARD MATCH: rresp passthrough beat=1 expected = 0, actual =0
[145000] SCOREBOARD MATCH: response routed to correct master (read beat 0) expected = 1, actual =1
[145000] SCOREBOARD MATCH: response routed to correct master (read beat 1) expected = 1, actual =1
[145000] [SCOREBOARD-M] READ mst_id=1 s_id=1 araddr=1753fec0 arid=12 arlen=1 arsize=3 arburst=1 rid=[cc] rresp=[00] rdata=[baadf00d12345678baadf00d12345678]
[145000] [SCOREBOARD-S] READ mst_id=1 s_id=1 araddr=1753fec0 arid=12 arlen=1 arsize=3 arburst=1 rid=[1c1c] rresp=[00] rdata=[baadf00d12345678baadf00d12345678]
[145000] SCOREBOARD: Transaction 4 received. pass=59 fail=0
[145000] ALL PASS. Total transactions: 4
[155000] AXI S0_WVALID_RDY HANDSHAKE
[155000] S0 MEMORY WRITE beat=1 addr=0494ce18 data=0000000000000000 id=10
[155000] AXI S0_WVALID_RDY HANDSHAKE
[155000] SLAVE 0 R_VALID_RDY Handshake beat=1 rlast=1
[155000] [SLAVE MONITOR AR] READ mst_id=1 s_id=0 araddr=d217fe8 arid=7 arlen=1 arsize=3 arburst=1 rid=[1717] rresp=[00] rdata=[baadf00d12345678baadf00d12345678]
[165000] MASTER 1 R_VALID_RDY Handshake beat=0 rlast=0
[165000] ARB MONITOR: slave=0 m0_req=0 m1_req=1 winner=0
[165000] AXI S0_BVALID_RDY HANDSHAKE
[165000] [SLAVE MONITOR] mst_id=1 s_id=0 awaddr=494ce10 awid=0 awlen=1 awsize=3 awburst=1 wdata=[0 0 ] wstrb=[0 0 ] bresp=0 bid=10000
[165000] AXI S0_ARVALID_RDY HANDSHAKE
[165000] MEMORY READ MISS beat=0 addr=aa127d0 -> default data id=6
[165000] SLAVE0 sent B resp, id=0
[175000] MEMORY READ MISS beat=1 addr=aa127d8 -> default data id=6
[175000] SLAVE 0 R_VALID_RDY Handshake beat=0 rlast=0
[175000] MASTER 1 R_VALID_RDY Handshake beat=1 rlast=1
[175000] [MASTER MONITOR] READ mst_id=1 s_id=0 araddr=d217fe8 arid=7 arlen=1 arsize=3 arburst=1 rid=[77] rresp=[00] rdata=[baadf00d12345678baadf00d12345678]
[175000] [MASTER DRIVER] READ mst_id=1 s_id=0 araddr=d217fe8 arid=7 arlen=1 arsize=3 arburst=1 rid=[77] rresp=[00] rdata=[baadf00d12345678baadf00d12345678]
[175000] SCOREBOARD MATCH: decode_err expected = 0, actual =0
[175000] SCOREBOARD MATCH: slave_id expected = 0, actual =0
[175000] SCOREBOARD MATCH: araddr passthrough expected = d217fe8, actual =d217fe8
[175000] SCOREBOARD MATCH: arlen passthrough expected = 1, actual =1
[175000] SCOREBOARD MATCH: arsize passthrough expected = 3, actual =3
[175000] SCOREBOARD MATCH: arburst passthrough expected = 1, actual =1
[175000] SCOREBOARD MATCH: rdata size check expected = 2, actual =2
[175000] SCOREBOARD MATCH: rdata passthrough beat=0 expected = baadf00d12345678, actual =baadf00d12345678
[175000] SCOREBOARD MATCH: rdata passthrough beat=1 expected = baadf00d12345678, actual =baadf00d12345678
[175000] SCOREBOARD MATCH: rresp size check expected = 2, actual =2
[175000] SCOREBOARD MATCH: rresp passthrough beat=0 expected = 0, actual =0
[175000] SCOREBOARD MATCH: rresp passthrough beat=1 expected = 0, actual =0
[175000] SCOREBOARD MATCH: response routed to correct master (read beat 0) expected = 1, actual =1
[175000] SCOREBOARD MATCH: response routed to correct master (read beat 1) expected = 1, actual =1
[175000] [SCOREBOARD-M] READ mst_id=1 s_id=0 araddr=d217fe8 arid=7 arlen=1 arsize=3 arburst=1 rid=[77] rresp=[00] rdata=[baadf00d12345678baadf00d12345678]
[175000] [SCOREBOARD-S] READ mst_id=1 s_id=0 araddr=d217fe8 arid=7 arlen=1 arsize=3 arburst=1 rid=[1717] rresp=[00] rdata=[baadf00d12345678baadf00d12345678]
[175000] SCOREBOARD: Transaction 5 received. pass=73 fail=0
[175000] ALL PASS. Total transactions: 5
[185000] MASTER 1 RECEIVED BRESP. BRESP=0
[185000] [MASTER DRIVER] mst_id=1 s_id=0 awaddr=494ce10 awid=0 awlen=1 awsize=3 awburst=1 wdata=[] wstrb=[] bresp=0 bid=0
[185000] MASTER 1 B_VALID_RDY Handshake
[185000] [MASTER MONITOR] mst_id=1 s_id=0 awaddr=494ce10 awid=0 awlen=1 awsize=3 awburst=1 wdata=[0 0 ] wstrb=[0 0 ] bresp=0 bid=0
[185000] SLAVE 0 R_VALID_RDY Handshake beat=1 rlast=1
[185000] [SLAVE MONITOR AR] READ mst_id=0 s_id=0 araddr=aa127d0 arid=6 arlen=1 arsize=3 arburst=1 rid=[66] rresp=[00] rdata=[baadf00d12345678baadf00d12345678]
[185000] SCOREBOARD MATCH: decode_err expected = 0, actual =0
[185000] SCOREBOARD MATCH: slave_id expected = 0, actual =0
[185000] SCOREBOARD MATCH: awaddr passthrough expected = 494ce10, actual =494ce10
[185000] SCOREBOARD MATCH: awlen passthrough expected = 1, actual =1
[185000] SCOREBOARD MATCH: awsize passthrough expected = 3, actual =3
[185000] SCOREBOARD MATCH: awburst passthrough expected = 1, actual =1
[185000] SCOREBOARD MATCH: wdata size check expected = 2, actual =2
[185000] SCOREBOARD MATCH: wdata passthrough beat=0 expected = 0, actual =0
[185000] SCOREBOARD MATCH: wdata passthrough beat=1 expected = 0, actual =0
[185000] SCOREBOARD MATCH: wstrb size check expected = 2, actual =2
[185000] SCOREBOARD MATCH: wstrb passthrough beat=0 expected = 0, actual =0
[185000] SCOREBOARD MATCH: wstrb passthrough beat=1 expected = 0, actual =0
[185000] SCOREBOARD MATCH: bresp passthrough expected = 0, actual =0
[185000] SCOREBOARD MATCH: response routed to correct master (write) expected = 1, actual =1
[185000] [SCOREBOARD-M] mst_id=1 s_id=0 awaddr=494ce10 awid=0 awlen=1 awsize=3 awburst=1 wdata=[0 0 ] wstrb=[0 0 ] bresp=0 bid=0
[185000] [SCOREBOARD-S] mst_id=1 s_id=0 awaddr=494ce10 awid=0 awlen=1 awsize=3 awburst=1 wdata=[0 0 ] wstrb=[0 0 ] bresp=0 bid=10000
[185000] SCOREBOARD: Transaction 6 received. pass=87 fail=0
[185000] ALL PASS. Total transactions: 6
[195000] AXI S0_ARVALID_RDY HANDSHAKE
[195000] MEMORY READ MISS beat=0 addr=178ff40 -> default data id=31
[195000] ARB MONITOR: slave=0 m0_req=0 m1_req=1 winner=1
[195000] [MASTER MONITOR] READ mst_id=1 s_id=0 araddr=178ff40 arid=15 arlen=1 arsize=3 arburst=1 rid=[ff] rresp=[00] rdata=[baadf00d12345678baadf00d12345678]
[195000] MASTER 0 R_VALID_RDY Handshake beat=0 rlast=0
[205000] [MASTER DRIVER] READ mst_id=0 s_id=0 araddr=aa127d0 arid=6 arlen=1 arsize=3 arburst=1 rid=[66] rresp=[00] rdata=[baadf00d12345678baadf00d12345678]
[205000] MASTER 0 R_VALID_RDY Handshake beat=1 rlast=1
[205000] [MASTER MONITOR] READ mst_id=0 s_id=0 araddr=aa127d0 arid=6 arlen=1 arsize=3 arburst=1 rid=[66] rresp=[00] rdata=[baadf00d12345678baadf00d12345678]
[205000] SLAVE 0 R_VALID_RDY Handshake beat=0 rlast=0
[205000] MEMORY READ MISS beat=1 addr=178ff48 -> default data id=31
[205000] SCOREBOARD MATCH: decode_err expected = 0, actual =0
[205000] SCOREBOARD MATCH: slave_id expected = 0, actual =0
[205000] SCOREBOARD MATCH: araddr passthrough expected = aa127d0, actual =aa127d0
[205000] SCOREBOARD MATCH: arlen passthrough expected = 1, actual =1
[205000] SCOREBOARD MATCH: arsize passthrough expected = 3, actual =3
[205000] SCOREBOARD MATCH: arburst passthrough expected = 1, actual =1
[205000] SCOREBOARD MATCH: rdata size check expected = 2, actual =2
[205000] SCOREBOARD MATCH: rdata passthrough beat=0 expected = baadf00d12345678, actual =baadf00d12345678
[205000] SCOREBOARD MATCH: rdata passthrough beat=1 expected = baadf00d12345678, actual =baadf00d12345678
[205000] SCOREBOARD MATCH: rresp size check expected = 2, actual =2
[205000] SCOREBOARD MATCH: rresp passthrough beat=0 expected = 0, actual =0
[205000] SCOREBOARD MATCH: rresp passthrough beat=1 expected = 0, actual =0
[205000] SCOREBOARD MATCH: response routed to correct master (read beat 0) expected = 0, actual =0
[205000] SCOREBOARD MATCH: response routed to correct master (read beat 1) expected = 0, actual =0
[205000] [SCOREBOARD-M] READ mst_id=0 s_id=0 araddr=aa127d0 arid=6 arlen=1 arsize=3 arburst=1 rid=[66] rresp=[00] rdata=[baadf00d12345678baadf00d12345678]
[205000] [SCOREBOARD-S] READ mst_id=0 s_id=0 araddr=aa127d0 arid=6 arlen=1 arsize=3 arburst=1 rid=[66] rresp=[00] rdata=[baadf00d12345678baadf00d12345678]
[205000] SCOREBOARD: Transaction 7 received. pass=101 fail=0
[205000] ALL PASS. Total transactions: 7
[215000] SLAVE 0 R_VALID_RDY Handshake beat=1 rlast=1
[215000] [SLAVE MONITOR AR] READ mst_id=1 s_id=0 araddr=178ff40 arid=15 arlen=1 arsize=3 arburst=1 rid=[1f1f] rresp=[00] rdata=[baadf00d12345678baadf00d12345678]
[215000] SCOREBOARD MATCH: decode_err expected = 0, actual =0
[215000] SCOREBOARD MATCH: slave_id expected = 0, actual =0
[215000] SCOREBOARD MATCH: araddr passthrough expected = 178ff40, actual =178ff40
[215000] SCOREBOARD MATCH: arlen passthrough expected = 1, actual =1
[215000] SCOREBOARD MATCH: arsize passthrough expected = 3, actual =3
[215000] SCOREBOARD MATCH: arburst passthrough expected = 1, actual =1
[215000] SCOREBOARD MATCH: rdata size check expected = 2, actual =2
[215000] SCOREBOARD MATCH: rdata passthrough beat=0 expected = baadf00d12345678, actual =baadf00d12345678
[215000] SCOREBOARD MATCH: rdata passthrough beat=1 expected = baadf00d12345678, actual =baadf00d12345678
[215000] SCOREBOARD MATCH: rresp size check expected = 2, actual =2
[215000] SCOREBOARD MATCH: rresp passthrough beat=0 expected = 0, actual =0
[215000] SCOREBOARD MATCH: rresp passthrough beat=1 expected = 0, actual =0
[215000] SCOREBOARD MATCH: response routed to correct master (read beat 0) expected = 1, actual =1
[215000] SCOREBOARD MATCH: response routed to correct master (read beat 1) expected = 1, actual =1
[215000] [SCOREBOARD-M] READ mst_id=1 s_id=0 araddr=178ff40 arid=15 arlen=1 arsize=3 arburst=1 rid=[ff] rresp=[00] rdata=[baadf00d12345678baadf00d12345678]
[215000] [SCOREBOARD-S] READ mst_id=1 s_id=0 araddr=178ff40 arid=15 arlen=1 arsize=3 arburst=1 rid=[1f1f] rresp=[00] rdata=[baadf00d12345678baadf00d12345678]
[215000] SCOREBOARD: Transaction 8 received. pass=115 fail=0
[215000] ALL PASS. Total transactions: 8
[225000] ARB MONITOR: slave=0 m0_req=0 m1_req=0 winner=0
[225000] AXI S0_ARVALID_RDY HANDSHAKE
[225000] MEMORY READ MISS beat=0 addr=10514f0 -> default data id=1
[235000] MEMORY READ MISS beat=1 addr=10514f8 -> default data id=1
[235000] SLAVE 0 R_VALID_RDY Handshake beat=0 rlast=0
[245000] SLAVE 0 R_VALID_RDY Handshake beat=1 rlast=1
[245000] [SLAVE MONITOR AR] READ mst_id=0 s_id=0 araddr=10514f0 arid=1 arlen=1 arsize=3 arburst=1 rid=[11] rresp=[00] rdata=[baadf00d12345678baadf00d12345678]
[255000] AXI S0_ARVALID_RDY HANDSHAKE
[255000] MEMORY READ MISS beat=0 addr=88a53c8 -> default data id=27
[255000] ARB MONITOR: slave=0 m0_req=0 m1_req=0 winner=1
[255000] MASTER 0 R_VALID_RDY Handshake beat=0 rlast=0
[265000] [MASTER DRIVER] READ mst_id=0 s_id=0 araddr=10514f0 arid=1 arlen=1 arsize=3 arburst=1 rid=[11] rresp=[00] rdata=[baadf00d12345678baadf00d12345678]
[265000] MASTER 0 R_VALID_RDY Handshake beat=1 rlast=1
[265000] [MASTER MONITOR] READ mst_id=0 s_id=0 araddr=10514f0 arid=1 arlen=1 arsize=3 arburst=1 rid=[11] rresp=[00] rdata=[baadf00d12345678baadf00d12345678]
[265000] SLAVE 0 R_VALID_RDY Handshake beat=0 rlast=0
[265000] MEMORY READ MISS beat=1 addr=88a53d0 -> default data id=27
[265000] SCOREBOARD MATCH: decode_err expected = 0, actual =0
[265000] SCOREBOARD MATCH: slave_id expected = 0, actual =0
[265000] SCOREBOARD MATCH: araddr passthrough expected = 10514f0, actual =10514f0
[265000] SCOREBOARD MATCH: arlen passthrough expected = 1, actual =1
[265000] SCOREBOARD MATCH: arsize passthrough expected = 3, actual =3
[265000] SCOREBOARD MATCH: arburst passthrough expected = 1, actual =1
[265000] SCOREBOARD MATCH: rdata size check expected = 2, actual =2
[265000] SCOREBOARD MATCH: rdata passthrough beat=0 expected = baadf00d12345678, actual =baadf00d12345678
[265000] SCOREBOARD MATCH: rdata passthrough beat=1 expected = baadf00d12345678, actual =baadf00d12345678
[265000] SCOREBOARD MATCH: rresp size check expected = 2, actual =2
[265000] SCOREBOARD MATCH: rresp passthrough beat=0 expected = 0, actual =0
[265000] SCOREBOARD MATCH: rresp passthrough beat=1 expected = 0, actual =0
[265000] SCOREBOARD MATCH: response routed to correct master (read beat 0) expected = 0, actual =0
[265000] SCOREBOARD MATCH: response routed to correct master (read beat 1) expected = 0, actual =0
[265000] [SCOREBOARD-M] READ mst_id=0 s_id=0 araddr=10514f0 arid=1 arlen=1 arsize=3 arburst=1 rid=[11] rresp=[00] rdata=[baadf00d12345678baadf00d12345678]
[265000] [SCOREBOARD-S] READ mst_id=0 s_id=0 araddr=10514f0 arid=1 arlen=1 arsize=3 arburst=1 rid=[11] rresp=[00] rdata=[baadf00d12345678baadf00d12345678]
[265000] SCOREBOARD: Transaction 9 received. pass=129 fail=0
[265000] ALL PASS. Total transactions: 9
[275000] SLAVE 0 R_VALID_RDY Handshake beat=1 rlast=1
[275000] [SLAVE MONITOR AR] READ mst_id=1 s_id=0 araddr=88a53c8 arid=11 arlen=1 arsize=3 arburst=1 rid=[1b1b] rresp=[00] rdata=[baadf00d12345678baadf00d12345678]
[285000] MASTER 1 R_VALID_RDY Handshake beat=0 rlast=0
[295000] MASTER 1 R_VALID_RDY Handshake beat=1 rlast=1
[295000] [MASTER MONITOR] READ mst_id=1 s_id=0 araddr=88a53c8 arid=11 arlen=1 arsize=3 arburst=1 rid=[bb] rresp=[00] rdata=[baadf00d12345678baadf00d12345678]
[295000] [MASTER DRIVER] READ mst_id=1 s_id=0 araddr=88a53c8 arid=11 arlen=1 arsize=3 arburst=1 rid=[bb] rresp=[00] rdata=[baadf00d12345678baadf00d12345678]
[295000] SCOREBOARD MATCH: decode_err expected = 0, actual =0
[295000] SCOREBOARD MATCH: slave_id expected = 0, actual =0
[295000] SCOREBOARD MATCH: araddr passthrough expected = 88a53c8, actual =88a53c8
[295000] SCOREBOARD MATCH: arlen passthrough expected = 1, actual =1
[295000] SCOREBOARD MATCH: arsize passthrough expected = 3, actual =3
[295000] SCOREBOARD MATCH: arburst passthrough expected = 1, actual =1
[295000] SCOREBOARD MATCH: rdata size check expected = 2, actual =2
[295000] SCOREBOARD MATCH: rdata passthrough beat=0 expected = baadf00d12345678, actual =baadf00d12345678
[295000] SCOREBOARD MATCH: rdata passthrough beat=1 expected = baadf00d12345678, actual =baadf00d12345678
[295000] SCOREBOARD MATCH: rresp size check expected = 2, actual =2
[295000] SCOREBOARD MATCH: rresp passthrough beat=0 expected = 0, actual =0
[295000] SCOREBOARD MATCH: rresp passthrough beat=1 expected = 0, actual =0
[295000] SCOREBOARD MATCH: response routed to correct master (read beat 0) expected = 1, actual =1
[295000] SCOREBOARD MATCH: response routed to correct master (read beat 1) expected = 1, actual =1
[295000] [SCOREBOARD-M] READ mst_id=1 s_id=0 araddr=88a53c8 arid=11 arlen=1 arsize=3 arburst=1 rid=[bb] rresp=[00] rdata=[baadf00d12345678baadf00d12345678]
[295000] [SCOREBOARD-S] READ mst_id=1 s_id=0 araddr=88a53c8 arid=11 arlen=1 arsize=3 arburst=1 rid=[1b1b] rresp=[00] rdata=[baadf00d12345678baadf00d12345678]
[295000] SCOREBOARD: Transaction 10 received. pass=143 fail=0
[295000] SCOREBOARD: Expected 10 transactions completed, PASS=143 FAIL=0
[295000] ALL PASS. Total transactions: 10
[295000] ALL TRANSACTIONS MONITORED
$finish called at time : 315 ns : File "/home/nashita/Desktop/practice/axi_xbar/tb/axi_tb_top.sv" Line 206
exit
INFO: xsimkernel Simulation Memory Usage: 289412 KB (Peak: 337816 KB), Simulation CPU Usage: 1170 ms
INFO: [Common 17-206] Exiting xsim at Tue Sep  8 12:59:43 2026...
