#-----------------------------------------------------------
# xsim v2025.2 (64-bit)
# SW Build 6299465 on Fri Nov 14 12:34:56 MST 2025
# IP Build 6300035 on Fri Nov 14 10:48:45 MST 2025
# SharedData Build 6298862 on Thu Nov 13 04:50:51 MST 2025
# Start of session at: Mon Sep  7 16:22:19 2026
# Process ID         : 2260788
# Current directory  : /home/nashita/Desktop/practice/axi_xbar/rtl
# Command line       : xsim -log regress_results/error_test.log -mode tcl -source {xsim.dir/tb_top_snap/xsim_script.tcl}
# Log file           : /home/nashita/Desktop/practice/axi_xbar/rtl/regress_results/error_test.log
# Journal file       : /home/nashita/Desktop/practice/axi_xbar/rtl/xsim.jou
# Running On         : vlsi-vivado
# Platform           : Ubuntu
# Operating System   : Ubuntu 24.04.4 LTS
# Processor Detail   : Intel(R) Core(TM) i5-10400 CPU @ 2.90GHz
# CPU Frequency      : 4000.006 MHz
# CPU Physical cores : 6
# CPU Logical cores  : 12
# Host memory        : 41875 MB
# Swap memory        : 27648 MB
# Total Virtual      : 69524 MB
# Available Virtual  : 63062 MB
#-----------------------------------------------------------
source xsim.dir/tb_top_snap/xsim_script.tcl
# xsim {tb_top_snap} -testplusarg error_test -autoloadwcfg -runall
Time resolution is 1 ps
run -all
[0] RUNNING BASE TEST
[0] INSIDE THE BASE TEST CONSTRUCTOR
[0] ENV: before agent
[0] SLAVE CONSTRUCTED
[0] MASTER MONITOR CONSTRUCTED
[0] MASTER MONITOR CONSTRUCTED
[0] SLAVE MONITOR CONSTRUCTED
[0] SLAVE MONITOR CONSTRUCTED
[0] ARB MONITOR CONSTRUCTED
GENERATOR CONSTRUCTED
[0] ENV: after agent
[0] ENV: before scoreboard
[0] ENV: after scoreboard
[15000] [SEQUENCER] mst_id=1 s_id=0 awaddr=49e46e0 awid=100 awlen=1 awsize=3 awburst=1 wdata=[] wstrb=[] bresp=0 bid=0
[15000] [SEQUENCER] READ mst_id=0 s_id=0 araddr=1d10ae28 arid=5 arlen=1 arsize=3 arburst=1 rid=[] rresp=[] rdata=[]
[15000] [SEQUENCER] mst_id=1 s_id=0 awaddr=342f948 awid=1010 awlen=1 awsize=3 awburst=1 wdata=[] wstrb=[] bresp=0 bid=0
[15000] [SEQUENCER] READ mst_id=0 s_id=0 araddr=10b6dd98 arid=7 arlen=1 arsize=3 arburst=1 rid=[] rresp=[] rdata=[]
[15000] [SEQUENCER] READ mst_id=0 s_id=0 araddr=107f1408 arid=15 arlen=1 arsize=3 arburst=1 rid=[] rresp=[] rdata=[]
[15000] [SEQUENCER] READ mst_id=1 s_id=0 araddr=185aeb48 arid=6 arlen=1 arsize=3 arburst=1 rid=[] rresp=[] rdata=[]
[15000] [SEQUENCER] mst_id=1 s_id=0 awaddr=1e0a2740 awid=10 awlen=1 awsize=3 awburst=1 wdata=[] wstrb=[] bresp=0 bid=0
[15000] [SEQUENCER] READ mst_id=1 s_id=0 araddr=19be2f20 arid=7 arlen=1 arsize=3 arburst=1 rid=[] rresp=[] rdata=[]
[15000] [SEQUENCER] mst_id=1 s_id=0 awaddr=1442a6f0 awid=100 awlen=1 awsize=3 awburst=1 wdata=[] wstrb=[] bresp=0 bid=0
[15000] [SEQUENCER] READ mst_id=1 s_id=0 araddr=8e05558 arid=10 arlen=1 arsize=3 arburst=1 rid=[] rresp=[] rdata=[]
[15000] MASTER_DRIVER1 received transaction, op=AXI_WRITE
[15000] MASTER_DRIVER0 received transaction, op=AXI_READ
[35000] MASTER 1 AW_VALID_RDY Handshake
[45000] ARB MONITOR: slave=0 m0_req=0 m1_req=1 winner=1
[45000] ARB MONITOR: slave=1 m0_req=1 m1_req=0 winner=0
[45000] AXI S0_ARVALID_RDY HANDSHAKE
[45000] MEMORY READ MISS beat=0 addr=1d10ae28 -> default data id=5
[45000] AXI S0_AWVALID_RDY HANDSHAKE
[55000] MEMORY READ MISS beat=1 addr=1d10ae30 -> default data id=5
[55000] SLAVE 1 R_VALID_RDY Handshake beat=0 rlast=0
[55000] MASTER 1 W_VALID_RDY Handshake beat=0 wlast=0
[65000] MASTER 1 W_VALID_RDY Handshake beat=1 wlast=1
[65000] SLAVE 1 R_VALID_RDY Handshake beat=1 rlast=1
[65000] [SLAVE MONITOR AR] READ mst_id=0 s_id=1 araddr=1d10ae28 arid=5 arlen=1 arsize=3 arburst=1 rid=[55] rresp=[00] rdata=[baadf00d12345678baadf00d12345678]
[65000] AXI S0_WVALID_RDY HANDSHAKE
[65000] AXI S0_WVALID_RDY HANDSHAKE
[65000] S0 MEMORY WRITE beat=0 addr=049e46e0 data=0000000000000000 id=14
[75000] AXI S0_WVALID_RDY HANDSHAKE
[75000] S0 MEMORY WRITE beat=1 addr=049e46e8 data=0000000000000000 id=14
[75000] AXI S0_WVALID_RDY HANDSHAKE
[75000] MASTER 0 R_VALID_RDY Handshake beat=0 rlast=0
[85000] [MASTER DRIVER] READ mst_id=0 s_id=0 araddr=1d10ae28 arid=5 arlen=1 arsize=3 arburst=1 rid=[55] rresp=[00] rdata=[baadf00d12345678baadf00d12345678]
[85000] MASTER_DRIVER0 received transaction, op=AXI_READ
[85000] MASTER 0 R_VALID_RDY Handshake beat=1 rlast=1
[85000] [MASTER MONITOR] READ mst_id=0 s_id=1 araddr=1d10ae28 arid=5 arlen=1 arsize=3 arburst=1 rid=[55] rresp=[00] rdata=[baadf00d12345678baadf00d12345678]
[85000] AXI S0_BVALID_RDY HANDSHAKE
[85000] [SLAVE MONITOR] mst_id=1 s_id=0 awaddr=49e46e0 awid=100 awlen=1 awsize=3 awburst=1 wdata=[0 0 ] wstrb=[0 0 ] bresp=0 bid=20
[85000] SLAVE0 sent B resp, id=4
[85000] SCOREBOARD MATCH: decode_err expected = 0, actual =0
[85000] SCOREBOARD MATCH: slave_id expected = 1, actual =1
[85000] SCOREBOARD MATCH: araddr passthrough expected = 1d10ae28, actual =1d10ae28
[85000] SCOREBOARD MATCH: arlen passthrough expected = 1, actual =1
[85000] SCOREBOARD MATCH: arsize passthrough expected = 3, actual =3
[85000] SCOREBOARD MATCH: arburst passthrough expected = 1, actual =1
[85000] SCOREBOARD MATCH: rdata size check expected = 2, actual =2
[85000] SCOREBOARD MATCH: rdata passthrough beat=0 expected = baadf00d12345678, actual =baadf00d12345678
[85000] SCOREBOARD MATCH: rdata passthrough beat=1 expected = baadf00d12345678, actual =baadf00d12345678
[85000] SCOREBOARD MATCH: rresp size check expected = 2, actual =2
[85000] SCOREBOARD MATCH: rresp passthrough beat=0 expected = 0, actual =0
[85000] SCOREBOARD MATCH: rresp passthrough beat=1 expected = 0, actual =0
[85000] SCOREBOARD MATCH: response routed to correct master (read beat 0) expected = 0, actual =0
[85000] SCOREBOARD MATCH: response routed to correct master (read beat 1) expected = 0, actual =0
[85000] [SCOREBOARD-M] READ mst_id=0 s_id=1 araddr=1d10ae28 arid=5 arlen=1 arsize=3 arburst=1 rid=[55] rresp=[00] rdata=[baadf00d12345678baadf00d12345678]
[85000] [SCOREBOARD-S] READ mst_id=0 s_id=1 araddr=1d10ae28 arid=5 arlen=1 arsize=3 arburst=1 rid=[55] rresp=[00] rdata=[baadf00d12345678baadf00d12345678]
[85000] SCOREBOARD: Transaction 1 received. pass=14 fail=0
[85000] ALL PASS. Total transactions: 1
[105000] MASTER 1 RECEIVED BRESP. BRESP=0
[105000] [MASTER DRIVER] mst_id=1 s_id=0 awaddr=49e46e0 awid=100 awlen=1 awsize=3 awburst=1 wdata=[] wstrb=[] bresp=0 bid=4
[105000] MASTER_DRIVER1 received transaction, op=AXI_WRITE
[105000] MASTER 1 B_VALID_RDY Handshake
[105000] [MASTER MONITOR] mst_id=1 s_id=0 awaddr=49e46e0 awid=100 awlen=1 awsize=3 awburst=1 wdata=[0 0 ] wstrb=[0 0 ] bresp=0 bid=4
[105000] SCOREBOARD MATCH: decode_err expected = 0, actual =0
[105000] SCOREBOARD MATCH: slave_id expected = 0, actual =0
[105000] SCOREBOARD MATCH: awaddr passthrough expected = 49e46e0, actual =49e46e0
[105000] SCOREBOARD MATCH: awlen passthrough expected = 1, actual =1
[105000] SCOREBOARD MATCH: awsize passthrough expected = 3, actual =3
[105000] SCOREBOARD MATCH: awburst passthrough expected = 1, actual =1
[105000] SCOREBOARD MATCH: wdata size check expected = 2, actual =2
[105000] SCOREBOARD MATCH: wdata passthrough beat=0 expected = 0, actual =0
[105000] SCOREBOARD MATCH: wdata passthrough beat=1 expected = 0, actual =0
[105000] SCOREBOARD MATCH: wstrb size check expected = 2, actual =2
[105000] SCOREBOARD MATCH: wstrb passthrough beat=0 expected = 0, actual =0
[105000] SCOREBOARD MATCH: wstrb passthrough beat=1 expected = 0, actual =0
[105000] SCOREBOARD MATCH: bresp passthrough expected = 0, actual =0
[105000] SCOREBOARD MATCH: response routed to correct master (write) expected = 1, actual =1
[105000] [SCOREBOARD-M] mst_id=1 s_id=0 awaddr=49e46e0 awid=100 awlen=1 awsize=3 awburst=1 wdata=[0 0 ] wstrb=[0 0 ] bresp=0 bid=4
[105000] [SCOREBOARD-S] mst_id=1 s_id=0 awaddr=49e46e0 awid=100 awlen=1 awsize=3 awburst=1 wdata=[0 0 ] wstrb=[0 0 ] bresp=0 bid=20
[105000] SCOREBOARD: Transaction 2 received. pass=28 fail=0
[105000] ALL PASS. Total transactions: 2
[115000] AXI S0_ARVALID_RDY HANDSHAKE
[115000] MEMORY READ MISS beat=0 addr=10b6dd98 -> default data id=7
[115000] ARB MONITOR: slave=1 m0_req=1 m1_req=0 winner=0
[125000] MASTER 1 AW_VALID_RDY Handshake
[125000] SLAVE 1 R_VALID_RDY Handshake beat=0 rlast=0
[125000] MEMORY READ MISS beat=1 addr=10b6dda0 -> default data id=7
[135000] AXI S0_AWVALID_RDY HANDSHAKE
[135000] SLAVE 1 R_VALID_RDY Handshake beat=1 rlast=1
[135000] [SLAVE MONITOR AR] READ mst_id=0 s_id=1 araddr=10b6dd98 arid=7 arlen=1 arsize=3 arburst=1 rid=[77] rresp=[00] rdata=[baadf00d12345678baadf00d12345678]
[135000] ARB MONITOR: slave=0 m0_req=0 m1_req=1 winner=1
[145000] MASTER 0 R_VALID_RDY Handshake beat=0 rlast=0
[145000] MASTER 1 W_VALID_RDY Handshake beat=0 wlast=0
[155000] AXI S0_WVALID_RDY HANDSHAKE
[155000] S0 MEMORY WRITE beat=0 addr=0342f948 data=0000000000000000 id=1a
[155000] AXI S0_WVALID_RDY HANDSHAKE
[155000] MASTER 1 W_VALID_RDY Handshake beat=1 wlast=1
[155000] MASTER 0 R_VALID_RDY Handshake beat=1 rlast=1
[155000] [MASTER MONITOR] READ mst_id=0 s_id=1 araddr=10b6dd98 arid=7 arlen=1 arsize=3 arburst=1 rid=[77] rresp=[00] rdata=[baadf00d12345678baadf00d12345678]
[155000] [MASTER DRIVER] READ mst_id=0 s_id=0 araddr=10b6dd98 arid=7 arlen=1 arsize=3 arburst=1 rid=[77] rresp=[00] rdata=[baadf00d12345678baadf00d12345678]
[155000] MASTER_DRIVER0 received transaction, op=AXI_READ
[155000] SCOREBOARD MATCH: decode_err expected = 0, actual =0
[155000] SCOREBOARD MATCH: slave_id expected = 1, actual =1
[155000] SCOREBOARD MATCH: araddr passthrough expected = 10b6dd98, actual =10b6dd98
[155000] SCOREBOARD MATCH: arlen passthrough expected = 1, actual =1
[155000] SCOREBOARD MATCH: arsize passthrough expected = 3, actual =3
[155000] SCOREBOARD MATCH: arburst passthrough expected = 1, actual =1
[155000] SCOREBOARD MATCH: rdata size check expected = 2, actual =2
[155000] SCOREBOARD MATCH: rdata passthrough beat=0 expected = baadf00d12345678, actual =baadf00d12345678
[155000] SCOREBOARD MATCH: rdata passthrough beat=1 expected = baadf00d12345678, actual =baadf00d12345678
[155000] SCOREBOARD MATCH: rresp size check expected = 2, actual =2
[155000] SCOREBOARD MATCH: rresp passthrough beat=0 expected = 0, actual =0
[155000] SCOREBOARD MATCH: rresp passthrough beat=1 expected = 0, actual =0
[155000] SCOREBOARD MATCH: response routed to correct master (read beat 0) expected = 0, actual =0
[155000] SCOREBOARD MATCH: response routed to correct master (read beat 1) expected = 0, actual =0
[155000] [SCOREBOARD-M] READ mst_id=0 s_id=1 araddr=10b6dd98 arid=7 arlen=1 arsize=3 arburst=1 rid=[77] rresp=[00] rdata=[baadf00d12345678baadf00d12345678]
[155000] [SCOREBOARD-S] READ mst_id=0 s_id=1 araddr=10b6dd98 arid=7 arlen=1 arsize=3 arburst=1 rid=[77] rresp=[00] rdata=[baadf00d12345678baadf00d12345678]
[155000] SCOREBOARD: Transaction 3 received. pass=42 fail=0
[155000] ALL PASS. Total transactions: 3
[165000] AXI S0_WVALID_RDY HANDSHAKE
[165000] AXI S0_WVALID_RDY HANDSHAKE
[165000] S0 MEMORY WRITE beat=1 addr=0342f950 data=0000000000000000 id=1a
[175000] SLAVE0 sent B resp, id=10
[175000] AXI S0_BVALID_RDY HANDSHAKE
[175000] [SLAVE MONITOR] mst_id=1 s_id=0 awaddr=342f948 awid=1010 awlen=1 awsize=3 awburst=1 wdata=[0 0 ] wstrb=[0 0 ] bresp=0 bid=26
[185000] ARB MONITOR: slave=1 m0_req=1 m1_req=0 winner=0
[185000] AXI S0_ARVALID_RDY HANDSHAKE
[185000] MEMORY READ MISS beat=0 addr=107f1408 -> default data id=15
[195000] MEMORY READ MISS beat=1 addr=107f1410 -> default data id=15
[195000] SLAVE 1 R_VALID_RDY Handshake beat=0 rlast=0
[195000] MASTER 1 B_VALID_RDY Handshake
[195000] [MASTER MONITOR] mst_id=1 s_id=0 awaddr=342f948 awid=1010 awlen=1 awsize=3 awburst=1 wdata=[0 0 ] wstrb=[0 0 ] bresp=0 bid=10
[195000] MASTER 1 RECEIVED BRESP. BRESP=0
[195000] [MASTER DRIVER] mst_id=1 s_id=0 awaddr=342f948 awid=1010 awlen=1 awsize=3 awburst=1 wdata=[] wstrb=[] bresp=0 bid=10
[195000] MASTER_DRIVER1 received transaction, op=AXI_READ
[195000] SCOREBOARD MATCH: decode_err expected = 0, actual =0
[195000] SCOREBOARD MATCH: slave_id expected = 0, actual =0
[195000] SCOREBOARD MATCH: awaddr passthrough expected = 342f948, actual =342f948
[195000] SCOREBOARD MATCH: awlen passthrough expected = 1, actual =1
[195000] SCOREBOARD MATCH: awsize passthrough expected = 3, actual =3
[195000] SCOREBOARD MATCH: awburst passthrough expected = 1, actual =1
[195000] SCOREBOARD MATCH: wdata size check expected = 2, actual =2
[195000] SCOREBOARD MATCH: wdata passthrough beat=0 expected = 0, actual =0
[195000] SCOREBOARD MATCH: wdata passthrough beat=1 expected = 0, actual =0
[195000] SCOREBOARD MATCH: wstrb size check expected = 2, actual =2
[195000] SCOREBOARD MATCH: wstrb passthrough beat=0 expected = 0, actual =0
[195000] SCOREBOARD MATCH: wstrb passthrough beat=1 expected = 0, actual =0
[195000] SCOREBOARD MATCH: bresp passthrough expected = 0, actual =0
[195000] SCOREBOARD MATCH: response routed to correct master (write) expected = 1, actual =1
[195000] [SCOREBOARD-M] mst_id=1 s_id=0 awaddr=342f948 awid=1010 awlen=1 awsize=3 awburst=1 wdata=[0 0 ] wstrb=[0 0 ] bresp=0 bid=10
[195000] [SCOREBOARD-S] mst_id=1 s_id=0 awaddr=342f948 awid=1010 awlen=1 awsize=3 awburst=1 wdata=[0 0 ] wstrb=[0 0 ] bresp=0 bid=26
[195000] SCOREBOARD: Transaction 4 received. pass=56 fail=0
[195000] ALL PASS. Total transactions: 4
[205000] SLAVE 1 R_VALID_RDY Handshake beat=1 rlast=1
[205000] [SLAVE MONITOR AR] READ mst_id=0 s_id=1 araddr=107f1408 arid=15 arlen=1 arsize=3 arburst=1 rid=[ff] rresp=[00] rdata=[baadf00d12345678baadf00d12345678]
[215000] MASTER 0 R_VALID_RDY Handshake beat=0 rlast=0
[225000] [MASTER DRIVER] READ mst_id=0 s_id=0 araddr=107f1408 arid=15 arlen=1 arsize=3 arburst=1 rid=[ff] rresp=[00] rdata=[baadf00d12345678baadf00d12345678]
[225000] MASTER 0 R_VALID_RDY Handshake beat=1 rlast=1
[225000] [MASTER MONITOR] READ mst_id=0 s_id=1 araddr=107f1408 arid=15 arlen=1 arsize=3 arburst=1 rid=[ff] rresp=[00] rdata=[baadf00d12345678baadf00d12345678]
[225000] ARB MONITOR: slave=1 m0_req=0 m1_req=1 winner=1
[225000] AXI S0_ARVALID_RDY HANDSHAKE
[225000] MEMORY READ MISS beat=0 addr=185aeb48 -> default data id=22
[225000] SCOREBOARD MATCH: decode_err expected = 0, actual =0
[225000] SCOREBOARD MATCH: slave_id expected = 1, actual =1
[225000] SCOREBOARD MATCH: araddr passthrough expected = 107f1408, actual =107f1408
[225000] SCOREBOARD MATCH: arlen passthrough expected = 1, actual =1
[225000] SCOREBOARD MATCH: arsize passthrough expected = 3, actual =3
[225000] SCOREBOARD MATCH: arburst passthrough expected = 1, actual =1
[225000] SCOREBOARD MATCH: rdata size check expected = 2, actual =2
[225000] SCOREBOARD MATCH: rdata passthrough beat=0 expected = baadf00d12345678, actual =baadf00d12345678
[225000] SCOREBOARD MATCH: rdata passthrough beat=1 expected = baadf00d12345678, actual =baadf00d12345678
[225000] SCOREBOARD MATCH: rresp size check expected = 2, actual =2
[225000] SCOREBOARD MATCH: rresp passthrough beat=0 expected = 0, actual =0
[225000] SCOREBOARD MATCH: rresp passthrough beat=1 expected = 0, actual =0
[225000] SCOREBOARD MATCH: response routed to correct master (read beat 0) expected = 0, actual =0
[225000] SCOREBOARD MATCH: response routed to correct master (read beat 1) expected = 0, actual =0
[225000] [SCOREBOARD-M] READ mst_id=0 s_id=1 araddr=107f1408 arid=15 arlen=1 arsize=3 arburst=1 rid=[ff] rresp=[00] rdata=[baadf00d12345678baadf00d12345678]
[225000] [SCOREBOARD-S] READ mst_id=0 s_id=1 araddr=107f1408 arid=15 arlen=1 arsize=3 arburst=1 rid=[ff] rresp=[00] rdata=[baadf00d12345678baadf00d12345678]
[225000] SCOREBOARD: Transaction 5 received. pass=70 fail=0
[225000] ALL PASS. Total transactions: 5
[235000] MEMORY READ MISS beat=1 addr=185aeb50 -> default data id=22
[235000] SLAVE 1 R_VALID_RDY Handshake beat=0 rlast=0
[245000] SLAVE 1 R_VALID_RDY Handshake beat=1 rlast=1
[245000] [SLAVE MONITOR AR] READ mst_id=1 s_id=1 araddr=185aeb48 arid=6 arlen=1 arsize=3 arburst=1 rid=[1616] rresp=[00] rdata=[baadf00d12345678baadf00d12345678]
[255000] MASTER 1 R_VALID_RDY Handshake beat=0 rlast=0
[265000] [MASTER DRIVER] READ mst_id=1 s_id=0 araddr=185aeb48 arid=6 arlen=1 arsize=3 arburst=1 rid=[66] rresp=[00] rdata=[baadf00d12345678baadf00d12345678]
[265000] MASTER_DRIVER1 received transaction, op=AXI_WRITE
[265000] MASTER 1 R_VALID_RDY Handshake beat=1 rlast=1
[265000] [MASTER MONITOR] READ mst_id=1 s_id=1 araddr=185aeb48 arid=6 arlen=1 arsize=3 arburst=1 rid=[66] rresp=[00] rdata=[baadf00d12345678baadf00d12345678]
[265000] SCOREBOARD MATCH: decode_err expected = 0, actual =0
[265000] SCOREBOARD MATCH: slave_id expected = 1, actual =1
[265000] SCOREBOARD MATCH: araddr passthrough expected = 185aeb48, actual =185aeb48
[265000] SCOREBOARD MATCH: arlen passthrough expected = 1, actual =1
[265000] SCOREBOARD MATCH: arsize passthrough expected = 3, actual =3
[265000] SCOREBOARD MATCH: arburst passthrough expected = 1, actual =1
[265000] SCOREBOARD MATCH: rdata size check expected = 2, actual =2
[265000] SCOREBOARD MATCH: rdata passthrough beat=0 expected = baadf00d12345678, actual =baadf00d12345678
[265000] SCOREBOARD MATCH: rdata passthrough beat=1 expected = baadf00d12345678, actual =baadf00d12345678
[265000] SCOREBOARD MATCH: rresp size check expected = 2, actual =2
[265000] SCOREBOARD MATCH: rresp passthrough beat=0 expected = 0, actual =0
[265000] SCOREBOARD MATCH: rresp passthrough beat=1 expected = 0, actual =0
[265000] SCOREBOARD MATCH: response routed to correct master (read beat 0) expected = 1, actual =1
[265000] SCOREBOARD MATCH: response routed to correct master (read beat 1) expected = 1, actual =1
[265000] [SCOREBOARD-M] READ mst_id=1 s_id=1 araddr=185aeb48 arid=6 arlen=1 arsize=3 arburst=1 rid=[66] rresp=[00] rdata=[baadf00d12345678baadf00d12345678]
[265000] [SCOREBOARD-S] READ mst_id=1 s_id=1 araddr=185aeb48 arid=6 arlen=1 arsize=3 arburst=1 rid=[1616] rresp=[00] rdata=[baadf00d12345678baadf00d12345678]
[265000] SCOREBOARD: Transaction 6 received. pass=84 fail=0
[265000] ALL PASS. Total transactions: 6
[285000] MASTER 1 AW_VALID_RDY Handshake
[295000] AXI S1_AWVALID_RDY HANDSHAKE
[295000] ARB MONITOR: slave=1 m0_req=0 m1_req=1 winner=1
[305000] MASTER 1 W_VALID_RDY Handshake beat=0 wlast=0
[315000] S1 MEMORY WRITE beat=0 addr=1e0a2740 data=0000000000000000 id=12
[315000] AXI S1_WVALID_RDY HANDSHAKE
[315000] MASTER 1 W_VALID_RDY Handshake beat=1 wlast=1
[325000] AXI S1_WVALID_RDY HANDSHAKE
[325000] S1 MEMORY WRITE beat=1 addr=1e0a2748 data=0000000000000000 id=12
[335000] SLAVE1 sent B resp, id=2
[335000] AXI S1_BVALID_RDY HANDSHAKE
[335000] [SLAVE MONITOR] mst_id=1 s_id=1 awaddr=1e0a2740 awid=10 awlen=1 awsize=3 awburst=1 wdata=[0 0 ] wstrb=[0 0 ] bresp=0 bid=18
[355000] MASTER 1 B_VALID_RDY Handshake
[355000] [MASTER MONITOR] mst_id=1 s_id=1 awaddr=1e0a2740 awid=10 awlen=1 awsize=3 awburst=1 wdata=[0 0 ] wstrb=[0 0 ] bresp=0 bid=2
[355000] MASTER 1 RECEIVED BRESP. BRESP=0
[355000] [MASTER DRIVER] mst_id=1 s_id=0 awaddr=1e0a2740 awid=10 awlen=1 awsize=3 awburst=1 wdata=[] wstrb=[] bresp=0 bid=2
[355000] MASTER_DRIVER1 received transaction, op=AXI_READ
[355000] SCOREBOARD MATCH: decode_err expected = 0, actual =0
[355000] SCOREBOARD MATCH: slave_id expected = 1, actual =1
[355000] SCOREBOARD MATCH: awaddr passthrough expected = 1e0a2740, actual =1e0a2740
[355000] SCOREBOARD MATCH: awlen passthrough expected = 1, actual =1
[355000] SCOREBOARD MATCH: awsize passthrough expected = 3, actual =3
[355000] SCOREBOARD MATCH: awburst passthrough expected = 1, actual =1
[355000] SCOREBOARD MATCH: wdata size check expected = 2, actual =2
[355000] SCOREBOARD MATCH: wdata passthrough beat=0 expected = 0, actual =0
[355000] SCOREBOARD MATCH: wdata passthrough beat=1 expected = 0, actual =0
[355000] SCOREBOARD MATCH: wstrb size check expected = 2, actual =2
[355000] SCOREBOARD MATCH: wstrb passthrough beat=0 expected = 0, actual =0
[355000] SCOREBOARD MATCH: wstrb passthrough beat=1 expected = 0, actual =0
[355000] SCOREBOARD MATCH: bresp passthrough expected = 0, actual =0
[355000] SCOREBOARD MATCH: response routed to correct master (write) expected = 1, actual =1
[355000] [SCOREBOARD-M] mst_id=1 s_id=1 awaddr=1e0a2740 awid=10 awlen=1 awsize=3 awburst=1 wdata=[0 0 ] wstrb=[0 0 ] bresp=0 bid=2
[355000] [SCOREBOARD-S] mst_id=1 s_id=1 awaddr=1e0a2740 awid=10 awlen=1 awsize=3 awburst=1 wdata=[0 0 ] wstrb=[0 0 ] bresp=0 bid=18
[355000] SCOREBOARD: Transaction 7 received. pass=98 fail=0
[355000] ALL PASS. Total transactions: 7
[385000] ARB MONITOR: slave=1 m0_req=0 m1_req=1 winner=1
[385000] AXI S0_ARVALID_RDY HANDSHAKE
[385000] MEMORY READ MISS beat=0 addr=19be2f20 -> default data id=23
[395000] MEMORY READ MISS beat=1 addr=19be2f28 -> default data id=23
[395000] SLAVE 1 R_VALID_RDY Handshake beat=0 rlast=0
[405000] SLAVE 1 R_VALID_RDY Handshake beat=1 rlast=1
[405000] [SLAVE MONITOR AR] READ mst_id=1 s_id=1 araddr=19be2f20 arid=7 arlen=1 arsize=3 arburst=1 rid=[1717] rresp=[00] rdata=[baadf00d12345678baadf00d12345678]
[415000] MASTER 1 R_VALID_RDY Handshake beat=0 rlast=0
[425000] [MASTER DRIVER] READ mst_id=1 s_id=0 araddr=19be2f20 arid=7 arlen=1 arsize=3 arburst=1 rid=[77] rresp=[00] rdata=[baadf00d12345678baadf00d12345678]
[425000] MASTER_DRIVER1 received transaction, op=AXI_WRITE
[425000] MASTER 1 R_VALID_RDY Handshake beat=1 rlast=1
[425000] [MASTER MONITOR] READ mst_id=1 s_id=1 araddr=19be2f20 arid=7 arlen=1 arsize=3 arburst=1 rid=[77] rresp=[00] rdata=[baadf00d12345678baadf00d12345678]
[425000] SCOREBOARD MATCH: decode_err expected = 0, actual =0
[425000] SCOREBOARD MATCH: slave_id expected = 1, actual =1
[425000] SCOREBOARD MATCH: araddr passthrough expected = 19be2f20, actual =19be2f20
[425000] SCOREBOARD MATCH: arlen passthrough expected = 1, actual =1
[425000] SCOREBOARD MATCH: arsize passthrough expected = 3, actual =3
[425000] SCOREBOARD MATCH: arburst passthrough expected = 1, actual =1
[425000] SCOREBOARD MATCH: rdata size check expected = 2, actual =2
[425000] SCOREBOARD MATCH: rdata passthrough beat=0 expected = baadf00d12345678, actual =baadf00d12345678
[425000] SCOREBOARD MATCH: rdata passthrough beat=1 expected = baadf00d12345678, actual =baadf00d12345678
[425000] SCOREBOARD MATCH: rresp size check expected = 2, actual =2
[425000] SCOREBOARD MATCH: rresp passthrough beat=0 expected = 0, actual =0
[425000] SCOREBOARD MATCH: rresp passthrough beat=1 expected = 0, actual =0
[425000] SCOREBOARD MATCH: response routed to correct master (read beat 0) expected = 1, actual =1
[425000] SCOREBOARD MATCH: response routed to correct master (read beat 1) expected = 1, actual =1
[425000] [SCOREBOARD-M] READ mst_id=1 s_id=1 araddr=19be2f20 arid=7 arlen=1 arsize=3 arburst=1 rid=[77] rresp=[00] rdata=[baadf00d12345678baadf00d12345678]
[425000] [SCOREBOARD-S] READ mst_id=1 s_id=1 araddr=19be2f20 arid=7 arlen=1 arsize=3 arburst=1 rid=[1717] rresp=[00] rdata=[baadf00d12345678baadf00d12345678]
[425000] SCOREBOARD: Transaction 8 received. pass=112 fail=0
[425000] ALL PASS. Total transactions: 8
[445000] MASTER 1 AW_VALID_RDY Handshake
[455000] AXI S1_AWVALID_RDY HANDSHAKE
[455000] ARB MONITOR: slave=1 m0_req=0 m1_req=1 winner=1
[465000] MASTER 1 W_VALID_RDY Handshake beat=0 wlast=0
[475000] S1 MEMORY WRITE beat=0 addr=1442a6f0 data=0000000000000000 id=14
[475000] AXI S1_WVALID_RDY HANDSHAKE
[475000] MASTER 1 W_VALID_RDY Handshake beat=1 wlast=1
[485000] AXI S1_WVALID_RDY HANDSHAKE
[485000] S1 MEMORY WRITE beat=1 addr=1442a6f8 data=0000000000000000 id=14
[495000] SLAVE1 sent B resp, id=4
[495000] AXI S1_BVALID_RDY HANDSHAKE
[495000] [SLAVE MONITOR] mst_id=1 s_id=1 awaddr=1442a6f0 awid=100 awlen=1 awsize=3 awburst=1 wdata=[0 0 ] wstrb=[0 0 ] bresp=0 bid=20
[515000] MASTER 1 B_VALID_RDY Handshake
[515000] [MASTER MONITOR] mst_id=1 s_id=1 awaddr=1442a6f0 awid=100 awlen=1 awsize=3 awburst=1 wdata=[0 0 ] wstrb=[0 0 ] bresp=0 bid=4
[515000] MASTER 1 RECEIVED BRESP. BRESP=0
[515000] [MASTER DRIVER] mst_id=1 s_id=0 awaddr=1442a6f0 awid=100 awlen=1 awsize=3 awburst=1 wdata=[] wstrb=[] bresp=0 bid=4
[515000] MASTER_DRIVER1 received transaction, op=AXI_READ
[515000] SCOREBOARD MATCH: decode_err expected = 0, actual =0
[515000] SCOREBOARD MATCH: slave_id expected = 1, actual =1
[515000] SCOREBOARD MATCH: awaddr passthrough expected = 1442a6f0, actual =1442a6f0
[515000] SCOREBOARD MATCH: awlen passthrough expected = 1, actual =1
[515000] SCOREBOARD MATCH: awsize passthrough expected = 3, actual =3
[515000] SCOREBOARD MATCH: awburst passthrough expected = 1, actual =1
[515000] SCOREBOARD MATCH: wdata size check expected = 2, actual =2
[515000] SCOREBOARD MATCH: wdata passthrough beat=0 expected = 0, actual =0
[515000] SCOREBOARD MATCH: wdata passthrough beat=1 expected = 0, actual =0
[515000] SCOREBOARD MATCH: wstrb size check expected = 2, actual =2
[515000] SCOREBOARD MATCH: wstrb passthrough beat=0 expected = 0, actual =0
[515000] SCOREBOARD MATCH: wstrb passthrough beat=1 expected = 0, actual =0
[515000] SCOREBOARD MATCH: bresp passthrough expected = 0, actual =0
[515000] SCOREBOARD MATCH: response routed to correct master (write) expected = 1, actual =1
[515000] [SCOREBOARD-M] mst_id=1 s_id=1 awaddr=1442a6f0 awid=100 awlen=1 awsize=3 awburst=1 wdata=[0 0 ] wstrb=[0 0 ] bresp=0 bid=4
[515000] [SCOREBOARD-S] mst_id=1 s_id=1 awaddr=1442a6f0 awid=100 awlen=1 awsize=3 awburst=1 wdata=[0 0 ] wstrb=[0 0 ] bresp=0 bid=20
[515000] SCOREBOARD: Transaction 9 received. pass=126 fail=0
[515000] ALL PASS. Total transactions: 9
[545000] ARB MONITOR: slave=0 m0_req=0 m1_req=1 winner=1
[545000] AXI S0_ARVALID_RDY HANDSHAKE
[545000] MEMORY READ MISS beat=0 addr=8e05558 -> default data id=26
[555000] MEMORY READ MISS beat=1 addr=8e05560 -> default data id=26
[555000] SLAVE 0 R_VALID_RDY Handshake beat=0 rlast=0
[565000] SLAVE 0 R_VALID_RDY Handshake beat=1 rlast=1
[565000] [SLAVE MONITOR AR] READ mst_id=1 s_id=0 araddr=8e05558 arid=10 arlen=1 arsize=3 arburst=1 rid=[1a1a] rresp=[00] rdata=[baadf00d12345678baadf00d12345678]
[575000] MASTER 1 R_VALID_RDY Handshake beat=0 rlast=0
[585000] [MASTER DRIVER] READ mst_id=1 s_id=0 araddr=8e05558 arid=10 arlen=1 arsize=3 arburst=1 rid=[aa] rresp=[00] rdata=[baadf00d12345678baadf00d12345678]
[585000] MASTER 1 R_VALID_RDY Handshake beat=1 rlast=1
[585000] [MASTER MONITOR] READ mst_id=1 s_id=0 araddr=8e05558 arid=10 arlen=1 arsize=3 arburst=1 rid=[aa] rresp=[00] rdata=[baadf00d12345678baadf00d12345678]
[585000] SCOREBOARD MATCH: decode_err expected = 0, actual =0
[585000] SCOREBOARD MATCH: slave_id expected = 0, actual =0
[585000] SCOREBOARD MATCH: araddr passthrough expected = 8e05558, actual =8e05558
[585000] SCOREBOARD MATCH: arlen passthrough expected = 1, actual =1
[585000] SCOREBOARD MATCH: arsize passthrough expected = 3, actual =3
[585000] SCOREBOARD MATCH: arburst passthrough expected = 1, actual =1
[585000] SCOREBOARD MATCH: rdata size check expected = 2, actual =2
[585000] SCOREBOARD MATCH: rdata passthrough beat=0 expected = baadf00d12345678, actual =baadf00d12345678
[585000] SCOREBOARD MATCH: rdata passthrough beat=1 expected = baadf00d12345678, actual =baadf00d12345678
[585000] SCOREBOARD MATCH: rresp size check expected = 2, actual =2
[585000] SCOREBOARD MATCH: rresp passthrough beat=0 expected = 0, actual =0
[585000] SCOREBOARD MATCH: rresp passthrough beat=1 expected = 0, actual =0
[585000] SCOREBOARD MATCH: response routed to correct master (read beat 0) expected = 1, actual =1
[585000] SCOREBOARD MATCH: response routed to correct master (read beat 1) expected = 1, actual =1
[585000] [SCOREBOARD-M] READ mst_id=1 s_id=0 araddr=8e05558 arid=10 arlen=1 arsize=3 arburst=1 rid=[aa] rresp=[00] rdata=[baadf00d12345678baadf00d12345678]
[585000] [SCOREBOARD-S] READ mst_id=1 s_id=0 araddr=8e05558 arid=10 arlen=1 arsize=3 arburst=1 rid=[1a1a] rresp=[00] rdata=[baadf00d12345678baadf00d12345678]
[585000] SCOREBOARD: Transaction 10 received. pass=140 fail=0
[585000] SCOREBOARD: Expected 10 transactions completed, PASS=140 FAIL=0
[585000] ALL PASS. Total transactions: 10
[585000] ALL TRANSACTIONS MONITORED
$finish called at time : 605 ns : File "/home/nashita/Desktop/practice/axi_xbar/tb/axi_tb_top.sv" Line 194
exit
INFO: xsimkernel Simulation Memory Usage: 289392 KB (Peak: 337800 KB), Simulation CPU Usage: 1170 ms
INFO: [Common 17-206] Exiting xsim at Mon Sep  7 16:22:23 2026...
