#-----------------------------------------------------------
# xsim v2025.2 (64-bit)
# SW Build 6299465 on Fri Nov 14 12:34:56 MST 2025
# IP Build 6300035 on Fri Nov 14 10:48:45 MST 2025
# SharedData Build 6298862 on Thu Nov 13 04:50:51 MST 2025
# Start of session at: Tue Sep  8 12:57:58 2026
# Process ID         : 3722459
# Current directory  : /home/nashita/Desktop/practice/axi_xbar/rtl
# Command line       : xsim -log regress_results/RT_run5.log -mode tcl -source {xsim.dir/tb_top_snap/xsim_script.tcl}
# Log file           : /home/nashita/Desktop/practice/axi_xbar/rtl/regress_results/RT_run5.log
# Journal file       : /home/nashita/Desktop/practice/axi_xbar/rtl/xsim.jou
# Running On         : vlsi-vivado
# Platform           : Ubuntu
# Operating System   : Ubuntu 24.04.4 LTS
# Processor Detail   : Intel(R) Core(TM) i5-10400 CPU @ 2.90GHz
# CPU Frequency      : 4000.002 MHz
# CPU Physical cores : 6
# CPU Logical cores  : 12
# Host memory        : 41875 MB
# Swap memory        : 27648 MB
# Total Virtual      : 69524 MB
# Available Virtual  : 61620 MB
#-----------------------------------------------------------
source xsim.dir/tb_top_snap/xsim_script.tcl
# xsim {tb_top_snap} -testplusarg RT -autoloadwcfg -runall -sv_seed 6
Time resolution is 1 ps
run -all
[0] RUNNING READ TEST
[0] INSIDE THE BASE TEST CONSTRUCTOR
[0] ENV: before agent
[0] SLAVE CONSTRUCTED
[0] MASTER MONITOR CONSTRUCTED
[0] MASTER MONITOR CONSTRUCTED
[0] SLAVE MONITOR CONSTRUCTED
[0] SLAVE MONITOR CONSTRUCTED
[0] ARB MONITOR CONSTRUCTED
GENERATOR CONSTRUCTED
[0] ENV: after agent
[0] ENV: before scoreboard
[0] ENV: after scoreboard
[0] RESET ASSERTED
[35000] RESET DEASSERTED
[35000] GENERATING DIRECTED AR TRANSACTION
[35000] [GEN-DIRECTED] READ mst_id=1 s_id=0 araddr=10000010 arid=3 arlen=4 arsize=3 arburst=1 rid=[] rresp=[] rdata=[]
[35000] MASTER_DRIVER1 received transaction, op=AXI_READ
[65000] ARB MONITOR: slave=1 m0_req=0 m1_req=1 winner=1
[65000] AXI S0_ARVALID_RDY HANDSHAKE
[65000] MEMORY READ MISS beat=0 addr=10000010 -> default data id=19
[75000] MEMORY READ MISS beat=1 addr=10000018 -> default data id=19
[75000] SLAVE 1 R_VALID_RDY Handshake beat=0 rlast=0
[85000] SLAVE 1 R_VALID_RDY Handshake beat=1 rlast=0
[85000] MEMORY READ MISS beat=2 addr=10000020 -> default data id=19
[95000] MEMORY READ MISS beat=3 addr=10000028 -> default data id=19
[95000] SLAVE 1 R_VALID_RDY Handshake beat=2 rlast=0
[95000] MASTER 1 R_VALID_RDY Handshake beat=0 rlast=0
[105000] MASTER 1 R_VALID_RDY Handshake beat=1 rlast=0
[105000] SLAVE 1 R_VALID_RDY Handshake beat=3 rlast=0
[105000] MEMORY READ MISS beat=4 addr=10000030 -> default data id=19
[115000] SLAVE 1 R_VALID_RDY Handshake beat=4 rlast=1
[115000] [SLAVE MONITOR AR] READ mst_id=1 s_id=1 araddr=10000010 arid=3 arlen=4 arsize=3 arburst=1 rid=[1313131313] rresp=[00000] rdata=[baadf00d12345678baadf00d12345678baadf00d12345678baadf00d12345678baadf00d12345678]
[115000] MASTER 1 R_VALID_RDY Handshake beat=2 rlast=0
[125000] MASTER 1 R_VALID_RDY Handshake beat=3 rlast=0
[135000] R DATA RECEIVED: rid=3 rdata=baadf00d12345678
[135000] MASTER 1 R_VALID_RDY Handshake beat=4 rlast=1
[135000] [MASTER MONITOR] READ mst_id=1 s_id=1 araddr=10000010 arid=3 arlen=4 arsize=3 arburst=1 rid=[33333] rresp=[00000] rdata=[baadf00d12345678baadf00d12345678baadf00d12345678baadf00d12345678baadf00d12345678]
[135000] [MASTER DRIVER] READ mst_id=1 s_id=0 araddr=10000010 arid=3 arlen=4 arsize=3 arburst=1 rid=[33333] rresp=[00000] rdata=[baadf00d12345678baadf00d12345678baadf00d12345678baadf00d12345678baadf00d12345678]
[135000] SCOREBOARD MATCH: decode_err expected = 0, actual =0
[135000] SCOREBOARD MATCH: slave_id expected = 1, actual =1
[135000] SCOREBOARD MATCH: araddr passthrough expected = 10000010, actual =10000010
[135000] SCOREBOARD MATCH: arlen passthrough expected = 4, actual =4
[135000] SCOREBOARD MATCH: arsize passthrough expected = 3, actual =3
[135000] SCOREBOARD MATCH: arburst passthrough expected = 1, actual =1
[135000] SCOREBOARD MATCH: rdata size check expected = 5, actual =5
[135000] SCOREBOARD MATCH: rdata passthrough beat=0 expected = baadf00d12345678, actual =baadf00d12345678
[135000] SCOREBOARD MATCH: rdata passthrough beat=1 expected = baadf00d12345678, actual =baadf00d12345678
[135000] SCOREBOARD MATCH: rdata passthrough beat=2 expected = baadf00d12345678, actual =baadf00d12345678
[135000] SCOREBOARD MATCH: rdata passthrough beat=3 expected = baadf00d12345678, actual =baadf00d12345678
[135000] SCOREBOARD MATCH: rdata passthrough beat=4 expected = baadf00d12345678, actual =baadf00d12345678
[135000] SCOREBOARD MATCH: rresp size check expected = 5, actual =5
[135000] SCOREBOARD MATCH: rresp passthrough beat=0 expected = 0, actual =0
[135000] SCOREBOARD MATCH: rresp passthrough beat=1 expected = 0, actual =0
[135000] SCOREBOARD MATCH: rresp passthrough beat=2 expected = 0, actual =0
[135000] SCOREBOARD MATCH: rresp passthrough beat=3 expected = 0, actual =0
[135000] SCOREBOARD MATCH: rresp passthrough beat=4 expected = 0, actual =0
[135000] SCOREBOARD MATCH: response routed to correct master (read beat 0) expected = 1, actual =1
[135000] SCOREBOARD MATCH: response routed to correct master (read beat 1) expected = 1, actual =1
[135000] SCOREBOARD MATCH: response routed to correct master (read beat 2) expected = 1, actual =1
[135000] SCOREBOARD MATCH: response routed to correct master (read beat 3) expected = 1, actual =1
[135000] SCOREBOARD MATCH: response routed to correct master (read beat 4) expected = 1, actual =1
[135000] [SCOREBOARD-M] READ mst_id=1 s_id=1 araddr=10000010 arid=3 arlen=4 arsize=3 arburst=1 rid=[33333] rresp=[00000] rdata=[baadf00d12345678baadf00d12345678baadf00d12345678baadf00d12345678baadf00d12345678]
[135000] [SCOREBOARD-S] READ mst_id=1 s_id=1 araddr=10000010 arid=3 arlen=4 arsize=3 arburst=1 rid=[1313131313] rresp=[00000] rdata=[baadf00d12345678baadf00d12345678baadf00d12345678baadf00d12345678baadf00d12345678]
[135000] SCOREBOARD: Transaction 1 received. pass=23 fail=0
[135000] SCOREBOARD: Expected 1 transactions completed, PASS=23 FAIL=0
[135000] ALL PASS. Total transactions: 1
[185000] AR-R READ TEST COMPLETE
$finish called at time : 185 ns : File "/home/nashita/Desktop/practice/axi_xbar/tb/axi_read_test.sv" Line 51
exit
INFO: xsimkernel Simulation Memory Usage: 289412 KB (Peak: 337816 KB), Simulation CPU Usage: 1190 ms
INFO: [Common 17-206] Exiting xsim at Tue Sep  8 12:58:01 2026...
